EC-Lab ASCII FILE
freq/Hz	Re(Z)/Ohm	-Im(Z)/Ohm	|Z|/Ohm	Phase(Z)/deg
6999984	25.1845536452154	-0.383186105018124	25.1874685885623	0.871695124723059
5969734	13.7153308865884	-2.80843596232192	13.9999147812788	11.5722692305312
5091109	11.6817189940006	-5.28301025352011	12.8207938909255	24.3346692043743
4341796	6.80728160533091	-6.12180402390272	9.15508423562275	41.9651191408771
3702781	5.59852592020375	-5.24908847418292	7.67440045143549	43.1549519461356
3157797	4.36930849591289	-5.1158332081783	6.72774896576533	49.5001673187339
2693047	3.12897037861961	-3.92974315463653	5.02327949567726	51.4722250242167
2296687	2.28726711025711	-3.59568891930867	4.26152198611048	57.5390000971154
1958656	1.81990144646722	-3.16966503829015	3.65497164555519	60.1371918106951
1670375	1.33548407466395	-2.74981665455727	3.05696080239207	64.095871808813
1424531	1.25459181693699	-2.35761481593437	2.67064566115359	61.9805689249695
1214875	0.408579722902238	-1.87225318670003	1.91631661921387	77.6894100898508
1036062	0.802311706629485	-1.77545425546154	1.94831770710816	65.6822200561917
883578.1	0.747341542550788	-1.58601008454561	1.75326762632023	64.7697847674459
753531.2	0.66357298160589	-1.31024368215251	1.46869588701606	63.1400636149757
642624.9	0.584085975705995	-1.21384693196632	1.34706377030209	64.303798192666
548046.8	0.545512691700996	-1.0027106704428	1.14149585431867	61.4521299505203
467390.6	0.550886168601559	-0.883604507379882	1.0412648540206	58.0583863384014
398593.7	0.515338301896984	-0.770816995535029	0.927217561313264	56.2348507525724
339937.5	0.463039604972728	-0.67188202278858	0.815984759857544	55.4266307571829
289906.2	0.442464230046612	-0.583169372820707	0.732025349470111	52.8115597069586
247234.4	0.419862015340695	-0.495024142420468	0.649101697351863	49.6965657917488
210843.7	0.409152597838661	-0.435373274277454	0.597457727603549	46.7783370425429
179812.5	0.414297253260493	-0.372031053049046	0.556820723834855	41.9232359260531
153343.8	0.402034946113511	-0.319773106449182	0.513699267572627	38.4982603845216
130781.2	0.396942873571426	-0.278558455585113	0.484931395206688	35.0596255291542
111531.3	0.388462458809444	-0.241434748677227	0.457377108929945	31.8615183561827
95109.37	0.381453914474391	-0.210964011234944	0.435904694748948	28.9448938888031
81109.37	0.374498377497555	-0.182962702521449	0.416802573483243	26.0380097039407
69171.88	0.368766595607312	-0.158711464896376	0.401469962917975	23.2862996787337
59000	0.358887354819051	-0.134945907894235	0.383419524159131	20.6068568202264
50312.5	0.351307400082027	-0.105136020080977	0.366702157166904	16.6609022147384
42906.25	0.381618785506439	-0.104556088004239	0.395682793396629	15.3219284954074
36593.75	0.364942531929434	-0.0952403686259267	0.377165453650077	14.6264551349438
31203.13	0.358102059537374	-0.0838211570373554	0.367781282030489	13.1740758792225
26609.38	0.352771647587558	-0.0717298221564685	0.359990281435817	11.4933901308755
22703.13	0.352709435713014	-0.0636736300756848	0.358410766032506	10.2332267562648
19359.37	0.348899171186525	-0.0570752050814255	0.353536717597665	9.29052783678015
16500	0.345808316259431	-0.0507745861988453	0.349516022805603	8.35297980787373
14112.02	0.342905252093583	-0.0452478773204564	0.345877698493804	7.5170057368881
12011.13	0.340612040699477	-0.0406584713312639	0.343030135061714	6.80712248787692
10236.38	0.338068399770215	-0.036830033806543	0.340068661175041	6.21742859555032
8750.684	0.335828858399848	-0.0326630803184851	0.337413542926239	5.55517704692175
7449.463	0.350383403249628	-0.0202222570174527	0.350966478387426	3.30314179597486
6363.206	0.310170868681977	-0.0233176139168599	0.311046104135236	4.29921918252727
5414.761	0.314130796820409	-0.0345774293756985	0.316028093898718	6.28145089957824
4620.567	0.31816320165646	-0.0152749184035653	0.318529662701176	2.74864240917197
3941.215	0.330646009547859	-0.0116749860602972	0.330852065022165	2.02225224608306
3361.769	0.320242915794556	-0.0254545436605792	0.321252951596663	4.54460669294149
2867.244	0.321939822271153	-0.0220007961113994	0.322690694308833	3.90941364914576
2442.658	0.32346845635852	-0.0222827314744211	0.324235041876915	3.94070172842227
2083.003	0.321099585997306	-0.0179603754432245	0.321601491311379	3.20144465212811
1777.843	0.31787593842664	-0.0197680439760413	0.318490012077704	3.55852283625175
1513.548	0.317469600244284	-0.0170801755581923	0.317928733329286	3.07960002037338
1292.065	0.315215195171297	-0.0157750318486934	0.315609681246799	2.86499294862918
1101.762	0.311993310800794	-0.0144709104829714	0.312328726239914	2.6555963550739
939.101	0.314850951482038	-0.0153242738751376	0.315223658723366	2.78647366646886
801.2801	0.314708545262347	-0.0155762557625276	0.315093776842264	2.83349803158864
684.3433	0.311858619646888	-0.01492822986206	0.312215711800154	2.74057573637432
582.9476	0.311047563592877	-0.00947843633766906	0.311191946509661	1.74541279046293
497.0677	0.313110263148404	-0.020384701818417	0.313773123382307	3.72492238502923
423.5089	0.316138454022413	-0.0173695875217669	0.316615262870188	3.14483871380036
361.5036	0.303634516313377	-0.0136987149539583	0.303943373489616	2.5831933973766
308.1262	0.301155594791878	-0.00635273815154243	0.301222591377991	1.20844877698002
262.7298	0.319427131842414	-0.0116086325924397	0.319638002915387	2.0813293513812
224.2111	0.308051292168542	-0.00935266316234776	0.3081932363225	1.73900769527116
191.2854	0.309440883333125	-0.00866467420348683	0.30956216961547	1.60392372774435
163.1722	0.302675304181049	-0.0233763926807014	0.303576671527726	4.4163334747254
139.1537	0.302538803840777	-0.0146891904916427	0.302895196638554	2.7797035971616
118.6706	0.254626596866215	-0.0195119204002468	0.255373097387677	4.3819858008229
101.1982	0.295856152995115	-0.0125606470125455	0.296122665661449	2.43104674671079
86.24196	0.305841119036327	-0.0149080789036683	0.306204247047605	2.7906465180908
73.61024	0.290846407770688	-0.00794689135933208	0.290954955268664	1.5651218799425
62.69291	0.31349744097962	0.118271775557057	0.335065453895487	-20.6697618565538
53.57697	0.294658383563432	-0.0149221477225789	0.295035986782747	2.89910742870907
45.65746	0.307021394240636	0.0235976411724381	0.307926915339285	-4.39510825320478
38.96512	0.288031331280402	-0.00449437355266708	0.288066393723377	0.893957399852867
33.18414	0.292358774819926	-0.0156479983513669	0.292777241374074	3.06373424606842
28.30617	0.282790734291862	-0.0246085094748732	0.283859433769437	4.97336247019379
24.17237	0.287042053823091	-0.0110358819760467	0.287254123301942	2.20176164217093
20.61345	0.292301429446986	0.00524602922325928	0.292348501756658	-1.02819568167407
17.55618	0.282377950378334	-0.011440411472234	0.282609606833389	2.32004304939774
14.98558	0.268839574055285	-0.010803267059633	0.269056550110546	2.30118185173983
12.76553	0.281380309287116	0.0024404470067588	0.281390892240857	-0.496921081801027
10.8809	0.286763626816517	-0.008182760215012	0.286880350023662	1.63448357766324
9.278505	0.279741048731188	-0.00711659438473727	0.279831556942497	1.45728663923652
7.923394	0.274415988321338	0.00923498324859749	0.27457133783769	-1.92746038958323
6.75822	0.281883092322973	-0.0155401698907892	0.282311130878321	3.15551291752365
5.761429	0.265100410231808	-0.00809508112148634	0.265223976750663	1.74903502964375
4.919708	0.268365877618258	-0.0385583267991447	0.271121723281937	8.17619940976407
4.191257	0.287225525199049	-0.0162248380090311	0.287683415744267	3.23309655960452
3.564097	0.277708553236734	0.0128462901328426	0.278005517411107	-2.64851001306372
3.051758	0.272374631033859	0.00798509116107057	0.272491653655082	-1.67923501920973
2.604164	0.249591349310226	-0.0169121443579762	0.25016367097819	3.87639867507474
2.214424	0.269379520055967	0.00929425639410987	0.269539809726694	-1.9760615345552
1.892567	0.254863590714154	0.00148163508209513	0.254867897378678	-0.333082024114204
1.607507	0.29774241473956	-0.00581175878351384	0.297799130413609	1.11823829101006
1.376413	0.247513765114841	0.0104359967771262	0.247733675446147	-2.4143490376873
1.17375	0.290098559283476	-0.0328750441127346	0.291955377795585	6.46538754054909
1.001604	0.30712828351016	0.0323814511664241	0.308830602291193	-6.01862942937378
