EC-Lab ASCII FILE
freq/Hz	Re(Z)/Ohm	-Im(Z)/Ohm	|Z|/Ohm	Phase(Z)/deg
6999984	55.6176625871161	52.0758686564784	76.1919975324251	-43.1163517794776
5969734	49.1712146860056	45.3591180856857	66.8973687614725	-42.6907014334749
5091109	49.8509943315088	40.7543223920378	64.3897230113182	-39.2667801342865
4341796	51.9717714602676	36.6460283714231	63.5924242667114	-35.1882029879595
3702781	54.1293055498394	31.6951067491065	62.7260831803256	-30.3508635631188
3157797	55.1832757598165	28.4818011675484	62.0999752120056	-27.2996627688188
2693047	56.8262073115472	25.7711225685315	62.3968636700372	-24.3946578855245
2296687	58.702926788646	23.0815436155775	63.0776606195168	-21.464374104309
1958656	59.8584242416719	20.3770957819043	63.2317719599955	-18.7996791794484
1670375	60.9302303528325	18.0398849172634	63.5447119647051	-16.49267607651
1424531	61.7456687766056	15.8631492404403	63.7508205162472	-14.4083186431815
1214875	62.4007766628552	13.898808182118	63.9299131628602	-12.5567768803265
1036062	62.8510198743838	12.4372230378489	64.0697683478205	-11.1933206744096
883578.1	63.296547880212	11.0665651290006	64.2566871018603	-9.91717177731473
753531.2	63.6539101973121	9.92438365613698	64.4229281728305	-8.8617319524822
642624.9	63.9612336480556	8.96678507165199	64.5867064054389	-7.98033951707655
548046.8	64.174392453151	8.14969540840599	64.6897996749166	-7.23741952159812
467390.6	64.4453555421489	7.42167501502956	64.8712965107273	-6.56937365078738
398593.7	64.5602420496796	7.1777639576611	64.9580260548695	-6.34405226827424
339937.5	64.779670781688	6.63121785476571	65.1181909824071	-5.84476538644133
289906.2	65.2089901255894	6.57113164188871	65.5392414073755	-5.75428962101222
247234.4	65.3123667687222	6.3141764867684	65.6168734216905	-5.5219993528369
210843.7	65.5422900055735	6.53112134373625	65.8668909633764	-5.69059218405415
179812.5	65.7194608003938	6.49253836449845	66.0393865985215	-5.64204088641035
153343.8	65.9110668543665	6.90468551569599	66.271739195161	-5.98035584865904
130781.2	66.2180233986268	7.25964035523029	66.6147806489549	-6.25648712844439
111531.3	66.3668898427067	7.68291753725719	66.8101136750886	-6.6034130733961
95109.37	66.9818231391387	8.32476564785884	67.4971581189507	-7.08461740721468
81109.37	67.0866071107208	9.09308784573556	67.7000524386686	-7.71897335967172
69171.88	67.4510179473179	10.0557169771915	68.1964608029976	-8.47930554254418
59000	67.8494430982988	11.1733080311087	68.7632877421326	-9.35142179124666
50312.5	68.3298531330319	12.4469335807711	69.4542654179413	-10.3237770062073
42906.25	68.900675984221	13.9126518011391	70.2912870220936	-11.4158517524605
36593.75	69.4016032345403	15.5938126721819	71.1319163609393	-12.663450162624
31203.13	70.0801744769085	17.5645504266179	72.2477977962176	-14.0704855384386
26609.38	70.8001240097879	19.8086048524771	73.5189661652211	-15.6306668033136
22703.13	71.5563879555948	22.3777669886469	74.9738695323229	-17.3659840774264
19359.37	72.4706520648606	25.305056705864	76.7615874353382	-19.2480071949823
16500	73.4668544498946	28.7040152374032	78.8752127953458	-21.340936076926
14112.02	74.541928236387	32.4769049325327	81.3095838090162	-23.5421024159478
12011.13	75.7661452394251	36.9911220343917	84.3140075776553	-26.0229065364611
10236.38	77.1734799633899	42.0873137593788	87.9038565089162	-28.6062758318808
8750.684	78.7203718057408	47.8070364467051	92.0999982141729	-31.2703920693683
7449.463	80.5316332227972	54.5348117389255	97.2593935871038	-34.1052669185386
6363.206	82.5010124820344	62.0887715724508	103.254213550522	-36.9644580965343
5414.761	84.8933210900302	70.8895430047313	110.599291467507	-39.8633208722649
4620.567	87.4619671245585	80.9151224324442	119.150546501285	-42.7733448658446
3941.215	90.4914744192311	92.3539357302817	129.297936516556	-45.5835939889802
3361.769	93.9945364486278	105.467544707967	141.274116061363	-48.2920113231872
2867.244	98.0035701603775	120.443230464838	155.278045869293	-50.8650616487166
2442.658	102.681228294586	137.687829390041	171.759637302324	-53.2861234599316
2083.003	108.199118286444	157.329311860824	190.943870204215	-55.4827691619499
1777.843	114.453771694458	179.524752517275	212.905619046271	-57.4809594724686
1513.548	121.79047625868	205.359734602417	238.758331170435	-59.3295505026787
1292.065	130.256210608526	234.16112710026	267.951700586051	-60.9142371724515
1101.762	140.282820259815	267.10974852524	301.706624748719	-62.2920860781821
939.101	151.896601443945	304.333417654327	340.13439495497	-63.4756449955839
801.2801	165.302522187642	346.850105727409	384.226391187163	-64.5183708869424
684.3433	180.710061338606	394.667123529978	434.071727557128	-65.3979183982478
582.9476	199.151373889683	449.836053908103	491.948925314165	-66.1200744032307
497.0677	220.485620205918	511.90465659221	557.369075351671	-66.697673156502
423.5089	245.088320460996	582.516524437483	631.976096121615	-67.18153601449
361.5036	273.743323448171	661.130555739106	715.562030060532	-67.507835478817
308.1262	306.806827941455	750.654157400479	810.93285399848	-67.7692188249557
262.7298	345.295958083409	851.204808050215	918.574397594741	-67.9197921335161
224.2111	389.298008515528	964.110122014845	1039.74096139646	-68.0116372680756
191.2854	440.440090337941	1090.94438030845	1176.49781729652	-68.0149031275078
163.1722	499.426512741686	1232.07152389919	1329.44615597346	-67.9345744446305
139.1537	565.784952794172	1391.96025032873	1502.55314425265	-67.879914270975
118.6706	642.461234622203	1570.77181661871	1697.08000338108	-67.754952175857
101.1982	729.279740176681	1770.86004941379	1915.14862453074	-67.617041234569
86.24196	829.406765698112	1998.42846430487	2163.70790771992	-67.4601080944826
73.61024	939.575473848092	2248.52340658703	2436.93651559219	-67.3217387869585
62.69291	1066.82829240914	2532.71946909619	2748.23407202216	-67.1582739280077
53.57697	1204.82960127946	2844.10342846446	3088.77624309734	-67.0413332420215
45.65746	1364.66403605304	3199.5495223272	3478.42278585005	-66.900901286435
38.96512	1543.12305838597	3595.88674192379	3913.00782443197	-66.7741057263725
33.18414	1745.5922834641	4045.89411110372	4406.39893545208	-66.6623216605425
28.30617	1967.91548120771	4546.80739565566	4954.40701137543	-66.5964315141024
24.17237	2226.17702653965	5101.40402131035	5565.98483128856	-66.4242576966656
20.61345	2517.15957051721	5736.31775971704	6264.2983440998	-66.307603489577
17.55618	2848.47272286735	6451.2054208413	7052.08112792327	-66.1765680418306
14.98558	3211.79837244202	7238.06938923198	7918.66764478458	-66.0713729906445
12.76553	3639.89598533015	8138.66194666305	8915.52920841403	-65.9041266102459
10.8809	4116.37010797867	9138.46685923933	10022.7780282353	-65.7510895831664
9.278505	4663.27722378363	10274.2929262691	11283.0514312681	-65.5877393157746
7.923394	5238.96465064202	11488.1963020667	12626.3773460757	-65.4855809409028
6.75822	5916.64182825525	12890.9925954968	14183.9465812944	-65.3460657177884
5.761429	6701.15121340819	14454.6966186068	15932.4725614364	-65.1277115020641
4.919708	7542.26837167483	16170.0975639991	17842.5857828852	-64.9940977442396
4.191257	8518.1686940729	18159.7223936781	20058.2829603168	-64.8701669731528
3.564097	9648.20327847401	20355.8996990178	22526.661516062	-64.6401817141873
3.051758	10816.001132632	22751.6233066801	25191.7098187115	-64.5738332015111
2.604164	12215.6756336201	25440.692644198	28221.4736220908	-64.3514109854413
2.214424	13781.4093396359	28590.0791461137	31738.3028684215	-64.2643214005815
1.892567	15492.0517348346	31886.2752303802	35450.503734395	-64.087048258768
1.607507	17528.7562554001	35809.4264338742	39869.440896309	-63.9181975965429
1.376413	19623.3176700414	39971.9234940558	44528.9710659702	-63.8523074501029
1.17375	22094.2132400359	44672.5533806038	49837.6492647785	-63.6838578583344
1.001604	24877.2306223762	49964.7961617687	55815.3872953148	-63.5315083806091
