EC-Lab ASCII FILE
freq/Hz	Re(Z)/Ohm	-Im(Z)/Ohm	|Z|/Ohm	Phase(Z)/deg
6999984	1.88915635085217	2.22390582792301	2.91799054992216	-49.6528720302922
5969734	11.955148703893	9.94893815073077	15.5533581859115	-39.7668405091428
5091109	15.4501719805575	-11.4724716631436	19.243841100218	36.595605056763
4341796	14.0776771323651	-6.6396556974482	15.5648970836229	25.2506396427161
3702781	-44.6324331741729	-8.45689041764949	45.4265680696125	169.270869472003
3157797	0.916959095360906	-7.06041716074073	7.11971238648355	82.6002313519171
2693047	0.414023994117826	-6.8723316630691	6.88479181638249	86.5523796311705
2296687	-0.412231672152896	-10.7305735552884	10.7384888963476	92.200024617775
1958656	-0.158943722190088	-12.5554416093901	12.5564476311426	90.7252885488878
1670375	-0.998887067620754	-10.4412990492788	10.488970455213	95.4646808386509
1424531	1.666876093837	-11.8904634713723	12.006731340221	82.0199396970086
1214875	16.8704793187289	-26.9920455291988	31.8305449889568	57.9939285864492
1036062	4.45153662785726	-17.6363781261242	18.1895027902575	75.8340581576581
883578.1	21.7539044734424	-11.2820401257286	24.5054440734749	27.4122203276723
753531.2	23.5353470038517	2.7592477238634	23.6965399709189	-6.68674405511993
642624.9	5.77654146100228	-16.582675479072	17.5599987840232	70.7943213916874
548046.8	4.14526826791168	-13.7623623942668	14.3730952715163	73.2375280216843
467390.6	-3.72442226313644	-17.5714309872649	17.9618069284346	101.96723615137
398593.7	3.67716190693346	12.4793944431161	13.0098733797328	-73.5819329523374
339937.5	14.1713129052732	-14.9287620319864	20.5838297036008	46.4910216265966
289906.2	23.3235336651035	-10.0043516828278	25.3786184655689	23.2163358023702
247234.4	-20.0588729286514	-92.7384689234489	94.8829911071172	102.204784453231
210843.7	-24.1634204023824	-107.541492831893	110.222699867379	102.663437168234
179812.5	-27.9925668376325	-122.708948125352	125.861311562329	102.850507888344
153343.8	-34.7566903293927	-143.160782196494	147.31950679311	103.646288970001
130781.2	-42.4602822068407	-164.958004690128	170.335019524561	104.434621600322
111531.3	-51.7910786434303	-189.30566433425	196.262452792381	105.300819195
95109.37	-63.7616193837601	-216.616465010537	225.805750635587	106.401929485683
81109.37	-78.5188216639921	-247.047116541891	259.224773405562	107.631783392931
69171.88	-96.966381317307	-280.233547865689	296.53552983608	109.086637826327
59000	-118.825259661137	-317.390494667545	338.904364738558	110.524991075224
50312.5	-145.990780085258	-356.456413585894	385.194084399566	112.272111279916
42906.25	-177.98108412647	-395.155767786466	433.388217562205	114.247154095512
36593.75	-191.820034515913	-418.153840708401	460.051692900779	114.642380382593
31203.13	-230.124289014787	-454.023781037713	509.013538270194	116.87840547387
26609.38	-267.561729326157	-514.947591789086	580.310521436053	117.455946931362
22703.13	-333.236737523473	-595.102802198432	682.051367874674	119.247299477839
19359.37	-382.989837384337	-621.999332259573	730.454916385013	121.622266834435
16500	-394.743101597285	-524.803282898229	656.689121273836	126.949513822003
14112.02	-538.34706376572	-669.002831060672	858.709700092159	128.823658769876
12011.13	-1.15984121468235	-27.9956398985914	28.0196553329066	92.3723703225503
10236.38	6.53606741815854	1.81418493490607	6.78317361363793	-15.5128036552773
8750.684	-0.161340826987862	4.69721733185699	4.69998739627575	-91.9672318656133
7449.463	-2.71900523840432	-4.3675184276082	5.1447261056316	121.904391252758
6363.206	4.90511366883421	2.03377059951418	5.31002476035964	-22.5199972756359
5414.761	4.33420723195694	-0.0553346658963757	4.3345604453967	0.731453391124477
4620.567	2.99258091615594	-0.364198752602126	3.01466105410503	6.93880537793183
3941.215	2.27856562814994	2.75911447306218	3.57834794245159	-50.4490083457824
3361.769	0.896748874163934	-2.72897259554169	2.87253371965097	71.8093161257617
2867.244	-0.540721729064277	-2.71167172194982	2.76505759721286	101.277165782915
2442.658	4.46887980176721	-0.0208357220951014	4.46892837377801	0.26713412352841
2083.003	3.32735738826828	2.1659178574151	3.97020243241238	-33.0618076412023
1777.843	2.88110715390815	-0.486308271611009	2.92186142165196	9.58077106705957
1513.548	4.65930357617788	3.57782863624381	5.87451849646507	-37.5202672648569
1292.065	4.35026858020956	4.49965565143729	6.25873291501323	-45.9670631821053
1101.762	2.09831917269765	4.81417507793185	5.25159261857683	-66.4494105438719
939.101	4.42068090256005	4.16065165803287	6.07070357221886	-43.2643696962717
801.2801	2.04800807676434	-5.80759813387297	6.15812740750439	70.5751650350499
684.3433	3.89251514394512	-1.33161075280384	4.11398363424369	18.8855712825164
582.9476	7.32588089329656	-0.628569567791731	7.35279746520476	4.90403744177194
497.0677	2.20457681330612	9.78491914212246	10.0301944918153	-77.3030646485941
423.5089	20.0074457052781	-66.702747124268	69.6387417862622	73.3034181681243
361.5036	16.6701989887182	4.78558248479947	17.3435098536104	-16.017401855871
308.1262	186.4968023069	87.5291882084753	206.015572370473	-25.1422360278773
262.7298	-2783.8575881364	-535.756674646727	2834.9423778012	169.106545176359
224.2111	-2908.57400600976	-566.928517624086	2963.310765433	168.970410404236
191.2854	329.630861259354	-242.153764893219	409.017054102325	36.3017865698419
163.1722	474.871979801702	-905.46755660421	1022.43576485938	62.3252603345202
139.1537	283.867247281342	406.41740328502	495.737551303132	-55.0671513069399
118.6706	2249.08716738983	361.385129602428	2277.93597329147	-9.12830629624476
101.1982	2118.92389210677	3405.18558503196	4010.62680002145	-58.1074888214442
86.24196	10581.7179765805	-7508.23021349125	12974.8324179802	35.3575062868427
73.61024	7184.81043632488	-6483.95114416578	9677.97103972996	42.0647565014504
62.69291	158573.766011717	-37473.5144469229	162941.41140957	13.2959841092925
53.57697	30869.8444775999	-5614.9760020424	31376.3486335602	10.3089373993134
45.65746	8442.11055437172	-4522.92455399835	9577.37318545099	28.180516623897
38.96512	6349.7472361063	7627.64114436569	9924.72666574047	-50.2237900956723
33.18414	-306.438448169821	6029.24187550343	6037.02427656547	-92.909575551265
28.30617	3147.58473712324	2648.16123856698	4113.39854898839	-40.0749485634744
24.17237	3728.76847922422	2167.81944434461	4313.13754880767	-30.1727252550346
20.61345	-546.405893165893	2603.41514119998	2660.13717644705	-101.853217550139
17.55618	-3611.8658694434	-454.171094422756	3640.30856409993	172.83300538011
14.98558	-3682.55059999607	-524.709416958467	3719.74446619338	171.890776286018
12.76553	-4355.35459531403	-675.518624652012	4407.42998392202	171.183631775267
10.8809	-4034.07375332045	-641.138885887702	4084.70441014111	170.969460151447
9.278505	-4235.76340891467	-722.474806227078	4296.93629251509	170.320470856903
7.923394	-4308.51831700989	-764.412280890004	4375.80349458076	169.939339331582
6.75822	-4375.24111640337	-809.536746955919	4449.50385676185	169.517298619688
5.761429	-4429.95657028713	-840.740336581884	4509.03088569882	169.253909921267
4.919708	-4519.89895734611	-894.695315926481	4607.59875563826	168.803278615396
4.191257	-4564.84523168067	-952.868392990839	4663.2360184274	168.209350564964
3.564097	-4641.68744785903	-1018.30702832157	4752.07444886348	167.626308712639
3.051758	-4712.50653851948	-1068.45760798651	4832.11336121713	167.225410143386
2.604164	-4796.28729936725	-1174.57883442749	4938.01653463784	166.239464369524
2.214424	-4868.50807740292	-1264.86927065787	5030.13570111106	165.436177540751
1.892567	-4952.61829868444	-1385.64337719072	5142.80425266376	164.369444717776
1.607507	-5042.91013927027	-1502.70337831132	5262.03953956478	163.406818326177
1.376413	-5170.38590714261	-1658.54682354606	5429.8865544939	162.214894224966
1.17375	-5304.91008515	-1844.76876421285	5616.51518336251	160.825013205538
1.001604	-5463.27798765929	-2066.60803195956	5841.08509852428	159.27974603207
