EC-Lab ASCII FILE
freq/Hz	Re(Z)/Ohm	-Im(Z)/Ohm	|Z|/Ohm	Phase(Z)/deg
6999984	2.14201616360449	1.66645791922894	2.71391142849279	-37.8824052392693
5969734	5.39993400457228	1.41577699995147	5.58244675454479	-14.6913712531321
5091109	7.02980647553397	-3.93434438529199	8.05588262237838	29.234260493656
4341796	3.42747576663545	-4.90853464032668	5.98676059703077	55.0746112174325
3702781	1.47409023840555	-5.70700330506208	5.89430477282538	75.5173270885098
3157797	2.08627965299867	-6.5269672798159	6.85228900895924	72.2740421933923
2693047	2.38176091270583	-6.78388699849271	7.18984755426787	70.6542905065575
2296687	-1.44166804130184	-7.7290113188702	7.86231662479543	100.56578138448
1958656	0.216376486563465	-9.1033823306588	9.10595347243156	88.6384043716828
1670375	0.357950886033183	-10.319683399129	10.3258895159241	88.0134220087541
1424531	0.13748705063301	-11.6495941766305	11.6504054508534	89.3238337819978
1214875	9.0232705968705	-12.3773730510092	15.3172705110342	53.9074503521274
1036062	12.6567613485058	-2.8688322078917	12.9778197733698	12.7710974731732
883578.1	14.0732971299934	4.65001194149429	14.8216160780503	-18.2842692652605
753531.2	12.3958367698515	-2.35884453022547	12.6182770908939	10.7741848585376
642624.9	12.9310425790017	-7.97984750887893	15.1950593432509	31.6790599463233
548046.8	14.3113010141943	-0.342740304259225	14.315404557156	1.37191019818407
467390.6	15.1525488105974	-1.61327034656337	15.2381881032043	6.07730603717313
398593.7	18.5521953101614	7.83996377314298	20.1407294503096	-22.9084110945331
339937.5	43.9008305974566	-22.3838550011483	49.2779858746176	27.0158137475331
289906.2	4.52870958461421	-54.4154641554769	54.603589165528	85.2425408157219
247234.4	0.818029807475356	-75.7593090873867	75.7637253978717	89.3813587446289
210843.7	1.04614011577753	-83.7919242651349	83.7984545274908	89.2847007645903
179812.5	-11.7284887817522	-113.147589412986	113.753832634656	95.9179477503789
153343.8	-14.4358406200184	-131.849763667116	132.637678181883	96.2482579192718
130781.2	-16.630330248507	-153.524814207171	154.422914301994	96.1823677728318
111531.3	-19.1576895181531	-178.754475247445	179.778139629554	96.1172224715254
95109.37	-22.2660712184026	-208.038591047543	209.226750900906	96.109029175055
81109.37	-26.1686766692721	-241.782399680419	243.194425170156	96.1772111526756
69171.88	-30.279370908915	-280.725686126731	282.353946588255	96.1561836015943
59000	-35.6160406598663	-325.591052355064	327.533258961534	96.242700228659
50312.5	-42.0412595443331	-379.160852341052	381.48449437961	96.3270969118818
42906.25	-48.5792184026212	-436.984223967114	439.67619045924	96.3434835048226
36593.75	-34.9877880824307	-454.367199847969	455.712296973195	94.4032765231711
31203.13	-48.5746785063294	-544.041984845185	546.206170476206	95.1021131458921
26609.38	4.33129897593563	-545.88224020927	545.899423270176	89.5453965613749
22703.13	-43.4345098169794	-719.389788378259	720.699815641684	93.4551459637886
19359.37	-109.047088148442	-871.097892304305	877.896807951058	97.1353684734729
16500	-104.381827319129	-956.580913752519	962.259118132992	96.2274595513086
14112.02	-115.790398095747	-1094.77453185061	1100.88087088472	96.0375240422227
12011.13	-139.134421170775	-1348.72059767077	1355.87817953381	95.889815522638
10236.38	55.2830441514739	10.7599278516072	56.3204316214427	-11.0139734253778
8750.684	17.6248348391599	-12.1661869906298	21.4161366497003	34.6167979084535
7449.463	0.24511805509056	2.23488887572618	2.24829071691719	-83.740933026243
6363.206	0.632849005589511	3.29632399573987	3.35652346167371	-79.1322324095492
5414.761	-1.49010428414118	-3.82063801169801	4.10093716046072	111.306505507782
4620.567	6.13606487794587	-0.788898808916613	6.18657041639962	7.32618787279774
3941.215	4.31147810006407	2.84502652110443	5.16556089046675	-33.4197286462426
3361.769	28.2934166371688	-0.758099162569178	28.3035711411954	1.53482673652496
2867.244	1.0496322476536	3.01588969580443	3.19332405379938	-70.8103642099511
2442.658	3.74858618454764	-0.327231596091224	3.76284186492893	4.98896926757536
2083.003	1.07955056174923	-1.8717571208061	2.16076471062016	60.0254650406446
1777.843	0.24045794960862	2.01966839455011	2.03393226275473	-83.2104314037314
1513.548	3.28815154813353	-4.143858410091	5.2899435844227	51.5680006492508
1292.065	26.2830232718387	-35.3195496297188	44.025764029193	53.3452412452332
1101.762	2.47486188155969	2.8014779879748	3.73807707918182	-48.542204803587
939.101	11.7828076986107	6.3098032986615	13.3659333729538	-28.169464268029
801.2801	4.55985924959957	-0.866031935610343	4.64137131564108	10.7538276680766
684.3433	4.26458678178259	4.77085489871353	6.39904343507166	-48.2070073047016
582.9476	-4.38144378390285	5.63968849076201	7.14164798238715	-127.843442573966
497.0677	19.564812946579	32.2709896191901	37.7385568965813	-58.7729793004886
423.5089	37.8904338783736	78.9514869768178	87.5729540174479	-64.3626982540054
361.5036	7.51696348752429	4.07372609573602	8.54985288621119	-28.454934759875
308.1262	-6138.61695697149	-40525.2018166989	40987.4932196225	98.6134849933514
262.7298	-22183.4934328801	-67896.905576802	71428.9658877392	108.093415488468
224.2111	-21222.2940029952	-73085.4408535586	76104.3193748461	106.192055045326
191.2854	-20986.8808311641	-154719.692180704	156136.582246165	97.7247128615444
163.1722	-27062.6796305122	-102915.974730365	106414.691107407	104.732903428467
139.1537	-26537.7491377934	-112996.247872366	116070.686060407	103.216685215212
118.6706	68681.437774902	-31138.427701131	75410.4871654221	24.3883381610442
101.1982	-34696.8791263163	-156795.002298928	160588.125859377	102.477798842611
86.24196	-36544.408126155	-173023.299680657	176840.481784216	101.926212373239
73.61024	-42108.8204051975	-207364.361950631	211596.624177016	101.478789631021
62.69291	-45251.8058728082	-231951.396631365	236324.303307957	101.039273706376
53.57697	-214338.112480969	-349730.360573645	410185.508726084	121.502747838371
45.65746	-220168.400746331	-406013.891962551	461867.30253805	118.469566566728
38.96512	-676325.32784138	-329783.063148131	752444.5612928	154.005669527891
33.18414	-244365.870623743	-543641.310303841	596037.375501384	114.2038384862
28.30617	-257699.202261558	-628154.414278734	678960.121821674	112.30580119827
24.17237	1338665.62488227	776943.716443452	1547794.29956387	-30.1303091894611
20.61345	-294637.72166448	-841660.493579021	891741.988177812	109.293475590369
17.55618	-317943.873804995	-967534.75379586	1018435.96101716	108.191162088317
14.98558	945492.272295739	1233473.01407091	1554159.35907877	-52.5288050350616
12.76553	-376633.881763386	-1292833.16241314	1346577.3898025	106.242131556621
10.8809	1629778.23667863	-504785.09872122	1706160.92343082	17.2091254218534
9.278505	630418.224763067	-3282333.24029486	3342325.3340239	79.1279352260858
7.923394	2982089.88432812	1851393.41173884	3510059.49283514	-31.8335637453583
6.75822	1969156.55861883	1953168.04186222	2773525.36532541	-44.7664473111426
5.761429	729617.123375646	-1536135.17700872	1700603.54838115	64.5937148370022
4.919708	2876100.60792044	-734506.39268021	2968409.39692766	14.3261393066259
4.191257	2517945.55499608	-743319.350330156	2625371.11176682	16.4470571768617
3.564097	1520797.30774085	4580741.55837696	4826594.83237133	-71.6339337446721
3.051758	1572786.67199101	-3282313.32735875	3639675.63040299	64.3976486795084
2.604164	14572369.588447	-363136.109448656	14576893.4707049	1.42748653135397
2.214424	8122607.88747746	-1666488.92142726	8291799.81782911	11.594293728176
1.892567	4886219.41773773	1809812.29077946	5210619.99440888	-20.3241823624207
1.607507	3423632.61527292	1611225.84899242	3783822.01230738	-25.2025570245487
1.376413	165749.121687881	-5333098.67437383	5335673.7383341	88.2198587023397
1.17375	14677660.2024378	9437097.44881726	17449713.9597387	-32.7392553208554
1.001604	15117677.7344147	-13747774.0471842	20433929.4149229	42.2828815340567
