EC-Lab ASCII FILE
freq/Hz	Re(Z)/Ohm	-Im(Z)/Ohm	|Z|/Ohm	Phase(Z)/deg
6999984	37.3345625353247	74.5455774123916	83.372133662579	-63.3969778903124
5969734	34.7043518329009	72.9031554216653	80.7419476268517	-64.5439821003848
5091109	33.9709831196034	75.7680020758882	83.0350397885386	-65.8506696479602
4341796	37.2556277432381	80.841697319781	89.0132676856985	-65.2575437384407
3702781	44.6366823262307	85.2862202904358	96.2609618719945	-62.3735606766497
3157797	52.1340027652211	90.1018824624425	104.097567058985	-59.9458239071214
2693047	60.9862480739082	95.4588866022573	113.277188725157	-57.4265284819312
2296687	71.8344616587376	101.203009145391	124.105757085974	-54.6326544925804
1958656	84.5255111510634	105.55727181083	135.229063693771	-51.3138251121749
1670375	98.7591204549515	109.039114333992	147.115234859538	-47.8321725855491
1424531	113.871377173863	110.572098025291	158.722649301184	-44.1578228932648
1214875	129.067322348235	110.200485481127	169.713054001215	-40.4914201255991
1036062	143.636511048372	108.401093122613	179.950671841831	-37.0415037312456
883578.1	158.516231842084	105.053766918894	190.167530617776	-33.5337071404279
753531.2	171.942030331103	100.238561891784	199.027211919664	-30.241279655222
642624.9	184.159260153843	94.4921623609064	206.986477452153	-27.1623706219496
548046.8	195.019078040076	88.1792552543043	214.028086607354	-24.3304407758462
467390.6	204.328516428899	81.2608245073423	219.894211441884	-21.6875640838242
398593.7	212.334998328907	74.5648333869834	225.046808227456	-19.3495410458575
339937.5	219.123760481413	67.9042594664733	229.404034099677	-17.2176854113127
289906.2	224.890698015611	61.8609532590134	233.24365713147	-15.3800436045675
247234.4	229.623196119905	55.9304158060994	236.33667427753	-13.6892394215585
210843.7	233.546382328074	51.0219065531112	239.054695931381	-12.3235486802406
179812.5	236.753240151416	46.4103064079069	241.259224203075	-11.0909503051536
153343.8	239.772954264367	42.3041470119081	243.476303674644	-10.0059573172482
130781.2	242.077907657487	38.9903015799362	245.197791574722	-9.14976929525036
111531.3	244.159525957429	36.2970602739331	246.842765136607	-8.45573405885249
95109.37	246.03590665259	34.0649964912712	248.382953014719	-7.88279345245553
81109.37	247.548515302714	32.3634261192663	249.65507961737	-7.44835966345348
69171.88	249.202237699746	31.3347796266302	251.164535093652	-7.16677955503644
59000	250.665833236751	30.6483523426879	252.532535435726	-6.9708279891017
50312.5	252.242168395612	30.5223482526798	254.082123062166	-6.89948328445201
42906.25	253.575269104244	30.7351692958508	255.43114088328	-6.91095389951053
36593.75	254.872472902649	31.5887477042502	256.822558247975	-7.06517694922589
31203.13	256.442166841103	32.9728513965848	258.553270842551	-7.32678374890467
26609.38	257.950085371206	34.6524670620155	260.267247298804	-7.65118672292979
22703.13	259.686662955108	36.9719022953604	262.305326816094	-8.10281497536371
19359.37	261.407172114633	39.9067147514577	264.435730405752	-8.67982358210611
16500	263.285230800598	43.42702093361	266.842685687452	-9.36619837278308
14112.02	265.370731883508	47.5008535717179	269.588494618057	-10.14836024765
12011.13	268.270698928614	51.7510013232632	273.216643053837	-10.9185759524885
10236.38	269.460784342798	58.1538425839944	275.664621788723	-12.1785387918709
8750.684	272.731146472144	64.4541828983971	280.243858004257	-13.2966716586467
7449.463	275.6643011173	72.0282085645346	284.919058224447	-14.6434032265237
6363.206	278.679946440863	80.8569983599785	290.172994491334	-16.1797093400757
5414.761	282.135119436849	90.833834536519	296.3967123911	-17.8460424956547
4620.567	285.855834188243	102.304393724741	303.61117719024	-19.6916827932198
3941.215	289.872998866315	115.272874257785	311.952225527246	-21.6860743935569
3361.769	294.464726128795	130.665943789341	322.153789051853	-23.9288030910375
2867.244	299.751059272412	148.176265904314	334.375392803177	-26.304618425171
2442.658	304.886060040814	168.635850861063	348.415785811788	-28.9474664693033
2083.003	311.195163276355	191.73957546737	365.522221550215	-31.638855497839
1777.843	318.045037193619	218.37138445007	385.796199087201	-34.4736959695416
1513.548	325.777032344221	249.359465886987	410.257014602372	-37.4315218319691
1292.065	334.623415169968	285.124087162577	439.623219428075	-40.4334711741996
1101.762	344.833274312447	325.877783086937	474.453703308026	-43.3811499540752
939.101	356.506683713927	373.260958537074	516.159625213671	-46.3151866088489
801.2801	369.78802621167	427.186077288794	565.005423831409	-49.1193280018884
684.3433	385.24184041097	488.804930217934	622.367685061324	-51.7572944456061
582.9476	403.450169547351	560.320664658806	690.457302482545	-54.2448136314784
497.0677	424.919360378449	642.561753213627	770.351912775843	-56.5237532616112
423.5089	449.881624794771	735.437633531685	862.126434545808	-58.5450566895856
361.5036	479.586408215445	841.360501342687	968.44752886494	-60.316298417453
308.1262	513.745845179611	963.19922663573	1091.64442179264	-61.925679568196
262.7298	554.366694220388	1101.39460020382	1233.0419688798	-63.2824436270658
224.2111	601.822274527384	1258.60535900579	1395.09049879762	-64.4444593313706
191.2854	657.206545550452	1436.56666662002	1579.76081454064	-65.4166541181486
163.1722	723.34106691432	1639.53210357864	1792.00664556517	-66.1935275925664
139.1537	801.847742640512	1868.75549655149	2033.52081579439	-66.7767413322301
118.6706	889.345311595057	2129.67505631195	2307.91051142227	-67.334744928908
101.1982	996.055818715168	2422.07908889173	2618.8918089228	-67.6455745327665
86.24196	1120.066038572	2753.84195150305	2972.90992541323	-67.8670227205846
73.61024	1260.77930071479	3124.40665120026	3369.19595262361	-68.024643410025
62.69291	1429.32459396941	3544.1611269372	3821.52415779602	-68.0362744532662
53.57697	1614.64591000731	4005.67098810225	4318.85187053543	-68.0461293273424
45.65746	1835.38262410373	4531.56082992712	4889.138260695	-67.9509610375712
38.96512	2084.13862850151	5114.75504625785	5523.07459718156	-67.8302961259167
33.18414	2370.80251793597	5779.47951219014	6246.84624517661	-67.6960521145175
28.30617	2697.05973588913	6506.85624151123	7043.67158282156	-67.4862349699406
24.17237	3056.17542370909	7315.56370688706	7928.28358284481	-67.3266089282172
20.61345	3468.10981900811	8227.76701372545	8928.82611258888	-67.1439499831294
17.55618	3934.85280687542	9259.35997395285	10060.756121635	-66.9764744196127
14.98558	4445.44368472484	10390.4166912508	11301.4480741135	-66.8367873091598
12.76553	5015.25666749019	11673.3493642495	12705.112546555	-66.750041498977
10.8809	5663.99636543543	13107.5889753716	14278.9965885194	-66.6300641366766
9.278505	6370.51919849281	14723.5308011665	16042.6267833938	-66.6030205287464
7.923394	7136.54756171956	16528.3392799938	18003.2305560771	-66.6464507296174
6.75822	8001.50222205389	18573.8804448652	20224.0716125532	-66.6939489308337
5.761429	8973.3776712214	20882.2861692052	22728.6467367275	-66.7462026817496
4.919708	10059.3883090791	23523.1138708377	25583.7483440803	-66.8465848874566
4.191257	11317.1358110198	26452.1870304302	28771.4400344843	-66.8371310838369
3.564097	12692.2265764151	29890.2411491223	32473.3603345841	-66.9925745336559
3.051758	14237.6643346955	33547.0024427461	36443.2772758032	-67.0031742528658
2.604164	15958.6563821452	37789.6640671632	41021.182623523	-67.1055618108557
2.214424	17990.704868485	42652.4275233727	46291.4142719953	-67.1300844044873
1.892567	20258.4589174967	48038.4856187966	52135.4127082469	-67.1342097006122
1.607507	22842.6066928146	54237.711434868	58851.6271840859	-67.1612533085424
1.376413	25743.5453850049	60898.8328530774	66116.5483964254	-67.084935330231
1.17375	29045.923502688	68699.0492145415	74587.0299388976	-67.0813829919012
1.001604	32709.8693647688	77362.1634974969	83993.0943284844	-67.0806381467675
