EC-Lab ASCII FILE
freq/Hz	Re(Z)/Ohm	-Im(Z)/Ohm	|Z|/Ohm	Phase(Z)/deg
6999984	31.4148473350715	81.4375190983075	87.2866665073942	-68.9056806115977
5969734	27.4099162768643	79.834205286501	84.4085531449977	-71.0508345965675
5091109	25.3877924289717	83.6321136799728	87.4006318226387	-73.113539954818
4341796	25.895847881971	90.3789146915212	94.0156537941605	-74.0116512986856
3702781	30.8309745875758	98.8867677401616	103.581570890368	-72.6835351295723
3157797	36.2419975369437	108.35032999933	114.250936085581	-71.5054766070038
2693047	42.6228123378894	119.46365333153	126.839538783878	-70.3643738622213
2296687	51.1562742487791	133.255026771453	142.737053895885	-68.9983278870704
1958656	62.7911660032224	147.788388725447	160.574401353728	-66.9807143072967
1670375	77.1280538951584	163.818978614945	181.067375449302	-64.7883486000081
1424531	94.7489653072117	179.862669350328	203.292759961127	-62.2204090580113
1214875	115.631589639943	195.725279252695	227.330265167675	-59.4260365953787
1036062	138.80521457832	211.112499214607	252.656634424609	-56.6753177871572
883578.1	166.15235688263	224.989497074416	279.690685385573	-53.5545255390607
753531.2	196.320551439586	236.715018328564	307.531720022237	-50.3292487074441
642624.9	228.82297385798	245.89074390905	335.890177446968	-47.0591150100467
548046.8	263.021927077268	251.657269461696	364.021861151712	-43.7350545249717
467390.6	298.119771019298	253.867320824814	391.566104834634	-40.4164371389503
398593.7	333.019356617334	252.311036896928	417.807074164411	-37.1492713629317
339937.5	366.913763809976	246.479708239972	442.015787780555	-33.8918114919627
289906.2	399.840593197951	239.176651256762	465.916269811742	-30.8870202790683
247234.4	429.920162018243	227.400169445802	486.356024712115	-27.8759666374732
210843.7	456.767794778601	214.728162751965	504.722698346073	-25.1783839351721
179812.5	480.95675591083	200.284513749579	520.992598319952	-22.6082786127097
153343.8	522.650896054741	161.474285991122	547.026420004707	-17.1686631423613
130781.2	536.773792193411	148.360108445678	556.899295890836	-15.4503856330757
111531.3	549.306956676396	135.6025024331	565.796934702905	-13.8668506084711
95109.37	559.918252302208	123.962682205888	573.476412628137	-12.4835929811545
81109.37	569.244106417271	113.223455111783	580.395040880129	-11.2493960538191
69171.88	576.521949464416	104.127515539426	585.849893493772	-10.2380052242762
59000	583.226436807182	96.1994003339249	591.106928749282	-9.36623275025079
50312.5	590.386604156929	89.9505701409947	597.199671329984	-8.66289267926
42906.25	593.925346554277	81.5823978966936	599.502297682162	-7.82128070357028
36593.75	597.719009192884	77.835855781177	602.765654625171	-7.41939091733167
31203.13	600.764524577185	75.715256592983	605.516980828277	-7.18320052544489
26609.38	604.633662298583	73.0717722704416	609.033126756945	-6.89094621330456
22703.13	608.108869911505	72.8547979163485	612.457524441067	-6.8317883209573
19359.37	611.610352991376	73.3737451794302	615.995885025128	-6.84097283441325
16500	615.150972693023	75.4358517319797	619.759055546348	-6.99126539365401
14112.02	618.359879818409	78.5970911329846	623.334937015088	-7.24377935312407
12011.13	622.259356459293	83.0601705111237	627.778383369857	-7.60298951320339
10236.38	626.227525261186	88.3155276971784	632.42434000217	-8.02736216332293
8750.684	630.455839026694	95.3141957241222	637.620075648022	-8.59704263986561
7449.463	635.419822372131	104.007649000554	643.875719152425	-9.29593082878823
6363.206	640.725958101286	114.452866702993	650.868045060859	-10.1279228430977
5414.761	646.636155942055	126.404669161926	658.875146410496	-11.0607210518825
4620.567	653.201110227625	140.19492755941	668.076573542278	-12.1134794342338
3941.215	660.452779260795	155.865451454203	678.595544186912	-13.2787208909252
3361.769	668.289584176438	174.563560005316	690.712244571099	-14.6391060430602
2867.244	676.434883397186	195.443030126706	704.103777508453	-16.1156469290021
2442.658	686.091908568026	220.097024108074	720.530920241281	-17.7861454877517
2083.003	696.459593321459	247.799315855255	739.229643661443	-19.5854850658923
1777.843	707.81196878074	279.098563334769	760.850702309461	-21.5198994442351
1513.548	720.013347572582	316.505835608822	786.508210165103	-23.7294882628453
1292.065	734.062386617843	357.743131088219	816.595208954771	-25.9821520484934
1101.762	749.330238820366	405.421200845756	851.97544383967	-28.4153720241212
939.101	766.291166756518	459.754690607483	893.631091549891	-30.9626564376035
801.2801	784.456200715473	521.971194062928	942.244903553441	-33.6394923381429
684.3433	806.442077147743	592.424596157651	1000.65764671386	-36.3015688458798
582.9476	828.955149472509	676.110565095281	1069.71591372217	-39.201296787881
497.0677	855.066733536145	769.685273101156	1150.45840360657	-41.99184762202
423.5089	886.1820174025	878.349276130309	1247.72433607997	-44.7456661319132
361.5036	920.102362390605	1000.99475985078	1359.62453145179	-47.411151738531
308.1262	959.119228858354	1142.73687303527	1491.89720026558	-49.9926703802725
262.7298	1004.50915880556	1306.12215261688	1647.72380200105	-52.4369255230344
224.2111	1056.9563422417	1487.69988311429	1824.940451528	-54.6075990481993
191.2854	1117.26636372026	1699.63482805563	2033.97214244453	-56.6808124524125
163.1722	1187.47357382588	1940.36863990278	2274.88987585179	-58.5340558999191
139.1537	1270.2733619863	2214.26639098631	2552.75734538626	-60.1581047702174
118.6706	1365.49123631686	2527.37514979739	2872.66278290222	-61.6185168942263
101.1982	1478.59389359903	2883.03804533155	3240.08460892884	-62.8485426888132
86.24196	1608.00147104071	3291.82108050554	3663.571311839	-63.9652374315232
73.61024	1760.80773720857	3747.39776411226	4140.46300428915	-64.8323517586741
62.69291	1943.87953774576	4275.82177771278	4696.94789539223	-65.5524451155946
53.57697	2148.03928690914	4856.99188200667	5310.78552758289	-66.1422478699022
45.65746	2393.85420599677	5524.25625635571	6020.62664059595	-66.5712213711167
38.96512	2677.02204361152	6269.44395907121	6817.06495332973	-66.8777537915117
33.18414	3011.04041803669	7123.66052200625	7733.88024421383	-67.0871125698525
28.30617	3388.65159910063	8073.43367934193	8755.75759342501	-67.2308103848713
24.17237	3834.78728277933	9127.24155032553	9900.10766720013	-67.2104130873646
20.61345	4340.07074965053	10317.8537352893	11193.4945309673	-67.1865780430872
17.55618	4932.89078505953	11668.023856919	12667.9198064621	-67.082815386389
14.98558	5613.32968442751	13138.4079147998	14287.3101975757	-66.8656070862549
12.76553	6384.21593299105	14806.470682049	16124.1988060627	-66.6753850982715
10.8809	7267.10472098632	16663.7779467553	18179.4473646629	-66.4378940921897
9.278505	8245.76079225663	18725.710854339	20460.8117640387	-66.2339784129027
7.923394	9347.50975750557	20991.8955580008	22979.0256056403	-65.9970030688366
6.75822	10569.0130782399	23549.6980268927	25812.6386602734	-65.8296420968789
5.761429	11987.4748853537	26422.9413403654	29015.0199586934	-65.5973077109533
4.919708	13596.9147591326	29597.200182315	32571.0047373296	-65.3260121949588
4.191257	15262.5599483784	33080.8293673096	36431.9503706142	-65.2327346659116
3.564097	17218.5078428753	37188.8707837073	40981.5705226439	-65.1557864340255
3.051758	19293.7458399163	41467.8832935641	45736.5715088477	-65.0488725094541
2.604164	21649.9364591612	46469.8018123898	51265.6047381527	-65.0195370703434
2.214424	24316.8515606314	52157.1863590789	57547.2098256506	-65.0040099140953
1.892567	27192.3969176747	58288.8649989472	64319.6566610384	-64.9904308143507
1.607507	30415.1082931555	65574.5011506363	72284.8117770198	-65.1169398955156
1.376413	33881.078600273	73251.7413979887	80707.7759881642	-65.1780744922561
1.17375	37862.9533337047	82358.1426204355	90644.7289754804	-65.3100839682542
1.001604	42146.0386742618	92446.5794015479	101600.485328462	-65.4919407724287
