EC-Lab ASCII FILE
freq/Hz	Re(Z)/Ohm	-Im(Z)/Ohm	|Z|/Ohm	Phase(Z)/deg
6999984	45.6216973821901	82.9318233571589	94.6521346688765	-61.1843294770762
5969734	38.505940676301	77.4270806972483	86.4734658300742	-63.5579790307442
5091109	39.8638198383614	79.1813817708823	88.6499596799206	-63.2770578237915
4341796	44.7306260031414	82.6185610574178	93.950282244553	-61.5683830871524
3702781	52.7799854600433	85.5070423206804	100.484730937556	-58.3146703601635
3157797	60.0644044783365	89.3416586936897	107.655304855251	-56.0870562893184
2693047	69.3311631883687	94.4939808048579	117.200352377461	-53.7321367259733
2296687	81.455620836686	98.738594979185	128.001282432456	-50.4786531821024
1958656	94.3967446289499	101.253396460467	138.430472408801	-47.0071362788725
1670375	108.152943436595	102.509882976163	149.014547215317	-43.4655752851878
1424531	122.397703350802	102.029328838129	159.346106725926	-39.8142012004883
1214875	135.938218736184	100.097621057774	168.815677751186	-36.3659406541627
1036062	149.076649446809	96.4620741021831	177.563451054494	-32.9054359997552
883578.1	161.470161613185	91.966075934844	185.823497476077	-29.663875707601
753531.2	172.479799358956	86.4579362343458	192.935885528866	-26.6229652353016
642624.9	182.299245578364	80.3954333764037	199.239656309231	-23.7978650461162
548046.8	190.962466860499	74.153218151975	204.854493511228	-21.2218410696301
467390.6	197.016621422321	67.6825710125995	208.318217003559	-18.9595114859781
398593.7	206.584291020615	62.1518687898127	215.73113843522	-16.7441644415268
339937.5	207.883199853419	57.8554402862434	215.783865828777	-15.5522804473618
289906.2	212.526308024344	51.0469580458976	218.570866146882	-13.5060934623449
247234.4	217.237531698435	45.8221288709104	222.01759541237	-11.9108586395638
210843.7	220.195235759367	41.6049465556541	224.091306009453	-10.6996545085469
179812.5	222.756437255083	37.3570070830461	225.86716520287	-9.52010629571112
153343.8	224.838560041436	34.6600757876988	227.494393194899	-8.76346969061726
130781.2	226.632967061705	32.1596274354873	228.903349464312	-8.07645318720974
111531.3	228.125236361551	30.0748016999544	230.099146374568	-7.51025629406146
95109.37	229.43393089959	28.6125550261104	231.211173936642	-7.10861860925271
81109.37	230.696253277678	27.5414821401208	232.334445390332	-6.80798765414757
69171.88	232.034841742536	26.7909546924343	233.576375166274	-6.58625871700989
59000	233.257902711596	26.6154158761836	234.771441064868	-6.5094651837285
50312.5	234.24449053581	26.9476512660552	235.789434146525	-6.56249815724581
42906.25	235.520854040356	27.7725591585105	237.152667558498	-6.72524681895272
36593.75	236.62289431264	29.030040338943	238.39701624595	-6.99437082490362
31203.13	238.051330780683	30.1066622698897	239.947592610319	-7.2080038683961
26609.38	239.219607434891	33.0522001600424	241.492170715166	-7.86656728769742
22703.13	240.725077652395	35.7482563645105	243.364954017324	-8.44683029471616
19359.37	242.348477768293	39.1165567066079	245.485009084445	-9.16882014193846
16500	244.068554505739	43.0961896790013	247.844186664463	-10.0137323545281
14112.02	245.92973490267	47.7078604044648	250.514419652182	-10.9784385829238
12011.13	248.086690556246	53.1255402674281	253.71111339446	-12.0868311671823
10236.38	250.412338978578	60.9077085965638	257.713190347731	-13.6705724565931
8750.684	252.313918871439	64.8443623895983	260.513157038137	-14.4130283562575
7449.463	252.326516251258	75.4483467109859	263.365001138947	-16.6472314417466
6363.206	261.228843018813	83.8255029281638	274.348725832848	-17.7908723895615
5414.761	261.597430047424	97.4081976635265	279.144357599206	-20.4232754130885
4620.567	266.24756258052	107.672863722183	287.195421555087	-22.0188425513909
3941.215	270.033733003452	122.793473171469	296.641962664239	-24.4528990453995
3361.769	275.106283308245	139.275908796103	308.35247021332	-26.8513691307526
2867.244	280.348340825209	158.564193852999	322.083522980762	-29.4923722507845
2442.658	286.069177987311	180.499695424582	338.253920365608	-32.250499403297
2083.003	292.540400936361	205.356293265535	357.422849526674	-35.0679276876056
1777.843	299.957327693684	234.301528035148	380.620026373733	-37.9939715811372
1513.548	308.212789138906	268.208263937854	408.571653732049	-41.0299488868205
1292.065	317.857408117462	306.13111921681	441.304423327126	-43.9233972113871
1101.762	328.605002604107	350.389831197985	480.368901515698	-46.8376439039169
939.101	340.803130365028	401.106371783307	526.33933460437	-49.6468502438653
801.2801	355.296057238815	458.642328855136	580.16211019603	-52.2361611116206
684.3433	371.912307841179	524.898538733822	643.301827052165	-54.6808517023068
582.9476	390.86425994784	601.149501874838	717.046437344848	-56.9682882965414
497.0677	412.829759361394	687.579113260061	801.993420924311	-59.0189500819383
423.5089	438.901922413543	789.049574277091	902.903166549527	-60.9153830880418
361.5036	468.38841166569	902.677842519323	1016.96361368441	-62.5757574825514
308.1262	503.274463585684	1032.99079987556	1149.06709043685	-64.0245958590987
262.7298	543.892849895214	1182.64804337683	1301.72033350877	-65.302578221138
224.2111	591.328189099746	1351.22868718259	1474.95355597699	-66.3647273817515
191.2854	645.513324749161	1544.99511940355	1674.42448961113	-67.3243743928162
163.1722	710.954976482645	1763.838687456	1901.73181441336	-68.0469887640351
139.1537	786.175400673676	2015.36845933922	2163.28033031407	-68.6897328186129
118.6706	873.935943942842	2302.72754016739	2462.98967889852	-69.2171404690308
101.1982	975.320038603167	2626.63864445597	2801.87075830603	-69.6290971237299
86.24196	1094.44346259812	2995.49444584552	3189.16814669831	-69.9295561914965
73.61024	1231.00503150916	3410.34117815735	3625.71376959579	-70.1523221822434
62.69291	1392.01693819413	3882.69340343705	4124.68413594459	-70.2763102491097
53.57697	1568.55988184389	4408.36452660098	4679.10866536823	-70.413705528382
45.65746	1779.34762580297	5006.16230585278	5312.97835549816	-70.4331860934165
38.96512	2018.8783319078	5679.42968487939	6027.58585708541	-70.431123445354
33.18414	2292.17087236737	6442.67189814417	6838.27964441832	-70.4154816975469
28.30617	2604.3058857324	7300.82834006873	7751.41945695182	-70.3679834963306
24.17237	2944.95515982004	8269.22277697741	8777.97278582206	-70.3974335270003
20.61345	3341.68290735463	9357.46883358325	9936.25017925716	-70.3476434946034
17.55618	3781.87393892831	10600.2432809637	11254.6758329843	-70.3650041157959
14.98558	4281.67856217043	12008.8136053118	12749.2892161435	-70.3765778632576
12.76553	4852.52009728384	13605.8512990823	14445.2809203312	-70.3712493557628
10.8809	5484.47828090832	15410.7967533125	16357.6330373824	-70.4100958942727
9.278505	6211.03036319042	17451.9988178568	18524.2857058228	-70.4097521195956
7.923394	7008.1897608784	19754.6545114379	20960.9422161971	-70.4672770822268
6.75822	7926.76595205312	22394.4511284893	23755.9478826867	-70.5080143814606
5.761429	9005.11387120432	25410.0223158074	26958.5108995876	-70.486070097907
4.919708	10218.3003235863	28760.6682165198	30521.9543568844	-70.4405199531942
4.191257	11545.9415728108	32604.3060038806	34588.2861211342	-70.4997637892107
3.564097	13174.7084334127	37041.5645163337	39314.7611479854	-70.4208675008212
3.051758	14871.1748730544	41804.2746117445	44370.589560193	-70.417830824507
2.604164	16941.5225655144	47367.104319177	50305.6434053042	-70.3196831542011
2.214424	19209.0251854524	53740.4088645282	57070.291689302	-70.3310277185447
1.892567	21905.5738786249	60739.8258736337	64569.1924536093	-70.168365000507
1.607507	25031.3366848299	69055.7697574248	73452.4822794967	-70.0754312461368
1.376413	28365.0884394946	77865.4501279004	82871.0236801797	-69.9841590693725
1.17375	32359.1358514813	88123.331113568	93876.7018999185	-69.8366224371263
1.001604	36905.1230162679	99718.3248463537	106328.417720799	-69.6908046782655
