EC-Lab ASCII FILE
freq/Hz	Re(Z)/Ohm	-Im(Z)/Ohm	|Z|/Ohm	Phase(Z)/deg
6999984	15.6079809581137	91.8727222985399	93.1890882675299	-80.3582474995702
5969734	19.7962335067337	94.6025589539751	96.6516167567489	-78.181007878073
5091109	16.6966334328525	100.423998533861	101.802539504277	-80.5602724181333
4341796	15.920348511048	109.538717369808	110.689602491543	-81.730538714688
3702781	18.1377507793928	121.305814482519	122.654305389589	-81.4960843849205
3157797	18.1379239901919	134.959998827708	136.17336586223	-82.3456089077609
2693047	18.2067783922514	153.130830269218	154.20939646586	-83.219541432674
2296687	19.5462948435309	176.753855700432	177.831333423217	-83.6895960077993
1958656	22.0403142763049	203.064376539344	204.256986349821	-83.8054480739748
1670375	25.2859196888923	234.477414395807	235.836883451796	-83.8450394576183
1424531	26.9599938178312	272.409663987128	273.740509059652	-84.3479245144046
1214875	37.7256687879268	309.154112760729	311.44741373524	-83.0426693613171
1036062	33.0098290049645	367.170067234558	368.650928500075	-84.8627270933297
883578.1	53.5364746948648	427.609658089743	430.947994326904	-82.8637346418978
753531.2	59.2883606488017	499.928556255393	503.431893177244	-83.2366728707484
642624.9	124.961913240695	648.989880226334	660.910995820894	-79.1011780970531
548046.8	151.954728363353	729.887371373703	745.537265576171	-78.2396214605149
467390.6	184.323860724382	833.137578617509	853.283956568379	-77.5247993153097
398593.7	245.589498454087	968.480690047866	999.134149524737	-75.7707463212962
339937.5	214.384240590703	1074.76130646641	1095.93451834087	-78.7191871350394
289906.2	253.35987622537	1233.08274911985	1258.84244171299	-78.3891061492645
247234.4	306.928180631635	1451.00410280928	1483.11085709572	-78.0563895576321
210843.7	386.43471468884	1600.17513340111	1646.17503512595	-76.4232879541707
179812.5	266.598951480449	1833.11554517356	1852.4004974323	-81.7252102071933
153343.8	284.48820840742	2145.55401049927	2164.33258828036	-82.4469651417196
130781.2	341.002766981314	2595.1537132172	2617.46168688558	-82.5142303868679
111531.3	1192.85116283642	2710.02217445551	2960.9312863896	-66.2426873713887
95109.37	431.189597135974	2936.90275344468	2968.38714656112	-81.6476317217326
81109.37	1253.84366050196	3363.35752010701	3589.4703972928	-69.5547844977014
69171.88	1365.36015055729	4157.74884090241	4376.19512416382	-71.8203742112077
59000	2302.23675798598	4960.63631253814	5468.83961321721	-65.1039337535662
50312.5	2643.95538541167	5554.60832668623	6151.7618405575	-64.5458728611087
42906.25	3347.65881071164	6207.91725880823	7053.01752480059	-61.6639524473802
36593.75	3830.60387501224	6787.51756200481	7793.8386371404	-60.5613524664304
31203.13	4521.2554207694	7539.4953908476	8791.23093363204	-59.0498898028753
26609.38	5363.85064053202	8254.75660998944	9844.384205429	-56.9846290528586
22703.13	6320.83473531176	8892.39756746756	10909.9810379774	-54.5942777794625
19359.37	7088.33445855094	9509.42675660615	11860.5936881565	-53.2991238723032
16500	8545.83574845564	10709.9221457086	13701.5962941083	-51.4123623937815
14112.02	9529.65233931509	11036.8813578981	14581.7359671794	-49.1914576587174
12011.13	11595.4157315943	11569.4718944998	16380.0593987362	-44.9358308241171
10236.38	13030.8417539429	11697.1082499975	17510.7160969637	-41.9126705843109
8750.684	14403.1665978616	12045.286392194	18776.0520961072	-39.905547861766
7449.463	16141.9044012804	12085.879887331	20165.0581539223	-36.8231896225669
6363.206	18330.1860670954	12007.667229978	21913.0051239036	-33.2278508102312
5414.761	19721.7458073882	11605.4083101258	22883.0233958708	-30.4750005990118
4620.567	21344.4573094186	10968.8957571992	23997.9693300474	-27.1985872841798
3941.215	22352.3654438757	9991.24654755854	24483.7343661189	-24.0840861126738
3361.769	23657.261916991	9165.2520313451	25370.6106786413	-21.1772706827469
2867.244	24643.7995132866	8386.13110389332	26031.5971339208	-18.7931188126941
2442.658	25427.1680027265	7605.96675729221	26540.3768426884	-16.6533735493104
2083.003	26173.9595238491	6938.56353548365	27078.0320756889	-14.8472673396092
1777.843	26562.5304136403	6404.13862764837	27323.6347058312	-13.5551329200302
1513.548	26938.53838176	5540.00581371651	27502.3001685599	-11.6210565867866
1292.065	27388.777457494	5082.5425918259	27856.3703632375	-10.5128072419768
1101.762	27579.8410009197	4586.18179500004	27958.5531294593	-9.44118135943185
939.101	27808.3900389927	4231.42293820883	28128.4819470008	-8.6519606445289
801.2801	28066.2890440904	3880.07661317438	28333.2238764058	-7.87107073596715
684.3433	27993.1090127459	3663.94078586464	28231.8723127213	-7.45689673460093
582.9476	28311.9711838378	3454.20225667885	28521.9078174043	-6.95599411178576
497.0677	28141.2185704318	3240.5706313979	28327.1862465352	-6.56889809581742
423.5089	28628.9341347914	2854.88433533659	28770.9268926528	-5.69472263679924
361.5036	28750.9876367035	2896.34626639575	28896.506913133	-5.75251345184732
308.1262	28830.0719870766	3027.90206761405	28988.6398734243	-5.99555641896386
262.7298	28933.7792694962	3158.47887100877	29105.662191308	-6.22987323886056
224.2111	29062.6176327779	3388.54052613911	29259.4933409029	-6.65034404639527
191.2854	29195.0850384364	3605.88644732813	29416.9238274936	-7.04094656406981
163.1722	29347.8599664377	3954.92907832159	29613.1448621079	-7.67496447142772
139.1537	29499.9327824467	4336.43952134632	29816.9539338137	-8.36249090727291
118.6706	29676.5183187504	4830.26572407214	30067.0451905117	-9.24461672865632
101.1982	29861.0971614504	5345.57237934957	30335.7918595913	-10.1492769801222
86.24196	30075.5453742705	5988.50304637678	30665.9517754833	-11.2611875252429
73.61024	30322.9831678541	6709.89565228819	31056.4970314194	-12.4773993073891
62.69291	30577.3499677657	7536.76723801454	31492.4942081638	-13.8463788264511
53.57697	30866.697801621	8509.69687076076	32018.2443929837	-15.4130975397686
45.65746	31167.1327505508	9625.86807515996	32619.7409568322	-17.1631340996383
38.96512	31549.0434866819	10884.5947324791	33373.8902049919	-19.0347179261669
33.18414	31943.3799075621	12343.5739181565	34245.3403690463	-21.1275494052854
28.30617	32251.2243864455	14012.9523712619	35163.9632092874	-23.4846404786741
24.17237	32890.4360106527	15960.586601118	36558.4614777842	-25.8856888741052
20.61345	33433.5686302192	18170.1781235561	38052.0549299685	-28.5228016107082
17.55618	34115.3575084624	20781.8989898616	39946.7763850227	-31.34833151824
14.98558	34824.2851951953	23630.345808393	42084.7250481755	-34.1592223541061
12.76553	35674.8282466277	27055.9319896539	44774.0642141761	-37.1768249032996
10.8809	36566.2084883414	30930.2402964068	47893.2914718368	-40.2268625932754
9.278505	37651.412066493	35358.4084266666	51651.1943430917	-43.2011151556892
7.923394	38900.0398417295	40415.2036845598	56094.578958689	-46.0943915929173
6.75822	40391.4678338061	46215.465994096	61378.6605492563	-48.8471386717335
5.761429	42143.5309351232	52866.4093451092	67608.6861041119	-51.4391882777495
4.919708	43937.5457732852	60306.8986142997	74615.2125846663	-53.9241979084791
4.191257	46065.5772643715	69417.9575369632	83312.0053611927	-56.4318508312723
3.564097	48663.415776452	79453.2729839949	93171.6191922253	-58.5134294192944
3.051758	51743.7895120663	90709.8724593262	104430.362992074	-60.2981929511269
2.604164	55165.8773080486	103831.783294418	117576.83973158	-62.0182695478891
2.214424	59079.1129239715	118965.884243468	132827.795275363	-63.5907522166257
1.892567	64034.5835704146	135636.071593777	149991.905816376	-64.7277296652833
1.607507	69445.4122320013	155388.058128423	170200.217065063	-65.9193672875963
1.376413	75727.1348681411	176618.818147955	192168.691204676	-66.7922684884782
1.17375	83364.4466684507	201260.007495016	217842.194226075	-67.5000432528033
1.001604	91857.4179535783	229063.455655519	246795.161925728	-68.1485741811118
