EC-Lab ASCII FILE
freq/Hz	Re(Z)/Ohm	-Im(Z)/Ohm	|Z|/Ohm	Phase(Z)/deg
6999984	3.83315167347749	1.1953410612794	4.01520759172721	-17.3197177354696
5969734	6.31306877021406	2.87054575818154	6.93504652091578	-24.4512431973716
5091109	11.7686601999965	-5.52229432530671	12.999888365609	25.1377211204517
4341796	5.44177432919402	-5.44252465578839	7.69636163903046	45.0039497763802
3702781	0.629455124259529	0.497711978337367	0.802453093231669	-38.3335235592656
3157797	3.03376527752756	-8.1995317064273	8.74277141207744	69.6959040026421
2693047	3.78130762529045	-6.82993891233823	7.80681451703264	61.0294589850523
2296687	0.721967952588077	-12.0644465510944	12.0860294683067	86.5753552387552
1958656	-1.33917440711134	-12.2885935275601	12.3613477816238	96.2193808463972
1670375	-9.2336813837468	-8.85305300918435	12.7920842508162	136.205589706562
1424531	4.15072678061397	-10.9301959514469	11.6917798621224	69.2057959046872
1214875	15.8848896209678	8.63640466676268	18.0808518559942	-28.5323413579971
1036062	2.42755361481479	-4.58514514094097	5.1881183984461	62.1015203155216
883578.1	-2.00371218251754	-14.9328631286745	15.0666938553252	97.6423788263841
753531.2	12.0692545955713	-4.12854962173372	12.755854674299	18.8843623415687
642624.9	18.0823498047598	-17.4511074661049	25.1299129774705	43.9822628952588
548046.8	10.9207942134904	0.123168191764379	10.9214887564319	-0.64617263402382
467390.6	6.41299941113592	1.76540769074123	6.65155814540908	-15.3914741125804
398593.7	4.53268351678676	-4.72173346390131	6.54522625792843	46.1702798528823
339937.5	6.16920521362565	2.90952848491562	6.82088329854435	-25.2495624820612
289906.2	2.15950431065608	3.61750155367543	4.2130483451518	-59.1644813619015
247234.4	0.0686147702647814	0.407372423283987	0.413110491213618	-80.4392637318017
210843.7	-0.265928751876081	0.280312133820611	0.386384515012487	-133.491660518366
179812.5	-0.228627353296022	0.192630222876735	0.298959645170857	-139.88415063864
153343.8	-0.235022327104282	0.175895597757741	0.293555370497739	-143.188054468483
130781.2	-0.221874428866607	0.153689080558012	0.269904790005013	-145.290236618818
111531.3	-0.218759802841288	0.133611518802659	0.25633550143496	-148.58474394082
95109.37	-0.212279384655545	0.117850818302605	0.242798996135344	-150.962346903274
81109.37	-0.211719322601994	0.100367805247917	0.234304861010887	-154.636209581433
69171.88	-0.208279774821039	0.0891983894275028	0.226576294602862	-156.816371287685
59000	-0.206105176810049	0.0770995431977144	0.220053819483321	-159.490250726001
50312.5	-0.206405593366716	0.072099923587915	0.218635925580517	-160.745085593117
42906.25	-0.198745489101903	0.0607999058649975	0.20783743164201	-162.990163417558
36593.75	-0.197347932155197	0.053209168199614	0.20439525901162	-164.910660651057
31203.13	-0.195788188710775	0.0468961351297891	0.201326258418413	-166.530011267435
26609.38	-0.194642007907668	0.041406643589379	0.1989975411297	-167.990366095665
22703.13	-0.19304415847874	0.0370683018219572	0.196570867940111	-169.130380220636
19359.37	-0.191338124071162	0.0330796638712406	0.19417657398591	-170.19132616988
16500	-0.189913076492264	0.0295023318508321	0.192190957662927	-171.169880788184
14112.02	-0.188430199387815	0.026514287875176	0.190286487967116	-171.990413646591
12011.13	-0.186707777216395	0.0237211679600969	0.188208628607931	-172.759380303436
10236.38	-0.185520953457713	0.0214141685730207	0.186752753092244	-173.415646161979
8750.684	-0.184352027393756	0.019602837484435	0.185391319218644	-173.930334149345
7449.463	-0.182367046185541	0.0167360041288622	0.1831333759003	-174.756596585703
6363.206	-0.181998035373849	0.0167469221624754	0.182766912437281	-174.742616415502
5414.761	-0.180891710963374	0.0156027441843178	0.181563368335516	-175.070176386978
4620.567	-0.180203699638966	0.0150662269409483	0.180832421202081	-175.220806991318
3941.215	-0.179698263516992	0.0147051741603281	0.180298940812496	-175.32176215482
3361.769	-0.178936022703778	0.0140865020793359	0.17948963692057	-175.498748817736
2867.244	-0.180953750419653	0.0136644870216278	0.18146894499198	-175.681579650162
2442.658	-0.179940523162523	0.0128726423986097	0.180400379152386	-175.908127162357
2083.003	-0.17336179413932	0.00960915183602661	0.173627899446522	-176.827437944644
1777.843	-0.0463235425863372	0.170909842315012	0.177076381253657	-105.165142789113
1513.548	-0.0468668882390757	0.169207676729249	0.175578310384068	-105.481587379364
1292.065	-0.0463142743623504	0.164880946499687	0.171262192349461	-105.689800242115
1101.762	-0.168551407814157	0.00894931515041201	0.168788824623538	-176.960707927792
939.101	-0.0476535659766156	0.166386158655554	0.17307575261266	-105.981894126072
801.2801	-0.170402289885114	0.0120913007320215	0.170830734797585	-175.941244122916
684.3433	-0.04662157004145	0.161310077395443	0.167912214750606	-106.120263433596
582.9476	-0.172579437760273	0.00944236481560071	0.172837555499269	-176.868289835437
497.0677	-0.0456785673296808	0.159346406443389	0.16576431690721	-105.995587817376
423.5089	-0.167792657442011	0.0113554836661819	0.168176463575451	-176.128372138805
361.5036	-0.0482101144761384	0.162782506139119	0.169771491843403	-106.497326958572
308.1262	-0.167111266009765	0.0064633493934983	0.167236210531	-177.785079603426
262.7298	-0.166721222378489	0.00655145403004576	0.16684989523906	-177.749670811687
224.2111	-0.16577697758493	0.00548534824919646	0.165867704338757	-178.104847348889
191.2854	-0.165931699041426	0.00659770783323958	0.166062814908779	-177.723028274213
163.1722	-0.165409994295848	0.00525678691550854	0.165493504469594	-178.179732932712
139.1537	-0.165115153515672	0.00641855713385866	0.165239861402098	-177.773849630642
118.6706	-0.163544228669106	0.00534974652978254	0.163631703892937	-178.126447857765
101.1982	-0.161618729072638	0.00529954248356906	0.161705592783893	-178.121921491184
86.24196	0.135847723752816	0.09224923204332	0.164208784361263	-34.1789951276161
73.61024	-0.0396429924046713	0.156576770514303	0.161517342448065	-104.207902200788
62.69291	0.140807160503045	0.104161341111916	0.175146342899768	-36.4919856395136
53.57697	0.132919952729877	0.0874742852060619	0.159120911278261	-33.3488136599392
45.65746	-0.159157296392294	0.0133877077184797	0.159719365491039	-175.191815326884
38.96512	0.130525633189828	-0.0955535578416294	0.161763479610817	36.2066411983825
33.18414	0.131690316748488	0.0887590900225719	0.158809683542761	-33.9799152121199
28.30617	0.131951447022886	0.0948196860419	0.162486790947812	-35.7008455159969
24.17237	0.128113102034788	0.09055509383021	0.156885920118965	-35.2540874048216
20.61345	-0.156593836514828	0.0111273847267555	0.156988688526562	-175.935457249185
17.55618	-0.156531558301125	0.00933337664835335	0.156809568151432	-176.587712403162
14.98558	-0.155493989951674	0.00803804811081024	0.155701609267609	-177.040807427551
12.76553	-0.0458228151921292	0.150910687590491	0.157714190931466	-106.890490597591
10.8809	-0.0410880357650738	0.148585763349108	0.154162108681313	-105.457580447748
9.278505	0.127969690503425	0.0862720707096164	0.154334415708446	-33.9862807732238
7.923394	-0.0405036079137745	0.148020605444306	0.153462183909039	-105.303512096637
6.75822	0.132026396139989	0.090802731612979	0.160237652710254	-34.518713263505
5.761429	-0.148031267554609	0.00809925707550411	0.148252669921993	-176.868289835437
4.919708	0.12235191573757	0.087978219244252	0.150698899617891	-35.7183551062161
4.191257	-0.146996477768381	0.0108508821537172	0.147396425057815	-175.778237630201
3.564097	-0.153660430094298	0.00999255168335857	0.153984995586937	-176.279289222043
3.051758	-0.0384649726048992	0.144811617621185	0.149833102869693	-104.875455327895
2.604164	-0.155310954744207	0.0105578955314909	0.155669399117524	-176.111068813392
2.214424	0.128113502345785	0.0854789499998735	0.154012078670423	-33.7117193977971
1.892567	0.127906478249758	0.0820938260687099	0.1519850764281	-32.6934416155568
1.607507	0.123301847580031	0.0827110785757516	0.148473796125153	-33.8537728239439
1.376413	0.130793091830215	0.0817798414547443	0.15425555205201	-32.0161424763547
1.17375	0.123636196806601	0.0853692730591873	0.150245871635312	-34.6246015936232
1.001604	-0.0340095094630552	0.146093195345365	0.149999561533148	-103.104671966264
