EC-Lab ASCII FILE
freq/Hz	Re(Z)/Ohm	-Im(Z)/Ohm	|Z|/Ohm	Phase(Z)/deg
6999984	8.48003003619303	4.74825071237343	9.71888852916272	-29.245914455209
5969734	11.9980585798587	-4.75563500702218	12.9061796828393	21.6217426923196
5091109	5.03215455653734	-27.7910266594579	28.2429414591961	79.7365882918532
4341796	-11.763643572893	-59.4904188865629	60.6423387527954	101.185377944135
3702781	10.2913238495491	-88.4251432914073	89.0220046543674	83.3615203743074
3157797	21.7468766523296	-33.6013093863583	40.0246753467084	57.0889245603062
2693047	214.352802760433	52.9489297509763	220.795636761751	-13.8753074655272
2296687	128.594030025583	-99.3874200259475	162.524717559006	37.6996259730446
1958656	8.10217523832559	17.428105340327	19.2193678185852	-65.0666914968827
1670375	-3.84621276893598	-94.091380963068	94.1699597759345	92.3408003480386
1424531	36.1622974561773	-9.53353639833705	37.3978618849723	14.7689611977487
1214875	2140.0403921856	-1900.40344633015	2862.04579610624	41.6057886596608
1036062	26.226171147883	-38.8685585580765	46.8889848201118	55.9908853234057
883578.1	35.1878865861086	-20.1246889078912	40.536285794782	29.7661429444539
753531.2	-3.6896463934108	-32.8084597387368	33.0152770840519	96.4165356237017
642624.9	204.470682852001	158.355898571048	258.621056293195	-37.7566180849263
548046.8	5.72246937997633	-35.3928036859425	35.8524365776781	80.8156397074231
467390.6	0.318797720265271	-45.8211301423225	45.8222391367566	89.6013745379591
398593.7	2.7386709061538	-46.3987030907524	46.4794574714035	86.6220512990584
339937.5	-8.35191537647133	-59.6992630155004	60.2806477656771	97.9639800367911
289906.2	-9.30851656314616	-70.8146541367385	71.4238316048101	97.4885396583915
247234.4	-13.9163981754478	-85.5740947566615	86.698280442	99.2368057786742
210843.7	-11.9609136536688	-97.3352657774504	98.06741262722	97.0055935328758
179812.5	-13.5193311551733	-113.735121958866	114.535803493411	96.7787595417835
153343.8	-14.6232847426345	-132.153227528321	132.959828530336	96.3143199530504
130781.2	-17.5026539776295	-189.079454870823	189.88781727775	95.2886682039867
111531.3	-19.6440386239582	-178.296478408393	179.375367501489	96.2872763451202
95109.37	-24.2988250468624	-207.521881523668	208.939618573839	96.6783773360765
81109.37	-26.2146431925902	-240.581049463085	242.005059613377	96.2186360012636
69171.88	-31.8799467618382	-278.831719988011	280.648283581087	96.522532815801
59000	-41.2320127930277	-325.257617369244	327.860635843466	97.2246925937338
50312.5	-42.3811294956808	-377.445791577902	379.817700637028	96.4065661580665
42906.25	-50.0389096065563	-434.620662290109	437.491728566502	96.5676818900573
36593.75	-164.262750234987	-510.96355993882	536.717812914863	107.82137512734
31203.13	-175.864024809322	-589.196632271509	614.882774764606	106.619366968935
26609.38	-185.24445376682	-682.593473215967	707.283081466257	105.183420142778
22703.13	-198.911141825391	-790.165067610745	814.816836113843	104.129693461753
19359.37	-215.917581102457	-917.505658873501	942.569379883535	103.242525611772
16500	-235.155623600276	-1061.07239191656	1086.81773458035	102.495961604717
14112.02	-231.820307355767	-1206.88826397014	1228.95074621052	100.873001354229
12011.13	-279.570969279169	-1417.3527448513	1444.66215088553	101.158277040425
10236.38	-321.893556011712	-1644.93528018359	1676.13470144692	101.072161483817
8750.684	-359.137307365715	-1889.32342013014	1923.15433374291	100.762821570226
7449.463	-399.960152978871	-2172.19537875367	2208.71023166229	100.43285517601
6363.206	-461.90741854837	-2524.7057396742	2566.6120733866	100.367881762042
5414.761	-525.636866185345	-2929.46631343148	2976.25049292276	100.172388562343
4620.567	-599.493978127886	-3385.9043352104	3438.56673586659	100.040493677904
3941.215	-689.582045473044	-3911.04858320478	3971.37563290441	99.9994126039933
3361.769	-1432.93066871318	-4588.05632702477	4806.61535399816	107.344502354452
2867.244	-1450.66941348165	-5258.20115525368	5454.64216391161	105.423489458938
2442.658	-1692.94500076715	-5987.86797392673	6222.58994702366	105.787145771507
2083.003	-1895.71197426609	-6977.80317305751	7230.73032350863	105.199119186365
1777.843	-2025.50484686655	-8086.96350888991	8336.76488086337	104.061339596794
1513.548	-2278.68682150155	-9435.60290285453	9706.8540614785	103.576903781011
1292.065	-2790.94113201157	-10711.8388839832	11069.4554824873	104.603586854106
1101.762	-3144.8216461271	-12287.7341839199	12683.7815560117	104.355668016152
939.101	-3609.41326226426	-14376.841218792	14823.003323489	104.093253345983
801.2801	-4282.9910383766	-16848.3386510958	17384.2033909185	104.2629634449
684.3433	-5343.60552638276	-19391.6594926154	20114.4370515093	105.406186133525
582.9476	-6118.16278781197	-21959.9873882929	22796.3365914822	105.568104006429
497.0677	-7726.50420032958	-25243.3894980442	26399.3859873233	107.018317481684
423.5089	-22794.0199344918	-39897.1700855598	45949.445324292	119.74015777321
361.5036	-25501.0811764681	-45838.6336524734	52454.6039570835	119.088189098131
308.1262	-28954.7926900343	-52965.5499880634	60363.3125769362	118.664200329734
262.7298	-32735.9913129284	-59826.7169377372	68197.3693538706	118.686602979524
224.2111	-39944.7655425155	-67025.1464186575	78025.3455403371	120.793540679558
191.2854	-50873.2696891049	-80032.8317976591	94833.2417162505	122.442284030827
163.1722	-60289.1201876647	-86863.9722962645	105736.122948068	124.763106875784
139.1537	-75120.5433170582	-99302.9039993296	124515.712948005	127.106733440987
118.6706	-88012.5526462801	-111148.916127532	141775.494989929	128.37371501336
101.1982	-121913.785273479	-119513.075790048	170723.010530232	135.569721145526
86.24196	-149066.227596584	-138510.443621274	203484.356160464	137.102154064382
73.61024	-375725.163494472	-162840.490325673	409495.328144844	156.567936787716
62.69291	-477362.222686971	-96171.6995105822	486953.475637457	168.609389697524
53.57697	335928.245266555	-311687.702395219	458254.306899866	42.8563950982488
45.65746	-607355.492292124	-108519.511139892	616974.212034384	169.869553072135
38.96512	-109001.439710411	-588030.199412303	598047.514232619	100.501552815646
33.18414	822928.645501933	-529298.117105198	978451.865120995	32.7486518286956
28.30617	837815.565828827	642151.519456095	1055601.01188131	-37.4686953337172
24.17237	-1070682.16893908	556646.408606179	1206737.55684418	-152.530131318091
20.61345	-94808.8529929414	1228982.84461325	1232634.39468461	-94.4112979323029
17.55618	1452334.94692885	696369.735412285	1610654.40317562	-25.6169201019873
14.98558	-266461.687574946	1903620.35396572	1922179.04550483	-97.9682772202546
12.76553	-523280.018996181	2557211.57059393	2610201.71539674	-101.564733300291
10.8809	-509803.37443594	2406277.96758884	2459689.64259513	-101.962022235434
9.278505	2579393.90128233	-429952.859792115	2614982.28667345	9.46348660639629
7.923394	-1853530.85875644	4244219.10745923	4631303.53966185	-113.591804969441
6.75822	305381.722721513	2652588.17961967	2670108.99538397	-83.4326817324627
5.761429	2175837.56173288	2726775.75072809	3488491.8073297	-51.4117951655643
4.919708	1922763.10148071	-277668.530434446	1942708.87093495	8.21734350903241
4.191257	-3804835.39381248	7008740.86879594	7974911.97067018	-118.496209104202
3.564097	5002152.76134975	-425119.529880596	5020185.14225968	4.85774130600978
3.051758	-4050979.90425659	8588415.15907314	9495857.68265763	-115.25229395551
2.604164	4680487.21668458	6668799.41161875	8147382.78086615	-54.9369581071523
2.214424	11228524.1635983	4622538.92680445	12142801.2016311	-22.3758983901605
1.892567	654297.497146574	6869860.19518575	6900948.07371928	-84.5594605323669
1.607507	6596494.26964929	7247539.85486934	9800029.11207081	-47.6924740159403
1.376413	-573462.506339964	11589080.884179	11603260.5325495	-92.832856502497
1.17375	-1245892.33823476	34690894.7078125	34713260.0506926	-92.0568424647718
1.001604	9885970.2384993	11601798.8481912	15242511.0815241	-49.565461589067
