EC-Lab ASCII FILE
freq/Hz	Re(Z)/Ohm	-Im(Z)/Ohm	|Z|/Ohm	Phase(Z)/deg
6999984	19.5710960563393	-0.417576084965509	19.5755503277225	1.22229831280392
5969734	13.9805744131995	-6.73623201835566	15.5188041655318	25.7260685619597
5091109	9.80775674985523	-5.59600599512328	11.2919163812785	29.7077585451301
4341796	8.57524258995944	-6.32790028889259	10.6572560982094	36.4246058028062
3702781	5.88753130341471	-4.6866177044215	7.52511862737626	38.5206401159994
3157797	4.13176313816159	-5.18937724196337	6.63333270605947	51.4733251031834
2693047	2.60691457529575	-4.32986886651642	5.05408428937603	58.9488200478143
2296687	2.25152306783739	-3.81381183681879	4.42882793204511	59.4440847659253
1958656	1.83023443810707	-3.37535065976925	3.83962891108474	61.5318856756025
1670375	1.23744884873053	-2.74244896559424	3.00870503408251	65.7141338053805
1424531	1.13611940903977	-2.45776341696042	2.70764996359312	65.190908746867
1214875	-0.233509924071139	0.909546970229496	0.939043436531753	-104.398697146567
1036062	0.802520504279581	-1.80966317019308	1.97962621455223	66.0844364283735
883578.1	0.751899357912274	-1.56346478356583	1.73487024698663	64.3162313768203
753531.2	0.686617256816449	-1.34569398020999	1.51074006557434	62.9678325017594
642624.9	0.518768689161725	-1.13622963278171	1.24905513539869	65.4599697274604
548046.8	0.577373040984386	-1.01023580795068	1.163587562722	60.2510385245876
467390.6	0.547948479490903	-0.876770215928689	1.03391176979278	57.9961631218502
398593.7	0.514382690332248	-0.762004784502192	0.919369807921531	55.9791282294496
339937.5	0.487964040454508	-0.661087384331387	0.821672340108151	53.5680989092273
289906.2	0.465972161066909	-0.572547228057297	0.738200774346289	50.8593034228755
247234.4	0.447973485920891	-0.497217560557722	0.669257459140416	47.9823906602765
210843.7	0.432583355928331	-0.428828641067292	0.609116050704492	44.7502612534301
179812.5	0.42120976581889	-0.369500739622597	0.560311041657088	41.2584329963628
153343.8	0.412605319350884	-0.320427833349782	0.522414726000216	37.832787094211
130781.2	0.406217028457202	-0.277478805308771	0.49194182745949	34.336209017022
111531.3	0.398942079350464	-0.242636132115941	0.466933694741187	31.3079208049494
95109.37	0.391487745141658	-0.211809610486518	0.445113430139499	28.4150568973338
81109.37	0.384941102129718	-0.183624517415268	0.426494566794035	25.5020649823754
69171.88	0.37619753511075	-0.158460020255091	0.408208480365912	22.8415526494193
59000	0.366536063291484	-0.135399935866829	0.390745221757042	20.2744381666474
50312.5	0.360609893900525	-0.105501397836839	0.375726017896652	16.3075648720592
42906.25	0.391315516074409	-0.104195027949536	0.40494991908875	14.9101208097351
36593.75	0.374561911214273	-0.0959102790920225	0.386646359051781	14.3625565040844
31203.13	0.368022405373591	-0.0840551381615097	0.377499347162765	12.865492269921
26609.38	0.363338411189169	-0.0720100884272294	0.370405526255707	11.2101885518983
22703.13	0.365485004998094	-0.0658156240933447	0.371363683271875	10.2082744442869
19359.37	0.36332803143217	-0.0572517860959679	0.367811127394964	8.9548089463012
16500	0.322887825367979	-0.0233479167527832	0.323730865052373	4.13584141316131
14112.02	0.345252136936833	0.000429083374476374	0.345252403571636	-0.0712078250324334
12011.13	0.354658066916038	-0.0410088394103221	0.357021104892137	6.59577554598701
10236.38	0.352251258906248	-0.0377127127036789	0.354264305428174	6.11092147101345
8750.684	0.350625595923396	-0.0334323685035528	0.352215888029478	5.44672129292364
7449.463	0.355520051650216	-0.0308804285212019	0.356858666688965	4.96424499279987
6363.206	0.357690304547402	-0.0289435980818956	0.358859423503326	4.62618270493883
5414.761	0.361115040312217	-0.0288916651798122	0.362268961762606	4.57430939799887
4620.567	0.360109756946395	-0.0285709673195689	0.361241383594914	4.5363222961817
3941.215	0.356115254613086	-0.0276887858049166	0.35719006624974	4.44593476625304
3361.769	0.353854468058634	-0.0278089682687394	0.354945521568071	4.49356589367785
2867.244	0.352445552246244	-0.0254771807793618	0.353365185096982	4.13454022600857
2442.658	0.349679339672966	-0.0280366283675583	0.350801501029203	4.584061139672
2083.003	0.344968078398027	-0.0239589368605806	0.345799082950081	3.97296211707711
1777.843	0.342301968571068	-0.0214502029336027	0.34297339385661	3.58572629940676
1513.548	0.338109650446754	-0.021981972597221	0.338823468556254	3.71981160149666
1292.065	0.333732247567414	-0.0196779679636342	0.33431188356021	3.37444352878991
1101.762	0.326631174376139	-0.0193940656072638	0.327206439201789	3.39800699107246
939.101	0.331976142581135	-0.0173610330755437	0.332429789147272	2.99361452518472
801.2801	0.320447665263331	-0.019543442069294	0.321043069230027	3.49002859663283
684.3433	0.327037736833884	-0.0107075136129692	0.32721297676162	1.87524617275516
582.9476	0.328263347085529	-0.0255364487470586	0.329255121834734	4.44822717039136
497.0677	0.328003614653412	-0.00935845095739702	0.328137093041957	1.63429392863305
423.5089	0.331072474420242	-0.00526345947102258	0.331114311566783	0.910823558468133
361.5036	0.333626087279107	-0.0823662654850598	0.343643081995145	13.8679793353275
308.1262	0.322894941602468	-0.0204725937086552	0.323543305301811	3.6278833880569
262.7298	0.325472887080754	-0.0138171036000898	0.325766039630555	2.43088345373918
224.2111	0.322296607448738	-0.0149650908533815	0.322643854919346	2.65848635419254
191.2854	0.309409972902557	-0.00796106466204456	0.309512374360241	1.47388522656146
163.1722	0.318632351047559	-0.0092857611162972	0.31876762773783	1.66927300202579
139.1537	0.313106337097861	-0.0137845253332398	0.313409622490284	2.52082235771425
118.6706	0.310925082476304	-0.0254544174955719	0.311965277367427	4.68018053938314
101.1982	0.319310063489524	-0.0113851785991588	0.319512971469733	2.04204793790483
86.24196	0.3120920891627	-0.0126309928419239	0.312347585388637	2.31761027059961
73.61024	0.317005717445191	0.00111691910817365	0.317007685082293	-0.20187170964871
62.69291	0.217787272815765	0.00720300073493233	0.217906354703381	-1.89428498732957
53.57697	0.294790392237939	-0.0175604960506506	0.295312963442756	3.40904846074243
45.65746	0.332543166917327	-0.0253156443999527	0.33350538183782	4.35338145585879
38.96512	0.292686730625279	-0.00957273357207774	0.292843233679996	1.87327176019314
33.18414	0.303158592421675	-0.0180046340876669	0.303692770753144	3.39881256973241
28.30617	0.296624396944207	0.00532526172870224	0.296672194981252	-1.02851367325037
24.17237	0.293465019321753	-0.0215109581899219	0.294252338797444	4.1922777559817
20.61345	0.293206734976661	-0.0309283062726632	0.294833426810071	6.02145984088173
17.55618	0.288990507973156	-0.0133382070509909	0.289298153236273	2.6425816187575
14.98558	0.291744787732119	-0.0110426685918866	0.291953697867469	2.16763570293515
12.76553	0.29651766083713	-0.0216395021566742	0.297306224694189	4.17397748400522
10.8809	0.297696547624304	-0.00940322430601823	0.29784501858312	1.80917783644083
9.278505	0.295960215033298	-0.0104020460507922	0.296142957783228	2.01293308754526
7.923394	0.280393673126712	-0.000179678954073757	0.280393730696705	0.0367156798218885
6.75822	0.282420720447469	-0.0110768068147131	0.282637858375834	2.24604325832541
5.761429	0.292669559921117	-0.00746674769730688	0.292764792325845	1.46144459395578
4.919708	0.297059898834441	0.00808349996184122	0.297169861303534	-1.55872996278002
4.191257	0.291156097428678	-0.0139223231873121	0.29148877191554	2.73764906795679
3.564097	0.29290675715758	-0.00310020280056199	0.292923163382437	0.606411081915127
3.051758	0.300445756741392	-0.0161101091492667	0.300877364320928	3.06929995809032
2.604164	0.261088534342636	0.0156220135659691	0.261555481825637	-3.42416251442018
2.214424	0.278638740449642	0.019247594491823	0.279302734632306	-3.95155698680882
1.892567	0.289439342248869	0.000481633009390425	0.289439742972201	-0.0953412657295797
1.607507	0.29524911867899	-0.00413174374369294	0.295278027267665	0.801750155966873
1.376413	0.286604807079029	0.00346654812846385	0.286625770643071	-0.692971253772311
1.17375	0.307686103176125	-0.0092262300839085	0.307824400282483	1.71754813401233
1.001604	4.31778734518422	-2.51753726843563	4.99812779510441	30.2448319935518
