EC-Lab ASCII FILE
freq/Hz	Re(Z)/Ohm	-Im(Z)/Ohm	|Z|/Ohm	Phase(Z)/deg
6999984	3.93919472118536	0.470462501702971	3.9671891834047	-6.81064044873902
5969734	5.83569439642886	5.2370566712418	7.84105169389346	-41.9053711020009
5091109	16.2024079915159	4.67432921844888	16.8631959712856	-16.0926369439497
4341796	2.43214549286669	-9.63160567643728	9.93393978262656	75.8280993965888
3702781	0.833647175133743	-10.134528988913	10.1687583037323	85.2975447640545
3157797	-2.12725415093728	-7.55313005935759	7.84697291420399	105.729277034199
2693047	-5.16102484255558	-7.32640577209195	8.96171852731483	125.16245845899
2296687	-4.17220217820992	-4.99730346296674	6.51001635303929	129.858191364764
1958656	-2.200148456742	-4.87735685283345	5.35063202823607	114.279869985613
1670375	2.37905479561537	-1.82045217450078	2.99565482660889	37.4232082143617
1424531	2.9250208510766	2.15958464940899	3.63587029983137	-36.438981313886
1214875	1.62264538534201	2.12037854464969	2.67001558407109	-52.5745385262689
1036062	1.32669798124085	2.32562742010618	2.67743728788898	-60.2965886693005
883578.1	1.43556427675785	2.20338709263044	2.62978316077081	-56.9147052835408
753531.2	1.61952134060843	1.98521470183275	2.56201615628376	-50.7927257270813
642624.9	1.64339104469167	1.78830544662	2.42873845775611	-47.4180616095403
548046.8	1.74473240498743	1.73750235801842	2.46231712196719	-44.8810388701687
467390.6	0.972601847691235	1.76125667313215	2.011959100674	-61.091624905824
398593.7	1.98237872387148	1.44415403789612	2.45263252241953	-36.0731706800068
339937.5	1.56254921004576	1.3029951916391	2.03454085809286	-39.8244113083975
289906.2	1.19294900278592	1.38899315811448	1.83096404020854	-49.3420768039014
247234.4	2.49137957027243	3.04320953205594	3.93295009111061	-50.6938962369992
210843.7	3.06440219154824	4.47068936368013	5.42011293038146	-55.571589079351
179812.5	2.98615788790574	3.71634296252742	4.76742529533801	-51.2174077744103
153343.8	2.79127427039359	1.93365111291613	3.39561756960984	-34.7122240292325
130781.2	2.31537126473834	0.858814889342835	2.4695155613466	-20.3507676041147
111531.3	2.50700453365928	0.510973684726652	2.5585476032842	-11.5201415303302
95109.37	2.31803837123155	-0.181570040266255	2.32513861307754	4.47878644735245
81109.37	2.44714803300382	1.67391641581628	2.96488274010519	-34.3731991722757
69171.88	2.72132498230865	2.67699962016173	3.81732060818622	-44.5295579107457
59000	3.42578935361841	3.13612164144202	4.64449046131933	-42.4723873247962
50312.5	4.38169093669362	3.32164684149123	5.49841369890368	-37.1648271670695
42906.25	5.30137021915754	3.58843412626748	6.40167053815889	-34.0936014978298
36593.75	6.1363638898113	3.25698584559921	6.94715183270192	-27.9579339796446
31203.13	7.34925223510775	2.85039598607252	7.88265600496779	-21.1987050338627
26609.38	7.95226892534709	1.90031629530569	8.1761716642476	-13.4396647355775
22703.13	8.44871401012347	1.08556484276964	8.51816995913524	-7.32174744988547
19359.37	8.96639582226076	-0.559374574404915	8.98382735564002	3.56980895890023
16500	9.10228896146418	-1.79797858427722	9.27816745524202	11.1738114614854
14112.02	8.59969878677518	-2.31774382016079	8.90655689024418	15.0836468075684
12011.13	8.21242175059903	-3.44152762470322	8.90438001217981	22.7367873165796
10236.38	7.23228056133755	-4.40283719538607	8.46704538118086	31.3320423281244
8750.684	6.06520632225136	-5.76174921217724	8.36567281905663	43.5302221132124
7449.463	5.02684365221315	-7.32630816744423	8.88504071280237	55.5445798488886
6363.206	3.98656702916269	-6.29247821982505	7.44902670319953	57.6439086694038
5414.761	3.256120608863	-6.08026588714863	6.89724254161659	61.8299383206296
4620.567	2.78824523584364	-4.54348722101767	5.33081491169555	58.4634102037794
3941.215	2.2301603210066	-4.61246795370317	5.12332662255014	64.1959102398428
3361.769	1.74339860866043	-4.36386205342903	4.69922660977708	68.2228868071403
2867.244	1.42173888628996	-4.65130723503754	4.86374346111116	73.0034747623734
2442.658	1.16791058592836	-3.71615132604536	3.89535567243765	72.5531299354005
2083.003	1.18805799679558	-5.15527480309861	5.29040075034145	77.0224872163185
1777.843	0.866940133982192	-3.5371070500769	3.6418005820765	76.2283677122672
1513.548	0.828836389683407	-3.72613218584184	3.81720196311774	77.4593675351058
1292.065	1.99588944643719	-5.64829350461073	5.99055875495993	70.538553031941
1101.762	-0.294673947100907	-4.87903506969444	4.88792552586557	93.4562345835993
939.101	1.76332375099801	-4.67244661578475	4.99410332574247	69.3241116893818
801.2801	0.30729895168416	-5.9159697619968	5.92394554925741	87.0265022066412
684.3433	0.997979658057685	-6.84670152612014	6.91905233291906	81.7069328535286
582.9476	-0.406919577504239	-7.6190228600394	7.62988157734831	93.0571694792907
497.0677	1.3290439096367	-7.47683944719358	7.59404278581919	79.9206796314288
423.5089	-1.52011558125489	-5.72306384961142	5.92150413384159	104.874996961659
361.5036	-3.192281062284	-9.65462526154183	10.1686993918307	108.296357139503
308.1262	0.0152182268442127	-13.2756385404659	13.2756472629974	89.9343203127097
262.7298	-1.56621623996692	-10.944234059475	11.0557357267126	98.1442325591392
224.2111	-5.01865704317482	-13.9753867435537	14.8491869524532	109.753560699859
191.2854	-6.46159244821274	-29.7403755570062	30.4342260496069	102.25795493662
163.1722	-16.3714403743982	-10.1689538698273	19.272562952009	148.153936974661
139.1537	-12.2897446962601	-45.3713529131241	47.0063558454227	105.156032760171
118.6706	-8.2152427651842	-57.376114142207	57.9612688590448	98.1483578552642
101.1982	-13.6720442340789	-111.421136098772	112.256823236183	96.995566771461
86.24196	-23.4945032116933	-98.7314685979943	101.488396246472	103.385363990098
73.61024	-7.89085944307642	-119.539820599736	119.799976509879	93.7766325826365
62.69291	55.9622983983025	-143.750244375749	154.259235056149	68.7289231317998
53.57697	-24.2033036157726	-184.472403883438	186.053400131391	97.4746740797494
45.65746	19.444491814109	-152.119556646526	153.357255375299	82.7157396434154
38.96512	22.7683971956455	-19.6701239307926	30.0884311041872	40.8244633031748
33.18414	24.8265190554604	-13.062685586998	28.0533385385038	27.7514858269031
28.30617	5.94539302645895	-19.330683801211	20.2243178985465	72.9040665849182
24.17237	13.6433644566234	13.3171382252628	19.06534983175	-44.3067460833752
20.61345	-41.4014571234111	-378.787943347377	381.04381201809	96.2376582000619
17.55618	30.5222860001231	-432.183801679886	433.260254785911	85.9602850456823
14.98558	-216.971652901118	-496.153761780194	541.521240110931	113.62010908452
12.76553	-468.974023235797	-423.140190433554	631.65200484928	137.941078868013
10.8809	-191.987661240964	-811.462191294743	833.864587309979	103.311108659849
9.278505	-175.26712149382	-902.811277762725	919.666660878981	100.986446997665
7.923394	59.6038646545182	-862.17293423501	864.23074997894	86.0453119824797
6.75822	-132.107223703726	-1368.92156157643	1375.28126588838	95.5122363356468
5.761429	303.01309846398	545.115592224179	623.672948528841	-60.9316550894235
4.919708	186.245931672912	-1905.68566524618	1914.76510355434	84.4181118443082
4.191257	-303.143215752603	-2143.36116867884	2164.69233579674	98.0501528891787
3.564097	244.289297416567	-1431.89807134974	1452.58712219522	80.31825504547
3.051758	582.126898966338	-2787.85643966874	2847.98441967344	78.2056450632637
2.604164	678.547573818702	-1753.47358294741	1880.1852079063	68.8448897895343
2.214424	825.169754282174	-2690.93795756216	2814.61404367116	72.9519658565911
1.892567	-1931.78482239679	-3441.79356046271	3946.86400993057	119.304308778454
1.607507	-1043.81495276181	-3828.92598422007	3968.65516872463	105.24902381032
1.376413	-1792.61012439546	-4732.57265476029	5060.70103747198	110.745751713688
1.17375	-1698.01467045496	-2877.34950184418	3341.01690759613	120.5461947994
1.001604	341.57014720631	-5978.05018315882	5987.80044405521	86.7298246603225
