EC-Lab ASCII FILE
freq/Hz	Re(Z)/Ohm	-Im(Z)/Ohm	|Z|/Ohm	Phase(Z)/deg
6999984	20.4400846547359	95.5512184377671	97.7130104215127	-77.9254114056652
5969734	18.3720310333446	95.3432749494969	97.0972275731163	-79.0931566879213
5091109	15.4415475994465	100.960471397072	102.134510215621	-81.3042008193312
4341796	14.2401041314939	111.018444511836	111.927992868198	-82.6907013877682
3702781	17.0711533948293	123.126178913054	124.303983089679	-82.1063990282938
3157797	16.1178223066152	136.934719016137	137.880025630749	-83.2869212693814
2693047	16.2377860695444	155.668254175234	156.512846291944	-84.045001728119
2296687	17.1684420246424	179.449862924225	180.269267222887	-84.5349952345148
1958656	19.1873888208026	206.212987579949	207.103723135073	-84.6841361485874
1670375	21.0618891594228	238.570744358377	239.49864976378	-84.9548014110072
1424531	24.1645626215878	276.189922517992	277.24501688432	-84.999778597925
1214875	27.6008399198981	320.263176172	321.450320230142	-85.0743204070715
1036062	31.7735343567712	371.651986476456	373.007716458274	-85.1135107202584
883578.1	36.8993284362582	431.704552229425	433.278641124456	-85.1145993400692
753531.2	43.418048952253	501.317396609276	503.194057117055	-85.0500842923375
642624.9	102.020315939251	667.126570508457	674.882216347948	-81.3054040307009
548046.8	125.187446739061	759.067598201867	769.321464318393	-80.6349288188388
467390.6	151.852890402434	870.845308343732	883.985775557426	-80.1085524924522
398593.7	180.64733744224	996.794920048818	1013.03187173953	-79.7278793333672
339937.5	212.817003744059	1142.51978552359	1162.1714750395	-79.4484478166819
289906.2	246.729270851078	1309.81150979783	1332.84714963629	-79.3321946800499
247234.4	284.59283123456	1504.80319245733	1531.4782817983	-79.2905406483439
210843.7	330.161851157	1732.59729744684	1763.77443089515	-79.2111286979387
179812.5	387.630084693555	1993.71439421216	2031.04755440347	-78.9974727361345
153343.8	453.630238746502	2303.01897804441	2347.27007537222	-78.8569834847684
130781.2	535.128802937949	2657.09994106944	2710.45068808954	-78.6131899429402
111531.3	639.787634029846	3069.69016138339	3135.6539833903	-78.226901797463
95109.37	770.209184753628	3546.24827120997	3628.92532154335	-77.7462475031278
81109.37	944.5666103537	4088.69009672823	4196.37853255382	-76.9917766784995
69171.88	1161.59743643465	4718.50498268491	4859.38245829178	-76.1699833129434
59000	2141.12001483291	5785.86133817414	6169.32624704645	-69.6924662558714
50312.5	2491.84490387202	6549.29370448578	7007.32039031826	-69.1694130846964
42906.25	3281.03274373827	7463.70567318243	8153.04104254224	-66.2697882750984
36593.75	3844.33345928674	8249.17393705211	9100.97634267507	-65.0132345345969
31203.13	4627.55826235474	9205.19969381545	10302.9120579818	-63.3108050379247
26609.38	5525.18607338929	10234.0764122919	11630.3052908428	-61.6362212900959
22703.13	6659.61963949355	11282.6381751335	13101.4677778372	-59.4486111325069
19359.37	8042.24221575518	12323.426927985	14715.4514407904	-56.871618857347
16500	9644.75836659322	13360.7797125359	16478.2219452489	-54.1755774115148
14112.02	9492.8942750488	18541.2722110601	20830.1180246748	-62.8881340724567
12011.13	11231.9560037002	14532.2727337206	18366.9209851923	-52.299656294477
10236.38	15585.5760475468	15239.5536447606	21798.0314713371	-44.3568627017153
8750.684	17795.3734926163	15253.0021843473	23437.7770570806	-40.6009696560281
7449.463	19991.8224659822	15035.3878586454	25014.7127421294	-36.9459802076414
6363.206	21988.7217991805	14667.9028280527	26432.0120258552	-33.7058580395529
5414.761	23861.5266200089	14173.5965387811	27753.6176287262	-30.7100450753083
4620.567	25574.4818282809	13369.5674765817	28858.2649391113	-27.5992108336912
3941.215	27034.4212663345	12412.5284092843	29747.7863834761	-24.6616504884775
3361.769	28334.283485593	11774.0535502057	30683.2194797915	-22.5648827893065
2867.244	29266.0332305089	10977.4140294321	31257.0683177873	-20.5605962078475
2442.658	30291.5895080238	10230.5262874423	31972.5517130032	-18.6616192691337
2083.003	31220.5851603465	9755.44356761034	32709.228314885	-17.3523706002141
1777.843	31588.2452161244	9115.2060054776	32877.1077857572	-16.0961950118574
1513.548	32460.7746066098	8564.20303306551	33571.5275442255	-14.7796984268294
1292.065	33531.2262909417	7036.07884576438	34261.4877391241	-11.850812662634
1101.762	34045.976364141	6470.80453609776	34655.4442754964	-10.7613276856148
939.101	34059.3390679997	6752.78422815862	34722.3079961722	-11.2143310367571
801.2801	34506.9369730908	6990.98669436063	35207.9904883194	-11.4529106626495
684.3433	34957.8065214605	7225.06092788	35696.6348862668	-11.6774413634054
582.9476	35342.7838260385	7636.63148142604	36158.4085512235	-12.192645012787
497.0677	35810.7477506464	7919.39100214233	36675.9649948742	-12.4700138814099
423.5089	36205.0347713277	8423.09047099712	37171.9382851587	-13.0968698163287
361.5036	36582.059989244	8962.90434324575	37664.0513928444	-13.7667434225059
308.1262	37168.1600832606	9665.81050115357	38404.4270445362	-14.5772323307641
262.7298	37594.6152312952	10494.9694584584	39032.0314398714	-15.5976873526259
224.2111	38187.7084534306	11355.5709809846	39840.3070925463	-16.5604741724078
191.2854	38796.7137873296	12507.3498320526	40762.9586820844	-17.8683706609309
163.1722	39453.7855520485	13690.4804881527	41761.5906112725	-19.1367960869474
139.1537	40173.032412004	15178.3310092205	42944.78158521	-20.6977623040019
118.6706	40848.267171108	16614.3678652274	44097.8247813123	-22.1332335751888
101.1982	41714.4669774946	18592.2082096134	45670.1977368842	-24.0226134708342
86.24196	42679.6754439363	20642.885375281	47409.7396387781	-25.8116684565523
73.61024	43528.7687479131	23008.9415504537	49235.8111538898	-27.8605540727842
62.69291	44621.9126132679	25923.9377473066	51605.8682088805	-30.1552500422831
53.57697	45867.9616092972	28943.235821251	54236.3420779509	-32.2524188119107
45.65746	47127.0697096763	32510.250695912	57252.7475299809	-34.599557608398
38.96512	48621.7249421881	36715.3771229993	60926.932087853	-37.0572887185014
33.18414	50198.3884231292	41454.6505763861	65102.7361536335	-39.5504515386557
28.30617	52058.6006488322	46957.4548666606	70107.777521963	-42.0508221678728
24.17237	53921.3991850056	52983.5341301347	75596.1121949262	-44.4973634122373
20.61345	56008.4121929201	59902.901482868	82007.9254855177	-46.924349607054
17.55618	58871.1133509103	68183.7208029379	90082.3388334734	-49.1920535348244
14.98558	61635.7920399057	77281.1966465031	98850.160422237	-51.4258097132332
12.76553	65087.6476356848	87842.0352386298	109328.06149206	-53.462943965087
10.8809	68960.3385442121	99808.831592163	121315.007958311	-55.3584659682962
9.278505	74076.7830826028	113155.93645115	135246.573878985	-56.7895025461488
7.923394	79343.5258747965	128359.290408703	150902.294656079	-58.2782875401727
6.75822	85570.2972521021	145835.925940092	169086.939373262	-59.5974082719024
5.761429	93048.0788066756	165214.261119548	189614.601354673	-60.6119446397405
4.919708	101412.334999935	187277.068776978	212972.209876866	-61.5640286079094
4.191257	110896.208877642	212367.694133896	239578.810947841	-62.4269030473764
3.564097	123495.583150455	241231.527017246	271005.182025627	-62.8903686078577
3.051758	135177.196461392	271169.63682895	302994.795963737	-63.5038918148838
2.604164	150389.886011768	307151.55736511	341992.97800751	-63.9123534270326
2.214424	168542.169238045	347295.934115234	386032.289665565	-64.1127740637693
1.892567	188216.679669375	391190.775164145	434114.893869455	-64.306032728067
1.607507	211140.955631161	441580.030071495	489462.384768005	-64.4452614722838
1.376413	238093.889372507	497657.786630311	551681.042587388	-64.4321980345548
1.17375	267907.154453989	557699.030052679	618710.313094369	-64.341326928247
1.001604	303412.8966396	627022.932634018	696575.296645092	-64.1779193650757
