EC-Lab ASCII FILE
freq/Hz	Re(Z)/Ohm	-Im(Z)/Ohm	|Z|/Ohm	Phase(Z)/deg
6999984	12.5089251416663	17.2718619558766	21.3258158958261	-54.0865454997294
5969734	7.44458637310053	7.59998937790331	10.6386890550856	-45.5918159333403
5091109	43.567401522088	-1.31852098873642	43.5873487721446	1.73346662043445
4341796	188.12920657128	-599.465832537375	628.29283200182	72.5766785007804
3702781	306.903382117698	102.336540339508	323.515770008112	-18.4408987377154
3157797	11.522502993659	-68.3055154579235	69.2705674670816	80.4248824911439
2693047	772.968788331379	-96.9739225300353	779.028041462784	7.15076538466253
2296687	614.713576177526	-449.912248950835	761.770183515318	36.2006022232218
1958656	186.209300818847	-116.218849025851	219.501081045943	31.9695323597208
1670375	309.459451967877	-11.1256700651551	309.659382138919	2.0590080615985
1424531	380.748706574845	-9.76633882316248	380.873940999416	1.46933479575253
1214875	-717.425798872637	-3489.1183417253	3562.1126567603	101.619106995049
1036062	788.853951256647	423.585860584211	895.385692146178	-28.234179850989
883578.1	14.6896093324006	-340.850092545328	341.166484594394	87.5322520524032
753531.2	93.6450198510195	-260.710018051183	277.018236322351	70.2421046687404
642624.9	2826.55180418126	-1628.66576084957	3262.19975818221	29.9506468136419
548046.8	-11.5640595003077	-240.133230643202	240.411513724422	92.7570541862012
467390.6	180.225884297944	-235.184133052484	296.298744193465	52.5363967258471
398593.7	44.9620296147828	-115.93157454442	124.345140972332	68.802089842238
339937.5	10.7901474778954	-53.6872128424616	54.7607898535668	78.6359936631864
289906.2	-12.1274142911887	-181.535104901604	181.939738619759	93.8219535442313
247234.4	150.840640265876	-65.5580227048864	164.471131499707	23.4906221580553
210843.7	-22.9724231116024	-81.6564723536837	84.826362063137	105.712890441258
179812.5	107.463124006182	-142.994385004131	178.873466908532	53.0744098250529
153343.8	181.322114883838	-33.1470626074737	184.326984203213	10.3597129191179
130781.2	310.858116728806	-362.725237863612	477.705313890681	49.4031884823301
111531.3	54.9039304948795	-175.401454077397	183.793666039534	72.6189054902815
95109.37	3.14898887162176	-195.132113681418	195.157520789467	89.0754565778086
81109.37	132.774374323476	-244.062802557517	277.841116592236	61.4530466829925
69171.88	-226.239713468726	-302.064586424068	377.395578037097	126.832401248678
59000	237.576652785664	-520.531140400675	572.184702762724	65.4674754745767
50312.5	166.98352904065	-405.008740321701	438.081703233358	67.5938364438662
42906.25	-153.794720300126	-356.790119521125	388.525424367689	113.318504101163
36593.75	-194.473471191826	-385.149516255843	431.462722456423	116.790571043877
31203.13	-215.99004537608	-458.378955961209	506.717837627263	115.230005897279
26609.38	-225.725309846814	-601.085674279724	642.071571812482	110.582630629414
22703.13	-259.680089525607	-531.027350197449	591.120796076192	116.059305009951
19359.37	-222.184291313385	-660.363596192837	696.739505470421	108.595899474798
16500	-207.614639991279	-797.948971813744	824.515858159999	104.584163584851
14112.02	-156.873252995799	-837.504741512776	852.070073152359	100.609154289572
12011.13	-346.141696676706	-973.748149760213	1033.44062884119	109.568953698268
10236.38	-408.014527524591	-1184.14806203699	1252.4705535449	109.012096017181
8750.684	-486.520912674191	-1345.89478068116	1431.13079735365	109.874168315735
7449.463	-577.487837152574	-1484.59785257681	1592.96044707169	111.255340376677
6363.206	-686.703759540543	-1697.65087330787	1831.27838981682	112.023447596829
5414.761	-687.539275520323	-2012.73792833915	2126.92835411961	108.859861131014
4620.567	-1054.11372218772	-2209.13278350715	2447.73842443806	115.508692568831
3941.215	-1221.4248128645	-2602.91448411083	2875.24649118558	115.138447241617
3361.769	-1450.12469163092	-2796.58527072689	3150.1985330649	117.408276842807
2867.244	-1812.45566030296	-3078.11975602151	3572.0885701469	120.490388710155
2442.658	-2593.01833406044	-3325.67579563089	4217.0918389832	127.943423709216
2083.003	-2843.58742580758	-3557.24191642557	4554.11456818843	128.638135035812
1777.843	-3547.11094373476	-3761.59900232231	5170.26334933097	133.319028334693
1513.548	-4344.21872733278	-4128.33780221553	5992.94663417844	136.459581897143
1292.065	-5396.78295411297	-4572.94608747878	7073.69084515233	139.723837047563
1101.762	-6182.47332152314	-4562.31087593809	7683.59661226748	143.574800980196
939.101	-7097.36219731367	-5179.60468280853	8786.40169978753	143.878296724277
801.2801	-8640.59865662157	-5331.35485634938	10152.994127307	148.324907580728
684.3433	-10589.6693285804	-3686.63772956019	11213.0457163829	160.805188865827
582.9476	-11459.6089708189	-3302.83794856898	11926.0796693038	163.922193862897
497.0677	-14470.9419705518	-5026.11817663721	15318.9433526142	160.846613714415
423.5089	22534.2043126552	-49264.085266125	54173.244882622	65.4198626818013
361.5036	-73203.2185267557	-154414.602735259	170887.626060414	115.364192612899
308.1262	27524.1945823086	7788.58810716499	28604.9539784258	-15.8000503162882
262.7298	25599.4201042227	-140582.868966033	142894.623259216	79.6798081743558
224.2111	109500.727387157	53405.4865549696	121830.026235282	-25.9993293231915
191.2854	-868872.071727763	-777565.176165726	1165995.83198832	138.174215394852
163.1722	-1011109.71134986	-592415.045257489	1171878.16526866	149.633715072145
139.1537	8531.59224048113	509504.179431704	509575.604718801	-89.0406780396441
118.6706	-1332538.24893592	-1765310.18197145	2211781.68530469	127.047203126073
101.1982	-592811.928265119	-1817629.89923773	1911858.89460922	108.063507091562
86.24196	-618961.84090177	-1943573.71534344	2039753.06041355	107.66490035349
73.61024	-610304.24998992	-2075883.8571887	2163738.67786579	106.383193765782
62.69291	-1133405.02658879	-3030670.19161905	3235671.30046687	110.504708369276
53.57697	-1253063.22420316	-3402993.83339513	3626366.56640992	110.214906316499
45.65746	-1518305.63973033	-3502180.49719141	3817135.08413638	113.438252280346
38.96512	-1134072.58621348	-2740663.55578613	2966033.94397555	112.479522001753
33.18414	-1156553.69858596	-2854610.03853726	3080002.42367284	112.055475937577
28.30617	-1852749.17637215	-3229077.94119481	3722851.57652821	119.845925782191
24.17237	-1078249.79295371	-2381713.89690064	2614418.42532796	114.357219287956
20.61345	-421311.781825132	-2647291.14441419	2680607.02468647	99.0426876776839
17.55618	-1590026.20179836	-3650555.85679449	3981801.27404443	113.535884288636
14.98558	611265.698624386	84804.1685227071	617120.329687482	-7.89853260308777
12.76553	-726524.796584507	-857246.352257625	1123703.51450512	130.281607175366
10.8809	2437009.81637948	89269.4745886261	2438644.27176726	-2.09784887053042
9.278505	328309.841563727	-3995127.31558041	4008594.4693576	85.3021284264155
7.923394	-2789770.5221358	-9749025.73327807	10140331.4696461	105.968945279902
6.75822	2158700.27034622	-3106507.18116834	3782905.46060079	55.2047070143949
5.761429	-2613680.28942566	-3631822.12808928	4474534.23558376	125.741088536292
4.919708	-556308.266213048	-2817757.06119319	2872147.9319424	101.16824650606
4.191257	723079.440818264	-3215564.94851456	3295861.31623427	77.3267851013125
3.564097	1432843.65044689	-1645418.5811218	2181843.99848542	48.9503913959941
3.051758	-927258.323381616	-2675237.47914577	2831378.3866002	109.116718110572
2.604164	2281088.69726019	-2697571.3051517	3532740.6628772	49.78186201871
2.214424	2544562.42332863	7672136.81992406	8083098.49685444	-71.6512370700851
1.892567	1141659.38060056	5577611.0113027	5693253.08893943	-78.4321352796789
1.607507	2708008.13443661	2876683.78931032	3950774.3139612	-46.7299908637897
1.376413	47710.0943419827	-1558955.94563189	1559685.83167353	88.2470741976084
1.17375	8399529.07630447	3049638.94772682	8936016.24971534	-19.9545730183597
1.001604	-3594387.11204268	15807690.6060911	16211190.610474	-102.810228955346
