EC-Lab ASCII FILE
freq/Hz	Re(Z)/Ohm	-Im(Z)/Ohm	|Z|/Ohm	Phase(Z)/deg
6999984	26.5879169658365	42.816535609061	50.40012946555	-58.1608311921708
5969734	29.7740051499047	40.0803461846991	49.9292052104965	-53.3928941450543
5091109	10.6734879867622	5.62823481366112	12.0664979559632	-27.8031207834003
4341796	154.266681353311	109.649164785206	189.264757189122	-35.4043283978608
3702781	-34.8646088082761	-75.918181152408	83.5410747886569	114.666444609988
3157797	87.905142541088	-154.18270527837	177.481324910892	60.3109699099583
2693047	120.24305260708	-288.955849349722	312.975837044473	67.4063646532994
2296687	135.88959078773	-29.5771533787897	139.071164827397	12.2792418539431
1958656	-11.1747227777981	-48.0256137483095	49.3085591460798	103.098655909415
1670375	13.9784836106043	-43.7715039145543	45.9493477537361	72.2890536876247
1424531	21.1220916190817	-18.8567963885358	28.3146874325601	41.7569578443281
1214875	242.52315604881	38.5100423985486	245.561610569351	-9.02261850135493
1036062	-14.4088829188387	-30.6890169252616	33.9032692643024	115.150651242653
883578.1	2.78234240941067	-41.1766460186383	41.2705416323489	86.134349623843
753531.2	-1.64336027886145	-33.6924707206305	33.7325246055893	92.7924056821607
642624.9	29.2505679061061	-51.2398421285469	59.0009927390051	60.2798583016827
548046.8	-7.82292203297687	-47.1494681430166	47.7940420481818	99.4205533435727
467390.6	-8.15462643968807	-55.4516849569027	56.0480802252	98.3658526342958
398593.7	-9.25756634048988	-65.3802550791291	66.0324184682082	98.0592629181213
339937.5	-12.1822007009031	-79.0741548084124	80.0070495180384	98.7581568366219
289906.2	-12.5622013115539	-88.7884913404614	89.6727667483679	98.0530176781544
247234.4	-13.7023264435576	-105.623377136759	106.50845763478	97.3915951994554
210843.7	-16.1086599097417	-123.243015763682	124.291310471066	97.446713739347
179812.5	-18.6978496353207	-143.755766860969	144.966651636748	97.4106746940332
153343.8	-20.1951044091049	-166.379788252212	167.600943257923	96.9206811876374
130781.2	-25.6993997587338	-190.764542230747	192.487843045907	97.6725737021875
111531.3	-24.9369383654744	-224.251719884817	225.633961908091	96.3452596739875
95109.37	-30.4284697952937	-261.449076515479	263.213813058661	96.6384421777559
81109.37	-38.1010474437191	-304.393668238166	306.768960424283	97.1346236283392
69171.88	-47.204381318407	-348.505587689841	351.687927382637	97.7136547760984
59000	-54.6149864062272	-404.058855808539	407.733191802504	97.6977838451733
50312.5	-60.9151851207056	-467.906082559323	471.854598233716	97.4174355960158
42906.25	-188.290841523416	-562.577922441772	593.251514806744	108.50502836849
36593.75	-203.845585400684	-637.571506964582	669.365706606214	107.730217542134
31203.13	-209.321196873073	-732.344124596033	761.671372896938	105.951183588253
26609.38	-245.072180349153	-847.14325386469	881.879847909874	106.134759265813
22703.13	-268.061098854508	-978.56556041544	1014.6168285369	105.319383027563
19359.37	-301.403942339763	-1130.91305819627	1170.38826107271	104.923240008009
16500	-340.594292111788	-1305.19312391182	1348.90087201611	104.625359250321
14112.02	-387.56209768883	-1509.5533458201	1558.51072612338	104.399098217023
12011.13	-450.687182758378	-1717.65652315984	1775.79921957867	104.702135594868
10236.38	-499.438789916635	-1979.04710474942	2041.09444849827	104.163612563225
8750.684	-624.432105359199	-2280.49368436746	2364.43796675726	105.313080491816
7449.463	-796.966010229246	-2603.69708424585	2722.93836286667	107.0188331437
6363.206	-870.05467403805	-2999.88292290306	3123.50647301088	106.173720395882
5414.761	-1059.33825696203	-3497.81862599284	3654.71376211678	106.849294932121
4620.567	-1848.31025315114	-3895.57778873844	4311.81830554303	115.382641853902
3941.215	-2184.47053524822	-4393.72598113115	4906.80542885435	116.435623689793
3361.769	-2414.95197790161	-4992.30963010966	5545.73245824721	115.81465203143
2867.244	-2817.32732164916	-5663.06799122891	6325.16184066402	116.449947634671
2442.658	-3258.87796891304	-6449.71188952278	7226.27629378495	116.806327383243
2083.003	-3820.64173370498	-7191.48859133633	8143.39065848181	117.980489792804
1777.843	-4629.53722070792	-8103.09036816345	9332.3463497956	119.740616139446
1513.548	-5391.96094560574	-8853.99807992138	10366.6062353207	121.340829965467
1292.065	-6293.5115351752	-9689.41794674707	11553.921740696	123.004699402527
1101.762	-7619.64678839959	-10790.8638354398	13209.9114113218	125.226687027824
939.101	-8838.24189342387	-11640.8063785389	14615.8439000047	127.207459421371
801.2801	-10588.3270494151	-12429.4102438074	16327.9793212215	130.426909272211
684.3433	-12237.6212985383	-12876.2151400589	17763.9041705229	133.543398607266
582.9476	-13945.846661735	-13392.618069092	19335.1715238628	136.159294716715
497.0677	-15868.586345385	-14051.4804725894	21195.6631430229	138.475419307752
423.5089	-17420.7265122973	-13991.2251971247	22343.5918046521	141.230773344536
361.5036	-19197.2337319812	-13840.8940574632	23666.5192047804	144.209007963626
308.1262	-20853.3699515801	-13615.0007473043	24904.4430511217	146.859797202799
262.7298	-21961.2652274699	-13202.3133928359	25624.1731440048	148.987246791899
224.2111	-23171.6535054287	-12727.7377164298	26437.1109154135	151.220865460437
191.2854	-35517.2394021917	-13090.1098974621	37852.6785297981	159.768307143978
163.1722	-36257.6580198227	-12683.7027437702	38412.1605793626	160.719073309218
139.1537	-37818.3738991591	-13076.2121859705	40015.2062284967	160.926484031056
118.6706	-38357.0106131314	-12998.0146692672	40499.4894846633	161.280056286431
101.1982	-38327.456269673	-11982.3696814817	40156.8311410075	162.639112176481
86.24196	-39437.1610048252	-13868.8601635468	41804.7240196191	160.62476445614
73.61024	-43366.6794379086	-10655.9806718637	44656.6770992811	166.194888253063
62.69291	-200157.378593427	-562235.0689678	596800.845326663	109.595882714639
53.57697	80124.1519579363	-578352.634072134	583876.398791006	82.1125296767017
45.65746	-5238.64206555735	-40681.7073327809	41017.6142919242	97.3376798709336
38.96512	-49117.085223197	-19772.8209665804	52947.6393222515	158.072008295714
33.18414	-44132.0540033724	-16726.0865232732	47195.3404579372	159.24324862052
28.30617	-54930.559000227	-28713.7695594851	61982.6336516337	152.402648208674
24.17237	-49542.925332279	-29424.5164854566	57622.0758119896	149.29309166294
20.61345	-39820.5159671617	-18488.9892060296	43903.487489625	155.094174747081
17.55618	-38652.8673860339	-19944.6411814802	43495.205126776	152.706545023211
14.98558	-49621.5075541077	-32093.9442345681	59095.8143058705	147.106226350485
12.76553	-53616.9845111128	-40162.6243653227	66991.1742244821	143.164391311544
10.8809	-56152.2071073085	-43879.9140087736	71263.7159881481	141.994296902328
9.278505	-56407.583052762	-45502.7566536138	72472.8658804952	141.107644714363
7.923394	-57486.9745097918	-56246.265136286	80426.3301417567	135.625011572756
6.75822	-65835.1231385484	-66572.0415234908	93627.4540467336	134.681120901057
5.761429	86965.262727618	-141962.965619533	166482.553226385	58.5087311653743
4.919708	174254.169298857	34978.5679505945	177730.176767788	-11.3503111102755
4.191257	62194.1783484793	-243740.590483466	251550.375212741	75.6855474971602
3.564097	40178.9390105531	-209091.665175309	212917.05329963	79.1226640143705
3.051758	-335419.430247549	-73362.0886722073	343348.496781242	167.662691532629
2.604164	-117383.203749149	-109900.259852112	160800.757578987	136.885690609382
2.214424	-136336.635829947	-88432.6382005802	162505.414582229	147.031168879323
1.892567	22502.2652058063	-69455.424912635	73009.6431246388	72.0486405967878
1.607507	202597.960624989	-128125.056315007	239712.251887817	32.3096859435341
1.376413	-276817.861667722	-283160.158412944	395989.651191459	134.351097211062
1.17375	-187027.555666238	-110763.828936721	217365.895161157	149.364596795772
1.001604	15125.8832946417	-253992.079646166	254442.073699353	86.5919137190345
