EC-Lab ASCII FILE
freq/Hz	Re(Z)/Ohm	-Im(Z)/Ohm	|Z|/Ohm	Phase(Z)/deg
6999984	12.3740909862669	-2.97788928314758	12.7273702043705	13.5312233912394
5969734	8.5362720276585	-1.97271205131098	8.76125179227104	13.0124788626838
5091109	6.37780656937131	-1.04987739128463	6.46364132459764	9.34786372333889
4341796	5.2588805703419	-0.553505554446051	5.28792901351013	6.00835056652913
3702781	4.62977614190682	-0.226253954984388	4.63530128215154	2.79777926968239
3157797	4.38644100156608	0.00499891753629575	4.38644385002208	-0.0652959319107145
2693047	4.18425711424405	0.0934946206064759	4.18530152344897	-1.28002552953674
2296687	4.0619886464352	0.172137984376499	4.06563442151821	-2.42661491816546
1958656	3.97568510933987	0.20801000441493	3.98112298862563	-2.99501540699381
1670375	3.92354293558652	0.22344352319368	3.92990027550931	-3.25944115902464
1424531	3.88285794913584	0.218210291977046	3.88898464701162	-3.21654610073437
1214875	3.85539501259586	0.203065640741154	3.86073909473285	-3.01501220700167
1036062	3.8363436687311	0.18667791024587	3.84088289157415	-2.78583653740068
883578.1	3.82299048145264	0.167436783040364	3.82665536697419	-2.50779959998872
753531.2	3.81336357634574	0.14723781949825	3.81620501819424	-2.21114955564415
642624.9	3.80798401329705	0.129754077934464	3.81019400638163	-1.95155383782628
548046.8	3.80608148025104	0.112466037536644	3.80774274917688	-1.69254253695944
467390.6	3.80674553475362	0.0981275726556622	3.80801005603739	-1.47660276538376
398593.7	3.80869627824917	0.0840500476864977	3.80962357070422	-1.26419413269948
339937.5	3.80583127186817	0.073380075700906	3.80653862523941	-1.10458069604752
289906.2	3.80461013007224	0.06448807692923	3.80515662672567	-0.971069497668344
247234.4	3.8017699367273	0.0553475292812828	3.80217279996597	-0.834073569979179
210843.7	3.80181772117777	0.0486912109011405	3.80212951108722	-0.733766994701216
179812.5	3.80146836045909	0.0429732485628605	3.80171124569759	-0.647665762037931
153343.8	3.80115138191669	0.0374427497220978	3.80133578992358	-0.564366407584396
130781.2	3.80202498711731	0.0339629933936166	3.80217667758675	-0.511802113543504
111531.3	3.80235607495686	0.0301095440705014	3.80247528662653	-0.453695999820768
95109.37	3.80299740289982	0.0264384227100883	3.80308930169384	-0.398313612864525
81109.37	3.80391482244402	0.0227997059980154	3.8039831496739	-0.343412338568853
69171.88	3.80371405897473	0.0204175556091692	3.8037688572019	-0.307549019410891
59000	3.80495375073906	0.0173554047753622	3.80499333183885	-0.261339457571575
50312.5	3.80493346585888	0.0149951263675876	3.80496301341125	-0.225799744976302
42906.25	3.80483373100136	0.0129542799473873	3.80485578359216	-0.195073622705263
36593.75	3.80530189681457	0.0111810860506247	3.80531832342393	-0.168351214915038
31203.13	3.80519279086347	0.0102463130545904	3.80520658605687	-0.154281033044231
26609.38	3.80621231936153	0.0088264509106178	3.80622255343735	-0.13286633438076
22703.13	3.8064214876132	0.00726721350820286	3.80642842488278	-0.109388873063259
19359.37	3.80625501547192	0.00627184230942956	3.80626018275302	-0.0944103239040512
16500	3.8064535450469	0.00526158415088889	3.80645718153611	-0.0791987528095639
14112.02	3.8067475603813	0.00470848090335491	3.80675047228754	-0.0708678318768027
12011.13	3.80615599475379	0.00346948647211301	3.80615757605181	-0.0522277271728762
10236.38	3.80612350938552	0.00308123806421586	3.80612475658972	-0.0463836493357891
8750.684	3.80629446205162	0.00265829212420951	3.80629539031876	-0.0400150057189478
7449.463	3.80562300453708	0.00212075099833663	3.80562359545011	-0.0319290872689625
6363.206	3.80536193500363	0.00197961605100144	3.8053624499191	-0.0298062671788469
5414.761	3.80539161984681	0.0018169566694112	3.80539205361706	-0.0273569585483319
4620.567	3.80484458677622	0.00163204595181535	3.80484493680022	-0.0245763886389841
3941.215	3.80437906202332	0.00127910038723501	3.80437927705155	-0.0192638666667516
3361.769	3.80432024795719	0.000971555315117446	3.80432037201611	-0.0146323164931879
2867.244	3.80367132561371	0.00129972024805427	3.80367154767189	-0.0195780538032895
2442.658	3.80339688775962	0.000479878771611628	3.80339691803304	-0.00722907152652306
2083.003	3.80331587690226	0.00071458905459307	3.80331594403283	-0.0107650633704391
1777.843	3.80340548841472	0.000541995935303244	3.80340552703269	-0.00816480900879687
1513.548	3.80328866664358	0.000676136495755169	3.80328872674427	-0.0101858603353413
1292.065	3.8028219445078	0.000371142683508839	3.80282196261894	-0.00559187613961547
1101.762	3.80263390498841	0.000921804488495632	3.80263401671669	-0.0138891902329033
939.101	3.80286922883997	6.08378836125568E-05	3.80286922932661	-0.000916611578114545
801.2801	3.80261081185352	0.000201925402946463	3.80261081721482	-0.0030425078786322
684.3433	3.80299698038542	0.00032457776874037	3.80299699423643	-0.0048900738873468
582.9476	3.80294184293289	-6.04990242545647E-05	3.80294184341411	0.00091148876246828
497.0677	3.80287789536937	0.000262805939479007	3.80287790445025	-0.00395954631030412
423.5089	3.80213616275284	0.000204597053422265	3.80213616825763	-0.00308314777504083
361.5036	3.80211448049028	2.71948443448104E-05	3.80211448058754	-0.000409811386122533
308.1262	3.80188561576629	5.90998936944296E-05	3.80188561622564	-0.000890656589995118
262.7298	3.80233094184999	0.000246535305813288	3.80233094984241	-0.00371494031432246
224.2111	3.80212564164296	0.000277263587315957	3.80212565175245	-0.00417819789112415
191.2854	3.80287656857875	-0.000174761877349844	3.80287657259436	0.00263303786076401
163.1722	3.802678894934	0.000291028028746484	3.80267890607053	-0.00438498179713364
139.1537	3.80267833391515	0.000215290421363448	3.80267834000954	-0.00324382748614953
118.6706	3.80277119658785	0.000344119535451269	3.80277121215785	-0.00518479707462635
101.1982	3.80265644515419	8.55852858551673E-05	3.80265644611731	-0.00128953949372489
86.24196	3.80246306850455	0.000312678706231842	3.80246308136042	-0.00471146460795508
73.61024	3.80246379660216	0.000307964547506574	3.80246380907331	-0.00464043044643035
62.69291	3.80230112523562	0.000314625817995	3.80230113825266	-0.00474100573891423
53.57697	3.80241866969841	0.00045339698214683	3.80241869672973	-0.00683189718293837
45.65746	3.80225429193298	0.000152534693308417	3.80225429499259	-0.00229852963010617
38.96512	3.80211134592809	0.000179987236632615	3.80211135018827	-0.00271231115538272
33.18414	3.80145295388965	0.000320877299321299	3.80145296743213	-0.00483628632841331
28.30617	3.80155224537134	8.36910966643256E-05	3.80155224629257	-0.00126136544006492
24.17237	3.80181687277446	0.000148426922696242	3.80181687567183	-0.00223688739275922
20.61345	3.80108792459799	0.000595757438999518	3.80108797128553	-0.00898016232873574
17.55618	3.80091618896237	0.000258337555177919	3.80091619774161	-0.00389423255940598
14.98558	3.80071389967432	0.000244300958129853	3.80071390752586	-0.00368283806201908
12.76553	3.80064672939163	0.000871280795001014	3.80064682926019	-0.0131347938927884
10.8809	3.80056011862616	0.000235501670046484	3.80056012592259	-0.00355033240457035
9.278505	3.80081948288627	5.67612101124743E-05	3.80081948331011	-0.000855651733501601
7.923394	3.80040688048878	0.00051320808838287	3.80040691514067	-0.00773723925418049
6.75822	3.80013593432679	0.000121245693110117	3.800135936261	-0.00182805736874819
5.761429	3.800745806869	-4.19555967996536E-05	3.80074580710057	0.000632475504973423
4.919708	3.80005422012303	6.26048672675515E-05	3.80005422063873	-0.000943932497617563
4.191257	3.80000178789796	0.000430368444328088	3.80000181226861	-0.00648902204959824
3.564097	3.79984958839035	8.38461130851776E-05	3.79984958931541	-0.00126426804425505
3.051758	3.79954575900875	0.000160522373422039	3.79954576239961	-0.00242061948779721
2.604164	3.79944384076711	0.000227098609776612	3.79944384755413	-0.00342465697699738
2.214424	3.79936836144906	-3.4512500956157E-05	3.79936836160581	0.000520460365264623
1.892567	3.7993205259054	-6.81409656122405E-05	3.79932052651645	0.00102760209739831
1.607507	3.79883623897667	0.000206864905819063	3.79883624460906	-0.00312003078718679
1.376413	3.79883684243263	0.00106783596976693	3.79883699251457	-0.0161055857901196
1.17375	3.797904038281	-0.000121154658023876	3.79790404021345	0.00182775828477913
1.001604	3.7981604955779	0.000142805555257933	3.79816049826254	-0.00215424166855837
