EC-Lab ASCII FILE
freq/Hz	Re(Z)/Ohm	-Im(Z)/Ohm	|Z|/Ohm	Phase(Z)/deg
6999984	18.7285610986797	88.9681234887822	90.9180180049157	-78.1123102384368
5969734	19.698188758677	84.4191328629646	86.6868423332362	-76.8657259635707
5091109	18.1473052083661	84.3862914510136	86.3155308804911	-77.8633600764525
4341796	17.5778306689094	90.0027915995804	91.703231277542	-78.9490578024459
3702781	21.3501509163479	97.8210747738515	100.123881337383	-77.6878631038039
3157797	20.8004690265769	105.455985485619	107.487787150302	-78.8420292863155
2693047	19.6392533627633	118.397896757677	120.015674931603	-80.5818156312302
2296687	20.5867234079881	135.381592453756	136.93790109386	-81.3535897812714
1958656	22.3086101492503	153.962082409674	155.56991002991	-81.7554050829967
1670375	22.4557732701855	176.214225450382	177.63928339261	-82.737683926969
1424531	24.7745229629545	205.330559126961	206.819765736819	-83.1201332552188
1214875	30.1970964509565	234.902691909125	236.835679956001	-82.6747158652841
1036062	31.3421475502921	269.122315925129	270.941231897195	-83.3572231908439
883578.1	34.5476273103697	312.588639044842	314.491964623394	-83.6932056419086
753531.2	39.0119314174062	370.579931449412	372.627718220166	-83.9904561460225
642624.9	37.0027822789729	414.652371276815	416.3001259931	-84.9005423078083
548046.8	32.3476693947673	499.016125328169	500.06346102551	-86.2911108765908
467390.6	137.180892363717	689.78546820268	703.294098776107	-78.7520749124799
398593.7	207.287349996184	784.466646757189	811.391376182239	-75.1984760755196
339937.5	190.409038788293	886.235082463519	906.459168104887	-77.87424627456
289906.2	202.345096388687	996.774779838175	1017.10545163911	-78.5248971467106
247234.4	267.168121674942	1222.30236120702	1251.16020854708	-77.6703305952729
210843.7	268.572173096144	1341.41156013066	1368.03362013283	-78.6781633569081
179812.5	284.382327848871	1531.13593102437	1557.32159416949	-79.4781843262492
153343.8	314.637462434511	1765.78091295483	1793.59386855632	-79.8967299955923
130781.2	344.589941016418	1980.64695167323	2010.39910829222	-80.1305540717852
111531.3	410.164282371613	2314.06604005132	2350.1353953022	-79.9488118591697
95109.37	391.352590424763	2652.81048001244	2681.52201051866	-81.608040338089
81109.37	464.202507287421	3133.17302410119	3167.37385963946	-81.5725169547909
69171.88	392.615176851871	3560.6517417904	3582.23219563018	-83.7077014741254
59000	576.472504452417	4081.73336590671	4122.24063086397	-81.9611542272282
50312.5	507.850303076688	4747.52592023488	4774.61142854968	-83.8941992364405
42906.25	1977.62311564488	6657.22225393155	6944.7535108004	-73.4551946880545
36593.75	1906.75233547125	7333.59452543591	7577.42127193207	-75.4256538412889
31203.13	2128.68930717024	8356.26944314854	8623.14079514876	-75.7083512174065
26609.38	2370.1344868815	9280.13434940596	9578.01811592197	-75.6729997214469
22703.13	2611.17604402897	10699.0487943002	11013.0779274337	-76.2846894635286
19359.37	2831.75710169658	12317.8551650779	12639.16152879	-77.0531977541375
16500	2998.21317757961	14526.4788490629	14832.6622698181	-78.3381129054979
14112.02	12311.8971271689	21842.7154606198	25073.6321573798	-60.5917192295724
12011.13	196.075612997369	24050.9579846828	24051.7572253461	-89.532906081441
10236.38	3728.95267443979	22069.7460683983	22382.5552511726	-80.4097564053524
8750.684	4387.5226044722	25496.7964162592	25871.5477329232	-80.2360928976483
7449.463	5419.2204637189	30637.8167735826	31113.4017279694	-79.9692664524558
6363.206	5034.30315180009	34841.7712440414	35203.5968566613	-81.7782088032429
5414.761	15449.8701462616	47454.8385705467	49906.5145175757	-71.9663065616275
4620.567	19611.6380736564	51955.4978752083	55533.684439202	-69.3199863932568
3941.215	20260.9181825458	58999.1409192917	62381.1144082426	-71.0469957793401
3361.769	23037.5563255369	68919.0044102688	72667.4491801862	-71.5167638755679
2867.244	27359.4315060074	77251.7826365414	81953.5015289484	-70.4979303242663
2442.658	29126.393974801	88316.4716332499	92995.4084227924	-71.7476658670056
2083.003	31937.4490438148	101144.252821638	106066.77392225	-72.4758952246169
1777.843	36051.9782956491	113474.465493672	119063.84614191	-72.3744243990992
1513.548	37817.6503538644	132400.536652555	137695.594643299	-74.0590349083429
1292.065	56468.9407901152	148615.3132483	158981.925406154	-69.1948524108002
1101.762	60892.3881350242	172226.165450662	182673.848699329	-70.5284116789672
939.101	72426.3730978941	212055.44059998	224082.773564072	-71.142679731127
801.2801	104749.044771297	214274.586598872	238507.779417395	-63.9481059934487
684.3433	132320.591946455	254256.391827103	286627.025658778	-62.5065441808996
582.9476	232796.92839081	350817.485799391	421031.255622195	-56.4323779524438
497.0677	274225.267462613	382662.343799208	470775.919814135	-54.3736832987592
423.5089	325439.341663876	406646.864196427	520838.206416737	-51.3297246909897
361.5036	364407.390855646	415955.565127338	553002.512354711	-48.7792775504783
308.1262	416450.820975465	441706.059199737	607071.271783553	-46.6857069558041
262.7298	474652.656415487	449122.471261007	653457.06701655	-43.4169311683812
224.2111	531809.493433335	494908.105568633	726467.735183988	-42.9416111111186
191.2854	606092.523448389	467987.903299142	765742.009174346	-37.6731438637537
163.1722	695059.480440024	473808.393635485	841190.867300041	-34.2814858180091
139.1537	725800.732937575	467122.750717277	863128.24549449	-32.7651873906631
118.6706	682168.221426339	411005.415921577	796416.307116349	-31.0689057311326
101.1982	800874.650912843	461280.887247293	924218.731369592	-29.9407117254744
86.24196	868054.112730301	384154.587286719	949259.021322115	-23.8716333622393
73.61024	893529.518985767	291184.266507206	939778.313412411	-18.0498034763371
62.69291	543634.525103768	126679.747274773	558199.117926927	-13.1171983588999
53.57697	810281.854243456	332620.889144435	875895.73535407	-22.3181614331452
45.65746	916623.577822427	216952.139606684	941948.519983924	-13.3160720095898
38.96512	1098876.44102717	338469.478163094	1149822.16898638	-17.1195721184745
33.18414	1038806.07941594	261319.120758562	1071170.27288174	-14.1201838975882
28.30617	1200592.68251011	393055.323650672	1263295.40359607	-18.1276397928056
24.17237	1118169.37448733	271726.106498641	1150711.87835804	-13.6586778527662
20.61345	1079124.34884767	216615.342437899	1100650.51985424	-11.3502824623857
17.55618	1086161.2941944	267763.596948183	1118679.44508544	-13.8485847139623
14.98558	1132544.43235282	391193.573395134	1198202.53009206	-19.0554876462404
12.76553	1180663.51748665	346234.721442632	1230384.01479229	-16.3440049878295
10.8809	1225904.52965333	359491.46105548	1277527.30945227	-16.3435580807493
9.278505	1253557.65756843	362424.110422542	1304897.71118813	-16.1254502368768
7.923394	1218885.37889002	399337.745034678	1282634.86678058	-18.1401073544276
6.75822	1254491.70240774	451027.90923033	1333107.49990935	-19.7750538819893
5.761429	1440097.80199169	537809.981662508	1537244.6960966	-20.4783366572006
4.919708	1486993.36200269	615294.981557508	1609266.03548634	-22.4790193341282
4.191257	1361776.48117558	532129.710028856	1462052.39748046	-21.343640437719
3.564097	1477128.01020842	695202.993762566	1632548.42533957	-25.2037888838082
3.051758	1491510.79279525	649231.773750219	1626685.692158	-23.5227536312062
2.604164	1704604.12841294	756737.031668789	1865027.12304709	-23.9382110580335
2.214424	1598987.40195886	820341.859791782	1797142.58715044	-27.1595631287534
1.892567	1714314.81053347	996151.399133539	1982723.60141552	-30.1599482962032
1.607507	1746636.30766967	1066714.14591037	2046611.21377638	-31.4134481716566
1.376413	1768594.28273339	1196185.84874461	2135131.45301503	-34.072390600254
1.17375	1859378.64057092	1301962.75006423	2269888.96899522	-35.0002441832668
1.001604	2127967.89162404	1527513.56187339	2619455.1016366	-35.6718194740956
