EC-Lab ASCII FILE
freq/Hz	Re(Z)/Ohm	-Im(Z)/Ohm	|Z|/Ohm	Phase(Z)/deg
6999984	23.7547416066767	90.078179284875	93.1577486421718	-75.2267228948195
5969734	18.2541287408112	95.834790348725	97.5577790710212	-79.2157696560793
5091109	15.1713707214616	101.887321300559	103.010663192562	-81.5306910357464
4341796	14.0575150222995	112.753880246545	113.626806869041	-82.893356559906
3702781	17.2402420549891	124.436294994153	125.624907792947	-82.1120713104656
3157797	15.9517719449208	138.52761323685	139.443030149524	-83.4311920421953
2693047	16.0032757506028	157.605387004837	158.415791030106	-84.2020494597643
2296687	16.6682503728655	181.907248599725	182.669312320419	-84.7645794230238
1958656	18.1344172122436	209.124940765962	209.909737596889	-85.0439536439296
1670375	20.1568581929996	241.374524201983	242.214697873491	-85.2263834058992
1424531	19.4070475433518	280.210773497286	280.882023416055	-86.0380927142611
1214875	23.0421463408561	331.825185439661	332.624253776027	-86.0277221781692
1036062	32.666043127158	372.572711389738	374.001999521241	-84.9892934702741
883578.1	39.5681532459756	446.318604436789	448.069119018149	-84.9337165641464
753531.2	21.6677659549633	517.206858625785	517.660532290256	-87.6010642835984
642624.9	92.4550837425699	672.210502764865	678.538799581304	-82.1687368364041
548046.8	116.717316525742	771.360732701989	780.141212814397	-81.395644883434
467390.6	120.766258777393	919.444807880545	927.342031829455	-82.5172097674026
398593.7	171.877761480187	1056.61859739316	1070.50680766099	-80.7607503506496
339937.5	161.866902942757	1191.97749014746	1202.91779905633	-82.2667126193714
289906.2	233.992701935547	1329.25839625305	1349.69643571002	-80.0163635832156
247234.4	220.842294030578	1581.29832346476	1596.64514110843	-82.0495616150168
210843.7	305.654391262348	1772.11687711988	1798.28330167164	-80.2139194309767
179812.5	368.718523927289	2071.67697289832	2104.23354928208	-79.9081318557154
153343.8	368.699743143317	2457.60662211668	2485.10961723335	-81.4678948614
130781.2	473.889418354845	2814.4373157083	2854.05476206747	-80.4423004081159
111531.3	438.012093013674	3195.26957930173	3225.1515124157	-82.1944626414054
95109.37	488.927321576079	3743.02045051735	3774.81814380172	-82.5579470666364
81109.37	770.19143249297	4376.63785531543	4443.88948549191	-80.0194002595298
69171.88	1437.55165208426	5605.03869722499	5786.45085953382	-75.6151309841387
59000	1651.13963955242	6331.62551906845	6543.37403966945	-75.3841144011419
50312.5	1845.34116262831	7148.83403218268	7383.16409313675	-75.5260933427753
42906.25	2779.26877743503	8338.47973142058	8789.45841155967	-71.5664393164057
36593.75	2794.00599865369	9004.4957022918	9428.01211142117	-72.7614000939306
31203.13	3687.21494232742	10832.1727502361	11442.5312113133	-71.2016943840255
26609.38	3595.39841806554	12336.4781436385	12849.7308443834	-73.7515284596962
22703.13	5032.28665060904	13591.3186834111	14493.0277198361	-69.6825540860156
19359.37	5301.62430043847	15940.264527617	16798.7872607937	-71.6032232068531
16500	6786.79165455218	17508.8421245743	18778.1813151744	-68.8126322656685
14112.02	8991.776534981	20166.2582945281	22080.0819485948	-65.9687562495366
12011.13	11038.132986902	22582.0595553604	25135.4290514083	-63.9505697119678
10236.38	17118.8300416654	17835.7131658857	24721.7921302476	-46.174915081445
8750.684	50781.2206193958	61135.2565130534	79474.8510946235	-50.2857153741701
7449.463	22945.392100205	24058.0508654848	33245.764092263	-46.3560442292197
6363.206	26523.1024908925	38263.8664384566	46557.4745939084	-55.2717258876914
5414.761	34232.8877051822	33913.8995732257	48187.5833062673	-44.7318062828489
4620.567	39388.6274176744	35319.9099135358	52905.19829042	-41.8826819733137
3941.215	43878.3770071574	36780.204703434	57254.6541934256	-39.9707733771637
3361.769	46981.4208941215	34474.5087165775	58273.026869041	-36.2708583080608
2867.244	51389.3312920482	34523.3799944934	61909.0230652048	-33.8932266977166
2442.658	55853.5602658433	32419.0974078081	64580.3226308691	-30.1321770318732
2083.003	59502.7325257072	31638.3861571459	67391.1170456058	-28.0001666987237
1777.843	63034.9108108551	30991.2059954311	70241.4039579485	-26.1811059132747
1513.548	67097.74767659	28349.3898185281	72840.8926795533	-22.9044863336364
1292.065	69086.1195037139	28479.0138929243	74725.8063883877	-22.402672707927
1101.762	71107.2695300564	26687.8352942696	75950.5387256348	-20.5720152567045
939.101	73462.3927128952	25570.1860392073	77785.3299612679	-19.191565122584
801.2801	75451.3788074039	24852.6899674995	79439.0757911937	-18.2312019142755
684.3433	77756.7216227641	23957.0910161052	81363.6894903001	-17.1242302653489
582.9476	79365.7083006028	24713.6788969329	83124.4944566707	-17.2960603081086
497.0677	80406.7037566342	24315.3406833059	84002.8201999931	-16.8255473667472
423.5089	82401.6335346952	25173.6633046392	86161.1428276201	-16.9878892284195
361.5036	84091.5337404512	25538.973202298	87884.1578388798	-16.8937694514134
308.1262	85617.2745354153	26546.3974829261	89638.3228211805	-17.2265146909356
262.7298	87054.6607263081	28299.4928387087	91538.9275068303	-18.0081666333649
224.2111	88692.708338738	29666.173846564	93522.6089411272	-18.4941952718185
191.2854	90788.9449111262	31949.020911506	96246.4152853464	-19.3871901025755
163.1722	92799.309393872	34530.9522626562	99015.6476934097	-20.4104125105879
139.1537	94871.6347602231	37117.926550452	101874.273266031	-21.3676072622893
118.6706	97212.4755047793	40134.1537209692	105171.36344398	-22.4332743837649
101.1982	100019.11557498	43818.1793558037	109196.411673913	-23.6581320990397
86.24196	102707.32820718	47768.1800361733	113272.213236194	-24.9426805574112
73.61024	105778.630214656	52750.2484706982	118201.976818535	-26.5047583125882
62.69291	109779.166549049	59061.7150965226	124658.540013697	-28.2804633816797
53.57697	112551.524929868	64099.88804134	129524.674911582	-29.6622026708392
45.65746	116856.866539312	70438.8687226465	136444.719517879	-31.0806914729784
38.96512	121964.954629914	78050.0597205003	144800.766504362	-32.6167397555226
33.18414	126624.732104782	86596.8750939073	153404.177116002	-34.3676758591306
28.30617	132263.848665552	95803.643847552	163315.840745142	-35.9172172977501
24.17237	138772.987706244	105208.066494077	174145.569488114	-37.1668840855541
20.61345	146222.584826177	116869.129923047	187188.241730667	-38.633770632648
17.55618	153619.750614603	129724.102123038	201065.587434849	-40.1793987695267
14.98558	162427.6971806	144302.460255742	217269.318697447	-41.6182218438152
12.76553	171487.419479591	160860.961328986	235125.889513373	-43.1686570965951
10.8809	182441.400875433	179276.662034787	255783.084475353	-44.4987213222118
9.278505	194742.478189702	198990.445055568	278427.423280968	-45.6181376144486
7.923394	207975.225786065	221437.575455273	303789.885223775	-46.7956690158456
6.75822	223150.482693813	245548.414029941	331798.374859042	-47.7359385942789
5.761429	241708.002851493	273209.51857819	364782.400458388	-48.5008658986683
4.919708	261448.11452578	302798.479422377	400052.541211263	-49.191383174204
4.191257	281570.437401453	334118.68741509	436940.737970755	-49.8782965452084
3.564097	307688.590062071	371710.988702762	482536.348451357	-50.3833015458368
3.051758	334285.143715319	411527.525293841	530190.02384357	-50.9129322724998
2.604164	364264.164966104	452584.959267382	580966.029328316	-51.1710612183621
2.214424	399060.345421269	503789.328845684	642691.875743367	-51.6166390364795
1.892567	438189.888228621	550744.673525589	703796.897948988	-51.4931322541611
1.607507	475707.205136096	605812.4629655	770263.646618949	-51.8596361669724
1.376413	525917.017243766	668226.776660512	850362.119377785	-51.7960607700247
1.17375	580447.694681666	734960.322760227	936528.804838952	-51.6994715449215
1.001604	637856.16216942	811000.302520455	1031785.81803869	-51.8147563828798
