EC-Lab ASCII FILE
freq/Hz	Re(Z)/Ohm	-Im(Z)/Ohm	|Z|/Ohm	Phase(Z)/deg
6999984	-19.5422001715211	35.2121011686714	40.271449641856	-119.029632811469
5969734	-6.05909116351913	-16.9112044801782	17.9638921923462	109.712021259713
5091109	53.0426106940304	37.0237721676178	64.6859973623205	-34.9150625478647
4341796	77.2307328778918	-20.9280319751527	80.0160522845841	15.1619300311171
3702781	45.5102910888371	-4.2355967424552	45.7069674640025	5.31714344980803
3157797	159.427721382295	-25.304243125015	161.423365921048	9.01871092919214
2693047	243.779820419805	515.996585937701	570.684744445894	-64.7118587343581
2296687	360.112529162111	-84.9267530221313	369.991333734203	13.2698228563668
1958656	103.071840512699	130.380931657164	166.201659577952	-51.6720841623143
1670375	-6.10861695289895	112.791405978468	112.956701720955	-93.1000267223665
1424531	35.3756825407847	-40.7549410737358	53.9666947028447	49.0417036798041
1214875	160.165052413838	137.962149147342	211.391576492728	-40.7407828171959
1036062	-12.5762242917703	-40.4340368801899	42.3446898189781	107.277294405084
883578.1	-19.3390469930913	-42.1486076272362	46.3735254592069	114.647078636513
753531.2	-15.2169770711483	-44.3459411429774	46.8841005783439	108.93927308142
642624.9	56.7739822755654	-48.205719866431	74.4786982382684	40.3339598643412
548046.8	-20.5803895511888	-71.9594358173294	74.8445912356199	105.960522800314
467390.6	-7.72156985921692	-87.2755709839361	87.6164820776481	95.0559900433841
398593.7	-19.4678591789676	-90.1032644668165	92.1824050922365	102.1920074944
339937.5	-18.9529160651147	-106.312747639124	107.988950073382	100.108217289289
289906.2	-20.6499500611692	-129.223365155748	130.86289978334	99.0791277934542
247234.4	-32.1443897434863	-154.943809413278	158.242996266752	101.720234045889
210843.7	-25.9687755096207	-175.415902866478	177.327708720129	98.4209711741874
179812.5	-21.2187110714044	-198.220945256501	199.353396855716	96.1100032033068
153343.8	-27.7900420587908	-240.100422431778	241.703329082468	96.6022312451037
130781.2	-27.1141354470887	-280.50444624158	281.811853374443	95.5211744772508
111531.3	-56.3830497032432	-290.718329571506	296.135434290942	100.975904574235
95109.37	-67.8374978477682	-363.167771037416	369.449260433055	100.580563695595
81109.37	-64.0608687277846	-421.83266201488	426.669180565832	98.6351427980073
69171.88	-78.797539462618	-484.627020464499	490.991243495911	99.2351442010683
59000	-223.491207223272	-561.1410324622	604.009584376655	111.716399514419
50312.5	-220.040569430973	-643.12355454662	679.724766805055	108.888050654535
42906.25	-266.37501691369	-806.389141697159	849.246193681696	108.279970546563
36593.75	-302.1526551089	-891.04254669151	940.878869463998	108.731805063803
31203.13	-336.305219711889	-1026.40283643476	1080.09443265243	108.141601239038
26609.38	-363.916919132518	-1176.6166999748	1231.60967140181	107.186366002996
22703.13	-411.401813063459	-1341.1259882049	1402.80802964285	107.053840864983
19359.37	-462.096803272191	-1564.95738042575	1631.75520778804	106.450688194048
16500	-545.814896757954	-1788.84505428345	1870.26215535611	106.968069083051
14112.02	-622.285538933953	-2024.0931979887	2117.59121789604	107.08947883984
12011.13	-698.460973357697	-2359.00120423313	2460.23056091845	106.493144366668
10236.38	-819.652252069061	-2693.18337374512	2815.14946298399	106.927274488038
8750.684	-1002.39641706842	-3080.9028358984	3239.87050068339	108.022712496549
7449.463	-1337.41918536468	-3695.72108378655	3930.27281578849	109.894336430123
6363.206	-2352.61246665857	-3901.67017510039	4556.07457945381	121.088957718728
5414.761	-2424.04599717671	-4445.97776673848	5063.86387048085	118.600200944018
4620.567	-3152.58561564579	-4984.2007488574	5897.54636852373	122.313998780497
3941.215	-3224.24259035927	-5565.65571592136	6432.12747305701	120.084161633407
3361.769	-3904.37081376921	-6187.47750581147	7316.35082102654	122.25240581752
2867.244	-4503.64375027196	-7185.15240839488	8479.93055167473	122.07942985917
2442.658	-5374.88275200729	-7508.32675727265	9233.86892325215	125.597218833935
2083.003	-6230.09055247081	-8132.20001255336	10244.3499225748	127.45577932978
1777.843	-7346.16752101853	-8833.84319586955	11489.2542341128	129.746693777832
1513.548	-8496.53178703377	-9375.25264997764	12652.5260189018	132.185144858129
1292.065	-9728.42765391784	-9615.48673670941	13678.4461764247	135.334521970624
1101.762	-11040.1531577743	-9723.6008143805	14711.6754499457	138.628055264375
939.101	-12484.5704488354	-9581.55663543498	15737.5578426254	142.494775536374
801.2801	-13888.4945375101	-9825.23143647017	17012.5087303034	144.723008401638
684.3433	-15247.5690190317	-9772.43036945525	18110.4598593185	147.343488173448
582.9476	-16394.9237022147	-9210.62722016343	18805.0306298675	150.672831329395
497.0677	-18851.7558985616	-8655.38862534666	20743.7810611936	155.338770429822
423.5089	-18263.932492701	-8454.50787381812	20125.8523667046	155.160236780859
361.5036	-18941.5107209529	-7536.78172584656	20385.8751878605	158.302509216695
308.1262	-20147.4227103185	-7728.2198486384	21578.7864324467	159.014008206689
262.7298	-20759.8427851005	-6899.81868730412	21876.438704226	161.615064709244
224.2111	-21245.5815597967	-6649.10503806961	22261.7459697405	162.621751555289
191.2854	-22094.2508636111	-5935.49063377637	22877.6303468656	164.962857106193
163.1722	-22206.2490282416	-6614.28845547776	23170.3756481535	163.413464636601
139.1537	-31032.8630974431	-6091.43854523069	31625.0567679327	168.89460808794
118.6706	-4493.7577131402	-31786.9058598634	32102.9787173749	98.0466578466284
101.1982	-5142.92054296011	-34619.1089957776	34999.0334062633	98.4499055428415
86.24196	27302.1984500302	19657.8377140437	33642.8391161702	-35.7542394529251
73.61024	29677.7403511755	-5684.21383143247	30217.189797088	10.842618937588
62.69291	99934.175716681	-332497.064386775	347190.347362935	73.2715044189356
53.57697	111965.505030222	-392876.073041873	408519.134295415	74.0930113055941
45.65746	28461.7441647829	2528.41237700334	28573.8298106805	-5.07657107670409
38.96512	24324.6464924108	-33988.3895605219	41795.9214744519	54.4096421299816
33.18414	25410.4535420999	23707.9966207014	34752.8452501721	-43.0149096018497
28.30617	-52946.4867437914	-17137.5499128657	55650.9305899411	162.064435507965
24.17237	16735.459241412	-42127.6802196605	45330.0897496457	68.3342698025137
20.61345	24258.631369384	27726.5263250281	36840.7581079453	-48.8165083480059
17.55618	3557.83225457043	-24245.1224942187	24504.7778017131	81.6517570178575
14.98558	-37728.1372100828	-12303.2776124437	39683.5353434102	161.938671271934
12.76553	-49269.5926858249	-17513.2582440883	52289.6450337084	160.431849566519
10.8809	-44477.1342995056	-19399.1197142916	48523.6161181921	156.435125170805
9.278505	-39328.7451675639	-20556.6041254245	44377.0680602561	152.404538969398
7.923394	-46894.5378449095	-31250.1603032148	56353.0850855946	146.320815804919
6.75822	-43272.6539146063	-55748.6319574658	70572.1796598509	127.818977276114
5.761429	-53905.6194977804	-552896.032357701	555517.631052632	95.5685580869081
4.919708	394007.950731335	120303.567056791	411965.063429041	-16.9791516220438
4.191257	244822.248003938	119593.831525277	272471.315291349	-26.0351621036989
3.564097	500388.997018625	57308.2151598537	503659.984376477	-6.53346638576653
3.051758	441392.817789327	292865.729883055	529714.975563214	-33.564417678247
2.604164	-44649.5386337015	282806.486033697	286309.430237515	-98.9718127984262
2.214424	36172.5037673728	-150455.959566731	154743.160746918	76.4815577619355
1.892567	116734.160748352	-219212.204643085	248356.30644319	61.9639531489107
1.607507	397824.705126883	-9598.4161369917	397940.479973614	1.38212145200889
1.376413	479696.141245803	-39085.1539284676	481285.816520418	4.65811192398809
1.17375	24218.2270020608	-102816.014662848	105629.803513375	76.7456340097113
1.001604	143824.870373485	-194744.69987578	242097.276869562	53.5530072009036
