EC-Lab ASCII FILE
freq/Hz	Re(Z)/Ohm	-Im(Z)/Ohm	|Z|/Ohm	Phase(Z)/deg
6999984	23.4480539914842	89.4752868802405	92.4966929046055	-75.3151875783877
5969734	18.4700917551976	89.2476629417647	91.138848083637	-78.3075169592379
5091109	13.5805838873233	94.5176630892032	95.4883285777102	-81.8235297648377
4341796	10.7294242108631	103.761644597883	104.314905136102	-84.0963387465627
3702781	11.8377808349733	116.25720440222	116.858335733983	-84.1859493457211
3157797	11.8248412563565	130.464737679454	130.999521558312	-84.8210730616237
2693047	12.2609421556165	147.587664736714	148.096081936627	-85.2510205910898
2296687	12.3802502268869	169.542068064236	169.993480578457	-85.8235773157641
1958656	13.8200405143675	195.391713183959	195.879848633752	-85.9542116930539
1670375	15.2503075887317	226.575995037257	227.088646586909	-86.1493611180754
1424531	18.5613932046304	262.964368649739	263.618634578538	-85.9624622853038
1214875	21.9700711381604	305.189483382701	305.979255494904	-85.8824773771035
1036062	26.4437504740762	354.654314885532	355.638798510597	-85.73580018155
883578.1	32.0074691585967	411.818547597599	413.060521264541	-85.5557768423199
753531.2	38.4982172601066	479.146060411869	480.690191225513	-85.4062921535703
642624.9	101.554044065988	628.782257787653	636.93041344773	-80.8254372857198
548046.8	124.998906998982	720.38012826884	731.144483638884	-80.1561652852275
467390.6	150.039061759135	825.004710188955	838.537114198008	-79.6925851331872
398593.7	178.739750562893	944.653176874056	961.414334722305	-79.2856132113058
339937.5	212.73946913039	1082.03504594431	1102.75016317278	-78.8769224160389
289906.2	247.403908752432	1240.78216418725	1265.20712653351	-78.7234843185029
247234.4	291.277240966161	1425.12549489384	1454.58760729674	-78.4485791683991
210843.7	341.30296086321	1638.54194482518	1673.71067274051	-78.2337199952251
179812.5	404.692951466543	1886.49529003011	1929.41464290921	-77.8923517408861
153343.8	479.598630259969	2170.75397639264	2223.1031627371	-77.5414150913685
130781.2	575.558726867551	2502.48722803192	2567.82206831709	-77.0475254719657
111531.3	701.376909218596	2880.6535685829	2964.80936165791	-76.3159729591427
95109.37	852.679644472953	3309.96008297274	3418.02550121725	-75.5541109789572
81109.37	1049.70673893859	3807.13481845139	3949.19735688633	-74.5853539389501
69171.88	1290.54386939256	4361.55951596736	4548.48380124104	-73.5170168341491
59000	2230.71086552987	5249.47982793056	5703.78027534747	-66.9774484478644
50312.5	2597.84393103544	5972.90131320636	6513.39720785704	-66.4939293645535
42906.25	3360.57081984276	6576.22432076188	7385.13118042995	-62.9321372311228
36593.75	3962.70352679798	7244.45989597251	8257.43413086966	-61.321438277451
31203.13	4709.8020708107	7976.84140627969	9263.48931921179	-59.4409334980521
26609.38	5620.99001691093	8732.21755665937	10384.9483497532	-57.2303305441445
22703.13	6677.89377731168	9462.06104979878	11581.2289767182	-54.7872900719083
19359.37	7910.31485802519	10130.2775224359	12852.8441924216	-52.0151942083504
16500	9289.94650519581	10715.8271660224	14182.1034378355	-49.076774426444
14112.02	10743.814913085	11129.5732135908	15469.2261863128	-46.0103616026834
12011.13	12337.6806592916	11401.4544828548	16799.1526088451	-42.7415342490589
10236.38	13939.4378585494	11459.2839349538	18045.030233121	-39.4228194602124
8750.684	15463.9794161888	11324.5562953778	19167.1655356626	-36.2160033287549
7449.463	17015.2979786914	11083.709995974	20306.870575707	-33.0800907244449
6363.206	19824.0839503021	15910.027581039	25418.9551732176	-38.7491528734314
5414.761	14155.1670723634	13721.0007053252	19713.8178748322	-44.1077005453468
4620.567	20738.4443835749	9659.48422408607	22877.6902445592	-24.9750068362125
3941.215	21673.1506762848	9108.49386021847	23509.3624039144	-22.7953722511317
3361.769	22530.9064412055	8602.92621539616	24117.4643055589	-20.8982459660961
2867.244	23228.084474389	8184.47236728275	24627.819560005	-19.4100339298674
2442.658	23849.4969893731	7800.6344380545	25092.7958641973	-18.1117574027246
2083.003	24387.2311229698	7502.88428705454	25515.2956963089	-17.1008421281516
1777.843	24868.5035179135	7278.25867084334	25911.6868709889	-16.3131569401396
1513.548	25376.3048418707	7180.66297759161	26372.6898177889	-15.7997752965465
1292.065	25857.0880426069	7137.83175489574	26824.198854846	-15.4321311977229
1101.762	26237.052786284	7171.15755567461	27199.4198393746	-15.2868176417218
939.101	26680.527163954	7430.84558122774	27695.9924140396	-15.5631551863134
801.2801	27058.6035544912	7657.96971526256	28121.389127833	-15.8022676629553
684.3433	27388.9652181063	8155.60116052571	28577.4254615108	-16.5819314418355
582.9476	27949.0166559141	8497.28063543554	29212.1774304812	-16.9107347317272
497.0677	28652.979074292	8642.61259426355	29928.0464161351	-16.7849131999165
423.5089	29158.8502764313	9428.41093302796	30645.2848276106	-17.9184299834915
361.5036	29722.4463336541	10275.4236963244	31448.4999355444	-19.0709116700854
308.1262	30344.4337853015	11281.5754313913	32373.7332719709	-20.3943295852785
262.7298	31087.1486873843	12395.5924412718	33467.3202614379	-21.7389927755152
224.2111	31763.9088285752	13724.0086374296	34601.9409448412	-23.3673846659006
191.2854	32608.5952417815	15161.0347692494	35960.7766728796	-24.9355930694854
163.1722	33504.7195504503	16877.2418686816	37515.4304953082	-26.735643115292
139.1537	34538.4861359205	18704.3016379022	39277.9572320507	-28.4377402964431
118.6706	35673.3514318491	20805.8764902043	41297.3667308927	-30.2521486645957
101.1982	37029.2665988866	23137.7041332496	43663.7141962204	-31.999165736885
86.24196	38465.6071020202	25816.0956592124	46325.7350164312	-33.8674378673578
73.61024	40191.7399775792	28757.215577123	49420.1720977827	-35.5837444018281
62.69291	41983.1878812174	32124.507128529	52863.7117777452	-37.4223315889352
53.57697	44164.1335259862	35691.855196889	56783.6175097785	-38.9438897688405
45.65746	46678.6456319323	39855.2181266748	61378.6149237366	-40.4914029368652
38.96512	49307.9898129103	44406.0259855981	66356.4089084368	-42.0057189302401
33.18414	52467.8220069533	49473.5484890747	72114.5224365672	-43.3175630979716
28.30617	56042.7568597971	54921.2318928976	78467.396471909	-44.4209251127889
24.17237	60120.935343976	61022.5181180467	85663.7296882518	-45.426403017886
20.61345	64689.8372735368	67736.4624498881	93664.3122630053	-46.3179253471096
17.55618	69968.804981178	75144.0737340792	102675.535001513	-47.0425164227218
14.98558	75635.5217224844	82777.3679342649	112128.608251227	-47.5813603107305
12.76553	82563.9738386783	91519.1107247275	123258.092650661	-47.9447988993379
10.8809	90321.9255888093	100409.413741364	135055.916604771	-48.0274652500194
9.278505	98555.7551717005	110820.090262867	148304.85252794	-48.3523094015468
7.923394	107752.507464547	121482.419659878	162384.054486012	-48.4276075149829
6.75822	118245.808636534	132945.820541864	177923.192585052	-48.3491925111412
5.761429	129979.540983846	145577.525341169	195160.182821266	-48.239786220161
4.919708	142444.355714653	158917.993091027	213413.502391583	-48.1288959684914
4.191257	156370.242778527	172590.83322555	232893.212739455	-47.82288493969
3.564097	171805.271458795	188190.715135926	254819.144815302	-47.6060547917007
3.051758	188797.56503563	204150.231461491	278068.044854426	-47.2374366646253
2.604164	207713.436449484	220658.418441712	303042.916615537	-46.7308961371061
2.214424	227586.174299288	239313.871035967	330252.321115848	-46.4388652785058
1.892567	249725.755603232	257260.499470524	358533.007684688	-45.8514574877818
1.607507	274075.058114076	278705.107451032	390888.31448321	-45.4798943576395
1.376413	298669.187094615	298321.581182349	422136.29211298	-44.9666387647613
1.17375	327904.679864801	322197.118305103	459709.105980456	-44.4969852600925
1.001604	358497.915751065	346511.694014773	498589.119101937	-44.0259795750273
