EC-Lab ASCII FILE
freq/Hz	Re(Z)/Ohm	-Im(Z)/Ohm	|Z|/Ohm	Phase(Z)/deg
6999984	11.2075659694364	-19.2447986423043	22.2704245523543	59.7848227666896
5969734	3.98953548096699	-13.9699494125871	14.5284507069453	74.06172780998
5091109	1.37819104089849	-9.54597344062612	9.64494787307594	81.7847405221074
4341796	0.575196128668268	-7.06590705309256	7.08928015170639	85.3461315850816
3702781	0.469317877558326	-4.88381859455917	4.90631667697447	84.5109310071193
3157797	0.779455216892244	-3.4864133428071	3.5724821108081	77.3976599805702
2693047	1.43895187428499	-1.57944498703522	2.13663964289231	47.6649433938842
2296687	1.53816425292453	-1.03379100521659	1.85328710982448	33.9048119043342
1958656	1.68878887663339	-0.669990597983311	1.81683661104313	21.6396361642615
1670375	1.86498397435279	-0.433697271073764	1.91474764591305	13.0913121257159
1424531	2.1123401200553	-0.292300392514137	2.13246812455876	7.87841605490073
1214875	2.2965052088421	-0.231622116904391	2.30815618606674	5.75929154256372
1036062	2.45774869245007	-0.194524022084819	2.46543469400592	4.52536906201218
883578.1	2.62830640630468	-0.138520277989647	2.63195410918134	3.01688234124498
753531.2	2.77857018210786	-0.100658804544277	2.78039285926129	2.07473747194822
642624.9	2.92376118023104	-0.0680346320483726	2.92455264103485	1.33300693685248
548046.8	3.0468529733094	-0.0441999572258713	3.0471735554745	0.831117680714099
467390.6	3.1675792596217	-0.0319611040655898	3.16774050044486	0.578098945426532
398593.7	3.26857469706977	-0.019425874768668	3.26863242273206	0.340517698492073
339937.5	3.34684269246762	-0.0112209680698511	3.34686150269896	0.192094987015716
289906.2	3.42021916512613	-0.0043545535693247	3.42022193718958	0.0729477832646866
247234.4	3.48578422491559	0.00190794244314987	3.48578474707128	-0.0313608162685959
210843.7	3.53262606912326	0.00643121291843502	3.5326319231911	-0.104307940631818
179812.5	3.5708416560073	0.0117435478508586	3.5708609666568	-0.188429890591823
153343.8	3.60135491957033	0.0112880878126088	3.6013726102196	-0.17958731834801
130781.2	3.61603251027903	0.0132674057598066	3.61605684958775	-0.210220163090002
111531.3	3.63427781607393	0.0138943806076377	3.634304376111	-0.219049156234071
95109.37	3.65048451889291	0.0131481493155354	3.6505081970196	-0.20636444360767
81109.37	3.666885423217	0.0126406658434288	3.66690721091144	-0.19751201648978
69171.88	3.67223498579586	0.0138073344376443	3.67226094298694	-0.215426917053254
59000	3.67487638187783	0.0137541820776332	3.67490212109222	-0.214443377702132
50312.5	3.67442909859561	0.0128286966694838	3.67445149322513	-0.20003847388741
42906.25	3.68203308113697	0.0126810862127662	3.68205491818557	-0.19732844081222
36593.75	3.68878645691698	0.0135582510089098	3.68881137372251	-0.210591497037027
31203.13	3.69595687415845	0.0116674538971711	3.69597529011214	-0.180871603245796
26609.38	3.70075409936483	0.011508664402442	3.70077199423605	-0.17817875890446
22703.13	3.70571343774989	0.0114789547137051	3.70573121652413	-0.177480953605771
19359.37	3.70729705285184	0.0115576768827648	3.70731506861486	-0.178621769871656
16500	3.70869568710149	0.0102947574425944	3.70870997538982	-0.159043687420476
14112.02	3.70824483873305	0.00924621988271239	3.70825636607994	-0.142862270666171
12011.13	3.71107755368253	0.00736641697525517	3.71108486477275	-0.113730861826319
10236.38	3.71428848464814	0.00677119255144922	3.71429465662572	-0.104450779010144
8750.684	3.7191677805135	0.00566556142920217	3.71917209580251	-0.0872809527634588
7449.463	3.7110295105617	0.00417655394882687	3.71103186079865	-0.0644831339825419
6363.206	3.69559494353567	0.00414845489040055	3.69559727193919	-0.0643168043346154
5414.761	3.68285724938812	0.00304294529018952	3.68285850649827	-0.0473403857212544
4620.567	3.66946251630411	0.0032739760539825	3.66946397686094	-0.0511205549887213
3941.215	3.65537962699407	0.0020452827133782	3.65538019918923	-0.0320585184348826
3361.769	3.64369021067175	0.00173539613572201	3.64369062393404	-0.0272885072805476
2867.244	3.6366497976512	0.00165280435174485	3.63665017323893	-0.026040095270315
2442.658	3.62745967059189	0.00171128651094542	3.62746007424922	-0.0270297939177343
2083.003	3.62208205947528	0.00031280724526996	3.62208207298248	-0.00494813055481182
1777.843	3.61223385442969	-0.000306552551893161	3.61223386743749	0.00486241148499789
1513.548	3.60136011324976	0.000173014201809775	3.60136011740568	-0.00275256659711082
1292.065	3.59866240052983	0.000488815313526258	3.59866243372833	-0.00778262897071075
1101.762	3.5982905458167	0.000395266460782942	3.5982905675264	-0.00629384970626487
939.101	3.59145042810158	0.000671785479296809	3.59145049093075	-0.0107172500424354
801.2801	3.58821591034737	0.000182648694066139	3.58821591499599	-0.00291649096821334
684.3433	3.59058210375854	0.00079615845394143	3.59058219202672	-0.0127044911294892
582.9476	3.59525601145203	0.00019588076489648	3.59525601678813	-0.00312165283070481
497.0677	3.59868093427708	0.000552675705792886	3.5986809767163	-0.0087993311190145
423.5089	3.59879505379255	0.000549588551394363	3.59879509575765	-0.00874990205002856
361.5036	3.59528477658931	0.000448049424576724	3.59528480450759	-0.00714028025701164
308.1262	3.5908914325215	0.000521322030944663	3.59089147036401	-0.00831814397392978
262.7298	3.58709783377638	0.000315024277347901	3.58709784760934	-0.00503180072755036
224.2111	3.58641082786633	0.000418416511235235	3.58641085227407	-0.00668453816760868
191.2854	3.58434914235948	0.000924095410262544	3.58434926148185	-0.0147716540993858
163.1722	3.57773478583703	0.00134398436430832	3.57773503827244	-0.0215232913543823
139.1537	3.56846650213905	0.00106178439256669	3.56846666010412	-0.0170481529293114
118.6706	3.56024551998912	0.0013591020757781	3.56024577940359	-0.0218723143248641
101.1982	3.55138361355003	0.00089984746842821	3.55138372755144	-0.0145175702355571
86.24196	3.54128825449033	0.00113826569897616	3.54128843742499	-0.0184164105215515
73.61024	3.53718245655616	0.0016385167664089	3.53718283605836	-0.0265409234086168
62.69291	3.52885353121893	0.00153822982188186	3.52885386647666	-0.0249752703967982
53.57697	3.5159567589287	0.00135640379713024	3.51595702056889	-0.0221038580290324
45.65746	3.50637046947189	0.00103880400778196	3.50637062335091	-0.0169745565005268
38.96512	3.49499389976535	0.00150132120540665	3.4949942222216	-0.024612164123712
33.18414	3.47193422867897	0.00107587537496445	3.47193439537392	-0.017754690104799
28.30617	3.43380347469408	0.00149282692537323	3.43380379919315	-0.0249090192869473
24.17237	3.40970459799783	0.0012886600664487	3.40970484151522	-0.0216543038838169
20.61345	3.38970545626406	0.00119835516252527	3.38970566809	-0.0202556508805451
17.55618	3.36736932141688	0.00104877461727904	3.36736948473846	-0.0178448965800644
14.98558	3.3433835841526	0.00118121947545839	3.34338379281537	-0.0202426332794397
12.76553	3.31467976408259	0.000578565094381089	3.31467981457579	-0.0100007663196243
10.8809	3.2823250033355	0.00110466225455659	3.28232518922182	-0.0192828201106145
9.278505	3.25559732920363	0.000890062751754491	3.2555974508728	-0.0156643567216673
7.923394	3.22526940186377	0.000560113513563072	3.22526945049957	-0.00995021998293788
6.75822	3.20509886836194	0.00106039898654083	3.20509904377712	-0.0189561654124545
5.761429	3.18889888672238	0.000502705678024511	3.18889892634624	-0.00903224419231313
4.919708	3.16598528017523	0.000605015045428341	3.16598533798396	-0.0109491375212808
4.191257	3.14013044409114	0.000264428658250212	3.14013045522483	-0.00482484608011793
3.564097	3.11089411325193	0.000702830319941531	3.11089419264557	-0.0129445776343829
3.051758	3.07322182391581	-0.000480220109502689	3.07322186143529	0.00895300985882449
2.604164	3.02935296954376	0.000565500231064092	3.02935302232574	-0.0106956094265133
2.214424	2.98612588979389	-0.00057244183314867	2.98612594466258	0.0109836295805476
1.892567	2.92910800820152	-0.000600444595960245	2.92910806974478	0.0117451936226796
1.607507	2.86867646912205	0.000635795964100184	2.86867653957902	-0.0126986870670245
1.376413	2.80317866585408	-0.00125291807041414	2.80317894585828	0.0256091106872397
1.17375	2.74644414988148	-0.000653984941196894	2.74644422774513	0.0136433053951229
1.001604	2.68335169500066	0.000630275586113869	2.68335176902139	-0.013457844686417
