EC-Lab ASCII FILE
freq/Hz	Re(Z)/Ohm	-Im(Z)/Ohm	|Z|/Ohm	Phase(Z)/deg
6999984	13.2460961045491	91.1951142863539	92.1520913040615	-81.7355807432852
5969734	22.2868806679693	81.7555095966657	84.7388246279048	-74.7514544037585
5091109	21.211457416325	81.1202730980123	83.8476274752045	-75.3462991866633
4341796	21.1179138339976	84.8253480091216	87.4145637154859	-76.0199829621781
3702781	23.8147435309276	92.0135723929728	95.0454602490866	-75.4892521565484
3157797	24.6996043331102	99.0806438383217	102.112900446655	-76.0021639747495
2693047	24.4980470033828	110.380175738847	113.066075827893	-77.4864684388155
2296687	25.6176909125837	126.026915466306	128.604235970843	-78.5099429482576
1958656	28.911479817642	143.053583909865	145.945885638145	-78.5742861086508
1670375	31.8949219821443	163.577591583745	166.658076661725	-78.9667049025359
1424531	36.0381343265946	187.521619557066	190.95314851305	-79.1214608030008
1214875	41.924556662275	215.333506226748	219.376815901848	-78.9825758334611
1036062	46.4562863003203	248.676463650934	252.978596151437	-79.4183102366581
883578.1	54.9663041198083	284.491396000244	289.752737669136	-79.0646806855033
753531.2	63.1802302267794	327.109929426996	333.155590409711	-79.0681184322741
642624.9	65.8623218042623	385.221408402823	390.811180655445	-80.2978004521839
548046.8	90.348620827762	426.327439850261	435.795777004272	-78.0347317529761
467390.6	115.196707867373	496.394904704454	509.586286039985	-76.9348246736635
398593.7	245.945135515138	696.676479690539	738.814677058843	-70.5556271742359
339937.5	292.726170899154	787.680681057359	840.31509949558	-69.6133980801433
289906.2	372.916200028482	882.036330857491	957.629668084813	-67.0818413581373
247234.4	449.762198783083	995.981881466923	1092.82475432458	-65.6971742546446
210843.7	485.227938884567	1112.02594464115	1213.27979222816	-66.4261484573895
179812.5	536.167115501411	1224.37473363476	1336.6258504564	-66.3508618031094
153343.8	624.828082829306	1374.30863464504	1509.6802165863	-65.5511273126658
130781.2	728.132478260463	1542.93508699196	1706.11417805744	-64.7367251026668
111531.3	855.444472720036	1729.73785437983	1929.7093798761	-63.6852329570427
95109.37	1004.92034976084	1933.16706886425	2178.76107581915	-62.5331867183732
81109.37	1186.73526612644	2152.34479705065	2457.83008307312	-61.1290390498461
69171.88	1402.71561775309	2380.84907516674	2763.34098927562	-59.4948488265739
59000	1655.96336848782	2617.05832413927	3096.96770240184	-57.6761088974902
50312.5	2255.16039840686	2970.01958053966	3729.17748723919	-52.7902972431813
42906.25	2307.73546848373	3158.03971871701	3911.37544317751	-53.8425571522509
36593.75	2883.10949805552	3300.73434669599	4382.59827103016	-48.8635940196097
31203.13	3245.05557420566	3392.92875978267	4694.92824744357	-46.2761567238446
26609.38	4989.29180902751	3878.89365254068	6319.71903832357	-37.8630564545278
22703.13	5484.15808138963	3882.2427215114	6719.21114494844	-35.2947273012302
19359.37	6012.23840641552	3826.67594925662	7126.74255717132	-32.4759812139928
16500	6524.58919927036	3728.9346507507	7514.99952420522	-29.7488396190409
14112.02	6993.23814412716	3581.90827426363	7857.19075915262	-27.1213411142403
12011.13	7451.52777855141	3384.66410284037	8184.20535687977	-24.4286973081332
10236.38	7857.68515482884	3153.98640596839	8467.04471710472	-21.8699709274821
8750.684	8191.40248096036	2916.81398933033	8695.22158736835	-19.5999178727517
7449.463	8491.41482658887	2680.25495570811	8904.37490140724	-17.5179324846951
6363.206	8762.66372738189	2471.373520471	9104.50232999363	-15.7502832022031
5414.761	8965.19601767305	2215.18108157646	9234.81276797072	-13.8790374207735
4620.567	9192.38264182879	2013.78522590029	9410.37882180359	-12.3566427224873
3941.215	9370.29584620332	1804.04013989934	9542.37942400863	-10.8976744521221
3361.769	9410.53891208083	1658.6049143168	9555.5854283023	-9.99570710229332
2867.244	9590.6863400877	1511.57083420847	9709.07363556248	-8.95660803377791
2442.658	9717.69273582106	1353.7565046043	9811.5344764001	-7.93074429033002
2083.003	9687.45627457529	1239.00544756306	9766.36798256645	-7.28844141325452
1777.843	9816.41095840982	1177.54386144302	9886.78580985805	-6.84032539210475
1513.548	9843.57955283308	1059.89999640323	9900.47708018806	-6.14560260635272
1292.065	9959.04186353153	1083.14955611458	10017.7706003125	-6.20711535523797
1101.762	9895.56232694039	1007.091185333	9946.67715480588	-5.81109838639945
939.101	9920.42633061131	1046.96729807485	9975.51999167584	-6.02449651719592
801.2801	9986.47467560553	1028.72942595657	10039.3207279347	-5.8814232261738
684.3433	10080.2100663611	1151.84522726701	10145.8061488255	-6.51879866621119
582.9476	10153.0487226597	1150.06592062037	10217.9768049489	-6.46251702199548
497.0677	10186.9299965605	1174.78217555302	10254.4456658964	-6.5784321135284
423.5089	10219.0838425925	1294.63032486291	10300.7641590316	-7.22019641027648
361.5036	10261.2780424547	1529.55233902918	10374.6497493839	-8.47811951990825
308.1262	10382.8254100356	1619.41137140961	10508.3565168456	-8.86500927107034
262.7298	10417.2119070448	1828.53029392618	10576.4751667122	-9.95569172988138
224.2111	10473.4949190067	2068.62992065019	10675.8290341813	-11.1727400304085
191.2854	10491.7372061064	2192.64234214133	10718.4061334952	-11.8042082755781
163.1722	10493.4639094727	2893.60828437154	10885.1161556867	-15.4163748583568
139.1537	10445.7789443066	2567.97973989257	10756.8033215178	-13.8116403953323
118.6706	10653.8234990469	3574.95654640985	11237.6273944976	-18.5494971582045
101.1982	10714.498329847	4014.11366426576	11441.7473739783	-20.5381190735446
86.24196	11035.1277697837	3700.42809497227	11639.0383185859	-18.5379348698988
73.61024	10780.5259586974	4553.177571491	11702.6136372896	-22.8968659949612
62.69291	20422.6479420084	3972.22095756793	20805.3620083612	-11.006651024756
53.57697	23086.957318412	5732.30217887068	23787.9567531989	-13.9440910488327
45.65746	23660.9843066639	7870.66538110026	24935.7083697545	-18.3993535679905
38.96512	22667.3064597219	6445.45632882955	23565.8797719457	-15.8731196239012
33.18414	23640.0428190517	9711.92330918436	25557.251003386	-22.3340896598498
28.30617	23519.2511930822	7639.70552570293	24728.9360305443	-17.9952349759288
24.17237	25651.7743786267	11325.5593348343	28040.7172343866	-23.8220209467589
20.61345	23296.2396868138	14367.1350998464	27370.2275204777	-31.6627478378959
17.55618	26147.5561503603	16213.5182600563	30766.4243454683	-31.8021312807174
14.98558	26939.2278410958	18253.8050548285	32541.1031720523	-34.1212524410228
12.76553	25063.8903555565	20706.439069564	32510.847708064	-39.5616872410183
10.8809	26370.5989764099	23597.5120179598	35387.159589495	-41.8235068922326
9.278505	27981.19287978	26027.5963127022	38214.9568204969	-42.9284101635188
7.923394	29525.9683058305	28000.6682735346	40691.7710128403	-43.4811769259492
6.75822	28945.1388367322	33188.5812983435	44037.5179917586	-48.9069669247011
5.761429	32251.301339349	40863.2664761526	52057.2087724894	-51.7177603577421
4.919708	28555.3264196698	45253.8790312214	53510.0012549646	-57.7479578049996
4.191257	36306.2636802149	55911.1286213791	66664.8264539381	-57.0020526994085
3.564097	39187.028234809	57389.7908945004	69492.5267981399	-55.6738677753598
3.051758	30177.0798071117	67070.3212091844	73546.4760052306	-65.775497585239
2.604164	38390.2270069318	71982.0222572196	81579.5382303835	-61.9276276246994
2.214424	146962.939123244	91267.2152401548	172996.560813893	-31.8411898136115
1.892567	148185.754496557	108668.26921674	183760.198547661	-36.2535148756022
1.607507	181684.157227204	109018.796676089	211882.587807639	-30.9656816547618
1.376413	163227.913169244	112111.955171775	198021.317362612	-34.4829549675109
1.17375	150951.3743831	131421.9754232	200145.080010184	-41.0436311189682
1.001604	185753.988173825	163791.668146127	247653.497202387	-41.4047721468171
