EC-Lab ASCII FILE
freq/Hz	Re(Z)/Ohm	-Im(Z)/Ohm	|Z|/Ohm	Phase(Z)/deg
6999984	42.9812255404725	70.948244695076	82.9520293559678	-58.7920587950665
5969734	49.4615353189655	63.5333819395216	80.5166696826341	-52.0987944802379
5091109	51.2876376759537	61.9805749237964	80.4488250148145	-50.3929501551068
4341796	56.2559721489021	60.7956269707341	82.8302037977857	-47.2210099646389
3702781	62.968308007741	57.6853646494759	85.3967745766826	-42.4928476476603
3157797	67.8864047846434	55.5122958237912	87.6936653482597	-39.2736670869839
2693047	73.8465105958015	53.6014089883613	91.2492091621259	-35.9739802265137
2296687	80.5262733655795	50.8290481332036	95.2264292949996	-32.2605605421795
1958656	85.9540538885165	47.049276500749	97.9884370684313	-28.6952848253544
1670375	90.9455400754304	43.2348351893006	100.699266300493	-25.4260678604292
1424531	95.0936937233172	39.1963104680345	102.855050144612	-22.4007819472031
1214875	98.5277767116935	35.0829049054204	104.587441886453	-19.5993506445345
1036062	101.202668450273	31.5601645309914	106.009547148731	-17.3201474538159
883578.1	103.428809011689	28.160152509589	107.193809163308	-15.2305188087722
753531.2	105.267710217404	25.1086415273786	108.220768310735	-13.4156234264938
642624.9	106.701184218905	22.364149574755	109.019713354598	-11.8376117150342
548046.8	107.908889502394	19.8858068342704	109.725902808269	-10.4415083739508
467390.6	108.891021452914	17.7050954977422	110.321008695729	-9.23516865461461
398593.7	109.960504740683	15.9121846202186	111.105851431028	-8.23401085129277
339937.5	110.053509155291	15.0278659925341	111.07480197454	-7.77567899265582
289906.2	110.632605415681	13.7449929879503	111.483174574913	-7.08213649996176
247234.4	111.360122491762	12.2964651424092	112.036957903983	-6.30111481110713
210843.7	112.011367091653	12.1089776626927	112.663985806364	-6.16999341969144
179812.5	112.355785762784	11.0803415369036	112.900826227921	-5.63220320106795
153343.8	112.519924080916	11.251055689939	113.081030988018	-5.71012087754339
130781.2	113.085201271944	10.9563781676916	113.61472162211	-5.53388937300146
111531.3	113.679144906524	11.1513855265978	114.224784463974	-5.60251997657561
95109.37	114.077638182881	11.6809367633166	114.674111363694	-5.84640404573541
81109.37	114.606891502639	11.983500967075	115.231696487232	-5.96925765616736
69171.88	114.952944574461	12.7827295923012	115.661478644227	-6.34520391344245
59000	115.590456108717	13.6517862114675	116.393834932031	-6.73570329871386
50312.5	116.305688538397	14.7733115728671	117.240197548535	-7.23902380342448
42906.25	117.011520977224	16.0023500527967	118.100682676331	-7.78739024998829
36593.75	117.72430186074	17.5688632831704	119.028047978875	-8.48802596018607
31203.13	118.62742108936	19.3153604248924	120.18963425627	-9.24795707260193
26609.38	119.578178688645	21.4199880598873	121.481507674951	-10.15565972996
22703.13	120.606101364219	23.8235693577142	122.936545189858	-11.1739031347326
19359.37	121.782026279742	26.5896720674816	124.651003146609	-12.3165700542959
16500	123.108554174208	29.6835160708542	126.63659517372	-13.556210080685
14112.02	124.534705736643	33.1731630961495	128.877273724718	-14.9159134130438
12011.13	126.112744940547	37.2577380118219	131.501191926906	-16.4588257299737
10236.38	127.894722986986	41.845095367235	134.566237125851	-18.1172635271358
8750.684	129.842110486479	47.0477300961063	138.103086724298	-19.9177662096005
7449.463	132.027442747311	53.0181540526481	142.274981277612	-21.8788746916184
6363.206	134.331491602817	59.704730368152	147.002055987566	-23.9631461812776
5414.761	137.040623170868	67.6209756633536	152.815996377093	-26.2634571371688
4620.567	140.088817435268	76.4054438919729	159.57026235092	-28.608367127833
3941.215	143.293025168384	86.3933137223936	167.322131584089	-31.0863465664164
3361.769	147.191695160971	97.7460437238	176.690928425925	-33.5870666998885
2867.244	151.397446205486	110.710121482285	187.557771676264	-36.1763202718642
2442.658	156.234578437071	125.717297943331	200.534492049577	-38.8225946036113
2083.003	161.669814049688	142.635243082826	215.59670995671	-41.4207576693013
1777.843	167.798688709981	161.83439422319	233.123939324935	-43.963418313377
1513.548	175.152043941033	183.879682665535	253.948766868239	-46.3925187224577
1292.065	182.997036438691	209.202053966722	277.944985076613	-48.8225702414783
1101.762	192.257914584644	237.655977801397	305.68524580878	-51.0279821977621
939.101	203.066633265329	270.031118193034	337.865154075255	-53.0563960319739
801.2801	215.426058379216	306.581883626787	374.700998126445	-54.9054167805304
684.3433	229.622802234441	348.115762498823	417.026636326907	-56.5905085743219
582.9476	246.063095882191	395.745215927504	466.0057114292	-58.1278288231713
497.0677	265.345527426527	449.317956943546	521.818814683012	-59.4359487652345
423.5089	287.662351429964	510.304199480208	585.798603990614	-60.5897138772894
361.5036	313.968335071439	578.171575747125	657.919817629356	-61.496419588084
308.1262	342.673827218818	655.539313164042	739.700711750621	-62.4023231579653
262.7298	376.712090069559	742.722767970191	832.79595872331	-63.1056861472679
224.2111	415.6160012207	839.685915448429	936.914669045773	-63.6661534624649
191.2854	460.044579555229	949.013010919825	1054.64055965682	-64.1376977278575
163.1722	511.730436186692	1072.41977905617	1188.25595804553	-64.4907543212171
139.1537	569.464452988891	1210.74122501264	1337.97760712317	-64.8103501793411
118.6706	635.498411177163	1365.40719187714	1506.05279795847	-65.0414240581174
101.1982	710.57634632622	1538.90840433578	1695.03917975179	-65.2153167489396
86.24196	796.813067054022	1734.03992891557	1908.35152393408	-65.3206263916846
73.61024	894.044877831155	1953.77847947478	2148.61969423044	-65.4112683148743
62.69291	1003.97630368136	2202.22150644589	2420.27849261329	-65.4921126597673
53.57697	1124.84765373909	2471.58819128249	2715.51660488559	-65.5291830291122
45.65746	1262.35969810245	2781.40737538861	3054.46869279413	-65.5887706398059
38.96512	1415.44527568	3124.34223837023	3430.01454091803	-65.6276744740952
33.18414	1590.53126083582	3515.09528961917	3858.19706427741	-65.6539159411122
28.30617	1793.83370726828	3940.89008622926	4329.94850328176	-65.525687986562
24.17237	2002.2331308851	4433.35171184243	4864.51898046561	-65.694653240346
20.61345	2241.67280859196	4986.07250370367	5466.81040397144	-65.7919414739592
17.55618	2518.39104623033	5608.32871550855	6147.8162336663	-65.8177818705196
14.98558	2823.42251703731	6300.12356225611	6903.85918232751	-65.8602953389183
12.76553	3162.49856252286	7089.68371562177	7763.05431808329	-65.9597608121531
10.8809	3540.66931477969	7971.53154612277	8722.47983015455	-66.0509183973584
9.278505	3969.49710825957	8977.43420473638	9815.86634958177	-66.1467169407043
7.923394	4451.97817608516	10099.6210004118	11037.3209626384	-66.2118049462311
6.75822	4983.01519218784	11377.1714482495	12420.5664350881	-66.3473667605591
5.761429	5593.32487078581	12825.20505133	13991.8250317395	-66.437034655497
4.919708	6288.72997115263	14434.9759495029	15745.3693291965	-66.4592081221686
4.191257	7065.78736196177	16266.7013479237	17735.0197007785	-66.5212594513813
3.564097	7961.42903877327	18405.1852837853	20053.308895788	-66.6084063320207
3.051758	8939.56365232004	20665.1267857238	22515.8447179741	-66.6070885290919
2.604164	10065.8306593812	23329.263126521	25408.1771264644	-66.6613476322908
2.214424	11370.7033160767	26335.9306527113	28685.7828417956	-66.6474247578691
1.892567	12837.8473743228	29688.3187979885	32345.1170697743	-66.6153391213418
1.607507	14521.6146970554	33605.6556092259	36608.9795314706	-66.6299495451176
1.376413	16381.1340693484	37773.6747584258	41172.710114265	-66.555293144412
1.17375	18551.0416637077	42659.8139704163	46518.8228010893	-66.4977108860014
1.001604	20941.8569460182	48126.9142900009	52485.8195270359	-66.4843036735953
