EC-Lab ASCII FILE
freq/Hz	Re(Z)/Ohm	-Im(Z)/Ohm	|Z|/Ohm	Phase(Z)/deg
6999984	17.9055306175065	1.14116136321214	17.9418582078711	-3.64666207979231
5969734	15.8504472883738	1.71789691248431	15.9432697099258	-6.18566381538827
5091109	12.798639978813	-5.8996705107452	14.0929520485464	24.747846259177
4341796	7.95178686178295	-2.83447155171785	8.44186847047036	19.6189744490177
3702781	5.59773718032941	-4.83425108272569	7.39625885640009	40.8141557924404
3157797	4.47480189408603	-4.73648227550565	6.51598928310161	46.6272595311228
2693047	4.4983594375433	-3.69810779209293	5.82333571686137	39.4236731673271
2296687	2.16481692946333	-3.29982407775364	3.9465518218077	56.7335188399866
1958656	1.83467216941189	-3.18484977402046	3.67549861274531	60.0553734375504
1670375	1.4168901705814	-2.88693017541957	3.21588923833491	63.8584380985108
1424531	1.19612701062571	-2.4016869375112	2.68306167863512	63.5250339575242
1214875	0.664644993470147	-1.63688164175058	1.76667327948464	67.9007126389382
1036062	0.811173348621248	-1.84759676378833	2.01782457192753	66.2964881083515
883578.1	0.741875827848206	-1.53841749367141	1.70795436964214	64.2550967800799
753531.2	0.677420830872599	-1.33433416875577	1.49644467188376	63.0837991594939
642624.9	0.613916768750161	-1.19477097608816	1.34326895454905	62.8042530512496
548046.8	0.573866595864911	-0.995440162886994	1.14901000332376	60.0367523092087
467390.6	0.532378144110089	-0.878791845897416	1.02747340439638	58.792230682405
398593.7	0.512170359513017	-0.751044200459822	0.909057681452627	55.7081879472882
339937.5	0.486004909160768	-0.664777363040035	0.823486316910505	53.8302385596556
289906.2	0.467276761865965	-0.57336195781377	0.739656343748893	50.8207605519971
247234.4	0.448881991446991	-0.491276623289487	0.665468077999341	47.58189316148
210843.7	0.434281750027878	-0.428953995603549	0.61041147495073	44.6463840051729
179812.5	0.412588936286214	-0.366465935418101	0.55183957104185	41.6118276348215
153343.8	0.409910095652117	-0.31904035268323	0.51943530218668	37.8942597360506
130781.2	0.403395249479686	-0.2767513492841	0.489202449537354	34.4522673480037
111531.3	0.396798799910011	-0.240527572878312	0.464007328524838	31.2229912709771
95109.37	0.390303379334172	-0.209544567606594	0.442996223158967	28.2302894675601
81109.37	0.38369641725515	-0.1821675196515	0.424744565392446	25.3969616044366
69171.88	0.378107508870843	-0.158010130002735	0.409795667922437	22.6799212554128
59000	0.369352476588259	-0.134045418636298	0.392924199075675	19.9468495472814
50312.5	0.362862303462718	-0.104610494637378	0.37764057894054	16.0818767965571
42906.25	0.394165218591449	-0.103442740866627	0.407512723955026	14.7048185725838
36593.75	0.377864341015364	-0.0946107666521692	0.38952876322229	14.0568892499601
31203.13	0.371790285364624	-0.0824217545044474	0.380816703818385	12.4996816360417
26609.38	0.367673367259213	-0.0712926464148098	0.3745214899369	10.9735970895549
22703.13	0.368419841135459	-0.0628565399936081	0.373743393202134	9.68207573481665
19359.37	0.365898798786651	-0.0562875426418351	0.370202942195453	8.7454616271163
16500	0.364428124908899	-0.0504133963454069	0.367898584878625	7.87606119836274
14112.02	0.362472424835549	-0.0447726309658234	0.365227117352702	7.04151379228699
12011.13	0.361095379162492	-0.0402958964604387	0.363336802600637	6.36749197167304
10236.38	0.359155633788365	-0.0365549996197704	0.361011131793915	5.8115739413694
8750.684	0.357918222445366	-0.0328804646706305	0.359425345399301	5.24879359555349
7449.463	0.35685491956605	-0.0301339488361609	0.358124962116511	4.82678439633886
6363.206	0.355505140832889	-0.0272051367661205	0.356544561906468	4.37604766623416
5414.761	0.351694491353029	-0.0342857652870401	0.353361753659594	5.56801932294181
4620.567	0.34844750910897	-0.0364038230112507	0.350343980873199	5.96430157123948
3941.215	0.340498220290638	-0.015213493247892	0.340837921009232	2.55827947357093
3361.769	0.358033168938722	-0.00572580004584319	0.3580789505772	0.916217383151495
2867.244	0.351853177187813	-0.0374469675859375	0.353840265767678	6.07499701725875
2442.658	0.335236057978555	-0.0140765796348833	0.33553146598079	2.40444030557831
2083.003	0.336459224811406	-0.0187656785207512	0.336982136991023	3.19230769416916
1777.843	0.33937731603805	-0.0145541354379663	0.339689248430881	2.45561460400821
1513.548	0.341981917252097	-0.0144658426157178	0.342287733245004	2.42216876567524
1292.065	0.341460075023253	-0.0158113814865789	0.341825953694859	2.65119947695407
1101.762	0.338716719679765	-0.0133378019694051	0.338979222301302	2.25499686978992
939.101	0.33697594795574	-0.0153588961667701	0.337325784949997	2.60965602610252
801.2801	0.337904956807762	-0.0143227766079683	0.338208370335533	2.42714318525257
684.3433	0.338575629750373	-0.0219311979772271	0.339285181676975	3.70614999582956
582.9476	0.336636141030416	-0.0151776891384626	0.336978120499587	2.58150832850112
497.0677	0.335429235769489	-0.0127050861001665	0.33566976542685	2.16916091658578
423.5089	0.335149884434578	-0.0159708911318876	0.335530198939019	2.72825084124326
361.5036	0.320439028046239	-0.0190279311480148	0.321003477954667	3.39827971898294
308.1262	0.332813428166593	-0.0177998096706184	0.333289080517664	3.06142465319624
262.7298	0.326083779097435	-0.0120214724997393	0.326305296910005	2.11132197308292
224.2111	0.329374037231778	-0.0167683183237181	0.329800595666179	2.91439222380977
191.2854	0.324242101722903	-0.00897037339515185	0.324366163661585	1.58472162019833
163.1722	0.327632504426011	-0.00741981157099539	0.327716510966734	1.29734146002118
139.1537	0.315542053619496	-0.0103726381576912	0.315712494565481	1.88277426522539
118.6706	0.365828119983261	-0.00975906336801013	0.365958266320503	1.52809620130555
101.1982	0.311288173345132	-0.00892499064504869	0.311416091945428	1.64228611691733
86.24196	0.320459635712162	-0.0155600665520918	0.320837176449172	2.77983996111684
73.61024	0.324643546124392	0.00409479684173145	0.324669369361193	-0.722645310939931
62.69291	0.193721848932606	0.0713917384254961	0.206458070971522	-20.2302058248633
53.57697	0.312551230214648	-0.00875425708685634	0.312673805308076	1.60437980214927
45.65746	0.318561638379311	0.0258148735992096	0.319605890349121	-4.6328817274795
38.96512	0.306392748094537	-0.00884553312967597	0.30652040640269	1.65366505872863
33.18414	0.311533609879669	-0.00152228184712551	0.311537329106289	0.279968607322458
28.30617	0.29601223988938	-0.0209350849056748	0.296751619952336	4.04543440266762
24.17237	0.309831026645913	-0.00702920195016428	0.309910752883014	1.29965850134469
20.61345	0.312897019625596	0.00128248257657581	0.312899647893921	-0.234839013631184
17.55618	0.30819776872097	-0.00196084569126345	0.308204006399024	0.364527838671707
14.98558	0.305871719468469	-0.0108664582549764	0.306064680558873	2.03464532319174
12.76553	0.300690033110572	-0.00873605592706356	0.300816912232669	1.66416680215558
10.8809	0.301808338864487	-0.0108258416229399	0.302002437498418	2.05431439134079
9.278505	0.305933083849177	-0.00576273526425424	0.305987354168753	1.07912933783002
7.923394	0.302306905918577	-0.0110853439965868	0.302510082836235	2.10004788254813
6.75822	0.312058217927491	-0.00915692642880187	0.31219253783155	1.68078487004556
5.761429	0.282636712029987	0.010845295293057	0.282844712549334	-2.19746732349643
4.919708	0.292545958909879	-0.017011811863172	0.293040167583505	3.32805342794935
4.191257	0.297493948669342	-0.0227927983096131	0.298365817662915	4.38121459963065
3.564097	0.284195195277942	-0.0081261747803218	0.284311349994382	1.63784855879404
3.051758	0.304601772293592	0.0110115385552988	0.304800744201441	-2.07037554425389
2.604164	0.309216333605669	-0.020150096742899	0.309872179079182	3.72841055208599
2.214424	0.275068718756717	0.00869603784998811	0.275206142941524	-1.81074888671508
1.892567	0.302945612156145	-0.0267876754796603	0.304127643403662	5.05318179359126
1.607507	0.285256188792199	0.0297790264200876	0.286806352193913	-5.95974655676819
1.376413	0.266445840011381	-0.0227575097297843	0.267415949241012	4.88186397510037
1.17375	0.329108047992329	-0.0324048993126363	0.33069953848287	5.62337678623396
1.001604	0.320540266809734	0.0419197460331217	0.323269744569356	-7.45076608619303
