EC-Lab ASCII FILE
freq/Hz	Re(Z)/Ohm	-Im(Z)/Ohm	|Z|/Ohm	Phase(Z)/deg
6999984	26.7494630561896	81.6289181365391	85.9000235735489	-71.8562413691829
5969734	34.1224358713908	74.2949085728211	81.7561867361793	-65.3314552940126
5091109	34.7163953536297	72.360811904643	80.2578046413472	-64.369802930665
4341796	37.1751854395395	74.1347509441369	82.9334414456157	-63.3683300005559
3702781	43.4456167964247	77.3588326543053	88.7237882896047	-60.6809287582743
3157797	48.0293837772504	80.3289657591302	93.5925448203751	-59.1244316120219
2693047	53.2146871765841	86.3085799431914	101.395137472721	-58.3435474330381
2296687	61.6706048494401	94.1602727094122	112.55852015377	-56.7770636324165
1958656	72.7539797410037	100.173870936556	123.806082187299	-54.0099582312543
1670375	84.9488087426021	106.37381441185	136.131144486902	-51.3895701326912
1424531	99.355795372065	111.061771285494	149.017754361978	-48.1842035844554
1214875	114.582560944051	114.118305917664	161.716267017313	-44.8836916647602
1036062	130.735603664923	115.538727170878	174.473480912998	-41.46892050156
883578.1	147.150169437192	115.123668316729	186.833164540171	-38.0380263060048
753531.2	163.820876669185	112.015104796969	198.455696152407	-34.3629833347885
642624.9	176.976704733431	108.162833736741	207.412517993167	-31.4320177337968
548046.8	194.057361415446	104.626945338595	220.465546538252	-28.3315368395376
467390.6	206.507709215841	96.5812234071349	227.976680124072	-25.0649382917362
398593.7	216.683359942114	86.2050262329877	233.201597386539	-21.6945770872366
339937.5	224.795605040526	78.647749246316	238.156529423503	-19.2830722120443
289906.2	231.749224903167	70.8855973500998	242.347830926747	-17.0074041709217
247234.4	237.676211141092	63.6360404928124	246.047814442615	-14.9889540727671
210843.7	242.392807816717	56.7313749408206	248.943210760904	-13.1728096424953
179812.5	246.444935803409	51.4054948480647	251.749143561048	-11.7822811807584
153343.8	249.04288365915	45.6730304121223	253.196334113058	-10.3922340035695
130781.2	251.467128048327	41.1400175184537	254.810159786247	-9.29127841149177
111531.3	253.457964767272	37.3883471249648	256.200758009621	-8.39135652099159
95109.37	255.030996631258	34.0498089922849	257.293992808118	-7.60472557532263
81109.37	256.213202476749	31.7543706440333	258.173478843955	-7.06505662808891
69171.88	257.120765422937	29.9496449173565	258.859168743069	-6.64392118951185
59000	257.741035791355	28.8759516123451	259.353546558205	-6.39246147238484
50312.5	267.356783448932	19.9635080301895	268.101084125057	-4.27034612035725
42906.25	274.570105196282	30.9002413325613	276.303397702431	-6.42107498467367
36593.75	263.18814756717	27.5290803020441	264.623980927872	-5.97133749296368
31203.13	263.818926545108	28.4626293570693	265.349858250068	-6.15765190878432
26609.38	264.785982105288	29.6049876935668	266.43586773518	-6.37958711072825
22703.13	265.855725043069	31.4522626615928	267.709752091159	-6.74705932221335
19359.37	266.97553590914	33.7007321142834	269.094177044044	-7.19448206443101
16500	268.272350100956	36.474903040901	270.740599800866	-7.74258495040906
14112.02	269.826024746445	39.9571419625095	272.768504091439	-8.42341923920712
12011.13	271.623484307734	44.3042405946909	275.212977459542	-9.26387956972862
10236.38	273.116002083216	48.7099678930513	277.425686565	-10.1123212023363
8750.684	275.597489635155	54.6208752744895	280.958033003064	-11.210222929366
7449.463	278.247217452052	61.0010024523824	284.855465666371	-12.3655006500001
6363.206	280.527306176413	68.7174522654207	288.821151850839	-13.7640390617128
5414.761	284.060736852055	78.0758497276505	294.595214712709	-15.3685901782429
4620.567	287.026411364745	87.9400376256224	300.195954400654	-17.0341784886882
3941.215	291.088028044696	98.836251484093	307.4098968452	-18.7544441615228
3361.769	295.159314445883	111.33755230352	315.460094872716	-20.6670632253388
2867.244	300.106486451964	126.193880096057	325.559209030002	-22.8066079534942
2442.658	305.529952128723	143.169482015842	337.410806330301	-25.1075033263365
2083.003	311.60311335442	161.71643240524	351.067948924486	-27.4285037882099
1777.843	502.90104034156	178.38338666837	533.601057922396	-19.5300399400575
1513.548	510.554239199141	204.086986225975	549.833728604398	-21.7883760078775
1292.065	518.387181626196	231.874190237906	567.882831377068	-24.0989314491457
1101.762	528.000147404964	264.353130299892	590.480087013114	-26.5956924442534
939.101	539.603953930266	300.693112283619	617.728722718951	-29.1286414537016
801.2801	551.722625220757	343.641314858841	649.990160278136	-31.9167801355231
684.3433	565.654206195172	391.600931251315	687.979629308301	-34.694754546059
582.9476	583.346700368284	445.816798007145	734.197514444109	-37.3885041607107
497.0677	603.797837204978	509.037791027663	789.741287326256	-40.1328975148739
423.5089	627.027145318966	580.989279692889	854.816696189841	-42.8174969935374
361.5036	651.074133817365	658.406432913962	925.957104097441	-45.3208183553993
308.1262	683.663033007397	749.890723979252	1014.75673962334	-47.645084676705
262.7298	719.336555339669	855.123348627935	1117.44396781968	-49.929186656572
224.2111	761.451373826013	966.990324788736	1230.80399858651	-51.7815248307622
191.2854	807.356028549358	1100.00557554626	1364.49112238514	-53.7229579420953
163.1722	858.380573044194	1241.9400019228	1509.71261389566	-55.3492814548403
139.1537	932.395941639317	1417.86703422881	1696.97057097001	-56.6708945529788
118.6706	982.433048680895	1590.73396775647	1869.65484817778	-58.3006328941828
101.1982	1061.30635000169	1785.91261511627	2077.46360675352	-59.278442667353
86.24196	2273.12435901276	2056.45416113628	3065.30554242018	-42.1350698820688
73.61024	2198.45356602466	2230.18770024837	3131.6026664163	-45.4105550052727
62.69291	1906.0644541851	2395.92307239504	3061.62196757582	-51.4961746600532
53.57697	2557.82739465536	3070.1646962514	3996.04707716987	-50.2015134965976
45.65746	2463.48834983777	3196.14140501564	4035.35558911997	-52.3760602164577
38.96512	3015.91421615658	3819.02549201114	4866.2813592975	-51.7015743000296
33.18414	2919.02061250579	4092.03601903596	5026.47392486237	-54.4981469205955
28.30617	3769.45763119032	4899.93699497346	6182.08649147264	-52.4293853984505
24.17237	3221.20635921265	5877.48729887799	6702.31507444287	-61.2746849213683
20.61345	3127.36481385431	5885.2932281415	6664.61454700436	-62.0144307306617
17.55618	3274.75244599531	6924.65519763269	7659.95125236797	-64.6899717465841
14.98558	4151.45266019776	7891.58153068371	8916.92874510565	-62.2528957649952
12.76553	4634.00513272074	9548.92020494054	10613.9474584343	-64.1131178384464
10.8809	5105.92968088296	10082.528454911	11301.6767760457	-63.1417251925816
9.278505	17543.4100016944	11899.8111343445	21198.5079550572	-34.1493044546724
7.923394	16945.5614397025	13718.9343727651	21802.7799335537	-38.9932386237351
6.75822	17798.9898535606	15312.2406825431	23479.1131546164	-40.7049844141562
5.761429	19560.7649898636	16080.1628195205	25321.8317522837	-39.4223267165086
4.919708	19710.196951753	19728.9280371912	27887.6758689849	-45.0272118628625
4.191257	21936.3917392413	22124.1054237298	31155.7590717634	-45.2440993066313
3.564097	19382.6875859952	27749.7379979274	33848.7302126669	-55.0664007322283
3.051758	22582.5592478403	30704.8615811664	38115.0955252746	-53.6665674358985
2.604164	25161.95790968	32039.6351456164	40738.9536698321	-51.8560895582205
2.214424	21648.67928633	37737.1514563124	43505.8377103469	-60.1583912491149
1.892567	21491.0706895032	38737.6713673838	44299.8115385229	-60.9791532906398
1.607507	30848.5567569565	45455.1916703533	54934.5783980884	-55.8368857272305
1.376413	24069.5481465991	59651.855154098	64324.8550041657	-68.0259039171743
1.17375	25898.0489284905	63555.4584405007	68629.4778931379	-67.8297231681215
1.001604	37427.3772682218	80532.4430373172	88804.7462173984	-65.0733951030857
