EC-Lab ASCII FILE
freq/Hz	Re(Z)/Ohm	-Im(Z)/Ohm	|Z|/Ohm	Phase(Z)/deg
6999984	21.1290180388661	88.7898919426704	91.2692736602949	-76.6144839704059
5969734	16.7053297642824	88.4036287126903	89.9681588791536	-79.2991923110503
5091109	12.2235621778086	93.8341160276952	94.6269348706473	-82.578000589466
4341796	9.83112808250766	103.131101324056	103.59862518242	-84.5546476868878
3702781	11.4080575999394	114.879171441395	115.444219470985	-84.3288450198268
3157797	12.189576323036	128.819499652441	129.394935224066	-84.5944682536494
2693047	12.5827657036825	145.655330517225	146.197815650016	-85.0626320680508
2296687	13.2591729309989	167.088341240891	167.613601612299	-85.4628430879497
1958656	15.2193635453763	192.434326769413	193.03522773298	-85.4779691737412
1670375	17.9097764394684	222.839596313144	223.55814853661	-85.4049743506415
1424531	21.8283599042611	258.063611400762	258.98514402435	-85.1651342175997
1214875	27.0637686962941	298.979913424593	300.202325453058	-84.8276620762677
1036062	33.1334603253054	346.961613717106	348.540080315459	-84.5450219959296
883578.1	40.8517886197378	402.33751594891	404.406163866689	-84.2022786428824
753531.2	51.111116696463	466.656706339685	469.447364271824	-83.74952739317
642624.9	118.015826913313	609.011079068254	620.340414474112	-79.0329961194326
548046.8	145.660174266311	695.375561265546	710.467492270171	-78.1693195390524
467390.6	177.719684631336	792.399848211926	812.084851325121	-77.3588707378398
398593.7	212.874814711953	901.508176585599	926.300533946375	-76.7140067394201
339937.5	254.196727604745	1027.0223193459	1058.01267514128	-76.0981917012135
289906.2	299.628294174893	1168.61523910689	1206.41563805473	-75.6193708718226
247234.4	355.398118628785	1331.98354459993	1378.58187490256	-75.0604505426725
210843.7	417.416045632127	1518.51134375324	1574.83740629261	-74.6298727596317
179812.5	490.850573087093	1730.44546405706	1798.71503834698	-74.1637142975133
153343.8	584.802016670198	1974.09178797452	2058.89091164392	-73.4986821847049
130781.2	693.981805561236	2250.38482348039	2354.96127360959	-72.8610947502833
111531.3	830.159994167407	2560.49169721939	2691.70640067699	-72.0363220041925
95109.37	988.634246563488	2909.92627334721	3073.28303118905	-71.2350405277021
81109.37	1189.70271416512	3304.14142401853	3511.80054929193	-70.1978723269563
69171.88	1426.99536993311	3735.61420364199	3998.89100429885	-69.0932669937235
59000	1717.93592479849	4209.30970064799	4546.38229779267	-67.7982677851688
50312.5	2606.74950501038	4952.41072471376	5596.5627815769	-62.2394885525891
42906.25	3233.95647818173	5375.3103960306	6273.15202720676	-58.967555767715
36593.75	3710.42593269832	5880.45232238364	6953.19927212411	-57.7490464248103
31203.13	4310.85995883167	6415.89454561413	7729.63235898702	-56.1027209554373
26609.38	4989.7443875862	7005.12465310412	8600.5418700786	-54.5377612225508
22703.13	5796.63670734515	7570.54036110942	9534.88743909061	-52.5593207672302
19359.37	6720.75898241082	8152.79517723668	10565.8255948898	-50.499526034579
16500	7773.29327713958	8647.04011954754	11627.355296949	-48.0459087614447
14112.02	8888.24569815907	9054.26959850956	12687.8173675908	-45.5301484858504
12011.13	8077.44476281577	10715.6036956488	13418.9893978102	-52.9909356038803
10236.38	9901.62778111556	8478.22006524215	13035.4304950176	-40.5716284873395
8750.684	12816.4651198137	9602.71175769866	16014.8010062206	-36.8423149537683
7449.463	14159.4030152955	9535.44895568402	17070.8371363567	-33.9577360158704
6363.206	15456.05285321	9274.365327693	18025.0775874263	-30.9657561392752
5414.761	16667.6507051013	8892.01018711584	18891.22614324	-28.0794354096801
4620.567	18092.5502741565	8449.10533270931	19968.1685776662	-25.0322739678358
3941.215	20506.3591831046	4222.43150215287	20936.5635847163	-11.6350654048775
3361.769	19564.5583967339	7209.91312797795	20850.7743878303	-20.2298047544067
2867.244	20229.9511486044	6600.4767146886	21279.5022577143	-18.0700804527067
2442.658	20794.3897515673	6028.50600047152	21650.6242343681	-16.1674136657922
2083.003	21254.8447000898	5416.9820072881	21934.2681047766	-14.2979497831055
1777.843	21625.2676571823	4951.7214831716	22184.9441489421	-12.8971653768358
1513.548	21930.8621117043	4468.65949815814	22381.5019753605	-11.5169959920349
1292.065	22131.7857552663	4125.02142043567	22512.923897976	-10.5578990204536
1101.762	22343.1738173967	3780.14037554874	22660.6901371793	-9.60268097314538
939.101	22475.4574058518	3479.58775447181	22743.2125378833	-8.80050568249452
801.2801	22535.1135769082	3394.44047760871	22789.3301805951	-8.56600551610337
684.3433	22792.7244641466	3128.15297226397	23006.382364822	-7.81465158188062
582.9476	22835.7334771177	2931.06655785414	23023.0726577606	-7.31417294783384
497.0677	22904.0220007534	2967.02142369114	23095.39867462	-7.38107722957127
423.5089	23009.7310641763	2756.991492393	23174.3117639953	-6.83252170693507
361.5036	23210.2244477348	2916.76684369378	23392.7776831803	-7.16265998848945
308.1262	23267.6218419344	3042.31565566662	23465.6751602842	-7.44934515086111
262.7298	23409.2217989461	3195.99101971168	23626.3840616869	-7.77435546014907
224.2111	23544.0688703159	3257.96512112636	23768.4142445526	-7.87840459574482
191.2854	23605.9364798322	3538.13774391466	23869.6178391022	-8.52423116326038
163.1722	23766.1486783937	3809.93887092606	24069.5961163395	-9.10756522406103
139.1537	23950.939621475	4071.80865055302	24294.5906415041	-9.64839154604091
118.6706	24092.9842324323	4453.03683598136	24501.0494935796	-10.4716402243967
101.1982	24297.4908325682	5029.16557294596	24812.5082794715	-11.6941144352437
86.24196	24518.8542489132	5553.89155790299	25140.0064661168	-12.7629843907941
73.61024	24725.1503737877	6234.89722775545	25499.1569360065	-14.1531060524964
62.69291	24914.627300107	7058.18034254587	25895.1069364684	-15.8171416473169
53.57697	25282.6143657298	7891.14748006267	26485.4827729892	-17.3340588690817
45.65746	25586.6761502716	8923.8182315829	27098.2015685397	-19.2271458016616
38.96512	25953.1304023561	10117.6673315941	27855.5590486802	-21.2980158084927
33.18414	26373.8279308803	11494.2205452903	28769.7046504036	-23.5484966249414
28.30617	26792.8922934418	13042.2081051162	29798.6286547742	-25.9558303673851
24.17237	27350.2593025625	14885.8073208308	31138.7851964444	-28.5579353827056
20.61345	27924.5029617741	16967.2107931879	32675.1298048317	-31.2832893493367
17.55618	28577.1166644573	19389.6057337352	34534.162902316	-34.1569362525035
14.98558	29276.6299939244	22180.4959867345	36730.0349308124	-37.1482171205887
12.76553	30135.9120253436	25324.8064416744	39363.9303793145	-40.0421180818134
10.8809	31078.3221238287	29020.3722646891	42521.1019661249	-43.0387962123287
9.278505	32134.482746344	33205.8555862809	46208.8068077073	-45.9393835910226
7.923394	33385.8014757964	38046.0637335788	50617.3360203876	-48.7327247296239
6.75822	34799.7565037211	43509.7840539109	55714.6691737126	-51.3466727825697
5.761429	36366.2252700612	49831.6911231068	61690.3540319033	-53.8787394370134
4.919708	38437.2782096106	57093.9603350789	68826.9181563912	-56.0504385566316
4.191257	40681.6184266299	65372.7179859574	76997.3138147133	-58.1058845396178
3.564097	43299.1966260092	74967.5706698491	86573.4201738422	-59.9904573193621
3.051758	46464.3565963725	85461.8230653264	97276.2028224993	-61.4677144025479
2.604164	50178.8020412224	97723.4817167201	109853.498137885	-62.8205250526313
2.214424	54567.9800429551	112265.711635795	124824.895173438	-64.0774225678098
1.892567	59477.4743954362	127819.055073935	140979.717691778	-65.0462369035965
1.607507	65714.4471592199	146248.402113922	160333.97545847	-65.803973587657
1.376413	72006.6461798775	166311.622822776	181230.552004951	-66.5892122458838
1.17375	79699.1243865595	188920.369134181	205043.547330267	-67.1267612492755
1.001604	89028.6834190131	214405.714095615	232154.941166828	-67.4500813330679
