EC-Lab ASCII FILE
freq/Hz	Re(Z)/Ohm	-Im(Z)/Ohm	|Z|/Ohm	Phase(Z)/deg
6999984	20.0271458590598	88.2420414352047	90.4861561119293	-77.21293838742
5969734	20.8666850861688	83.1297292330567	85.7086368392746	-75.9091156288203
5091109	19.2035628032063	83.3038403453757	85.488634569892	-77.0187056948706
4341796	18.9565248910491	88.5221136649346	90.5290806517583	-77.9129782215108
3702781	23.0771344963944	95.8146255296765	98.5545361815316	-76.4581237881146
3157797	22.6352132680366	103.14042182185	105.594978541968	-77.6220875489229
2693047	22.5042128479777	115.401889264897	117.575659223389	-78.9653870996071
2296687	23.2401834266344	131.903903484602	133.93560348234	-80.0075973289501
1958656	25.6323352479421	149.978464985597	152.153069537551	-80.3014673820727
1670375	27.5535189960277	172.006545111541	174.199448823103	-80.8991769539532
1424531	31.0902131317967	197.057602406764	199.495112769418	-81.0342231062655
1214875	34.7971912477092	228.834985708054	231.465537829576	-81.3537043728305
1036062	38.9766457815502	260.559375578162	263.458473232618	-81.4923028634726
883578.1	43.7634879477865	301.571026429662	304.729924456388	-81.7429718988423
753531.2	47.4044300509407	352.917625928656	356.087111083192	-82.3497342038859
642624.9	52.1348255070965	415.800394126962	419.056091456492	-82.8533068100264
548046.8	74.6854212703786	471.512556453634	477.390828403495	-80.9993872723216
467390.6	164.646083628335	677.347269225542	697.070768273528	-76.3378026511372
398593.7	222.166953160596	742.775599261861	775.289459450778	-73.3478796930265
339937.5	279.183027123752	858.065891622973	902.341530131862	-71.9770208723965
289906.2	285.117356929124	977.83180924775	1018.5513999789	-73.7443091914775
247234.4	369.357400277573	1099.79632995237	1160.16242678192	-71.4358049391159
210843.7	419.807203518075	1221.64177194241	1291.76108746171	-71.0351355529809
179812.5	443.274593223425	1398.45867964251	1467.03068940798	-72.4127552755935
153343.8	519.50172377834	1601.89701434006	1684.02971635309	-72.03191022917
130781.2	618.817010852098	1845.06748423077	1946.07515638158	-71.4590670255982
111531.3	791.377788534378	2087.06394822535	2232.06512632754	-69.2341573155462
95109.37	908.225476708322	2389.81286130926	2556.57564500274	-69.1911854809114
81109.37	1084.23596034161	2682.60579688789	2893.43074553279	-67.9927869566158
69171.88	1336.44716308465	3033.37617868625	3314.7340860374	-66.2226338485591
59000	1599.36756231623	3279.4081788926	3648.6291402631	-64.0015056599549
50312.5	1948.32740544188	3680.43125001852	4164.31913581425	-62.1043851044973
42906.25	3762.88725416014	4846.93454664382	6136.13029416505	-52.1762469149837
36593.75	4259.71887193313	5032.32802459363	6593.14266605946	-49.7530594303487
31203.13	4933.99126115927	5266.75490996639	7216.85368057654	-46.8684117375154
26609.38	5628.68585639017	5342.69952861855	7760.57618498959	-43.5068339760152
22703.13	6337.50942185447	5480.89168193695	8378.79462101918	-40.8543545113468
19359.37	7070.84045443226	5536.48758378393	8980.50552571677	-38.0610420206352
16500	7827.14797731482	5485.67876145563	9558.08123697789	-35.0248011543661
14112.02	8517.22933625582	5361.24115161997	10064.0996741984	-32.1887059050922
12011.13	9207.14432219441	5159.02702448618	10554.0071256891	-29.2631604848424
10236.38	9818.14460583517	4913.23333666617	10978.8808774673	-26.5844739306247
8750.684	10346.1015253676	4677.84489794279	11354.4726721421	-24.3294380997047
7449.463	10772.6216318678	4390.80144766819	11633.0784479531	-22.1752657590396
6363.206	11172.9823872166	4113.70890879191	11906.2225920452	-20.2128795811386
5414.761	11628.3113604642	3949.41664828344	12280.696924753	-18.7594403534963
4620.567	6975.43600590634	1264.82123358463	7089.1805045027	-10.2774934755166
3941.215	-8621.06390388101	-11613.5567470677	14463.6593969908	126.587519087039
3361.769	5034.03665199697	-686.676372365714	5080.65443166667	7.76758882858857
2867.244	750.25223212824	16152.2805013947	16169.6952292722	-87.3405976699319
2442.658	7937.81639616645	4250.1281003277	9004.02787692508	-28.1658374451858
2083.003	3233.28746471844	4720.56126873817	5721.69961824424	-55.5913102866594
1777.843	4515.67835840374	-12125.8426287517	12939.374424361	69.574608837413
1513.548	8988.31312463182	-13318.5421612009	16067.7732784015	55.9856828666259
1292.065	8411.69943188816	3102.34268047723	8965.55728549756	-20.2446214429888
1101.762	13667.9365109077	3805.18433370647	14187.7382369316	-15.5573224759589
939.101	13860.7626204248	4048.10412694563	14439.8021954028	-16.2807046106234
801.2801	13997.0465714132	4298.51811511066	14642.2187768194	-17.0718160862503
684.3433	14452.7005311173	4713.37758459454	15201.8578107124	-18.0624085478299
582.9476	14700.2531400019	5194.33268992648	15590.976059047	-19.4608552862955
497.0677	15161.8576175289	5641.15098667074	16177.2837914353	-20.4083212146356
423.5089	15956.9131022126	5892.95746747756	17010.2916925332	-20.2694075972062
361.5036	9723.39537258941	5911.00007531016	11379.1185714013	-31.2960548490122
308.1262	9799.78537110908	5331.7091455533	11156.2948926864	-28.5490144298354
262.7298	8981.49686401582	-1323.82587755654	9078.53517217477	8.38472739930193
224.2111	6769.71112123642	1702.55694701425	6980.52210245183	-14.1169008494221
191.2854	12526.1791266139	-16715.9567379074	20888.4746493278	53.1537759388344
163.1722	13125.7569215975	-9107.60956495568	15976.0460299956	34.7557401737727
139.1537	-10092.3660433703	19015.2572283569	21527.5604705678	-117.957170410543
118.6706	10716.2456696993	6396.20771395625	12479.9597104086	-30.8317183926823
101.1982	13468.259323224	1816.74727864153	13590.2384037978	-7.68231551993925
86.24196	-151010.840488791	-122776.578033586	194623.642085868	140.887800808371
73.61024	6473.89158292608	19559.4870088693	20603.0290073476	-71.6862447913676
62.69291	22440.3871334747	-8682.55174720754	24061.5394258795	21.1522668045673
53.57697	22300.2522364963	-3011.33723732763	22502.6532161937	7.69047443894191
45.65746	708.349711488125	28384.506712219	28393.3439490626	-88.5704515771803
38.96512	12271.2373667894	18170.0188187994	21925.6208666394	-55.9666262903599
33.18414	2489.12119958473	28730.7576752823	28838.3799985716	-85.0484800105111
28.30617	37529.9129645804	-16977.0373130856	41191.1903573917	24.3401008442721
24.17237	-28899.3244888089	32291.5752293401	43334.9372527711	-131.826931644613
20.61345	33197.7967514911	-9374.1999315499	34495.9321298901	15.7683084544379
17.55618	8738.48301255403	27415.2576867693	28774.2495886975	-72.3205663663569
14.98558	-32640.6311867176	-67702.9703055742	75160.5148496522	115.73942267293
12.76553	14708.0294382537	36213.346712042	39086.2202066547	-67.8954987230026
10.8809	1535.77398310228	51518.4883105837	51541.3740555578	-88.2925097507623
9.278505	50634.8644879043	72949.519379283	88800.4610313304	-55.2351654507841
7.923394	50609.5145246318	138108.611315686	147089.467603789	-69.874781426282
6.75822	115944.974604751	64751.5277171952	132800.592912107	-29.1819494469606
5.761429	153485.467859697	24069.0864020422	155361.223490095	-8.912352773682
4.919708	166908.957289523	-35713.4641998289	170686.998768589	12.077446118498
4.191257	133355.231752226	81449.6119772238	156261.502382801	-31.4154076873159
3.564097	136564.676278238	53616.3583130494	146712.728438038	-21.4353595215635
3.051758	196085.405504678	139135.422458651	240433.259002745	-35.3581938361969
2.604164	81583.0470338619	132966.442443225	155999.578138329	-58.4683376408176
2.214424	238813.634507325	-249270.003129465	345206.440390039	46.227277694342
1.892567	171348.101129966	53843.6972141997	179608.784558382	-17.4445824277624
1.607507	12505.4235050126	217184.081674381	217543.813862366	-86.7045572215572
1.376413	-45805.7719798877	-794737.308192302	796056.252898889	93.2986711899383
1.17375	306871.088633889	-160008.605783708	346081.809640718	27.5384200116278
1.001604	218270.582382123	55374.0682031514	225185.111769847	-14.2353025777859
