EC-Lab ASCII FILE
freq/Hz	Re(Z)/Ohm	-Im(Z)/Ohm	|Z|/Ohm	Phase(Z)/deg
6999984	0.0765337148689346	9.94657577846119	9.94687021762033	-89.559147548458
5969734	0.86237874534609	-5.50278637056971	5.56995107164797	81.093237759164
5091109	-0.888847060442897	-3.80515303546521	3.90758732726065	103.147987575576
4341796	0.215311934156743	-6.22610879865479	6.22983065593896	88.0193807698234
3702781	2.44401980418347	-8.78516751829609	9.11879384171863	74.4535163502904
3157797	54.2965468492115	-44.954541887442	70.4913174515727	39.6228791335382
2693047	19.8210062959533	-4.85172037519687	20.4061628236011	13.7542300242602
2296687	-0.225282064600298	-12.506206362837	12.5082352711522	91.0319928566213
1958656	-1.98565007153002	-19.1144856572831	19.2173455021511	95.9307247092103
1670375	-2.07724958873342	-15.1910677851241	15.3324331502253	97.78642041608
1424531	0.569161644512854	-20.047290405024	20.0553682978138	88.3737551661118
1214875	-1.24038815073886	-24.9743664069403	25.0051502733457	92.8433416301479
1036062	-4.6424978734851	-31.8467212323597	32.1833254925116	98.2939464310069
883578.1	-5.29213962295856	-35.649070977143	36.0397419985531	98.4439467817722
753531.2	-9.56947444933827	-41.0198670575505	42.1213049970636	103.131600982635
642624.9	-24.4191211257462	-47.0333199402387	52.9945908669434	117.437784169257
548046.8	-31.3159144989866	-53.5924983266209	62.0712685370349	120.299192693919
467390.6	-30.3919742145731	-62.3930373220501	69.4014639826136	115.970954917942
398593.7	-37.7043492459199	-68.3579255526515	78.0667915180338	118.879918939601
339937.5	-42.7118764284854	-78.7073722398641	89.5497338519034	118.487213666818
289906.2	-55.3192027502289	-86.6570171256344	102.808816791331	122.552922181066
247234.4	-65.9596232815014	-96.6160210049533	116.984304153451	124.321299119958
210843.7	-77.9067798803001	-103.329913216005	129.408412850729	127.014888306427
179812.5	-92.4185929191346	-111.958974348577	145.175783980449	129.53859550664
153343.8	-107.440761746738	-114.68679679744	157.151451295801	133.131613839905
130781.2	-125.918699694376	-119.260805692452	173.432000239677	136.555495032048
111531.3	-142.459256537093	-116.819926795545	184.232285633159	140.647445013313
95109.37	-159.299823219633	-116.973736514401	197.634229605974	143.710190907185
81109.37	-174.268997865601	-112.589758476878	207.475630691806	147.134759648682
69171.88	-185.819841192809	-108.477659165349	215.166019433633	149.724528882674
59000	-200.188784024507	-100.2919173274	223.906270413351	153.389739898125
50312.5	-201.20519316558	-98.6219855214897	224.075491263545	153.887926700992
42906.25	-233.585557204238	-98.9238155314547	253.669339522371	157.047273279123
36593.75	-236.536122080497	-81.3292815271595	250.127545629432	161.025261954936
31203.13	-241.7978062147	-73.5081671865311	252.724414596938	163.090373735926
26609.38	-245.767532558833	-69.349775808462	255.364585376948	164.242190791478
22703.13	-248.473723862064	-65.1474216064879	256.872298996709	165.308293360878
19359.37	-252.254019991551	-61.8627714813869	259.728883833231	166.220728649624
16500	-255.794999211274	-59.8934171760214	262.713347667218	166.821818672495
14112.02	-255.014039596477	-58.033115491865	261.533942127988	167.179630815555
12011.13	-261.10613327939	-59.0343024586449	267.69658515359	167.260016794211
10236.38	-264.019526978333	-60.3160631523594	270.821598289468	167.131445064984
8750.684	-265.784735628722	-61.1062175112707	272.718711334159	167.052205001917
7449.463	-270.361562302075	-62.700115933366	277.53680640318	166.943228429284
6363.206	-273.825696316178	-66.3969835261193	281.760663302044	166.370041451035
5414.761	-276.879809677937	-69.5053781722541	285.470535436074	165.90818017238
4620.567	-281.642947080694	-73.563906491295	291.091734644869	165.361635731604
3941.215	-284.503034404713	-78.8725966150221	295.233573772167	164.505063827884
3361.769	-289.374477243191	-83.9763969474574	301.313164870118	163.817285290609
2867.244	-293.034822743983	-95.8330549024709	308.307284624508	161.890370929804
2442.658	-298.358275257892	-103.539325833759	315.813318922704	160.861682504426
2083.003	-303.433526460603	-115.206702516481	324.568158150239	159.209386814828
1777.843	-310.095523588476	-123.682695385023	333.851228674264	158.255240198597
1513.548	-317.993739310927	-137.668442132689	346.514961004842	156.590855099521
1292.065	-322.089704787857	-152.744504247028	356.4725256005	154.62830276386
1101.762	-327.900206155727	-180.964222431092	374.52182179021	151.106216605632
939.101	-336.142654794822	-190.975700186659	386.605228151787	150.397410517275
801.2801	-347.207789975622	-149.732590488954	378.117836228719	156.671985923312
684.3433	-87.0444856529523	-353.404759679045	363.966573528931	103.836682845323
582.9476	-14.9766329290516	-348.016918425385	348.339023142961	92.4641581613303
497.0677	409.035861852988	-217.233251269763	463.14211829529	27.9721490625418
423.5089	106.908346846173	-466.576548594593	478.668016817318	77.0943934196074
361.5036	282.396323561621	-815.745558757225	863.243013405413	70.9050741334862
308.1262	-276.065618776115	-386.124225578044	474.662136101547	125.563471619802
262.7298	-333.699803235382	-1491.86963673173	1528.73495795753	102.608318628342
224.2111	-253.578652614384	-726.920508777015	769.880223893536	109.230794007582
191.2854	714.636016325305	160.391434455701	732.413850275962	-12.6497278234306
163.1722	726.145489597845	-337.152027610667	800.599001863778	24.9056159176442
139.1537	457.63652142295	-400.013675361672	607.817510620129	41.1562517031791
118.6706	-702.42113103579	-1351.87851733205	1523.47332465964	117.455889635583
101.1982	-261.176853005303	-1090.45334687664	1121.29472051741	103.469302307085
86.24196	295.135209699029	-1614.30079272486	1641.05814686629	79.63930005824
73.61024	45.5358537871833	-1796.65812864642	1797.23508345775	88.5481635189497
62.69291	3955.39468086828	7821.0378504321	8764.34710285556	-63.1725503219597
53.57697	-569.621316085754	3249.12319155462	3298.67700110777	-99.9437784020861
45.65746	-749.73487489549	-2844.20810861469	2941.36399443254	104.767280896174
38.96512	373.964408400843	-2967.42508869646	2990.89635991884	82.8172677647126
33.18414	-1145.45925649315	-2801.81859829867	3026.92325077102	112.236072234602
28.30617	1192.37547689243	-1253.72061280201	1730.19497538835	46.436607824793
24.17237	2948.62604624918	-668.897989465509	3023.54429121356	12.7812732036147
20.61345	2388.19015206761	440.313715236401	2428.44155174837	-10.4463842447873
17.55618	2946.00969268284	365.880568853059	2968.64307387154	-7.07961548566319
14.98558	2301.40879766714	4084.67187126742	4688.39276830589	-60.6019751741052
12.76553	2799.26842988933	8300.0324270712	8759.36310658535	-71.3628101160162
10.8809	5167.4714510537	-3672.33193839792	6339.46236389431	35.4000082960855
9.278505	-1931.12570938165	-4219.53090112342	4640.44044579501	114.591845505062
7.923394	-3073.49912664992	-3955.22748788135	5009.01401100157	127.849802405492
6.75822	4842.51210056578	-5737.60382661054	7507.99714406325	49.8357830768097
5.761429	13344.4539782545	-7171.88282375035	15149.5991767228	28.2554938809679
4.919708	-3281.61845357422	-8326.92045418575	8950.23038391615	111.509275271479
4.191257	-3853.60345271807	-13143.4521106015	13696.7365804587	106.340909480501
3.564097	-3255.08985429647	-16402.8319595073	16722.6943478429	101.224339074204
3.051758	-1840.63935600296	-8399.82582378938	8599.12943901101	102.359769536814
2.604164	1244.94843231497	13501.1791005738	13558.4561696712	-84.7316343498037
2.214424	4532.10769825903	-12072.8890547895	12895.5283070479	69.4240928246321
1.892567	11655.7154259431	12499.0128040978	17090.3780873206	-46.9995159401972
1.607507	6718.65334110979	-16633.7572929128	17939.4031226665	68.0053920281086
1.376413	-8351.93139976914	-29223.9032010794	30393.9348622798	105.949464714868
1.17375	-6868.34222250365	-31956.8943405521	32686.65202768	102.129784277849
1.001604	-7541.17244105322	-38276.3521933779	39012.157323291	101.145614673153
