EC-Lab ASCII FILE
freq/Hz	Re(Z)/Ohm	-Im(Z)/Ohm	|Z|/Ohm	Phase(Z)/deg
6999984	9.85265521885545	-5.23538097331585	11.157241092555	27.9847254861449
5969734	6.17299871571106	-4.32649981815889	7.53820362027315	35.0256491319029
5091109	3.95745117946754	-3.21498395915389	5.09877845130437	39.089976817865
4341796	2.88161639136861	-2.6628536748649	3.92358289331903	42.7405086546056
3702781	2.85045686968592	-0.707643992019292	2.93698219017083	13.942177369797
3157797	2.37063496117258	-0.693581511660389	2.47001324539988	16.3080003199834
2693047	2.07814500663598	-0.639935131662124	2.17444329457944	17.1154697406613
2296687	1.87723064860137	-0.557718637137772	1.95832708868032	16.5464997317846
1958656	1.75690166041183	-0.49472385250692	1.82522741996638	15.7266257748422
1670375	1.66726085354612	-0.435508934390349	1.72320247960046	14.639255012087
1424531	1.60811149591892	-0.394348424055509	1.6557576099362	13.7784374911045
1214875	1.56916180612789	-0.360696754893432	1.61008413531753	12.9454657189653
1036062	1.54187689168845	-0.337450371350145	1.57837166163333	12.3449314651549
883578.1	1.52647440851701	-0.292298827829963	1.55420806992118	10.8401323007571
753531.2	1.51064618535562	-0.255426796561716	1.53208836094113	9.59705452759719
642624.9	1.49554854729441	-0.219650716661007	1.51159250284067	8.35527736863221
548046.8	1.48708220214174	-0.188580294419079	1.49899166220827	7.22723233200069
467390.6	1.47675396054434	-0.16494251630443	1.48593684040346	6.37310122848737
398593.7	1.4701605930686	-0.141453696877295	1.47695000517014	5.49588107174586
339937.5	1.46527124753335	-0.120354338580356	1.47020576643647	4.69561544942617
289906.2	1.4623666021179	-0.102493656781272	1.46595396539941	4.00916330944686
247234.4	1.4586753626839	-0.0861173916115022	1.46121525410836	3.37871091844805
210843.7	1.45604473742958	-0.0712910506935426	1.45778897351618	2.8030848588653
179812.5	1.45518482806079	-0.0590509963857833	1.45638247174033	2.32377185872845
153343.8	1.45608510363224	-0.0478889801206471	1.45687239778805	1.8837139160094
130781.2	1.45764868784187	-0.0401316238832898	1.45820103017472	1.57705487194169
111531.3	1.45752377151867	-0.0337268942361643	1.45791393708162	1.3255796849542
95109.37	1.45766682497448	-0.0283702588488413	1.4579428809862	1.11499477693182
81109.37	1.45789946488302	-0.0237426064294618	1.45809278204999	0.933007338380008
69171.88	1.45745230381332	-0.0198155472555278	1.4575870038539	0.778946435720667
59000	1.45779996580531	-0.0157143364897371	1.45788465959187	0.61759521807608
50312.5	1.45792019288768	-0.012759929599154	1.45797603019838	0.501448193227695
42906.25	1.45826220887373	-0.00961272226710411	1.45829389159342	0.377682720464793
36593.75	1.45868670596699	-0.0065780564732575	1.45870153800968	0.258377838728543
31203.13	1.45925431182645	-0.00431928717734618	1.4592607042012	0.169590866400583
26609.38	1.45998187361063	-0.00242355607648099	1.45998388514931	0.095110363738142
22703.13	1.46076666024923	-0.000746372800861822	1.4607668509273	0.0292750436295134
19359.37	1.46161773768418	0.000511608615998005	1.46161782722311	-0.0200551844071847
16500	1.46238752727662	0.00194204007875979	1.46238881678366	-0.0760883368271372
14112.02	1.46307765758498	0.0029461098240031	1.46308062378238	-0.115372844275605
12011.13	1.46385973793923	0.00342554490123561	1.46386374595362	-0.134076306652517
10236.38	1.46451057939914	0.00435743708819888	1.46451706184325	-0.170474711095352
8750.684	1.46531437747963	0.00524844738339607	1.46532377686586	-0.205220533369691
7449.463	1.46613424148179	0.00601233060903487	1.46614656912764	-0.234957501303217
6363.206	1.46755970201388	0.0062444381763673	1.46757298693565	-0.243790963518087
5414.761	1.46829958845323	0.0069342006062296	1.46831596211101	-0.270583386750877
4620.567	1.46890997956205	0.00740359520078804	1.46892863723153	-0.28877955229598
3941.215	1.47012563591677	0.0072886250730527	1.47014370366816	-0.284060098937487
3361.769	1.47125927575507	0.00751974667177348	1.47127849270128	-0.292841651176119
2867.244	1.47207409649163	0.00744915302599347	1.47209294388719	-0.289931999605106
2442.658	1.47305178529069	0.00742707513800626	1.47307050869712	-0.288880851234159
2083.003	1.47386441779095	0.00686435060371956	1.47388040265806	-0.266846441419474
1777.843	1.47462475356454	0.00657877083824004	1.47463942848786	-0.25561303088814
1513.548	1.47524692896563	0.00635604188016307	1.4752606212771	-0.246855027214888
1292.065	1.47615651167807	0.0055127572156512	1.4761668054328	-0.213972062619858
1101.762	1.47663506782452	0.00494167073055174	1.47664333663845	-0.191743935774639
939.101	1.47681326887676	0.00450223869396407	1.47682013166252	-0.174672371789819
801.2801	1.47735711143552	0.00386673253123416	1.47736217168627	-0.149961676114078
684.3433	1.47747192474869	0.00369556834057863	1.47747654656376	-0.143312386310026
582.9476	1.47772133661463	0.00330425691311396	1.47772503084974	-0.12811594130133
497.0677	1.47759382606253	0.00279650923495679	1.4775964724112	-0.108438450672696
423.5089	1.4779553922113	0.00252552376463584	1.47795755001175	-0.097906684257278
361.5036	1.47834909341217	0.00201205357701909	1.47835046262792	-0.0779803007624387
308.1262	1.47831286004925	0.00205204296406383	1.47831428426682	-0.079532099654771
262.7298	1.47833061201936	0.00170848675230634	1.47833159925658	-0.0662159302423561
224.2111	1.4783681302413	0.00139894233297732	1.478368792133	-0.0542175293812743
191.2854	1.47800283296984	0.00139466324896617	1.47800349098114	-0.0540650481232561
163.1722	1.47847931858409	0.00100588548162252	1.47847966076185	-0.0389812580762389
139.1537	1.47817704933804	0.0013133028571717	1.4781776327472	-0.0509050598323947
118.6706	1.47839898589112	0.00107279612505334	1.47839937512683	-0.0415765162459076
101.1982	1.47806031161031	0.00067069090088179	1.47806046377807	-0.0259987735541302
86.24196	1.47814934719088	0.000670418525577319	1.47814949922592	-0.0259866497671852
73.61024	1.4782605559834	0.000599402905699155	1.4782606775059	-0.0232322067332954
62.69291	1.47819520758669	0.000354237662717578	1.4781952500318	-0.0137304751940741
53.57697	1.47823608202101	0.00043044698559533	1.47823614469185	-0.0166839351181026
45.65746	1.478280737455	0.000489281524177505	1.47828081842622	-0.0189637628328179
38.96512	1.47818880534783	0.000257219340976964	1.47818882772717	-0.00997002713391555
33.18414	1.47822462002718	0.000282424721197566	1.47822464700675	-0.0109467425576971
28.30617	1.47834653205092	0.000261872976914661	1.47834655524489	-0.0101493228167458
24.17237	1.47836383476563	0.000290630810838702	1.47836386333311	-0.0112637486465871
20.61345	1.47818596479278	0.000261201227622753	1.47818598787042	-0.0101243876935017
17.55618	1.47839529447834	0.000114735642275145	1.47839529893055	-0.00444662403448058
14.98558	1.47836118720568	0.000206663511936412	1.47836120165067	-0.00800950879842666
12.76553	1.47831207784938	0.000283022998593366	1.47831210494177	-0.0109692827173576
10.8809	1.47794194898158	0.000150453751955075	1.47794195663964	-0.00583268170654202
9.278505	1.47831187941514	0.000110248567861574	1.47831188352616	-0.00427296682931217
7.923394	1.4782345784184	2.98471526356681E-05	1.47823457871972	-0.00115686366781101
6.75822	1.47777846077836	0.000196635272041512	1.47777847386064	-0.00762385663610205
5.761429	1.47786370983822	4.9575677096974E-05	1.47786371066974	-0.0019220155716561
4.919708	1.47784983182046	3.46180855122884E-05	1.47784983222592	-0.00134213243565553
4.191257	1.47787573202265	9.18231977551005E-05	1.47787573487522	-0.00355989449721329
3.564097	1.47764511077764	0.000100193573946219	1.47764511417452	-0.00388501194960894
3.051758	1.47747691509454	0.000133963703970114	1.47747692116782	-0.00519504213296109
2.604164	1.47664787003672	0.000236786985240559	1.47664788902164	-0.00918763034635261
2.214424	1.47838205746602	0.000492793544612897	1.4783821395982	-0.0190985740724343
1.892567	1.47729223005996	5.8467518462581E-06	1.47729223007153	-0.000226762314072122
1.607507	1.47739584534951	-0.000195281149798483	1.47739585825558	0.00757331602899356
1.376413	1.47668670140173	5.55565716153639E-05	1.47668670244681	-0.00215560759994196
1.17375	1.47636436939846	-2.5581068776633E-05	1.47636436962008	0.000992767982327743
1.001604	1.47586048722983	-2.91702349478474E-05	1.47586048751811	0.00113244535249812
