EC-Lab ASCII FILE
freq/Hz	Re(Z)/Ohm	-Im(Z)/Ohm	|Z|/Ohm	Phase(Z)/deg
6999984	2.14625855477282	1.49820555105097	2.61745022056494	-34.9171423846611
5969734	7.48367309357074	-0.230948479854157	7.48723581649341	1.76760459178394
5091109	9.52634747107558	-2.38134938139393	9.81947661619159	14.034899129783
4341796	3.7482058622493	-9.45864547256747	10.1742332075455	68.3829139193203
3702781	4.0572138361225	-12.7430155681142	13.3733103561244	72.3391874946987
3157797	22.1419739445172	-5.11142496060439	22.7242970251572	12.9988883037833
2693047	32.0290310117828	26.6613285043071	41.6735559458072	-39.7743806337267
2296687	21.1457359450626	-14.7298703395198	25.7703556218648	34.8606143685935
1958656	19.597342791475	-21.3929652575401	29.012321640932	47.5082967326955
1670375	23.778816889092	-17.1905961971671	29.3419278551874	35.8645739355335
1424531	5.39294995070747	-18.8839269794532	19.6389054515815	74.0614986268619
1214875	35.8360105643177	-25.7444045847809	44.1247551901512	35.6932710139453
1036062	7.31612831188513	-19.7428966941189	21.0548736246651	69.6667977466495
883578.1	2.20455590078872	-19.5887588023159	19.7124209100508	83.5788432660005
753531.2	1.52106387381194	-23.2613113922854	23.3109897472648	86.2587387611659
642624.9	0.618009957063676	-25.1210406109525	25.128641381582	88.5907342831279
548046.8	1.12065875772052	-35.0104635346272	35.0283946671942	88.1666309231721
467390.6	-0.246702684872126	-42.5075475966655	42.5082634895559	90.3325259803256
398593.7	-0.815736510582251	-49.3722190008924	49.3789574123106	90.9465648493673
339937.5	0.692559768613191	-58.3115654423961	58.3156780238037	89.3195365985343
289906.2	-10.4324108958573	-69.6696852244733	70.4464352283151	98.5162540555177
247234.4	-10.7367020126459	-80.2885988594618	81.0033078147055	97.6167676129418
210843.7	-12.1706984914979	-94.3300144696523	95.1119210804606	97.3518319284733
179812.5	-13.9105173583021	-109.884225259785	110.761209157894	97.2148377196575
153343.8	-15.8747088366072	-127.756730127808	128.739226631189	97.083114722557
130781.2	-19.9208528834336	-146.442889430564	147.791610872795	97.7464852577594
111531.3	-21.4390071190819	-171.621268949009	172.955170439973	97.120528866579
95109.37	-26.42840267708	-201.124439944168	202.853397336394	97.4859613483134
81109.37	-31.1987657269419	-233.161055574056	235.23911413558	97.6213512753028
69171.88	-38.4183023144547	-270.454818837294	273.169864708826	98.0848168357842
59000	-45.6451586175363	-313.295561699615	316.603205109957	98.2893054728664
50312.5	-58.6127748599896	-366.335922352637	370.995236334302	99.0901285831207
42906.25	-69.7727030832311	-414.167914148861	420.003918084057	99.5625322852061
36593.75	-179.187979195732	-483.162091693792	515.319259040617	110.348061708087
31203.13	-197.135767942183	-559.049948848184	592.789470477767	109.4239953761
26609.38	-222.911279859856	-643.172297736745	680.705548137168	109.115343011863
22703.13	-254.607879575679	-740.312386503022	782.871382764642	108.979093648181
19359.37	-294.016232917984	-853.11984508762	902.36301747224	109.015820242849
16500	-345.338878557709	-979.389815074464	1038.49090073774	109.422964052069
14112.02	-422.764234202988	-1131.30961323603	1207.72142430343	110.490441720177
12011.13	-499.81722989527	-1270.02226526236	1364.83472170161	111.48211707199
10236.38	-585.127257010251	-1456.58688629422	1569.71948583836	111.885880430218
8750.684	-735.335786604453	-1624.97924857504	1783.61326451692	114.347708188557
7449.463	-987.040279265744	-1755.64941889961	2014.08872569595	119.345046077688
6363.206	-1073.74105498996	-2042.09075730238	2307.17457385234	117.735607631166
5414.761	-1316.94690442086	-2258.53012316359	2614.44209465443	120.246423280988
4620.567	-1560.26888150934	-2445.02533777074	2900.44615274053	122.543582969006
3941.215	-1873.20313924292	-2624.06422099969	3224.06622711139	125.52135922186
3361.769	-2269.96412251231	-2805.91204015233	3609.13833131468	128.97262779661
2867.244	-2904.39499936344	-2700.29681839708	3965.74245504833	137.085538288324
2442.658	-3233.48373925502	-2799.18303116306	4276.77948156996	139.117704996094
2083.003	-3582.88301506827	-2864.05492584896	4586.92285938453	141.36215256696
1777.843	-3892.51469600802	-2936.95584875084	4876.20552439601	142.964944703059
1513.548	-4197.99879062807	-2985.20836268993	5151.18072045513	144.583263995406
1292.065	-4484.05694732951	-2987.04047194899	5387.8731878131	146.330556087437
1101.762	-4770.59487413758	-3045.70463579814	5659.93747153359	147.44450063273
939.101	-5001.9263199854	-3071.79981354148	5869.85698335455	148.444942238808
801.2801	-5294.99897161599	-3168.78953559196	6170.75694143689	149.101609167807
684.3433	-5460.81973767981	-3273.61208590481	6366.87429563482	149.058465445834
582.9476	-5678.48843928441	-3417.04884249349	6627.32628946793	148.96243771937
497.0677	-5923.09588104355	-3608.4303725678	6935.69279666458	148.649660059008
423.5089	-6138.85915705088	-3906.63674634077	7276.49657582324	147.528209766599
361.5036	-6376.64332700706	-4086.67596123769	7573.80357099534	147.344920567936
308.1262	-6600.63040445975	-4476.99931317668	7975.70339132938	145.852193624282
262.7298	-6897.76011690655	-4798.76586739329	8402.81193889555	145.173697003288
224.2111	-7254.39797167701	-5277.44954889472	8970.93995479852	143.964756055562
191.2854	-7521.53262524694	-5792.03464299247	9493.21433120937	142.401555303107
163.1722	-7788.46883225455	-6378.94127826549	10067.3302609262	140.681707889462
139.1537	-8254.03883773489	-6989.82183583067	10816.0420871727	139.740853894078
118.6706	-8679.71956981319	-7846.73459353131	11700.8023482118	137.885444666106
101.1982	-8955.06133963407	-9166.35741879724	12814.6491144217	134.331960420704
86.24196	-10330.1821705945	-9825.92224745412	14256.9776492313	136.433111247008
73.61024	-12358.0672499856	-10261.5966879079	16063.0692191888	140.295247856647
62.69291	35147.5527571442	-3468.49388700458	35318.2801769908	5.63591711349599
53.57697	-17718.9628014542	-22620.1727190048	28733.8451411732	128.072511100459
45.65746	-12797.0974570548	-18477.7462048487	22476.4945695755	124.705238138475
38.96512	-20873.8464361584	-16738.3001132444	26756.0863304289	141.274604615864
33.18414	-19983.2690054454	-20685.7534812428	28761.6313381342	134.010416506077
28.30617	-24494.9270356107	-17718.9589397002	30231.8202625424	144.119053589791
24.17237	-28934.2045612237	-22471.8687783166	36635.6804219687	142.165152916836
20.61345	-28620.243923492	-32084.8885232531	42994.8652026002	131.733482228227
17.55618	-34440.2918455932	-44305.4653573721	56116.9133411927	127.859256209112
14.98558	-34615.4428609045	-31066.7028350062	46512.0297288253	138.092626204825
12.76553	-44219.5773798372	-34701.6641825104	56210.1104845662	141.876668666987
10.8809	-57281.9518026162	-40168.3069420473	69962.238992958	144.960384816161
9.278505	-70501.4927505469	-31296.3768224557	77135.7484067444	156.063046378647
7.923394	12558.7771518242	-87953.3606280249	88845.464314801	81.8737208676912
6.75822	22836.9892316472	-113865.906379836	116133.426337416	78.6591984538892
5.761429	116871.354089363	-33440.4819210763	121561.421667383	15.9674513952915
4.919708	-374856.874837844	-1135566.97632015	1195838.63222514	108.268339503321
4.191257	540445.198544059	-585039.5513351	796462.358969777	47.269006639137
3.564097	676613.110931039	384356.177132411	778161.276846657	-29.5991314767512
3.051758	163406.811095939	-459689.65983837	487869.213288624	70.431123445354
2.604164	-706767.029356456	-349037.897595299	788255.724840039	153.71747175694
2.214424	693207.761887003	-1261162.78165114	1439120.76038199	61.2042684083467
1.892567	661711.980537676	400321.410106875	773382.167222034	-31.1730293512417
1.607507	807520.160103205	30082.3776818007	808080.292062674	-2.13344100876394
1.376413	421499.496762434	-553975.350265497	696096.627252829	52.7338265228932
1.17375	999568.684235103	561766.07462829	1146611.82494634	-29.3363558431704
1.001604	1098516.01020024	586159.935367282	1245118.82746027	-28.0840477199309
