EC-Lab ASCII FILE
freq/Hz	Re(Z)/Ohm	-Im(Z)/Ohm	|Z|/Ohm	Phase(Z)/deg
6999984	25.0664184452539	-1.59855980951278	25.1173391731122	3.64898026703141
5969734	15.1199676933908	0.749179425945946	15.138516864655	-2.83662924593903
5091109	13.9975323160269	-3.29305444367482	14.3796772740984	13.2386482227338
4341796	8.32729674736389	-4.83687026744247	9.63011864427049	30.1499559122561
3702781	5.70988337845714	-4.82307115174951	7.47427478290833	40.1873858011909
3157797	4.36566744489714	-4.97406951443963	6.61818855684185	48.7270524474521
2693047	3.50960965520163	-3.63562344861999	5.05322845238962	46.0103673322613
2296687	2.27091003471171	-3.55579398040077	4.21908796030714	57.4356385108738
1958656	1.85851581915522	-3.3142676365363	3.7997961809342	60.7179418318397
1670375	1.4997385021779	-2.91205025257618	3.27555373157636	62.7510252720819
1424531	1.17105712425147	-2.42793308252063	2.69559526662633	64.2507423008368
1214875	0.983222757121474	-2.00982797467971	2.23743949145596	63.9317766962875
1036062	0.818818959090527	-1.84644566313539	2.01985793428092	66.0847802030506
883578.1	0.724173044143126	-1.58625368896022	1.74373947698715	65.4618604881844
753531.2	0.647040609133471	-1.34461724704382	1.49219874377227	64.3027668686347
642624.9	0.59251143979573	-1.16847210577425	1.3101133035968	63.1112438378807
548046.8	0.561977393029341	-1.0237930828148	1.16789163311306	61.2368697068897
467390.6	0.520096163892103	-0.883408788445928	1.02513955498692	59.5130688844591
398593.7	0.485987074046924	-0.766313591837776	0.907424904427911	57.6176099066073
339937.5	0.459296821549775	-0.666935058640326	0.809787591118375	55.4460597560158
289906.2	0.438071581064618	-0.578405839176221	0.725575650728167	52.8605304097085
247234.4	0.419904417253772	-0.500771808190685	0.653522856147968	50.0196796107349
210843.7	0.405183804265695	-0.432950392910997	0.592975512109065	46.8974606977285
179812.5	0.394625486052341	-0.37276538639924	0.542847407232844	43.3682985107305
153343.8	0.386538351329061	-0.324542043613008	0.504717183302388	40.0172058768811
130781.2	0.379832684023033	-0.281976685360061	0.473057838893711	36.5891134449441
111531.3	0.37259675827421	-0.246092552685363	0.446530949390575	33.4439475722427
95109.37	0.365823865231622	-0.215031163424652	0.42434125608614	30.4470001515638
81109.37	0.358595931542871	-0.186923770149662	0.404390328724691	27.5314872223067
69171.88	0.352315064966189	-0.163072725931519	0.388224959198744	24.8375542611606
59000	0.34237096836324	-0.137516726355617	0.368956271129179	21.8833552215763
50312.5	0.33648930878453	-0.107965675405366	0.353385967452059	17.7893139443588
42906.25	0.364839527469554	-0.108426649952524	0.380610324642061	16.5514214392448
36593.75	0.349954103844199	-0.0983779359740452	0.363519040882193	15.7015588713052
31203.13	0.343429171880236	-0.0861792865684205	0.354076920360233	14.086791917288
26609.38	0.33893395510302	-0.0743456859289583	0.346992084834832	12.371975073085
22703.13	0.338644700473026	-0.0657760225268931	0.344973503762135	10.9918744432196
19359.37	0.336032070193908	-0.0590518902785584	0.341181297764509	9.96698472802341
16500	0.333076495371205	-0.0526217239714666	0.337207647603807	8.97777882430799
14112.02	0.331321502089145	-0.0471579303010517	0.334660735875732	8.10066065405402
12011.13	0.329324830354568	-0.0421467025184182	0.332010825759102	7.29301934603761
10236.38	0.32611969493046	-0.0371739559742248	0.328231562200088	6.50300221979943
8750.684	0.327839910818529	-0.0328926867253203	0.329485866108868	5.72940090734954
7449.463	0.327353008647043	-0.0314281095492991	0.328858204003053	5.48397558172084
6363.206	0.32127153628785	-0.0266251934626605	0.322372922181252	4.73752845805558
5414.761	0.324777734262379	-0.0229881708329799	0.325590283440478	4.04871401308695
4620.567	0.322851492866728	-0.0244111916668176	0.323773057441272	4.32397554293929
3941.215	0.316827225719685	-0.0291357278108658	0.318164079670067	5.25419544164598
3361.769	0.325949604067141	-0.022574620405428	0.326730405499664	3.96186507050102
2867.244	0.309040870220548	-0.0233116742830071	0.309918850063288	4.31378491559509
2442.658	0.314669065635827	-0.0251602798053394	0.315673344690374	4.57152482311453
2083.003	0.316584470895652	-0.0185658716808161	0.317128394823844	3.35622633569373
1777.843	0.309192098071013	-0.0214541964703039	0.309935535322656	3.96927284183426
1513.548	0.310165458890004	-0.0142904951914686	0.310494492932265	2.63796758963332
1292.065	0.305546222558629	-0.0134766381462356	0.305843283227819	2.52549139078677
1101.762	0.308854087159752	-0.0143760494956886	0.30918848289415	2.66498942516728
939.101	0.305503149913259	-0.0129853562548614	0.305778995491824	2.4338817418811
801.2801	0.304569783455393	-0.0127119326850388	0.304834949155529	2.38998629928054
684.3433	0.30454852590027	-0.013403003966811	0.304843312446512	2.51992797059605
582.9476	0.302995863346716	-0.0134190418947404	0.303292868182875	2.53585104068053
497.0677	0.301255476166807	-0.0120425527729809	0.301496077914423	2.28915432170444
423.5089	0.300212262200749	-0.0130017777741362	0.300493674810268	2.47985129170004
361.5036	0.299066405150339	-0.0126480497909623	0.299333739917607	2.42169722140985
308.1262	0.297921777198586	-0.0120164190020222	0.298164014687883	2.30972407950743
262.7298	0.296431281937394	-0.011761869469952	0.296664535265803	2.2722033653355
224.2111	0.295286274815571	-0.012054733290829	0.295532232910676	2.33773827794256
191.2854	0.294173310226036	-0.0106640816942869	0.294366538668589	2.07612116502346
163.1722	0.29372797114431	-0.0113573481125879	0.293947461953158	2.21430769901091
139.1537	0.292331512992228	-0.0112494101396222	0.29254788106704	2.20375095163563
118.6706	0.29169466561309	-0.0105940692129767	0.291886985406375	2.08001326732579
101.1982	0.291703757459504	-0.0115761828690149	0.291933365900183	2.27257464198674
86.24196	0.292608764123701	-0.00536034935482154	0.292657858577564	1.04949366883467
73.61024	0.290040982933661	-0.0263056596647756	0.291231453506525	5.18233965864304
62.69291	0.204628038893032	0.0847463363421358	0.221482676127553	-22.496803944089
53.57697	0.283114303430288	0.00295091664376377	0.283129681799446	-0.597175575215413
45.65746	0.26403621132384	0.00235468375395879	0.264046710689281	-0.510952130654427
38.96512	0.27748786419932	-0.0139308018524862	0.277837330137895	2.87402333643824
33.18414	0.274767112831767	-0.00244427620773113	0.274777984525844	0.509678961137867
28.30617	0.274692984814177	-0.025928953336551	0.275914020171594	5.39231379365581
24.17237	0.27701223598312	-0.015770307851802	0.277460774694565	3.25833191273326
20.61345	0.285014291847706	0.0050147168069632	0.285058404440394	-1.00799318981775
17.55618	0.291535224249299	-0.000677747150454481	0.29153601204532	0.133198248831479
14.98558	0.276009766107094	-0.00868980764468604	0.276146525857912	1.80328725734909
12.76553	0.277035047494344	-0.00877363113953808	0.277173942035622	1.81393682388719
10.8809	0.272959456695616	-0.00466886171949517	0.272999383276449	0.979925706307681
9.278505	0.274654447585048	-0.0118104997744935	0.274908263759333	2.4622763842922
7.923394	0.273634159480496	-0.00387894738606189	0.273661651437356	0.812151631779678
6.75822	0.269916818634549	-0.0105968457570315	0.270124752886133	2.24825888611918
5.761429	0.27127330065992	0.0017762128184993	0.271279115640891	-0.375149502165181
4.919708	0.266257678570607	-0.00816506526932718	0.266382844208596	1.75648348098045
4.191257	0.263115771096082	-0.00334455785698883	0.26313702716787	0.72826774578355
3.564097	0.27518102414679	-0.00488082242454618	0.275224305754445	1.01613549304436
3.051758	0.261044726436441	-0.0039317665946857	0.261074334220795	0.862904233272367
2.604164	0.2726180454799	-0.0222946257930818	0.273528150398701	4.67522846515983
2.214424	0.278302104570684	0.00934924719647082	0.278459099028228	-1.9240638957737
1.892567	0.247952350218918	-0.00375205335618761	0.247980736920174	0.866942439812449
1.607507	0.263002783328493	-0.0157745329708615	0.263475425664298	3.43240737709212
1.376413	0.277835152413881	-0.000261837759690756	0.277835275794591	0.0539967458244986
1.17375	0.264343720564136	0.00643811083617003	0.264422109273844	-1.39516712804623
1.001604	0.260446749112476	0.0194742738225809	0.261173805088056	-4.27619544648774
