EC-Lab ASCII FILE
freq/Hz	Re(Z)/Ohm	-Im(Z)/Ohm	|Z|/Ohm	Phase(Z)/deg
6999984	13.0441965686822	43.5855433159333	45.4956113297483	-73.3387123683044
5969734	16.9131392153329	30.4087702826819	34.7957984277147	-60.9175030318838
5091109	0.112604726753888	63.4990736294926	63.4991734720084	-89.898395858955
4341796	-27.4761472919741	42.6845185821748	50.7632425737588	-122.769500227626
3702781	-0.872430271001591	-10.494341392268	10.5305429981189	94.7522651161853
3157797	8.0187379489455	-5.34866578136855	9.63889951885803	33.7041162478557
2693047	26.2870956113762	7.79187608801995	27.4175988856189	-16.5105867371858
2296687	-6.66675611208297	-8.4835750545437	10.7896562857244	128.161777924941
1958656	-4.1384931617895	-5.99401092551739	7.28390641245481	124.622674920197
1670375	-7.93778199789267	-6.34945381770992	10.1648387507771	141.343588734397
1424531	-9.8356670309099	-6.09462728504449	11.5708611471462	148.215759120756
1214875	-10.8793737288876	-6.05063518571885	12.4487332240461	150.919088589742
1036062	-12.0169396253717	-5.8165959794858	13.3506414358412	154.171483513802
883578.1	-13.4125013341215	-5.34572184352577	14.4385572016791	158.269621439255
753531.2	-13.7285172021595	-4.71318531057898	14.5150370423863	161.051961788189
642624.9	-14.3925181993151	-4.11418738069353	14.9690052415341	164.047098662236
548046.8	-14.5951843829451	-3.58933537107401	15.0300610636886	166.183658280279
467390.6	-15.0229638177005	-2.78479367599535	15.2788912453032	169.498333716669
398593.7	-15.7334731150624	-1.96212475066471	15.8553495640923	172.891332483655
339937.5	-15.3216243164332	-2.22822557985141	15.4828021019653	171.725477962123
289906.2	-14.9994441566021	-1.39757159267016	15.0644127453965	174.676840860621
247234.4	-15.9145266212663	-1.17899169472709	15.9581383311221	175.763111544409
210843.7	-15.2704390089443	-0.967691950965672	15.3010697416178	176.373999145578
179812.5	-4.1933363694406	-14.4042878396426	15.0022524333697	106.231188062734
153343.8	-15.2718020547372	-0.613655504666201	15.2841261142887	177.698964046818
130781.2	-16.059339960706	-0.497302291510191	16.0670379828601	178.226314401456
111531.3	12.813559674182	-9.08370616150402	15.7067192358038	35.333344656622
95109.37	12.5381576277608	8.92087346987295	15.387897197605	-35.4317730762476
81109.37	-14.8636139544788	0.445932946820658	14.8703018120291	-178.281547532907
69171.88	-14.558258259512	0.94663713399288	14.5890028930734	-176.27963299672
59000	-13.8579457265759	0.805729197907541	13.8813493328669	-176.672452861062
50312.5	-12.8871412711	0.420368435743652	12.893995492595	-178.13171906948
42906.25	-4.17049843407627	-13.4588357641353	14.0901851412464	107.216675470359
36593.75	10.2682341640686	7.39599071067313	12.6545371879223	-35.7644037242108
31203.13	-11.3736327575914	-0.433962698680814	11.3819087032186	177.814930704552
26609.38	-11.07736475558	-1.17249805553667	11.1392442121718	173.95795071507
22703.13	-10.2079279321324	-2.68480087402916	10.5550911128609	165.264290202212
19359.37	-10.1293492442227	-4.50099080402147	11.0843418536835	156.041961531786
16500	-10.068555306073	-5.87841530485386	11.6589696134689	149.721950572595
14112.02	-10.7987355173481	-7.22837845875786	12.9946967612434	146.202729203343
12011.13	-11.2126809829327	-9.72680941161432	14.8436867440299	139.058919526313
10236.38	-12.5743527278053	-11.2351014184664	16.8624390408532	138.219421764888
8750.684	-12.8307753721111	-12.1911871231267	17.6989785050059	136.464222855284
7449.463	-14.7934880008856	-13.0173980522047	19.7053276877572	138.654124844053
6363.206	-16.7214674237625	-14.6357029344222	22.2218647549796	138.805500293527
5414.761	-17.9367628643348	-15.8766557636749	23.9540322344613	138.486477393198
4620.567	-20.2317252720336	-8.31598717166889	21.8741479862052	157.655525274433
3941.215	-1.57367395418467	-22.6952081618116	22.7497016073187	93.9665107959428
3361.769	21.5723927334036	-12.6003600000503	24.9827380480017	30.28905287618
2867.244	0.803195858644486	32.8596945681584	32.8695094380795	-88.5997870162909
2442.658	10.8098867387374	31.6822188363257	33.4756126411028	-71.1604987185555
2083.003	16.3401893673139	38.2036314522636	41.5514048462873	-66.8429752533472
1777.843	-42.1429629711846	35.8243198665156	55.3119446583562	-139.633252420152
1513.548	-32.1614061224301	-20.7756541467871	38.288168525	147.138311987012
1292.065	-31.5785795817837	-29.6824652256469	43.3388443578596	136.772817923741
1101.762	32.8296883120271	30.2444015895837	44.6375655942039	-42.6528690302624
939.101	46.8211634808721	26.2574606467598	53.6812405717182	-29.2838499908246
801.2801	59.4649998110976	-40.0614198488457	71.7007919261658	33.9680492561828
684.3433	75.6540234083752	110.077868440488	133.568964876862	-55.5001412422982
582.9476	29.0963725337428	-63.8010715329445	70.1225757040787	65.4847215042101
497.0677	15.1298065602841	-69.1616405585142	70.7972003069099	77.6603611296377
423.5089	2.9769997920112	-87.4135967475368	87.4642751304932	88.0494610540678
361.5036	107.258314250516	-155.168847506023	188.631167128367	55.346370829241
308.1262	-82.769241773524	233.020133190136	247.283500977548	-109.555145415406
262.7298	-118.957749714686	527.21096013188	540.464931980199	-102.715060665575
224.2111	104.425395390939	1021.65435725149	1026.97725821632	-84.1639477663881
191.2854	-173.468696265089	687.188696613816	708.74515401356	-104.167336788893
163.1722	-35.0462680147946	1032.78685593245	1033.38130943451	-91.9435114128949
139.1537	8.9481927522458	1177.94045426679	1177.97444112841	-89.5647625348503
118.6706	3125.07690170154	-1092.29953832258	3310.47185805411	19.2659121260802
101.1982	-623.071126281464	-3135.00932345585	3196.3261858829	101.240840258703
86.24196	793.437877539723	-5455.2780279493	5512.67648495186	81.7246945451777
73.61024	1501.40290082168	-7399.3059792477	7550.09534013488	78.5297672879692
62.69291	-7406.18316447248	-21260.3732672455	22513.4408860201	109.206099526612
53.57697	5583.96300916411	-22566.8868622034	23247.4735302398	76.1018586311023
45.65746	9297.0425125835	-17342.0557463172	19676.9382015891	61.8043271071873
38.96512	1341.66859301471	-18552.8611067198	18601.3098963142	85.8637989529823
33.18414	-2421.00650531298	-32581.5840848731	32671.407897096	94.249609242517
28.30617	5173.24418091739	-24105.3308484542	24654.1970193481	77.8874815996275
24.17237	3928.76128028271	-28039.0180315163	28312.9245640422	82.023778514236
20.61345	-2479.53066649444	-33288.5598879266	33380.7772788196	94.2598651870498
17.55618	-638.735324528659	-52926.8822000207	52930.7362713732	90.6914267431955
14.98558	5459.84705873856	-67340.4313950431	67561.4063676543	85.3646954176438
12.76553	-4374.34191457479	-64591.7462265143	64739.698391142	93.8743218867063
10.8809	25863.6839660868	-83375.3246891741	87294.7588078621	72.7656972773941
9.278505	8932.39031031431	3932.21285306504	9759.60524701727	-23.7600326429037
7.923394	11583.1278792337	7634.18152389846	13872.619760035	-33.3879867843923
6.75822	20399.52116342	-7841.11722879215	21854.6009593514	21.0256374022655
5.761429	12551.2351449106	16881.7037385354	21036.2882842606	-53.3698784304239
4.919708	21291.7472435652	-595.291312146618	21300.0674278319	1.60150298105992
4.191257	30103.8658774667	3820.91702742556	30345.3809944607	-7.23355778605894
3.564097	39011.6946573628	-2264.47129068394	39077.3610964922	3.32206086237007
3.051758	74173.3542758179	-59016.6871689731	94787.4245294513	38.5078230501223
2.604164	95867.0647120086	-11236.1383548952	96523.2868360107	6.68487621270781
2.214424	46161.6170974655	-77056.7001123938	89825.5527412128	59.0758447909948
1.892567	78852.7649818462	-2647.46481884988	78897.1964980335	1.92297126525838
1.607507	114277.360647025	21455.8171668827	116274.103938706	-10.6336096635022
1.376413	67505.1459690073	62748.5690474256	92164.6768008032	-42.908614471697
1.17375	185555.043775518	-58988.101596446	194705.599304404	17.6355034242559
1.001604	39225.8379415295	50124.7477960378	63648.6975815808	-51.9545351665799
