EC-Lab ASCII FILE
freq/Hz	Re(Z)/Ohm	-Im(Z)/Ohm	|Z|/Ohm	Phase(Z)/deg
6999984	22.8357066643004	5.69770482235632	23.5357884741659	-14.0097405529988
5969734	19.6143002023048	-3.04466964488992	19.8492011343693	8.82343545345565
5091109	11.9496010786388	-3.20008544230928	12.3706714763866	14.9919449124577
4341796	9.78068931955973	-4.60601825661962	10.8109799623375	25.2171445300127
3702781	6.11488939690614	-3.95168574352519	7.28063819675002	32.872158611014
3157797	4.25872046575729	-4.71714459121796	6.3551674328783	47.923725511633
2693047	3.09836604109957	-3.9263581776538	5.00161580530411	51.7223382905252
2296687	2.72238990371713	-3.7552202047816	4.63822008687179	54.0593357340386
1958656	1.8351045679346	-3.1695904365306	3.66250082738567	59.9303540466529
1670375	1.45970597265736	-2.79353117099237	3.15191337601743	62.4115477784669
1424531	1.2987999165381	-2.39135907731938	2.7213010601323	61.4926380666361
1214875	0.956139416973531	-1.8097547120015	2.04680597573441	62.151367643698
1036062	0.762799019658285	-1.73401771587195	1.8943811082645	66.2551778513225
883578.1	0.76741303251701	-1.58021945120179	1.75670608709409	64.0970750201828
753531.2	0.686180594152704	-1.2999356653159	1.46992399182817	62.1723378989998
642624.9	0.647006044531375	-1.14751673270715	1.31735017117812	60.5843280740152
548046.8	0.578852906847298	-0.97479004898776	1.13370469143032	59.2971783872538
467390.6	0.554901750574627	-0.88118210423675	1.0413442531737	57.800383443254
398593.7	0.50875334339901	-0.726646539795163	0.887042929184352	55.0026477183641
339937.5	0.448375216083085	-0.675788533972569	0.81100584279421	56.4363428203861
289906.2	0.418275331391933	-0.560294927531447	0.699202873755894	53.2576646462475
247234.4	0.412143213552983	-0.470666136973494	0.625610614497014	48.7926847628843
210843.7	0.419468669624671	-0.443844343782886	0.610697770017831	46.6173187133773
179812.5	0.414589740856101	-0.365885968585551	0.552953158261091	41.4292202559354
153343.8	0.400389668242255	-0.318066046736073	0.511349094573812	38.4633214181745
130781.2	0.388163048281916	-0.274712615019484	0.475539244334631	35.2879893175595
111531.3	0.382682676470468	-0.239035876232526	0.451203037441962	31.990221865703
95109.37	0.376619567449258	-0.208769748569953	0.430612478341754	29.0007114372048
81109.37	0.369565085225747	-0.179510138335271	0.410855500125119	25.9073982449627
69171.88	0.366744034554831	-0.157058348515181	0.398959285792261	23.183058413629
59000	0.355719459324173	-0.133842406851541	0.38006594640101	20.6192269790233
50312.5	0.349887086570315	-0.103477406756436	0.364867848758561	16.4753269144735
42906.25	0.382900948621085	-0.10231615853544	0.396335379132845	14.9606442281097
36593.75	0.367379356783041	-0.0932514297887553	0.379029577932868	14.2425218460045
31203.13	0.360999409389762	-0.0821810164173102	0.370235456215554	12.8247435115313
26609.38	0.357012397587227	-0.0707105131674103	0.363947563123287	11.2031125231284
22703.13	0.363590872498773	-0.06384544101486	0.369153847200325	9.95942741470563
19359.37	0.366010530077658	-0.0643768414582886	0.371628962600971	9.97560201326217
16500	0.347395620824521	-0.0625258182827623	0.352977613057802	10.2031120945527
14112.02	0.377798358921856	0.0424797576910799	0.380179075985963	-6.41540843207983
12011.13	0.342513698189982	-0.0425522265114182	0.345146817208065	7.0818614802201
10236.38	0.344351410216458	-0.0470190555714334	0.34754666636999	7.77530084051103
8750.684	0.329052449913784	-0.0339781812609051	0.330802103373092	5.89550652877812
7449.463	0.32212571812484	-0.0100948572244685	0.322283856902306	1.79496218058584
6363.206	0.323858120757008	-0.0427019036031893	0.326661192907264	7.51133345471631
5414.761	0.347150926048976	-0.0479077293136108	0.350441030680837	7.85733693761786
4620.567	0.303809933683641	-0.0240162376105592	0.304757699613685	4.51984402999373
3941.215	0.28975005597931	-0.0134237385472251	0.290060841370561	2.65254134411026
3361.769	0.324912703594268	-0.0154001167641601	0.325277463949298	2.71365760620128
2867.244	0.296197155758739	0.00903207499155371	0.29633483335278	-1.7466051156346
2442.658	0.313282594130879	-0.0129409334467751	0.313549759278886	2.36540297212266
2083.003	0.272497155635305	0.000566320481516722	0.272497744115836	-0.119075469435079
1777.843	0.338938877977426	-0.0191636902516496	0.339480205650724	3.23607250239243
1513.548	0.301698689469515	-0.00579596757667543	0.301754357827311	1.10058030472192
1292.065	0.304519039812488	-0.0498277514194237	0.308568712639236	9.29282539753863
1101.762	0.26300759687721	-0.0340143760665773	0.265197989800683	7.36907376376328
939.101	0.304999391311482	-0.0233945415771694	0.305895297897795	4.38620219723726
801.2801	0.255548611884285	-0.02225105685276	0.256515501611597	4.9762914304425
684.3433	0.310269252773173	0.0013729286853357	0.310272290334793	-0.253529813640823
582.9476	0.301986638097926	-0.0187327631493139	0.302567093394004	3.54960990479069
497.0677	0.32289920707045	-0.00605978894529959	0.322956063526894	1.07513295720898
423.5089	0.316246190206218	0.0329175876609938	0.317954745832433	-5.94243177219933
361.5036	0.264910329911912	-0.00275664777375638	0.264924672314578	0.596196390343534
308.1262	0.285183200871742	-0.0168836706043276	0.285682544780964	3.38812117727527
262.7298	0.27905908637357	-0.011899421659116	0.27931267411894	2.4416831352196
224.2111	0.275596538126534	-0.0122141968251149	0.275867066594425	2.53763809604355
191.2854	0.279002948103475	-0.0159396855608838	0.279457901348683	3.26980424666517
163.1722	0.273072403206674	-0.00980189410515062	0.273248265357929	2.05574105625066
139.1537	0.27033380194579	-0.00355790637470192	0.270357214019225	0.754035376703969
118.6706	0.258933176421988	-0.0349974184579832	0.261287598539815	7.69745306488661
101.1982	0.26284214313559	-0.00712398511622933	0.262938668461004	1.55254545633938
86.24196	0.270696721348761	-0.00579803265168576	0.27075880804066	1.22702636052934
73.61024	0.289828502393028	-0.00235355945157241	0.289838058304077	0.46526155398594
62.69291	0.236530542212104	0.0877510235559779	0.252283450773675	-20.3544689114713
53.57697	0.283999853879445	-0.0258409970812119	0.28517305997183	5.19899668766308
45.65746	0.287297419886705	-0.00186070200960759	0.287303445307442	0.371074970100887
38.96512	0.273550741530663	0.0112469110628909	0.273781849654852	-2.35436322132608
33.18414	0.263178966156568	-0.00674640401656937	0.263265421569933	1.46841462553355
28.30617	0.259252428333771	-0.00302769786516225	0.259270107323077	0.669102404984956
24.17237	0.265472666785969	-0.00789242122010573	0.265589960508995	1.70288442516155
20.61345	0.27702839992072	-0.0194340854919097	0.277709232906544	4.01283711482924
17.55618	0.271978525928964	-0.024189330919457	0.273052087149729	5.08242154875017
14.98558	0.255534179968931	-0.0114629294514108	0.255791156774432	2.56849187331134
12.76553	0.267176522048556	-0.0184523155042764	0.267812960630048	3.95080984984397
10.8809	0.25444270854083	-0.00820474927529295	0.254574959177575	1.84691742049051
9.278505	0.249424900223708	-0.00351218208769742	0.24944962672777	0.806735461742307
7.923394	0.25074073970998	-0.00690105370444009	0.250835689431427	1.57653462626371
6.75822	0.249006931367068	0.00238420988995493	0.24901834535962	-0.548583081906147
5.761429	0.258610616549867	-0.0200757345812838	0.259388677685208	4.43892290875623
4.919708	0.271327010796541	0.00849964178638099	0.271460108852632	-1.79427176644271
4.191257	0.264712489279724	0.00199383973162982	0.264719998068796	-0.431549118390899
3.564097	0.268817836160536	-0.0111994266149898	0.269051028978774	2.38566390567407
3.051758	0.258931738506027	-0.0370071703349817	0.261562948182566	8.13377188503463
2.604164	0.206519958430477	0.0770906705584634	0.220439254029947	-20.469816774787
2.214424	0.268714456870123	0.0170802502539	0.269256744167608	-3.63698883333712
1.892567	0.251518081475613	0.013591747724814	0.251885054966324	-3.0931894333583
1.607507	0.231758277291121	-0.0376034163776118	0.234789088367019	9.2160834304588
1.376413	0.283272363590445	-0.00832277709965178	0.283394602264701	1.68291340825447
1.17375	0.259753130116172	0.0326137478577463	0.261792561304705	-7.15642047810047
1.001604	0.2286872407568	-0.00776671921077612	0.228819090139476	1.94514244009876
