EC-Lab ASCII FILE
freq/Hz	Re(Z)/Ohm	-Im(Z)/Ohm	|Z|/Ohm	Phase(Z)/deg
6999984	-0.442218659250516	-2.58079591704964	2.6184088504375	99.7231896509608
5969734	0.994510399916215	-2.56813212453821	2.75397050540246	68.8310815066717
5091109	2.73475844812634	-2.21458723455356	3.51899138803237	39.0002974637711
4341796	3.29812726524838	-2.6336997033976	4.22066553821211	38.6089042643393
3702781	4.98915388939256	-5.14559655734526	7.16720450824478	45.8843624539562
3157797	7.89588189904102	-7.15433545785866	10.6550207323673	42.1792334689175
2693047	3.62413008327169	-10.8985123614324	11.4852901814787	71.6062598831673
2296687	2.11282713932357	-7.98943131664192	8.26408199886719	75.1870742153964
1958656	-1.1330201443154	-14.6916473816954	14.7352718819675	94.4099228335946
1670375	2.30849290412602	-12.6900178124696	12.8982825046281	79.6898349357705
1424531	6.64726404130307	-13.2491941558183	14.8232002284719	63.3565843657557
1214875	-2.51537132835547	-20.8295769416456	20.9809048538772	96.8856734663549
1036062	4.86514776620578	-22.6442224550827	23.160968748787	77.87424627456
883578.1	-1.51782321158319	-26.113538486735	26.1576122687032	93.3265169387817
753531.2	-2.0412639451011	-31.2529348332154	31.3195257656111	93.7369266074339
642624.9	-0.912439795683676	-37.6381472571416	37.6492055073015	91.3887163798697
548046.8	7.2837046440505	-42.1910276753887	42.8151278130426	80.2052104724907
467390.6	-14.0380039007008	-51.2429617376659	53.1310331272033	105.320299760035
398593.7	-18.1316802958327	-59.3932008352809	62.0991959352962	106.97649156264
339937.5	-21.5624223899241	-68.3391159894518	71.6601202450934	107.511576847513
289906.2	-26.2133035224022	-80.4237599186954	84.5879331879999	108.052850076573
247234.4	-30.6244490304846	-91.2744612608577	96.2750443099382	108.547656428448
210843.7	-36.3057864553211	-105.31165524355	111.394141947751	109.021435229241
179812.5	-45.5716505657317	-122.52965986638	130.729846944972	110.401346783034
153343.8	-54.2425765286164	-135.727147851906	146.164687159642	111.783836646906
130781.2	-69.0836794594911	-155.237318536291	169.915213662578	113.990010637057
111531.3	-81.974646420623	-175.017619141914	193.264093058929	115.097423463486
95109.37	-103.294877893903	-190.185247844973	216.426108168515	118.507610964325
81109.37	-124.204608286968	-207.480895501395	241.816266445787	120.906069590522
69171.88	-150.504480586848	-226.061705771046	271.579626431792	123.654376246426
59000	-178.541056693779	-240.997232925809	299.927616606454	126.532629730266
50312.5	-206.984137302431	-253.56979778909	327.32258621371	129.224098972893
42906.25	-249.497387020337	-271.753446866975	368.915819685275	132.555103706445
36593.75	-285.472770969324	-273.764814648668	395.527340021551	136.199344466595
31203.13	-321.38796133615	-273.176218277096	421.800270180072	139.63583073023
26609.38	-356.358089299382	-272.95895267387	448.88492696227	142.549034639573
22703.13	-424.412411999401	-229.594760077704	482.534609447123	151.587902223998
19359.37	-451.127301313228	-225.859241661603	504.507917712012	153.404923279696
16500	-473.403268545606	-221.278766794299	522.56573491157	154.947612143086
14112.02	-494.106954877688	-216.381521081293	539.409534142617	156.350212825566
12011.13	-513.660899568425	-213.110563628833	556.11476520197	157.467136751394
10236.38	-530.333593846053	-210.478073562915	570.574044460862	158.352929502667
8750.684	-546.13846321648	-209.197207484586	584.833901739465	159.040765335721
7449.463	-566.71167105032	-221.771726584895	608.559624701715	158.628063835888
6363.206	-573.92469571521	-212.900883267577	612.140786460035	159.647355753426
5414.761	-585.825412165894	-217.475486799969	624.889590966454	159.633604766343
4620.567	-592.876195370974	-245.52983227294	641.706382681005	157.503920641842
3941.215	-604.57807265734	-303.391718224073	676.432687430922	153.351409021631
3361.769	-613.42172624102	-291.915553194026	679.338578634459	154.551125348856
2867.244	-628.079661797685	-390.443940811317	739.547518743837	148.132966719359
2442.658	-632.973537359416	-538.054317005749	830.757453800937	139.634054561066
2083.003	-658.369248493277	-516.556244585967	836.827593463767	141.882283653379
1777.843	-641.677019661714	-735.84687356604	976.329871968924	131.089248483382
1513.548	-650.187626898786	-741.21841094874	985.976005236259	131.256838638458
1292.065	-673.867358696181	-830.421395548736	1069.43766125066	129.0585141701
1101.762	-687.630174419977	-891.380304646744	1125.78599399929	127.647376416472
939.101	-728.132025535999	-877.412395887197	1140.18803671485	129.68802289961
801.2801	-727.052166953787	-861.720715220313	1127.46061772108	130.155040798421
684.3433	-748.666062816176	-802.913514133252	1097.80279868038	132.997599011624
582.9476	-835.445203753246	-717.365481165729	1101.1729755322	139.348549691752
497.0677	-875.369225436	-603.322348783198	1063.14116531235	145.424595221776
423.5089	-779.083783494729	-1026.06150163513	1288.32206642679	127.209235590536
361.5036	-862.557792688162	-2806.01057036544	2935.59214924854	107.087244304439
308.1262	-817.784433387411	-2020.14744871336	2179.39603882219	112.038802865739
262.7298	-936.38675020625	-1735.10597143947	1971.65232180695	118.354459345686
224.2111	-1063.24404441716	-1600.00529510524	1921.06867195147	123.605044580265
191.2854	-1157.17271948789	-3468.38339517782	3656.32767660015	108.450482786393
163.1722	-1269.19076006455	-1993.6702492926	2363.38025894007	122.481245160896
139.1537	-1246.10939091842	-2517.72162235676	2809.21889175938	116.33243399089
118.6706	1206.57447739858	-2513.44973106982	2788.05515012251	64.3567967887156
101.1982	-1636.26094690034	-1989.45206952172	2575.90167189578	129.43620794865
86.24196	-1617.04543981222	-2421.24269170375	2911.57210567527	123.737283239381
73.61024	242.210521553332	-3648.59575462275	3656.62643941137	86.202015939448
62.69291	12595.1356077688	-279.528664440128	12598.2370692224	1.27137845049262
53.57697	5589.75477484314	298.050399506286	5597.69528319714	-3.05216852001591
45.65746	-2106.68629394563	-8115.84774134191	8384.81435106007	104.551504990528
38.96512	5306.4180879266	-6674.44089699165	8526.79507266999	51.5140509432613
33.18414	-2539.14199705263	-7139.88505285263	7577.94171587146	109.576803220062
28.30617	-3468.29446381577	-20770.8269709946	21058.4025877257	99.4797398838097
24.17237	-5098.34697058797	-43125.6127628991	43425.9325519675	96.7422621302336
20.61345	-12611.4869628923	-56147.7285654812	57546.6508710816	102.659254576329
17.55618	1367.39596172569	-72832.4916420372	72845.326620886	88.9244249030121
14.98558	-26825.5209778005	-82388.7499947236	86645.9156649838	108.035088384924
12.76553	2350.49453938618	-98620.0593772206	98648.066053756	88.6346801460144
10.8809	-6558.21381654341	-115201.796852235	115388.319020805	93.2582203696021
9.278505	1553.39397087755	24497.1879513957	24546.3897621374	-86.3716687425862
7.923394	-1721.43156320099	25809.2206994689	25866.5652868849	-93.8158801916029
6.75822	-9607.75316725251	34730.1110811633	36034.5603085814	-105.463596504597
5.761429	-85.373452989923	60433.9318462203	60433.992148625	-90.0809402124836
4.919708	-3868.8925681645	108561.642702055	108630.560137895	-92.0410288296262
4.191257	-10098.3309074833	139182.531342675	139548.390596494	-94.1497999946052
3.564097	123138.120794665	213320.619656165	246310.136947978	-60.0045520811223
3.051758	-54016.411225393	190134.502168433	197658.547997573	-105.859624932591
2.604164	-391.021382619617	213710.811956784	213711.169677557	-90.1048325525406
2.214424	110030.288749509	182879.453772706	213428.112146698	-58.9665817394633
1.892567	14811.6704019781	535038.067326222	535243.046725761	-88.4142632822276
1.607507	507892.56820609	105710.750389168	518777.046125615	-11.7574549194954
1.376413	-90178.8005970629	418768.829341294	428368.472818674	-102.152645293874
1.17375	-87511.0948213572	253997.921026829	268650.582733006	-109.010606326913
1.001604	29131.2481012129	150378.551200967	153174.208916633	-79.0364911619829
