EC-Lab ASCII FILE
freq/Hz	Re(Z)/Ohm	-Im(Z)/Ohm	|Z|/Ohm	Phase(Z)/deg
6999984	49.2443901880642	48.801029367572	69.3292898588248	-44.7409105822136
5969734	46.0548451254276	43.5581754186879	63.3905624311088	-43.404119832082
5091109	45.4050171823858	40.4289492077389	60.7956866839637	-41.6820951788164
4341796	47.0438578609658	37.467614942777	60.1410569573146	-38.5352218918855
3702781	49.678691670625	33.6400475562735	59.9968766328162	-34.1039892226555
3157797	51.6727181499098	30.3577831338533	59.9304997292871	-30.4342862180898
2693047	53.334757414699	27.3433552508079	59.9354271266726	-27.1430447555198
2296687	55.0644300232886	24.8407896917725	60.4082468401502	-24.2811950533547
1958656	56.5990438149315	22.2127741704536	60.8018017587646	-21.4279454476945
1670375	57.9955173309268	19.9208002310452	61.3214343629292	-18.9570133899913
1424531	59.1299113756988	17.6803581254395	61.7166224184522	-16.6471225797655
1214875	59.9392244628305	15.8667212030231	62.0037375562154	-14.8268872308364
1036062	60.6910542013389	13.9207225436987	62.2670906354913	-12.9184908659706
883578.1	61.2321491308271	12.5877643019106	62.5126219039028	-11.6167078371215
753531.2	61.7211838622913	11.3423546481227	62.7547093557651	-10.4129292391296
642624.9	62.1251372619802	10.3152012438725	62.9756782934607	-9.42733296952354
548046.8	62.4775949371829	9.47368881629213	63.1917767507976	-8.62226997158522
467390.6	62.8060489868854	8.81777518414256	63.4220225831779	-7.99191326453819
398593.7	63.0712239176394	8.32979978813828	63.6189032519382	-7.52349734870694
339937.5	63.3626508708075	8.0094499287351	63.8668678857571	-7.20434839766317
289906.2	63.6354569664847	7.83762752047575	64.116298930015	-7.02144308072355
247234.4	63.9050834625656	7.78681735471666	64.3777462860668	-6.94722785752026
210843.7	64.1604069707954	7.92156949988986	64.6475760257079	-7.03840836103738
179812.5	64.4951932758122	8.131728420851	65.0058071467068	-7.18608823273235
153343.8	64.8052458109364	8.48820452529297	65.3587752385179	-7.46213356884842
130781.2	65.1595258100899	9.01125474657932	65.7796816342518	-7.87379228549402
111531.3	65.5316050624521	9.65814699308036	66.2394977743729	-8.38398255416826
95109.37	65.929379670184	10.4655572633782	66.7548574451951	-9.01981100815879
81109.37	66.3744659661382	11.4404484755843	67.3532003219783	-9.77953585576841
69171.88	66.8525815334751	12.6233388576523	68.0339352206312	-10.6928936065644
59000	67.3524503801434	13.9913364663332	68.7903341198734	-11.7353272894475
50312.5	67.9499880232066	15.5881307537697	69.7150679032197	-12.9204331928961
42906.25	68.5175067999361	17.4040877548049	70.6933590138157	-14.2522449397879
36593.75	69.1815229261967	19.5674298833058	71.8955313397569	-15.793123256545
31203.13	69.9230659041475	22.1034030106913	73.3334546444444	-17.5422831909881
26609.38	70.670658838182	24.9401842366719	74.9423432405329	-19.4383036674791
22703.13	71.5524755752563	28.2459072479338	76.9258606530114	-21.5420213447051
19359.37	72.4914821182539	32.1053675383049	79.2828455876224	-23.8878194199517
16500	73.5492482421362	36.579024806271	82.14327101328	-26.4430221101628
14112.02	74.7156015987977	41.5486176787569	85.490986386202	-29.0780091733459
12011.13	76.0556873953316	47.5338616965568	89.6879902381796	-32.0048723965245
10236.38	77.5501667213122	54.3843683889817	94.718994312502	-35.0412049360407
8750.684	79.2110388469328	62.1183749663098	100.663206702674	-38.1040253144259
7449.463	81.1871968626761	71.2490116175952	108.017510575384	-41.2698405860638
6363.206	83.3862217150366	81.5986294376794	116.668754591866	-44.3792309740372
5414.761	85.9970565983698	93.8075017951862	127.260917553808	-47.4872806407701
4620.567	88.9652088494572	107.598015277926	139.614258861251	-50.4150548668429
3941.215	92.3953705281243	123.542759218539	154.271571750466	-53.2078574251168
3361.769	96.5124439286136	141.896717531606	171.608071719597	-55.7780372320926
2867.244	101.288432491905	162.965850136518	191.878125036142	-58.1377409930271
2442.658	106.976218513823	187.255669436965	215.658519571575	-60.2613517649
2083.003	113.684643716409	215.071927044025	243.269669337049	-62.1395647131183
1777.843	121.621485978197	246.731947234106	275.078969820447	-63.7599466535278
1513.548	131.360445009843	283.291972043797	312.265764914516	-65.1231851354826
1292.065	142.591207465514	324.596072839632	354.534713320692	-66.2846851777718
1101.762	155.927079476342	372.076600946855	403.428123816606	-67.2627814298396
939.101	172.129454137706	426.20112925645	459.647638481063	-68.0077411550687
801.2801	190.909192498304	487.646802097299	523.684755722444	-68.6201184465045
684.3433	213.328594124566	556.431440951394	595.923684334167	-69.0238245089537
582.9476	240.497983529108	635.866748209473	679.827773454466	-69.2823430661167
497.0677	272.856800572417	725.092521412084	774.732210654978	-69.3783707925806
423.5089	310.996506574472	825.884096899431	882.49836748456	-69.3655365379697
361.5036	355.904928227661	938.563435831896	1003.77768505646	-69.2331832872945
308.1262	407.922094686498	1065.12026527019	1140.56197324944	-69.0440499191218
262.7298	470.510732955649	1206.6935261204	1295.17937591955	-68.6983271855399
224.2111	543.036333853508	1364.01081409764	1468.13281444847	-68.291641742556
191.2854	628.166596357868	1538.05624712015	1661.38806185827	-67.7841157276291
163.1722	725.195734918378	1730.68180317253	1876.47764648992	-67.2651878525791
139.1537	840.646735770306	1946.17893016778	2119.97626462898	-66.6382001373675
118.6706	970.8602284985	2180.20457896971	2386.60042517398	-65.9962582237029
101.1982	1119.60545392336	2438.6598649514	2683.38933242639	-65.3398204778215
86.24196	1290.24761878954	2723.5385559318	3013.70223868238	-64.6512397996333
73.61024	1480.3223946393	3032.68019481849	3374.68569738204	-63.9819105033615
62.69291	1695.82409865657	3376.31661463753	3778.27119935319	-63.3309731523133
53.57697	1934.94368548985	3742.09285993334	4212.75041254299	-62.6576331514756
45.65746	2205.57383479934	4151.27386039614	4700.81169637327	-62.0182695478891
38.96512	2501.81605876892	4591.66838950356	5229.00585112316	-61.4158044263091
33.18414	2832.008397063	5082.66518915407	5818.39814605996	-60.8739009436743
28.30617	3197.51124708019	5611.5756722943	6458.62676589146	-60.325236559057
24.17237	3587.52497361297	6183.71314267049	7149.03096000657	-59.8795326902248
20.61345	4023.66364425372	6824.80144439301	7922.61218774957	-59.4778892758381
17.55618	4492.17565407057	7531.19208107296	8769.17876822228	-59.1849359551877
14.98558	4998.37109894905	8299.60699853194	9688.50813969259	-58.9418872584932
12.76553	5556.34504166334	9166.96808297117	10719.434409344	-58.7788234699989
10.8809	6164.78482079322	10126.6640224129	11855.5428433081	-58.6682999113182
9.278505	6803.98084655824	11184.9309442792	13091.8614256577	-58.687150222778
7.923394	7499.6498234539	12370.4194773317	14466.2374347852	-58.7733803709452
6.75822	8265.88025344551	13707.5597075299	16006.9350439051	-58.9093432557298
5.761429	9122.47288490196	15205.0235221815	17731.6736899218	-59.0377430976186
4.919708	10000.8703158476	16836.6249810136	19582.8840528073	-59.2899018232556
4.191257	10978.6902262834	18784.3886211909	21757.4101160184	-59.6954986464287
3.564097	12115.7470613905	20918.3916375931	24173.7550984392	-59.9209575388127
3.051758	13237.3654120158	23275.0966902945	26776.0708281441	-60.3715888446831
2.604164	14582.3876032771	25925.2234754584	29744.9700027529	-60.6431708395751
2.214424	16029.1891863105	29048.4161466751	33177.4831263758	-61.1096730763706
1.892567	17611.2404179755	32379.596165955	36859.1106367213	-61.4582605989282
1.607507	19457.5906193544	36391.957504785	41267.086203662	-61.8680400140058
1.376413	21345.6737975092	40627.6885962633	45893.8652822424	-62.282689570342
1.17375	23547.7897824721	45464.9946060951	51201.2122724819	-62.6189012045247
1.001604	26018.5165010864	51000.724868853	57254.1451605536	-62.9711556569712
