EC-Lab ASCII FILE
freq/Hz	Re(Z)/Ohm	-Im(Z)/Ohm	|Z|/Ohm	Phase(Z)/deg
6999984	38.5470059275081	69.4104704691373	79.3957497396575	-60.9544588096697
5969734	37.8469236343991	65.6823394305745	75.8060640164179	-60.048956310245
5091109	39.1842200023661	65.9508872184696	76.7132493256355	-59.2836565832887
4341796	43.3896473914007	66.9517083435175	79.7821580985718	-57.0537850587309
3702781	51.0813274768988	66.8243175349544	84.1117793820496	-52.6052605232438
3157797	58.2544711645421	66.617577176541	88.4956778579206	-48.8315714084398
2693047	65.876840010456	65.386678306666	92.8179710494829	-44.786048197314
2296687	74.1976877522009	64.2030238845551	98.1189336656991	-40.8695321633398
1958656	82.2070215835816	61.6082658175469	102.730583638413	-36.8489268867242
1670375	89.9434663625386	58.8450866178679	107.482888686402	-33.1945275848664
1424531	96.8733580877363	54.3446848495437	111.075615139377	-29.2918542112225
1214875	102.492513808565	49.886477418822	113.988490717517	-25.9537104235432
1036062	107.426638029806	45.7019303918704	116.743946309564	-23.046092852703
883578.1	111.379600268611	41.5435259443803	118.875060058395	-20.4550344636726
753531.2	114.933058775265	37.2780569502501	120.82740388432	-17.9702540160611
642624.9	117.414559085155	33.855108084236	122.197982915254	-16.0842946784526
548046.8	119.870426646099	30.376991063992	123.659535703558	-14.2202624356637
467390.6	121.539902909921	27.6915817273954	124.654609613596	-12.8351369659349
398593.7	123.020390168283	25.2541398401793	125.585779355084	-11.6007509625271
339937.5	124.329184272797	23.2070468713669	126.476531761545	-10.5730480245569
289906.2	125.298553212457	21.6736893929788	127.159255459594	-9.81370705867001
247234.4	126.298886200293	20.4819451232702	127.948891091198	-9.21148830894185
210843.7	127.224510520377	19.493509479203	128.709257588432	-8.71118729181157
179812.5	128.025531696731	19.1088876365931	129.443757489261	-8.48920625324404
153343.8	128.858239878103	18.8776242515364	130.233677218548	-8.33449618940281
130781.2	129.710490281425	18.9989008890883	131.094506078787	-8.33294920335596
111531.3	130.566310138603	19.3781235427483	131.996488647417	-8.44198307176936
95109.37	131.506927431613	20.1081736601088	133.035373530684	-8.69352300298769
81109.37	132.426439774373	21.0811440519301	134.093909577781	-9.04509563565791
69171.88	133.482146109428	22.4453972237801	135.356119870924	-9.54515028093629
59000	134.611685670911	24.0915111701769	136.750527712426	-10.1468247207591
50312.5	135.906473399193	26.0481982769265	138.380194194399	-10.8498840424303
42906.25	137.179186433424	28.3029768533018	140.068510698496	-11.6577545335647
36593.75	138.619046125162	31.0409967903367	142.052044794813	-12.622031043614
31203.13	140.275901133219	34.275585833214	144.402715427885	-13.730841887063
26609.38	141.970306055661	37.8679800904384	146.933834489092	-14.9348955047965
22703.13	143.902053347336	41.9838601172088	149.901452521051	-16.2647649247629
19359.37	146.015380110344	46.7158843591677	153.306441744068	-17.7414547797315
16500	148.289756530174	52.1785547575995	157.201951223164	-19.3853852855209
14112.02	150.732334264895	58.2680354147207	161.602600672251	-21.1348202397056
12011.13	153.52344494359	65.3955548949713	166.871287965811	-23.0722884830964
10236.38	156.546984112295	73.4780091188875	172.933444014541	-25.1438173913919
8750.684	159.804975646654	82.5543907658537	179.869001432012	-27.3206330241206
7449.463	163.541560123137	93.1458288589791	188.207298799319	-29.663869978023
6363.206	167.473287574186	105.091950858063	197.716008927096	-32.1088756954966
5414.761	172.082179924876	118.869859334939	209.146647369748	-34.6356997861149
4620.567	177.111973342632	134.588517559391	222.447117671045	-37.2314335107535
3941.215	182.929493679372	152.646871796158	238.252528059922	-39.8435595579108
3361.769	188.909970438089	173.228644965877	256.310632568439	-42.5205272387431
2867.244	196.201689580091	196.610857655217	277.760566571287	-45.0596813811126
2442.658	204.261729209729	223.719700872309	302.941180063299	-47.6031327069455
2083.003	213.728641986966	254.476627526356	332.322563728044	-49.9739289307937
1777.843	224.142145907565	289.824752166742	366.385164192769	-52.2826623662734
1513.548	236.467595060271	330.790305454958	406.619170350554	-54.4406735241659
1292.065	250.598027503328	376.670132824555	452.415473155624	-56.3642418114468
1101.762	267.20037840885	428.998673013463	505.40667157166	-58.0834245940487
939.101	285.256538084794	488.786709433705	565.936162335604	-59.7321106495376
801.2801	307.115034245148	556.563933850737	635.675276161348	-61.1098449637092
684.3433	332.835005758293	632.749709456083	714.948484769974	-62.2550157088372
582.9476	362.703664466293	721.671124285528	807.690014699213	-63.316420024317
497.0677	397.81570008321	821.865247141615	913.082589743032	-64.1711584630932
423.5089	438.785456858363	934.794010542664	1032.6531456868	-64.8549835915818
361.5036	485.050801154741	1061.07865526899	1166.68855842864	-65.4334417815459
308.1262	539.791219620974	1206.3689000144	1321.62796720629	-65.8938133699335
262.7298	604.03409655687	1367.4616563974	1494.92761414069	-66.1680309706831
224.2111	677.161470468659	1549.21967630376	1690.74813693051	-66.3899375247373
191.2854	763.283298724187	1752.63190157703	1911.62757265551	-66.4665419819463
163.1722	861.042790115006	1980.75058172046	2159.80729543054	-66.5051593373381
139.1537	977.734078392398	2235.80163974312	2440.24033659143	-66.379853467543
118.6706	1109.28666664027	2519.99544803384	2753.34232650013	-66.2411976811213
101.1982	1261.04689315766	2837.50079394205	3105.10064609255	-66.0385998047631
86.24196	1434.10404876131	3192.25004963068	3499.5878045908	-65.808213475341
73.61024	1630.85150467257	3581.52207753557	3935.34966961863	-65.5177811689892
62.69291	1855.79694638477	4021.62741037671	4429.16124498807	-65.2288385529047
53.57697	2103.82504555567	4499.28000250196	4966.85014503371	-64.9396094579226
45.65746	2388.33994984823	5040.69455265218	5577.88215088652	-64.647859348642
38.96512	2705.54157822269	5635.32642732034	6251.14862836797	-64.354161182858
33.18414	3064.23369155114	6303.03043670876	7008.40358444876	-64.0731826801258
28.30617	3467.21134844919	7032.36205476771	7840.64223161289	-63.7550192164897
24.17237	3912.96870031839	7850.71593704322	8771.83360386047	-63.5073295616546
20.61345	4409.23738633428	8758.57790522351	9805.81772474471	-63.2784329224998
17.55618	4962.55316515651	9772.35746641563	10960.1963654131	-63.0778403984245
14.98558	5585.01713832946	10892.688308865	12241.0406023965	-62.8543868583235
12.76553	6275.96130242169	12151.1198038244	13676.1618430168	-62.6839892100516
10.8809	7040.80718223793	13549.1473937031	15269.3274532228	-62.5413800148435
9.278505	7877.36492023916	15107.2682904144	17037.6768746557	-62.4611659235252
7.923394	8803.72661676346	16830.7327195794	18994.1876957302	-62.3870824806148
6.75822	9814.89322598657	18747.6464823285	21161.436096444	-62.3667424788877
5.761429	10956.91427772	20916.2171862215	23612.3296578396	-62.3523039424504
4.919708	12176.8194767821	23359.8019110115	26343.0309169586	-62.4682133044053
4.191257	13608.3266234368	26133.5174279235	29464.3392365368	-62.492965081155
3.564097	15127.9063771967	29250.3718272779	32930.803260644	-62.6525911228784
3.051758	16824.3762509406	32703.6455443271	36777.5484245783	-62.7764645981857
2.604164	18694.793875667	36571.6814215428	41072.9010425669	-62.9246887797861
2.214424	20931.974343306	41136.6778135806	46155.9726519457	-63.0312016339009
1.892567	23266.1610960595	46115.2942111678	51652.0533215318	-63.2280699323078
1.607507	26111.5185620055	51933.0930643917	58127.9412748183	-63.3071381080359
1.376413	29135.1660799793	58269.9362451996	65147.8577738946	-63.434793104791
1.17375	32570.4565196702	65543.7221317888	73190.259931147	-63.5759699055113
1.001604	36560.6216243023	73662.471924257	82236.4810990071	-63.6035864712366
