EC-Lab ASCII FILE
freq/Hz	Re(Z)/Ohm	-Im(Z)/Ohm	|Z|/Ohm	Phase(Z)/deg
6999984	20.0788846110178	3.915182882422	20.457034590218	-11.0336602552185
5969734	13.2742379060729	5.59728332984325	14.4060741585472	-22.8634568259271
5091109	9.86442096262166	-7.90254449745142	12.639501986313	38.6987726945056
4341796	6.51175694191923	-1.44230220833391	6.66957375930412	12.4889329478051
3702781	4.17018955509508	-5.62300460652995	7.0006186676951	53.4382552136948
3157797	4.38883948493986	-5.47605471901774	7.01776939705514	51.289216574874
2693047	1.45803086906423	-4.27526450044446	4.51704998465866	71.1686347192464
2296687	0.758325522904146	-3.44370076926238	3.52620654342683	77.5812929539096
1958656	1.66401344738273	-3.31604964087514	3.71013826882755	63.3522298865127
1670375	1.20455775697206	-2.66970487892371	2.92887069199557	65.7153370167503
1424531	1.15032036517062	-2.59983376274184	2.84295137777956	66.1325648831645
1214875	0.797861623185389	-1.11432451726485	1.37051169259134	54.3971573796257
1036062	0.844684804658812	-1.84473068846543	2.02892181519832	65.3974027362322
883578.1	0.738247546328745	-1.59762733808578	1.75994958764718	65.1988155644398
753531.2	1.54218801020676	-0.204775922371972	1.55572395919353	7.56364450141175
642624.9	14.4956450601821	1.70527382638796	14.5956049732015	-6.70946183169687
548046.8	-2.16617717740674	2.94505701540931	3.65591088347753	-126.33558954452
467390.6	-1.56740939595085	3.61801248406843	3.94294135758954	-113.423412673452
398593.7	2.04622955449135	2.165301178518	2.97919193463015	-46.6194787642649
339937.5	1.05311856612756	-1.41945473277243	1.76745875559025	53.4276268465951
289906.2	-0.166258701215104	-2.33086201556582	2.33678404893078	94.0799564393787
247234.4	1.64646076732025	-2.79015742555874	3.23972398789239	59.4553147387099
210843.7	2.18445344107066	-0.143864804830783	2.1891856746915	3.76797214192418
179812.5	0.512233952621917	-0.421054623468702	0.663076630686863	39.4200921811076
153343.8	0.622285469630482	-0.3043804538033	0.69273852669729	26.0647897512852
130781.2	0.695690812753059	-0.192115061300215	0.72172979966702	15.4374940826853
111531.3	0.624502057093123	-0.248892796321084	0.672272596030859	21.7295561606294
95109.37	0.619311559604117	-0.208638194434699	0.65351105884771	18.6180171809242
81109.37	0.627048531818765	-0.189528201088286	0.655065493110293	16.8176749266421
69171.88	0.614727140653722	-0.162269476747024	0.635783642869218	14.7870666640748
59000	0.616285404863009	-0.13431068546246	0.630751187455528	12.2945627453849
50312.5	0.613578098542697	-0.0968259297262146	0.621170945616919	8.96763174175623
42906.25	0.657968895512541	-0.110827072908759	0.667237369720489	9.56104985975117
36593.75	0.64231821098133	-0.101596832216483	0.650303467986048	8.98813217166601
31203.13	0.631953259350855	-0.0918320159526931	0.638590667922814	8.26803881474559
26609.38	0.632500929458724	-0.0774934311403088	0.637230458810663	6.98501442410914
22703.13	0.629540080655057	-0.0700940040130129	0.6334302507378	6.35323678173018
19359.37	0.62487537495216	-0.0632117396009791	0.628064453893854	5.77633130739091
16500	0.620466054246256	-0.056637928414004	0.62304572818289	5.21566918654359
14112.02	0.617076873580187	-0.0513191813234689	0.61920717557148	4.75406172819188
12011.13	0.611075368727615	-0.0468234958516953	0.612866662520784	4.38171249995462
10236.38	0.607206858114818	-0.0418048695314565	0.608644243921037	3.9384746414726
8750.684	0.600003199363176	-0.0385439946003291	0.601239951072613	3.6756101994335
7449.463	0.59510116147967	-0.0440506155398735	0.596729292999677	4.23343102257476
6363.206	0.590123295252048	-0.033079705180702	0.591049719138735	3.20839061947848
5414.761	0.585396108552418	-0.0301039008946234	0.586169641620399	2.94383308715477
4620.567	0.5819259550521	-0.0293351062337912	0.582664882776581	2.88585892561226
3941.215	0.577625393235504	-0.0266106416741121	0.578238031575906	2.63769600763842
3361.769	0.573544093311632	-0.0260078918113823	0.574133466546878	2.59635194609958
2867.244	0.572061166773392	-0.0241350004352681	0.572570062766248	2.41585018711054
2442.658	0.569699339285131	-0.0174451883882508	0.569966377762598	1.75394871569479
2083.003	0.56700360583043	-0.0262834860053061	0.567612465209584	2.65404936902705
1777.843	0.563437226417347	-0.0187655904642972	0.563749639022808	1.90756271127393
1513.548	0.556899029638658	-0.0214643691270885	0.557312523055514	2.20723911869238
1292.065	0.555926454967102	-0.0195603105664851	0.556270463966717	2.01512465111163
1101.762	0.552389251747985	-0.0197770299507945	0.552743173960904	2.05046812566207
939.101	0.546351329138678	-0.020434280096358	0.546733330477168	2.1419414106125
801.2801	0.533342706878173	-0.0189653501656932	0.533679798649944	2.03654582419819
684.3433	0.540344604719238	-0.0134956746411152	0.540513112776377	1.43072488881205
582.9476	0.532939347019012	-0.0162160573476859	0.533185997675253	1.74283448038484
497.0677	0.537700788920229	-0.0220078580566981	0.538150986454248	2.34378298268119
423.5089	0.538656721907434	-0.0144917985998779	0.538851627336062	1.54109031114133
361.5036	0.530472530407678	-0.00639609521773915	0.53051108899924	0.690802035559946
308.1262	0.530180384324992	-0.00990316617891031	0.530272866195663	1.07009551227419
262.7298	0.519713257595226	-0.0100050454750555	0.519809552677901	1.10286984407126
224.2111	0.529035247680851	-0.0103269102254019	0.529136030112809	1.11828699242264
191.2854	0.521080765323368	-0.016446916532573	0.52134025842382	1.80783138562228
163.1722	0.514486201101985	-0.0124425469690669	0.514636636957989	1.38539475989248
139.1537	0.523694871803701	-0.00784149220422809	0.523753575408783	0.857848453688132
118.6706	0.485667959987496	0.0373150559195014	0.487099354091844	-4.39354293250848
101.1982	0.505440453180036	-0.0178209658353548	0.505754523987819	2.01931469146742
86.24196	0.507771623661963	0.000192988262526121	0.507771660336392	-0.0217763496237577
73.61024	0.525102065147718	0.0415482412895817	0.526743234580811	-4.52405297795676
62.69291	24343.2072959866	33124.5953409011	41107.5486736174	-53.6878986546112
53.57697	1.49398948630374	-0.357618463289683	1.53619515377174	13.4616777740664
45.65746	0.4426637749316	-0.0569462145220549	0.446311650066504	7.33051943372892
38.96512	0.498053569179174	-0.00180580522115947	0.498056842844882	0.207737823442598
33.18414	0.501127523080961	-0.0291923215431421	0.501977077192114	3.33389931633307
28.30617	0.468659888413452	-0.0183421597342299	0.46901868388309	2.241267655103
24.17237	0.493706681036777	0.0235984199261736	0.494270343358128	-2.73656732363958
20.61345	0.438386747871408	-0.0756073005515628	0.444858859196896	9.78537429570079
17.55618	0.47841659484047	-0.0385901303111616	0.479970453649162	4.6116186907444
14.98558	0.479339042942506	-0.0172914586813912	0.479650823654424	2.06596606106257
12.76553	0.492164023980268	-0.00715049957859766	0.492215964942904	0.832374177158821
10.8809	0.472888158829396	-0.00362642291650094	0.472902063544055	0.439373773815883
9.278505	0.471196274316332	-0.00745725171927425	0.471255280641816	0.906699408258781
7.923394	0.473692557488266	-0.00835595535292883	0.473766251446464	1.01059499116544
6.75822	0.481285880921004	-0.00753701389168887	0.481344892724864	0.897187735901815
5.761429	0.467282734961679	0.00171896477017011	0.467285896676914	-0.210769572319753
4.919708	0.469990911185667	-0.00503606074209119	0.470017891685978	0.613913964242365
4.191257	0.471142972340194	0.00237070637976438	0.471148936785696	-0.288299585550999
3.564097	0.46264744046583	-0.0101878243462924	0.46275959842503	1.26148977190646
3.051758	0.459570127035447	0.0164137007539338	0.459863144028543	-2.04546849594176
2.604164	0.465981081004581	-0.00377398919795059	0.465996363557339	0.464029408247511
2.214424	0.447230557090024	0.00634533035846908	0.447275568763163	-0.81286095353005
1.892567	0.475834763121828	0.000990968724492162	0.475835795011492	-0.119323445568812
1.607507	0.485914437670509	0.0168671552181555	0.486207097502495	-1.9880638544476
1.376413	0.449847047939764	0.000122921428664186	0.449847064734003	-0.015656163425197
1.17375	0.460732790629809	-0.0137846240149405	0.46093895498294	1.7137161922785
1.001604	0.4604687096548	-0.0147477741215696	0.460704818091473	1.83442751351445
