EC-Lab ASCII FILE
freq/Hz	Re(Z)/Ohm	-Im(Z)/Ohm	|Z|/Ohm	Phase(Z)/deg
6999984	47.0768007794646	68.0107563520843	82.7144978296548	-55.3091572204473
5969734	49.5510406988198	58.4066098893264	76.5939796139361	-49.689369441842
5091109	50.3301455103589	52.6812781024768	72.8590461755052	-46.3074917856603
4341796	53.3756975347972	49.0908426803065	72.5181075483135	-42.6054510431374
3702781	58.3702802721375	45.1029086619984	73.7655881073312	-37.6933807330777
3157797	61.0871328353264	41.1671613848504	73.6639190820522	-33.976380062524
2693047	63.6234152841675	38.9507947532375	74.5996205374429	-31.4753218839527
2296687	67.4477789737163	37.1317770608096	76.9933228025714	-28.833940611776
1958656	71.2571953840908	33.8119667881717	78.8722827873703	-25.3846200935295
1670375	74.2798568359933	30.7434661406136	80.3906576780829	-22.4840269852576
1424531	77.0802608781023	27.4138350439591	81.8100542039529	-19.5780881807572
1214875	79.130189938364	24.2564262592008	82.7644922327783	-17.0423030302231
1036062	80.5176687002713	21.3278991164764	83.2945031418595	-14.8360545555585
883578.1	81.6746765338155	18.7935183623144	83.8090038082904	-12.9583228918881
753531.2	82.6637752630568	16.5281935284076	84.2999461568847	-11.3068923685604
642624.9	83.4461417676246	14.4869855852605	84.6943405857207	-9.84888666729104
548046.8	84.0946233739123	12.8613365364308	85.0724377098922	-8.69537365666596
467390.6	84.8921909527473	11.2470693699905	85.6339923988779	-7.54696569999549
398593.7	85.2534543246469	9.68927579877075	85.8022933247667	-6.48399148015699
339937.5	84.4654623104076	9.28233361328062	84.9739727247063	-6.27135538322804
289906.2	84.8321604822886	8.72753120847108	85.2799229190998	-5.87392320863554
247234.4	85.977221975521	7.98194114427937	86.3469402066961	-5.30401412193261
210843.7	85.2680331821592	6.85429868226599	85.5430820883811	-4.59585776771595
179812.5	86.3019165555632	6.6804028500485	86.5600865491846	-4.426288043458
153343.8	85.6352079985098	7.48653964210676	85.96183528032	-4.99630140847965
130781.2	86.6786449688846	7.20470312850664	86.9775559602123	-4.75148570994497
111531.3	86.753668031244	6.77309214691274	87.0176631156334	-4.46418003428118
95109.37	86.0195672495645	7.08977871158902	86.3112444121949	-4.71169894769329
81109.37	87.2368027901293	7.5595656166708	87.5637298963256	-4.95263343012375
69171.88	86.5714907041891	9.0303218046708	87.0411955032869	-5.95501965495836
59000	86.9491690298058	9.83298022774479	87.5034027631666	-6.45210064928001
50312.5	86.2765024723364	11.2518917383027	87.0071258377701	-7.43038597742023
42906.25	89.5594929965815	11.2849975665932	90.2676794643727	-7.1817394830673
36593.75	89.1734963906194	12.4165745897764	90.0337924507865	-7.9269341209924
31203.13	89.7854835488184	13.9670376038387	90.8653465052667	-8.84206804095331
26609.38	90.3404952245251	15.4452299278625	91.6512967989924	-9.70187715621638
22703.13	90.62319656805	17.4331022993034	92.2847593700575	-10.8889196570125
19359.37	91.358787217925	19.670341507916	93.4523961007321	-12.1507847162748
16500	92.2182028561943	22.3592059417434	94.8900997384421	-13.6289184248871
14112.02	93.3369687426859	25.2117035455563	96.6820548485713	-15.1157095257839
12011.13	94.5406621834636	28.7091776769721	98.8036117202996	-16.8919703639367
10236.38	95.9237679466881	32.535381609472	101.291264744617	-18.7358860585385
8750.684	97.2312756058863	36.4670995209921	103.844933932387	-20.5588200386826
7449.463	98.7683589178951	41.2694329962389	107.043705201031	-22.6771538692624
6363.206	100.320768660727	46.7764206425407	110.690063478196	-24.9981600607137
5414.761	102.652519993471	53.1473574284609	115.594902407669	-27.3724284088004
4620.567	105.371489684982	60.8103848758834	121.659581403132	-29.9894475155282
3941.215	107.543082960817	68.5720677003007	127.544671238793	-32.5225684123149
3361.769	110.579549356588	78.0280813871625	135.337423578505	-35.2078840882223
2867.244	114.215127977848	88.7595578432848	144.64907385646	-37.8517118901842
2442.658	118.104642755071	100.78508683028	155.262166568968	-40.4759216172408
2083.003	123.296445639779	114.643456020699	168.360136361827	-42.9172833231373
1777.843	128.970379305288	130.136871602749	183.218350851382	-45.2579419669617
1513.548	134.622028317413	147.653294168088	199.811375519469	-47.6431881864031
1292.065	142.154566341919	167.616203966789	219.77969097279	-49.6988690820853
1101.762	150.11309696443	188.007243301061	240.584009056954	-51.3946236204442
939.101	168.699749131456	215.058811932437	273.331114121329	-51.8881064398124
801.2801	178.522339853813	239.840192852538	298.987531402938	-53.3382626192886
684.3433	359.238190307402	267.310028824221	447.779777217935	-36.653026886991
582.9476	376.859121048646	315.704828004621	491.622147124176	-39.953796637694
497.0677	400.689745528258	354.228960521062	534.818126696667	-41.4782253361529
423.5089	411.01950878296	402.026315849769	574.945384567895	-44.3662706687114
361.5036	441.492706716128	440.645004403296	623.765845481391	-44.9449408530597
308.1262	466.540316038833	501.66027544314	685.071454993784	-47.0774038228673
262.7298	479.236088824984	556.939785598731	734.744277701452	-49.2886313007716
224.2111	513.536344748119	648.541173325822	827.239524488581	-51.6266543387383
191.2854	542.365368246891	730.09511378001	909.504847617114	-53.3924701562859
163.1722	590.950963422315	800.674068811553	995.13918907709	-53.5701959347575
139.1537	639.00952242733	914.573948886969	1115.69649893486	-55.0581386808225
118.6706	690.567906858763	1015.68570344571	1228.21068313515	-55.7880926413971
101.1982	706.44393245996	1141.38566003465	1342.32047389669	-58.2451705796141
86.24196	788.149392038612	1315.13543894251	1533.21906032156	-59.0661045084775
73.61024	998.360978077949	1518.60348603296	1817.38306098088	-56.6782627902242
62.69291	186.994270970136	1519.48800241388	1530.95089629138	-82.9842276662138
53.57697	1837.57543938872	2073.3336366371	2770.4504803832	-48.4497408746088
45.65746	1953.83283670486	2042.25362902797	2826.35147125478	-46.2675680864956
38.96512	2332.79580023971	2366.79907443803	3323.20238691187	-45.4145485211048
33.18414	2449.9307568062	2539.91560588777	3528.9278822579	-46.0331366750398
28.30617	2728.18197362696	3378.09241833903	4342.17517703544	-51.0753027820619
24.17237	2761.15487422366	3517.10013627282	4471.46168584942	-51.8657553562244
20.61345	2718.53822452554	3580.06787216537	4495.25706133889	-52.7886413951534
17.55618	2789.42478918991	4081.26281373125	4943.43977502434	-55.6485258520812
14.98558	3104.68150082922	5083.83872929913	5956.88370266811	-58.5877420453228
12.76553	3406.40394852221	5712.53032113494	6651.05935399721	-59.1922125191858
10.8809	3587.79181272009	6598.61138890959	7510.92020682344	-61.4662247122806
9.278505	4102.15700164543	7220.19659499575	8304.1514278424	-60.3969135792279
7.923394	14923.8468725458	7280.51648575724	16605.033145844	-26.0051792222798
6.75822	14572.2009276557	9583.50622294307	17441.1189836306	-33.331189478161
5.761429	14898.1262153473	10055.8477410241	17974.2660077979	-34.0183263027055
4.919708	14934.4992111863	11781.4385902052	19022.1334750785	-38.2689913228
4.191257	16699.2867645981	15662.2225018342	22894.7896287178	-43.1645146117363
3.564097	18663.854024154	17165.0541608874	25357.0213428377	-42.6045916064447
3.051758	17263.2311601521	19840.0893555867	26299.2071311382	-48.9728628007191
2.604164	18532.4524410385	22327.4022046666	29016.6276932435	-50.3062501815476
2.214424	19690.9444754353	23819.6182121301	30904.813639728	-50.4205094250525
1.892567	24019.4948437617	27343.7097872868	36395.2551506493	-48.7030054087904
1.607507	25021.5555780016	29484.3503243014	38670.4688048794	-49.680780804493
1.376413	24934.5669420697	32695.7683685242	41118.6806427048	-52.6699990245157
1.17375	29434.2939966998	41406.255971595	50802.1229543551	-54.5922781567575
1.001604	30770.8152149449	43726.0673637425	53467.8598420661	-54.8652638982476
