EC-Lab ASCII FILE
freq/Hz	Re(Z)/Ohm	-Im(Z)/Ohm	|Z|/Ohm	Phase(Z)/deg
6999984	38.9434262761942	75.1616551818949	84.6514315284239	-62.6100203587002
5969734	37.8004665027474	71.4001741014262	80.7889851993407	-62.1024943437733
5091109	38.6845220994477	72.2683649483819	81.9707802962444	-61.8403088567215
4341796	42.9729014265207	74.7882496378081	86.255159503073	-60.1185706823533
3702781	51.17483353697	76.6630432997768	92.1742143743034	-56.2757255616771
3157797	59.4138924589448	78.030673464213	98.0754638959291	-52.713732893018
2693047	68.1471639698759	79.0447640222042	104.365275242597	-49.2342633355916
2296687	78.2318877070001	79.6966914761108	111.677172629141	-45.5314089929997
1958656	88.7172298016233	78.665068135143	118.57040022021	-41.5632236250606
1670375	99.3625329057341	76.6559570146412	125.495213818191	-37.6493775744117
1424531	109.324185461872	72.9632894209238	131.43598871703	-33.719265251959
1214875	118.277721822859	68.4559098379283	136.659544384372	-30.0610844286534
1036062	125.978107239717	63.4969019272604	141.075653668738	-26.749531612246
883578.1	132.543052711207	58.3495305307871	144.818260365084	-23.7605712232311
753531.2	138.13913419805	53.1584052038681	148.014311608052	-21.0476160632867
642624.9	142.735065074392	48.2566733901726	150.671846502512	-18.6796559805244
548046.8	146.488618876602	43.5922211553361	152.837159112665	-16.5720020832459
467390.6	149.552472630824	39.4873213712997	154.677699165308	-14.7906361911385
398593.7	152.01972740207	35.9377079635759	156.209847234657	-13.300630797011
339937.5	154.029941130846	32.8361957093235	157.491074392909	-12.0342049936995
289906.2	155.72030743588	30.3396502377627	158.648380150807	-11.0250601587135
247234.4	157.207205625208	28.296219624128	159.733470335755	-10.2035933791006
210843.7	158.428597280333	26.6989938072927	160.662555396508	-9.56582259818461
179812.5	159.520042946333	25.6084740926103	161.562489603719	-9.1201359180862
153343.8	160.679017925073	25.0709647873239	162.623184314947	-8.86842982910728
130781.2	161.64597023671	24.9098763854765	163.554032769929	-8.76045020303692
111531.3	162.697402255351	25.1327683971573	164.627156775378	-8.781386080871
95109.37	163.818735666642	25.8295352475053	165.842524843658	-8.96014318337387
81109.37	164.855386649254	27.075379525593	167.063983801806	-9.32683044267964
69171.88	166.087994809148	28.632729459931	168.53799339036	-9.78135786155692
59000	167.450318986458	30.6043747676918	170.224079035804	-10.3574554654051
50312.5	169.07251393605	33.1885570873595	172.299144775001	-11.1058242895152
42906.25	170.546977305888	36.103702292885	174.326557894741	-11.9526845586083
36593.75	172.308692003378	39.5775393605486	176.795551306448	-12.9358801350528
31203.13	174.304229974236	43.7391673247577	179.708317406775	-14.0866945144628
26609.38	176.526659253878	48.4760628070224	183.061711159394	-15.3554980926241
22703.13	179.043687725071	53.8728441252967	186.973060755664	-16.7461296867641
19359.37	181.947386077071	60.1295765925855	191.625721868131	-18.2875752317384
16500	185.15110726789	67.2413812571487	196.983085253265	-19.9595176441317
14112.02	188.731203797865	75.0378653321398	203.101325748001	-21.6823329791547
12011.13	192.796069855488	84.1098374280405	210.344453941371	-23.5698736802778
10236.38	197.398337413623	94.3993752712923	218.808925012836	-25.5579512857124
8750.684	202.44553992578	105.678836164321	228.368590329068	-27.5650625491014
7449.463	208.230496247521	118.852103562009	239.761886230075	-29.7165076106617
6363.206	214.804498479088	133.147974820864	252.723872567966	-31.7929754151512
5414.761	222.373118268337	149.798402318684	268.121922016112	-33.9656027263976
4620.567	230.749046061188	168.39801097258	285.662409773616	-36.1215397770717
3941.215	240.256220702854	188.851196587456	305.594217940936	-38.1687924635875
3361.769	250.893891836245	212.370214605176	328.707853590671	-40.2463889949334
2867.244	263.251499526048	238.695626242328	355.354687586825	-42.1992526142794
2442.658	277.41210236771	267.838554602196	385.60986225908	-43.9941002033062
2083.003	293.32068351492	300.686474510023	420.058780804457	-45.7104411152442
1777.843	311.203036626376	337.163715031964	458.831887230642	-47.2929047087719
1513.548	332.172805781506	378.441404000934	503.544108458193	-48.7253106557549
1292.065	355.422651477828	423.914424738396	553.198608715545	-50.0225157518208
1101.762	382.080623473016	474.771316410611	609.420549144671	-51.174011951007
939.101	412.344661613375	531.383939779094	672.604647185997	-52.189161383686
801.2801	445.992917101302	593.515623785584	742.408565267211	-53.0772402365608
684.3433	484.460820936374	662.309633061562	820.582925162647	-53.8155822992561
582.9476	528.244987773144	739.212470769125	908.558112642248	-54.4502075418769
497.0677	577.066953517531	824.483914367546	1006.3697103415	-55.0113280289603
423.5089	631.910866414427	918.889773395992	1115.1994255488	-55.4841041536125
361.5036	692.045313570639	1021.38116728548	1233.75289459459	-55.8800695562495
308.1262	762.318344274731	1136.96845110355	1368.87783122621	-56.1588077940027
262.7298	838.571956299398	1263.23232911866	1516.23179073067	-56.422586103725
224.2111	924.391966042705	1403.92856975257	1680.92710604946	-56.637800510732
191.2854	1018.52824332665	1558.03017830563	1861.41285559253	-56.8262234112388
163.1722	1124.86887058942	1727.45938986669	2061.41842420692	-56.9290521467309
139.1537	1243.50602765977	1916.95054686501	2284.95221830835	-57.028941608734
118.6706	1373.78011836405	2127.64010157339	2532.61213284537	-57.150374283834
101.1982	1517.66753524026	2358.69557901996	2804.77442622585	-57.2413485225449
86.24196	1678.5902745978	2615.7393222138	3108.01504368139	-57.3106191199762
73.61024	1857.10383319954	2896.66204350462	3440.85536481334	-57.3353136009464
62.69291	2052.18845037142	3214.41765590738	3813.65419282438	-57.4445193566983
53.57697	2271.93654878448	3556.31931870347	4220.08326674797	-57.4277316933009
45.65746	2512.7847039813	3942.36489200655	4675.07517696649	-57.4873765997741
38.96512	2781.48135995566	4367.22376225699	5177.76804669762	-57.5069717563675
33.18414	3078.41920711259	4841.49009807653	5737.30696272151	-57.5501154783409
28.30617	3413.07889273823	5347.30320137632	6343.71807818606	-57.4507073008857
24.17237	3769.51325504599	5939.09813688955	7034.35262547822	-57.5969261302031
20.61345	4166.29093380489	6573.52595844497	7782.62318704013	-57.6335381333119
17.55618	4611.06080781464	7298.96976272902	8633.47215033423	-57.7177056334167
14.98558	5096.0338973771	8083.30326905887	9555.59277192128	-57.7710480041433
12.76553	5640.17910261229	8967.57935880868	10593.8236659893	-57.8320680093248
10.8809	6245.46537531314	9953.12568087401	11750.3424874984	-57.8922285778135
9.278505	6897.47322529013	11042.5404434802	13019.7095336067	-58.0099714047129
7.923394	7625.13904561195	12233.3226980378	14415.1631867018	-58.0643450994708
6.75822	8426.26913747264	13593.6522243522	15993.4171574982	-58.2065532242223
5.761429	9352.55928359475	15105.8258256007	17766.7199850321	-58.2368626915847
4.919708	10331.7762694742	16719.4094292293	19654.1154098746	-58.2859651746274
4.191257	11405.2296780477	18607.273679609	21824.5251448202	-58.4940061500394
3.564097	12692.3465948071	20728.0472356122	24305.2999217142	-58.5197319550408
3.051758	13971.7398703238	22968.4387342778	26884.1717911166	-58.6877804763527
2.604164	15515.8348776896	25548.2200560712	29890.6788143925	-58.7290334376021
2.214424	17172.4398859109	28489.3013584211	33264.5905359762	-58.9197710876011
1.892567	19047.6433428837	31642.2838224479	36933.0047845833	-58.9534037101753
1.607507	21172.5532714421	35396.6297933098	41245.5865851933	-59.114175667489
1.376413	23365.8044819205	39277.4627927806	45702.0776609292	-59.251972017218
1.17375	25970.6478308519	43768.7392859145	50893.7824044596	-59.3167735438473
1.001604	28828.1994472479	48883.2203021232	56750.6326878936	-59.4706127118399
