EC-Lab ASCII FILE
freq/Hz	Re(Z)/Ohm	-Im(Z)/Ohm	|Z|/Ohm	Phase(Z)/deg
6999984	21.2481552094481	86.4525429561329	89.025424926741	-76.1916411175993
5969734	24.589578044137	82.6868120613343	86.2656144547474	-73.4384643204367
5091109	27.7014366846702	84.5491127488638	88.9714676793346	-71.8592780454971
4341796	33.8728184012015	89.1888666412326	95.4045164506814	-69.2038478481838
3702781	43.7071834328258	91.8501204744018	101.719037130681	-64.5524045799732
3157797	50.4646697522747	96.3289790737818	108.747207332433	-62.3509288437421
2693047	59.9385435719392	101.951211624304	118.265288894032	-59.5481339015211
2296687	72.0636082217328	108.777528442626	130.482620773886	-56.4760774434784
1958656	85.1885035095308	112.910578340955	141.442143053202	-52.9662640412219
1670375	99.9565294080381	116.941586892693	153.839664964148	-49.4776328886514
1424531	114.74868049508	119.124189067781	165.402031717928	-46.0718170557891
1214875	130.016180327492	119.567414069021	176.636841157511	-42.6027237640326
1036062	144.9967933214	119.434508667083	187.85279325588	-39.4784364733857
883578.1	159.621927294245	117.92026844463	198.454905162817	-36.4550355913056
753531.2	173.523951553921	115.389881711998	208.387587356821	-33.6230942860463
642624.9	186.600625869345	112.173045872801	217.721348965168	-31.0117474614904
548046.8	198.661305969282	108.619001737994	226.416434977629	-28.6678401469676
467390.6	209.761277725779	104.693884365416	234.436778378885	-26.5242274184667
398593.7	219.892677531274	101.088950698853	242.016044065818	-24.6891639217997
339937.5	229.18273700946	97.6594521740586	249.122651603752	-23.0798457964142
289906.2	237.71315368944	94.5346263309376	255.820911992178	-21.6869051823598
247234.4	244.223716411824	91.7029529906188	260.872871807712	-20.5805294095401
210843.7	255.630977447157	87.5387169183566	270.204040662424	-18.9033444333214
179812.5	264.18173023613	86.3092174711744	277.923132558342	-18.0924200771389
153343.8	268.951069785196	86.2248478755061	282.434775354869	-17.7756832784126
130781.2	273.739786221895	88.6974778663562	287.751130563654	-17.9534205160401
111531.3	279.622846022333	89.2148548859057	293.51018099879	-17.695503564562
95109.37	286.231569309035	90.9606658670151	300.33706731618	-17.6295790406543
81109.37	292.717465204307	93.4306455813226	307.266659384609	-17.7022358186548
69171.88	299.528081577696	96.7852786056738	314.776844460314	-17.9069880163227
59000	306.432871090842	100.950133814531	322.632971040079	-18.2337630356197
50312.5	313.660349192087	106.276567507218	331.175970529895	-18.7177634034785
42906.25	321.459437089579	111.81401867319	340.350619899241	-19.179332473658
36593.75	329.402136265104	118.74267932462	350.150812178415	-19.8231880663583
31203.13	337.490282962386	126.720648989726	360.496621307896	-20.5801226095056
26609.38	346.743075854173	135.894141531128	372.421774813578	-21.4010049721675
22703.13	356.023990151139	146.041773940081	384.813307070719	-22.3035395502135
19359.37	366.126529760867	157.8044828177	398.686456494445	-23.3165633094725
16500	376.232641763767	170.661234632013	413.129831571948	-24.3993103028209
14112.02	387.291998763127	185.533668893649	429.438976571848	-25.5969238749372
12011.13	399.882093068611	200.109870775396	447.15729753486	-26.5843994461114
10236.38	412.200884101173	219.604061933865	467.04979699347	-28.0468971364946
8750.684	425.224267549887	241.037213791615	488.788928010612	-29.5466141652495
7449.463	439.432164916528	265.906607873588	513.621408893812	-31.1787245517253
6363.206	454.567451954931	293.405472895642	541.034508975087	-32.8406573914377
5414.761	471.472277231058	325.504939229658	572.921961230623	-34.6212383313658
4620.567	489.319383923372	361.413870501994	608.32018318841	-36.4497701091683
3941.215	509.052602260768	402.095944825032	648.703091339324	-38.304881399087
3361.769	531.046568004857	448.99415955691	695.41801292888	-40.2141601189573
2867.244	554.965075552317	499.905085950541	746.921234161947	-42.0121016800779
2442.658	581.978200307019	559.543986870078	807.333945077908	-43.8741171114279
2083.003	612.019640864214	626.136015150768	875.565160494892	-45.6532083610886
1777.843	644.643909593017	701.160560763047	952.466220999422	-47.4047059633358
1513.548	682.378671549455	786.757125312675	1041.45447601701	-49.0638943352095
1292.065	723.711984514058	882.89340480545	1141.60404728533	-50.6583613945452
1101.762	769.840606492382	990.890037754546	1254.79784281205	-52.1557121076062
939.101	822.0044025854	1113.7957315893	1384.28037968337	-53.571903348987
801.2801	880.205030343293	1251.39914934331	1529.95448508078	-54.8783387951325
684.3433	945.162754213141	1406.11583959268	1694.2533418309	-56.0918003798621
582.9476	1019.35278484609	1583.35336530803	1883.10593950679	-57.2268240424383
497.0677	1102.46768415759	1782.99295617085	2096.30600732972	-58.2704953141589
423.5089	1199.61529091137	2009.49428905527	2340.32992202683	-59.1639084041064
361.5036	1305.18795325881	2259.61561829819	2609.47855629991	-59.9886238544177
308.1262	1437.8864511382	2550.77248044351	2928.13211678619	-60.5897711730689
262.7298	1577.22040418869	2891.73854711169	3293.89982061397	-61.3909380580004
224.2111	1743.63582800182	3213.25873349678	3655.8579826198	-61.514066688174
191.2854	1918.89781535398	3597.47419851682	4077.25268223156	-61.9244763568262
163.1722	2138.80730470852	4066.27505554526	4594.46291899544	-62.2562189202069
139.1537	2347.48314395045	4633.24076204756	5193.99625242746	-63.1304379240175
118.6706	2670.86368383786	5201.70033248419	5847.32410309281	-62.8213271935445
101.1982	2999.43962153998	5810.88804084879	6539.34689908277	-62.6983131549299
86.24196	3311.96848874842	6535.10022768217	7326.43639543223	-63.1242499798301
73.61024	3744.51555101269	7297.09634911181	8201.76882385725	-62.8353073637457
62.69291	4207.64955235212	8212.6012679788	9227.73722763149	-62.8720912541931
53.57697	4773.29284888607	9162.16605297822	10331.0024394331	-62.4814486294729
45.65746	5390.94526353002	10243.3825960154	11575.3694473536	-62.2428117078009
38.96512	6110.12391195324	11413.8126895935	12946.3791977737	-61.8386472791156
33.18414	6928.16200798337	12718.7009135112	14483.2586711767	-61.4218777789374
28.30617	7845.84437136273	14126.9512673545	16159.4562411565	-60.9530264151819
24.17237	8908.84285470986	15659.0611046031	18015.9283881683	-60.3633382524332
20.61345	10087.6986837446	17358.0293564517	20076.4251766459	-59.836790038708
17.55618	11423.2098461409	19215.4856494703	22354.5210625048	-59.26938993419
14.98558	12892.3561498751	21193.1100916914	24806.4661419916	-58.6866918565419
12.76553	14568.0966600613	23359.39084861	27529.8125877205	-58.0502503377106
10.8809	16393.1070755416	25674.6876535373	30461.8375298811	-57.4420556381792
9.278505	18452.8825960129	28176.095991598	33680.8738222449	-56.7787022917106
7.923394	20688.0579271465	30885.7608392292	37174.2647999262	-56.1848315370575
6.75822	23132.8540795831	33832.6501296527	40985.0845145252	-55.6378860258256
5.761429	25866.8790152975	37049.5497751726	45185.8890422112	-55.0784156571922
4.919708	28900.0684913752	40421.5875691786	49690.2274136369	-54.4365138505733
4.191257	32024.3425487208	43990.6991745022	54412.6835355449	-53.9461364624547
3.564097	35544.9639117296	48191.351927776	59881.9744172896	-53.5882670236159
3.051758	39235.4907698765	52322.138807058	65399.0056904393	-53.1343870470472
2.604164	43328.3701456283	57079.1147049639	71661.5168342046	-52.7981123875069
2.214424	47683.0105985296	62270.589083074	78430.1967643365	-52.5573154149473
1.892567	52495.2547028481	67823.3661469103	85765.7318619433	-52.2601451249247
1.607507	57638.8253770695	74106.2265797601	93882.7300878019	-52.1247036317338
1.376413	63139.1300266704	80642.8017831724	102419.779437201	-51.9408987710558
1.17375	69080.4560135251	88203.5265357168	112035.58138544	-51.932172623836
1.001604	75373.7237282849	96348.151890746	122328.102255492	-51.9637196800359
