EC-Lab ASCII FILE
freq/Hz	Re(Z)/Ohm	-Im(Z)/Ohm	|Z|/Ohm	Phase(Z)/deg
6999984	1.84526209817134	1.91048241134004	2.65611280916067	-45.994868823903
5969734	5.27286989284199	0.963258153541746	5.36013275742347	-10.3527457523291
5091109	7.00328874688227	-4.54100685385681	8.34666379573195	32.9598039649351
4341796	3.34848890195917	-4.63586733674017	5.71870998481284	54.1594028129582
3702781	1.84694609738082	-5.47339984176055	5.77661801700742	71.3535281997351
3157797	2.74757579935883	-7.72560287941736	8.19964100578093	70.422299895309
2693047	0.256808855878003	-6.85814588107374	6.86295240509112	87.855514840416
2296687	2.65699262934829	-11.8309027889469	12.1255874345915	77.3424841448991
1958656	-1.91062146967656	-11.6684903657949	11.8238801506543	99.299200882564
1670375	-5.48368696286298	-6.5826138254245	8.56747497698962	129.796197331331
1424531	4.3672211723151	-8.57366715045901	9.62187035740854	63.0067936318283
1214875	2.10607741765683	-27.5130460716747	27.59353667494	85.6226410170117
1036062	7.25032291369691	-7.82915112538056	10.6706508562939	47.1982291627045
883578.1	18.5614000084075	9.75006064028899	20.9663838742264	-27.7123585390736
753531.2	10.6138517011459	2.03764985758051	10.807676201479	-10.8674337396951
642624.9	10.7686233204826	3.70216850181645	11.387242854804	-18.9725691941291
548046.8	9.05555962442272	0.498934540561179	9.06929411736327	-3.15363934553357
467390.6	7.35422376661563	-6.0566665592963	9.52721454675774	39.4736064391728
398593.7	2.50818350884436	-9.6988427205753	10.0179106919804	75.500596720892
339937.5	9.71979808659883	-9.71968410518855	13.7457896808043	44.9996640520726
289906.2	12.4408048369816	-2.61448119617832	12.7125582365248	11.8682133908722
247234.4	18.6726852698266	5.26705513298832	19.4013155471463	-15.7523114727979
210843.7	20.3820304957658	-7.23682806674614	21.6286580165754	19.54787611622
179812.5	16.3820692333897	0.347238820174772	16.3857489046369	-1.21427518479871
153343.8	-5.59055743371653	-19.3792929472946	20.1695643868862	106.091844726958
130781.2	6.57037317849315	17.2297543254876	18.4400172944962	-69.1262120669436
111531.3	13.9826791744114	-0.0405662711185658	13.9827380193177	0.166224911241528
95109.37	24.3031538921378	-1.13104120746186	24.3294583441125	2.66455798794754
81109.37	-25.81957858956	-242.592614667376	243.962758079377	96.0752246651423
69171.88	-30.219324536805	-281.836832512671	283.452302400661	96.1200299647216
59000	-34.2149635647813	-324.534862308067	326.333480637607	96.0183299560858
50312.5	-42.2588495721575	-380.425129751331	382.765058114608	96.338613363564
42906.25	-48.4147625358575	-437.604884375031	440.274941440332	96.3132886290192
36593.75	-160.881216842383	-513.609472329248	538.216922809953	107.392458921905
31203.13	-170.145679384742	-593.207314579321	617.125976024105	106.004124888523
26609.38	-181.706795101891	-686.151699014726	709.803855615758	104.832598084819
22703.13	-193.246480849862	-794.6745363424	817.833614540186	103.667717591539
19359.37	-210.214586812321	-918.853332939554	942.593029871748	102.88631775054
16500	-230.393744453153	-1066.24559074292	1090.85330693997	102.192981522652
14112.02	-247.595924093322	-1225.48385206082	1250.24574116029	101.422238696642
12011.13	-283.373973522658	-1435.00036950068	1462.71216216216	101.1706529288
10236.38	-307.011549930716	-1650.80015603345	1679.10608567503	100.535357325559
8750.684	-348.621984405289	-1913.26608311796	1944.76846766401	100.326743392352
7449.463	-171.362410674615	-2040.94848957947	2048.12983302059	94.7994195427245
6363.206	-470.733977323573	-2595.53738814422	2637.87884685051	100.279588965812
5414.761	-493.709346259414	-2941.6270179989	2982.7702612848	99.5274672681441
4620.567	-562.004601009435	-3450.95256681741	3496.41570611669	99.2496973290646
3941.215	-417.538564669403	-2570.91707922523	2604.60228849592	99.2247736649765
3361.769	2800.71858072878	-55.0575950430352	2801.25970006555	1.12619724774222
2867.244	-0.182926123902387	-7.24143156587737	7.24374164987206	91.4470434834141
2442.658	76.8367859691131	47.8606445408744	90.5236597466719	-31.9182469074786
2083.003	149.061757380261	68.9182524138837	164.222815190447	-24.8133181464266
1777.843	90.3237182874393	42.0231091332623	99.6208601975247	-24.9502034932613
1513.548	41.4300889323289	-90.6121916369095	99.6344395386691	65.4289727107439
1292.065	-0.00428982305233052	-10.706537817179	10.7065386765876	90.0229568836164
1101.762	16.6682189450473	2.9237747661531	16.9227060981165	-9.94904541945786
939.101	7.88752598568285	-1.01911872548821	7.9530917982545	7.36219254064376
801.2801	6.49225408376371	1.26188875470287	6.61375281647206	-10.9993400832901
684.3433	2.8416565106935	5.52475625311841	6.21272431233978	-62.7809909647673
582.9476	-7.20778593196611	-7.49151007830005	10.3959079110157	133.894220665225
497.0677	24.3995124963652	24.0853232889198	34.2846759936865	-44.628719716349
423.5089	12.1279648638552	-10.3433031822676	15.9396189558976	40.4591167651096
361.5036	-6088.10891262216	-25378.1142235072	26098.1560971907	103.490100675048
308.1262	-6372.50589168571	-34166.4801724242	34755.6786541742	100.565036539346
262.7298	-7782.78696419884	-38198.7119074175	38983.5011808327	101.516089183484
224.2111	-2180.4017056549	-44954.2763249664	45007.1228973755	92.7768212301332
191.2854	65030.3296059458	-23923.3713886336	69291.2077197132	20.1975701488527
163.1722	44.9499541968881	-22.195867015602	50.1313763513095	26.2797291385505
139.1537	-29149.5587462422	-117928.020720228	121477.219453242	103.88412375076
118.6706	-29664.5609153428	-129936.471323089	133279.678699328	102.860248170861
101.1982	-34662.5850818708	-156172.092695315	159972.55183747	102.514009775263
86.24196	-36021.607358041	-173533.480803076	177232.686478224	101.726765764754
73.61024	-42071.9987795489	-206022.855221765	210274.748733733	101.541700396926
62.69291	-44224.002723956	-230899.254692464	235096.210591459	100.842519999528
53.57697	-213263.837568445	-348463.798895844	408544.347109764	121.467109863514
45.65746	-220177.498612053	-403073.714832265	459289.179584869	118.645407314054
38.96512	674116.762665054	304551.42460182	739719.527884056	-24.3124269827673
33.18414	-243262.870848123	-542441.744130255	594491.270001792	114.154277636921
28.30617	-257001.18925553	-625688.43216117	676413.797478334	112.330381087681
24.17237	575242.699204752	-556717.130289095	800523.657455352	44.0623853133299
20.61345	-294069.196372259	-839134.91630378	889170.456107927	109.312669676506
17.55618	-316215.495705481	-966114.185580369	1016547.51945193	108.123610364271
14.98558	1677425.1796591	1345309.97435178	2150259.09146892	-38.7299244098268
12.76553	-378446.999188226	-1289314.0476701	1343708.61600051	106.358327397473
10.8809	-411752.046605458	-1480660.39370078	1536845.77930185	105.540544736483
9.278505	-454476.730742152	-1706883.96645042	1766352.73196256	104.909718204044
7.923394	-501446.015561012	-1924586.9667747	1988839.63637118	104.603586854106
6.75822	-567140.6522759	-2256656.64118684	2326832.12021766	104.107348107743
5.761429	-629004.81713005	-2599006.12016022	2674038.12100783	103.604978712972
4.919708	-685650.933066812	-2894883.71404791	2974973.7679306	103.324916942712
4.191257	-791093.504304115	-3415150.39979734	3505578.58074643	103.042104975036
3.564097	-884931.493446794	-3928695.01603864	4027126.55340514	102.693918522935
3.051758	-962733.994559397	-4476318.33968228	4578676.95109147	102.13786298276
2.604164	-1086560.44859168	-5149119.0806021	5262512.79472691	101.915669949808
2.214424	-1192447.75533104	-5917145.23074636	6036102.99207514	101.393877285783
1.892567	-1305171.80388885	-6798977.00735748	6923117.92361232	100.866641522703
1.607507	-1385515.39686722	-7832284.06943401	7953887.51864558	100.031727423639
1.376413	-1526172.88797188	-8996079.42685104	9124617.73107197	99.6284797274256
1.17375	-1520815.79202995	-10400395.8407082	10510999.682081	98.3192138697722
1.001604	-1554609.5798665	-12087799.6006847	12187358.6199851	97.328569841991
