EC-Lab ASCII FILE
freq/Hz	Re(Z)/Ohm	-Im(Z)/Ohm	|Z|/Ohm	Phase(Z)/deg
6999984	3.94457717068086	0.476683439549195	3.97327524304535	-6.89051076538026
5969734	6.17421351472986	-1.11633144692228	6.27432135173681	10.2486679688436
5091109	0.309665125445251	-6.02502224391808	6.0329748490794	87.0577857022554
4341796	0.758132709363608	-7.39371644074341	7.43248330042701	84.1454985253849
3702781	3.96334776092946	-9.57469769885883	10.3625750418801	67.5133931694298
3157797	14.2822981070049	-12.4436694309268	18.9427808973112	41.0645039714448
2693047	4.76505591584392	-13.4298433572635	14.2501386127207	70.4647560679282
2296687	0.0580551227196258	-10.0382491813167	10.038417057658	89.6686397831075
1958656	4.08669611529169	-10.994240524	11.7292118165844	69.6092727840184
1670375	2.02914103540221	-13.0647306412483	13.2213690694241	81.1716756813174
1424531	4.128275826744	-16.0029518889908	16.5268608774635	75.5348023012613
1214875	-4.30744808178776	-16.3634518224998	16.9208943181077	104.747743035361
1036062	6.34999848194917	-24.373597496358	25.1871938817175	75.3974643177685
883578.1	1.06103956145441	-25.3796791558346	25.4018487320132	87.6060490164161
753531.2	0.420995555004613	-35.2389093836307	35.2414240887776	89.3155258939684
642624.9	-1.41707436088468	-40.1285835100582	40.1535965296758	92.022464997064
548046.8	-5.99684716744702	-46.1069909610256	46.4953416099916	97.4105028066947
467390.6	-3.08428052493143	-54.5148145127517	54.6019943565818	93.2381668467725
398593.7	-12.5761897747303	-63.0911802887549	64.3323991428752	101.273212374128
339937.5	-13.5249067511769	-73.4681932980521	74.7027344152005	100.430907119506
289906.2	-18.1226112348917	-88.2584815103458	90.0998812234682	101.603579838801
247234.4	-18.1593954452437	-100.360627471816	101.99028968227	100.256212287771
210843.7	-21.7796604279533	-116.901052862616	118.912614001817	100.553691975003
179812.5	-25.3988283759028	-136.392625648956	138.737337491696	100.548707242185
153343.8	-30.2083115419502	-157.355247375995	160.228636525984	100.867157184719
130781.2	-37.0364074495053	-183.708425657464	187.404592084372	101.398289060805
111531.3	-40.6554302182007	-211.315498924137	215.190855037532	100.890190088083
95109.37	-53.0843719904541	-243.073120818777	248.802115373243	102.319318716478
81109.37	-64.4058587145721	-279.312811040061	286.642217839351	102.984694603963
69171.88	-78.9713578856167	-320.51705336548	330.10249448374	103.841266507684
59000	-95.1798010423607	-366.971664441931	379.113963116297	104.540160426185
50312.5	-115.217405058978	-419.389892993597	434.928652509472	105.361667312843
42906.25	-252.880215561949	-480.106871473992	542.633404297231	117.776516817738
36593.75	-287.025589780261	-536.66973852712	608.603399135656	118.139084510497
31203.13	-327.729826784624	-607.7086114361	690.446663963171	118.337442499171
26609.38	-379.428471824364	-681.430819911674	779.944823405136	119.109560423889
22703.13	-442.845536256062	-763.64312352116	882.758737755154	120.109944734188
19359.37	-521.379649270489	-851.177310165098	998.168098074322	121.489111442847
16500	-613.059815883845	-939.666163522439	1121.96917815086	123.121353609616
14112.02	-722.517998278678	-1011.06726269609	1242.69435805125	125.549949815837
12011.13	-857.559670910186	-1101.07070004808	1395.62361533329	127.912942354515
10236.38	-998.483576823728	-1187.60746504795	1551.57369925644	130.055518029407
8750.684	-1149.05003301066	-1241.42692908673	1691.58410923711	132.786979726134
7449.463	-1250.8946339665	-1205.51344957238	1737.23920701384	136.058396848993
6363.206	-1502.59673501264	-1309.815530579	1993.34233693477	138.921295063923
5414.761	-1680.6257166004	-1313.64570262466	2133.11224067625	141.987364113006
4620.567	-1843.02238730142	-1309.37981196046	2260.79787067837	144.608015772155
3941.215	-1994.54408867272	-1269.55641267548	2364.31377076409	147.522652075986
3361.769	-2155.5474319304	-1250.8595805493	2492.19469976841	149.873497909408
2867.244	-2289.8812695085	-1206.39611667053	2588.23256659127	152.218041207083
2442.658	-2406.36202286403	-1174.42994747115	2677.66015143807	153.985214934605
2083.003	-2505.59101841462	-1133.02739129632	2749.86134577505	155.667533612668
1777.843	-2590.99931680303	-1103.01059596926	2816.00955866528	156.940130171433
1513.548	-2676.37308946055	-1091.10431138115	2890.23900954629	157.820250640534
1292.065	-2741.88605620772	-1085.53409370804	2948.95293516679	158.401000661678
1101.762	-2812.6325238662	-1092.13548160684	3017.2274731108	158.778980919126
939.101	-2871.89534545334	-1119.18754106184	3082.26598905815	158.708965476561
801.2801	-2984.20613044535	-1081.62841295462	3174.1780436356	160.076902212436
684.3433	-3022.56520069626	-1136.6347926156	3229.2164752838	159.391243619003
582.9476	-3080.46416396418	-1224.10748635348	3314.76976630568	158.328235021697
497.0677	-3163.00522475402	-1324.45527525642	3429.10831382968	157.279321186151
423.5089	-3222.54639765894	-1443.09401549793	3530.9100275468	155.876605912111
361.5036	-3289.72770067792	-1610.32690205912	3662.71225679864	153.918178872575
308.1262	-3360.21487457052	-1772.49120590181	3799.04844379277	152.188648472193
262.7298	-3446.60890897491	-1955.62290074312	3962.77351123378	150.429209674905
224.2111	-3570.96757032017	-2184.62879885546	4186.21695293818	148.542746134437
191.2854	-3661.47947792364	-2437.64018205443	4398.69544574551	146.346197835244
163.1722	-3794.94382554915	-2736.61204729983	4678.74386310045	144.20385134347
139.1537	-3872.17618036151	-3058.84363863046	4934.5995559264	141.692863806309
118.6706	-4085.98758908412	-3396.188011274	5313.13349974106	140.267344812024
101.1982	-4017.49264736594	-3798.96945848909	5529.23286886818	136.601388951438
86.24196	-4114.98813354507	-4543.59548726666	6130.03974629257	132.16612265933
73.61024	-4815.35439569322	-4159.68252437708	6363.22219160467	139.178323930819
62.69291	13166.5970708457	-6789.9694996562	14814.2824406808	27.2800045868679
53.57697	-7293.74180191107	-7641.33619229987	10563.5547178351	133.666756420558
45.65746	-6907.34313167791	-7524.86217016288	10214.4476022292	132.549947086289
38.96512	-5756.39402737992	-8077.65180763643	9918.89766677061	125.474892344675
33.18414	-6329.10272948365	-9466.61592054417	11387.4649658059	123.765530058681
28.30617	-4947.65179269994	-10087.1367220245	11235.1940575418	116.127544283351
24.17237	-8508.06723709073	-11318.7302338322	14159.8327044187	126.931465651456
20.61345	-7406.93100030993	-12208.5489385136	14279.7511892692	121.24520330946
17.55618	-6706.93259150755	-14200.9228937519	15705.0678388001	115.280827253707
14.98558	-9810.10259481302	-17530.0722497157	20088.3435355185	119.232058800488
12.76553	-8005.33470564031	-18009.3659867172	19708.441008686	113.965602634984
10.8809	-9307.87102950532	-22879.4596501349	24700.3266574363	112.137580789619
9.278505	-10520.7473871256	-25552.3729664282	27633.492175242	112.378566838251
7.923394	-14762.8073476507	-27799.0302119357	31475.8091477879	117.970749510287
6.75822	-16279.4779794869	-31977.0861747574	35882.5228142122	116.980563848742
5.761429	-14719.4564882276	-35009.3818661016	37977.8780075368	112.803988001136
4.919708	-21389.3987788218	-44649.4914916307	49508.4181789386	115.596813477722
4.191257	-16324.2741440978	-49615.1511170282	52231.6488988927	108.212132343619
3.564097	-31145.1904309901	-71219.6031743773	77731.9417183078	113.620338267638
3.051758	-42951.7895509162	-127412.222967072	134457.170827877	108.629417505813
2.604164	-22089.0115315488	-116527.535238677	118602.659747756	100.733658018453
2.214424	-24833.6009663348	-128880.777254762	131251.523734952	100.906462089465
1.892567	-35691.98968422	-131949.843992622	136691.914381561	105.1360938289
1.607507	-18792.5274666243	-138490.469753251	139759.684104751	97.7275776505201
1.376413	-35353.1137545839	-128992.359838184	133749.286161714	105.32677418312
1.17375	-297.31224893298	-209866.360825971	209866.571423155	90.0811693956017
1.001604	-25208.6510281244	-214983.198692819	216456.119818438	96.6878884354757
