EC-Lab ASCII FILE
freq/Hz	Re(Z)/Ohm	-Im(Z)/Ohm	|Z|/Ohm	Phase(Z)/deg
6999984	20.9061702222119	4.59564456407184	21.4053241582411	-12.3977123372423
5969734	16.361900866231	-3.19208096105432	16.6703683468092	11.0393038895005
5091109	12.3342765374713	-3.92018173819093	12.9422641977074	17.631727632386
4341796	9.1747270237078	-6.62621351411286	11.3173460446417	35.8377423219875
3702781	6.15484852088929	-4.50746942223544	7.62885580591746	36.2169773570067
3157797	4.53481639023099	-5.03104136478704	6.77317775547829	47.9695334873537
2693047	3.56487955877731	-3.90666307014984	5.28870330159113	47.6191526068974
2296687	2.43835742337414	-3.71476719749743	4.4435438847531	56.7192751091996
1958656	1.87852479460142	-3.42984532681994	3.91058747119162	61.2904985565139
1670375	1.34966751859639	-2.72558834548727	3.04145265289633	63.6561267010501
1424531	1.18216064667085	-2.49030129406856	2.7566472987629	64.6060334295975
1214875	1.01300953083627	-2.01170192119224	2.25236163377324	63.2720730909739
1036062	0.960397990122011	-1.75419935570325	1.99989491698442	61.2999523601336
883578.1	0.816135662974994	-1.63550950655019	1.82783171172723	63.4803432495039
753531.2	0.673752310206469	-1.28275382357756	1.44893048398168	62.2897942470016
642624.9	0.650176349480034	-1.22821455503796	1.38969071329929	62.1047288791743
548046.8	0.612173700021027	-0.96073720966128	1.13919823780814	57.4950542342288
467390.6	0.525409467363364	-0.923917746715491	1.06286363711009	60.3741671547612
398593.7	0.560838294847326	-0.762908860036861	0.946873551056317	53.679224073593
339937.5	0.510223112486397	-0.655591745354524	0.830739526622092	52.1076810556404
289906.2	0.479442486637644	-0.576433809283908	0.749760651460747	50.2483814442393
247234.4	0.461548270233618	-0.499743393008568	0.680272198911113	47.2753435523512
210843.7	0.446968196683008	-0.431982081023912	0.621602032792533	44.0232007297209
179812.5	0.43581225431132	-0.37183569462565	0.572882278313489	40.4708623999098
153343.8	0.427902524027407	-0.324082657804709	0.536777550907999	37.1393763818098
130781.2	0.420372878135846	-0.280823179724628	0.505544275947088	33.7442519414047
111531.3	0.414215812511369	-0.245500807533407	0.481503256306755	30.6547202706105
95109.37	0.403878948981465	-0.212127852061786	0.456197798165138	27.7096369895467
81109.37	0.398626599284192	-0.193107764709296	0.442937664291377	25.8470657891354
69171.88	0.383867214263552	-0.165713931210407	0.418109011124691	23.3496630812972
59000	0.376374863779907	-0.137679920944234	0.400766513966117	20.0927876272791
50312.5	0.374238266731592	-0.104836274588942	0.388644985502134	15.6492822020774
42906.25	0.405892456433865	-0.108354036587854	0.420106276357304	14.9467098945321
36593.75	0.390113336163461	-0.0981161052725383	0.40226258235938	14.1174623480613
31203.13	0.384383611448231	-0.0857281977176683	0.3938274808008	12.5727795915445
26609.38	0.379138703267953	-0.0739106861730199	0.386275738102034	11.0310991338742
22703.13	0.379021672729405	-0.0658598756400836	0.384701119855302	9.85745238632825
19359.37	0.376044859446197	-0.0589507768802827	0.380637531531901	8.90947652555045
16500	0.373427866825356	-0.0528697911383352	0.377151940916054	8.05835918003951
14112.02	0.37188572972629	-0.0476148892782001	0.374921556668899	7.2962450984242
12011.13	0.36945687442061	-0.0435632263793236	0.372016312477319	6.72478272313867
10236.38	0.370833763688972	-0.0369876037220609	0.372673802568451	5.69594189098728
8750.684	0.363935635043471	-0.0375120142415047	0.365863769273414	5.88487816167844
7449.463	0.361521485605715	-0.0340844507842187	0.363124681534904	5.38595797283442
6363.206	0.362997224464095	-0.0247701061754255	0.363841370831546	3.90368235232107
5414.761	0.361226027153997	-0.0221505701164402	0.361904532231836	3.50901355317449
4620.567	0.357153433047332	-0.0236303429488813	0.357934306605803	3.78534364931475
3941.215	0.361211736440792	-0.0233144765754216	0.361963372954444	3.69304358626595
3361.769	0.356615493896078	-0.021855607705664	0.357284589752942	3.50705403751514
2867.244	0.355792217973703	-0.0204481910707414	0.356379335664559	3.28930085451788
2442.658	0.354628577421336	-0.0192347116197649	0.355149830430729	3.10462567094911
2083.003	0.353183999859385	-0.0187802985172337	0.35368296166068	3.04379416888227
1777.843	0.350489844714483	-0.0173527045124959	0.350919146815731	2.83439184574904
1513.548	0.349026408132673	-0.016587281346028	0.349420336380766	2.72090208456291
1292.065	0.347837055261606	-0.0145561050131888	0.348141490210834	2.396285970238
1101.762	0.346950393047376	-0.0137694990517203	0.347223522158082	2.27271788143552
939.101	0.346315530907659	-0.0129459526538159	0.346557418962527	2.14083159136334
801.2801	0.345212650539415	-0.0130480729676326	0.345459152868493	2.16458985929623
684.3433	0.344109688154142	-0.0127457040451074	0.344345655487544	2.12124617505238
582.9476	0.342673949986005	-0.0127247221197622	0.342910126056429	2.12662223804409
497.0677	0.341663530196915	-0.0127633169075816	0.341901842822032	2.13936883011237
423.5089	0.340445336599998	-0.012060728554451	0.340658903282961	2.02893064214311
361.5036	0.339124115083288	-0.0126968779083034	0.339361718730386	2.14416448685761
308.1262	0.337826987400947	-0.0122149132214999	0.338047744440646	2.07075885301884
262.7298	0.336418315125617	-0.0121884960286205	0.336639038418599	2.0749288398518
224.2111	0.334936888627763	-0.0115056959686176	0.335134451233187	1.96744138452746
191.2854	0.333705645048357	-0.0105299169626609	0.333871736881666	1.80734036079185
163.1722	0.333410770189678	-0.012218805790852	0.33363459187175	2.09883092019127
139.1537	0.331860622298133	-0.0109656167277854	0.33204174042178	1.89252657985631
118.6706	0.330993817297889	-0.0114738493786754	0.331192627196006	1.98535433703443
101.1982	0.328089529160126	-0.015033836699535	0.32843379148684	2.62359265151128
86.24196	0.327185167938181	-0.00726982064016519	0.327265923082248	1.27286183822422
73.61024	0.345304934544348	-0.014257333123283	0.345599145497301	2.36434872977962
62.69291	0.234216508643968	0.0711170173527279	0.244775413549887	-16.8902801384411
53.57697	0.309582744399802	-0.0235745713641598	0.310479042843663	4.35464081709248
45.65746	0.343193828827176	-0.0301905180643058	0.344519188908322	5.02732764604378
38.96512	0.317006580783549	0.00154227295902102	0.317010332427757	-0.278748264514609
33.18414	0.327557069840948	-0.0127621038073866	0.327805590703359	2.23119906776916
28.30617	0.321609196679893	0.00948514178899602	0.321749037766772	-1.68932079527742
24.17237	0.306461725947846	-0.00283576239353672	0.306474845655047	0.530156186256945
20.61345	0.313486702266963	-0.0222370337886955	0.31427439948226	4.05745333833608
17.55618	0.310094619990137	-0.0235400635750347	0.310986829206551	4.34114078552361
14.98558	0.31477555818276	-0.0077657533299245	0.314871337142728	1.41324394648261
12.76553	0.317458018660661	-0.00911544748279112	0.31758886157226	1.64473150078695
10.8809	0.312848430116589	-0.0106345671610202	0.31302912683186	1.94688938841612
9.278505	0.311230861437064	-0.0100999688557546	0.311394698865835	1.85869284909604
7.923394	0.314354018620474	-0.0092171610586259	0.314489117587274	1.679485974724
6.75822	0.304380413243728	-0.00774965599027209	0.304479052045276	1.45846005680094
5.761429	0.323229427808707	-0.00848535689509142	0.323340786606301	1.50377242402887
4.919708	0.310094314299082	-0.0083470872792404	0.310206636980361	1.54190964078836
4.191257	0.308479171303098	0.000444843005808834	0.308479492046304	-0.0826234361426199
3.564097	0.298937581291828	0.00280455533253459	0.298950736809966	-0.537518464741258
3.051758	0.318087882397293	-0.00362174926285568	0.318108500351244	0.652341670603994
2.604164	0.306538810788709	0.010645213103957	0.306723593943773	-1.98891870747794
2.214424	0.298396709421974	-0.0153109736765418	0.298789260363866	2.93731626519296
1.892567	0.304607004446921	-0.00407526039387588	0.304634264168371	0.76650007353704
1.607507	0.318509107489913	-0.0064152457733408	0.318573707220721	1.15386595262688
1.376413	0.327495558871107	-0.00440404255136326	0.327525169523035	0.770446606829901
1.17375	0.285849958429325	-0.000432179168250207	0.285850285136958	0.0866259474120653
1.001604	0.31100670475692	0.00720642518497858	0.311090184621285	-1.32737934538871
