EC-Lab ASCII FILE
freq/Hz	Re(Z)/Ohm	-Im(Z)/Ohm	|Z|/Ohm	Phase(Z)/deg
6999984	26.8684807277872	85.3546926220375	89.4837348864137	-72.526716581045
5969734	24.8633949958114	83.2178608640752	86.8527534250372	-73.3651830184395
5091109	23.5416932311835	86.7993428165668	89.9351835133449	-74.8253086635508
4341796	24.9661848644545	93.5259143552104	96.8008628198337	-75.0537469364695
3702781	30.5288004338649	102.254172590198	106.714213992499	-73.3765848785626
3157797	36.8484134853586	111.974163169252	117.88137594142	-71.7846789405711
2693047	44.3244752871195	123.304293250613	131.029034353122	-70.2278953154211
2296687	54.3866206781482	137.194457439967	147.581244272555	-68.3756373553222
1958656	67.9210902657942	151.673049281953	166.186607105927	-65.8765673403001
1670375	84.7966302106637	166.962515772098	187.261715703002	-63.0749756094489
1424531	105.503942523428	181.475946155664	209.915699558371	-59.827737305545
1214875	129.34163106636	194.754187746221	233.791469415795	-56.4107659844114
1036062	156.640447264188	206.075787504981	258.850265433364	-52.7611394209871
883578.1	186.353639872618	213.824579055286	283.634676480052	-48.9270089883748
753531.2	218.078759667274	218.253352125389	308.533419797573	-45.0229261385549
642624.9	250.596702437756	218.048052385391	332.180162595149	-41.0270325316433
548046.8	282.765024243346	213.718476460745	354.445547462572	-37.0825905347344
467390.6	311.728605464059	205.251421854931	373.23299644865	-33.3621005512083
398593.7	338.995336637571	194.27552225156	390.718334363946	-29.8166778219844
339937.5	362.785718469792	181.232124215966	405.534906479669	-26.5447393075324
289906.2	383.200081301766	166.020312062332	417.618302193467	-23.4245314763869
247234.4	400.625652770302	151.653148742166	428.368522630975	-20.7336982169125
210843.7	414.136242567847	137.417889629257	436.339894804925	-18.3567770742343
179812.5	425.202386361874	123.880019287446	442.880715934314	-16.2431472271526
153343.8	434.881020714287	111.361978071736	448.913123374167	-14.3633471858417
130781.2	442.123379849597	100.53066382734	453.408753090627	-12.8101903835349
111531.3	448.576714543386	91.8351140082449	457.880723546478	-11.5700346951302
95109.37	453.346088723507	83.3463688640283	460.943915638031	-10.4173352845742
81109.37	457.77104704998	77.1972566720704	464.234582894175	-9.5721423226649
69171.88	461.200908863762	71.8285360346392	466.760770551296	-8.85226668970664
59000	464.522646162399	67.9892148309351	469.471854460994	-8.32689303946143
50312.5	468.202453272896	65.468173568446	472.757463189262	-7.9599880561935
42906.25	470.093918727898	63.4181506992379	474.352352437577	-7.68311766085243
36593.75	473.300187259343	62.657051508973	477.429548062882	-7.54115590795287
31203.13	477.491947598586	57.8318478256676	480.98137452964	-6.9057915497764
26609.38	479.838508905787	59.7592604662813	483.54541031883	-7.09908459154173
22703.13	482.607895074063	62.9146278962058	486.691515018636	-7.4274123264635
19359.37	485.68039508812	67.0699970116898	490.289537591922	-7.86252793524175
16500	488.812749756472	72.5380688689012	494.165635955914	-8.44088872238065
14112.02	492.166375441033	79.1208665302537	498.485559104035	-9.13275244873498
12011.13	496.065542222824	86.6830136640244	503.582135345072	-9.91184899939797
10236.38	500.328447073411	95.6446057567882	509.388305285136	-10.8223018541727
8750.684	504.943342476842	105.949589302802	515.939041539907	-11.8501594907476
7449.463	509.996905703077	118.218637819886	523.519331213952	-13.050821198334
6363.206	515.697340048934	132.407685817924	532.424212256734	-14.399907622749
5414.761	522.116302556328	148.24015996921	542.752778364872	-15.8503961177463
4620.567	529.131801890039	166.276366973026	554.642492047939	-17.4450006869529
3941.215	537.088252854859	187.100215271061	568.744478574661	-19.2063073266527
3361.769	545.90134738177	210.927030992988	585.23370842489	-21.1256872924512
2867.244	556.322177922965	238.116208155834	605.139400663569	-23.1718227112665
2442.658	578.317615930621	273.757740636335	639.839484131753	-25.3314324214075
2083.003	572.211594125448	299.9471527184	646.060680490201	-27.6630440616467
1777.843	594.209101362976	344.346338909727	686.774240389903	-30.0924481383588
1513.548	610.693063699675	389.35185013944	724.251945981438	-32.519846862788
1292.065	628.761911448716	441.648575892257	768.371658688881	-35.0845835707101
1101.762	649.6753784574	500.439326791399	820.071714652562	-37.6067495144539
939.101	673.475551188308	566.877365004676	880.294987491715	-40.0879661645798
801.2801	698.999103314025	643.333754126456	949.988455525776	-42.6253555969402
684.3433	729.000070483353	729.846838722069	1031.56071598202	-45.0332565676011
582.9476	764.134838959317	826.376965422339	1125.52251914034	-47.2410348395787
497.0677	805.170682689494	937.774128733618	1236.00976726916	-49.3506883595622
423.5089	849.663023169226	1063.99974983488	1361.62502936372	-51.3906874003917
361.5036	901.32606062757	1205.60826456852	1505.28401146173	-53.2178039724403
308.1262	961.449588740498	1366.99740976638	1671.24720792505	-54.8801493417651
262.7298	1031.03897943564	1549.7650862421	1861.40087021863	-56.3646829889491
224.2111	1112.30409669357	1755.00390970049	2077.80151279792	-57.633881907989
191.2854	1204.7703334649	1985.15863629102	2322.13831793844	-58.7469097208102
163.1722	1313.40682336806	2243.25436662681	2599.46679860698	-59.6513808962037
139.1537	1434.9733764053	2536.37670376374	2914.1646100362	-60.5006762359261
118.6706	1576.5679847311	2866.03169368849	3271.04024428101	-61.1853608011074
101.1982	1740.55991253635	3232.25966532899	3671.11037061558	-61.6976996615134
86.24196	1927.62776275489	3644.93370229446	4123.26211704585	-62.1278190783181
73.61024	2137.9789113993	4101.2119809578	4625.02903108077	-62.4667809099175
62.69291	2380.9765275257	4619.2503600354	5196.78007167087	-62.7313155239294
53.57697	2657.26707436892	5182.79412580312	5824.29594500352	-62.8553608865752
45.65746	2963.99875572762	5823.86212212713	6534.7271283124	-63.0266179715398
38.96512	3319.57973657985	6528.81281533765	7324.27514537983	-63.0489060297704
33.18414	3720.42410826932	7324.82645163727	8215.51204076755	-63.073084848725
28.30617	4170.52610613306	8200.02395249305	9199.65656007859	-63.0421451277879
24.17237	4662.00049733786	9171.82291702499	10288.6628994463	-63.0559534106505
20.61345	5223.65332963916	10259.5430530066	11512.8092907312	-63.0170495763612
17.55618	5869.09772425561	11491.2282546607	12903.280005393	-62.9445131194976
14.98558	6577.64422101145	12829.1236588813	14417.066877596	-62.8552462950162
12.76553	7375.44304172854	14352.0919102599	16136.2852683735	-62.8016747411715
10.8809	8251.95526668449	16038.1896062516	18036.5820367784	-62.7733133303125
9.278505	9245.38961413302	17911.8037633262	20157.1313230088	-62.6989434085045
7.923394	10323.6025790512	19997.8627098286	22505.3612095284	-62.6956202532928
6.75822	11543.73584181	22342.7441656245	25148.6789719865	-62.6761396882583
5.761429	12934.3962686963	25007.3608062361	28154.337167281	-62.6509295452726
4.919708	14507.9535566087	27908.7715399087	31454.4153540887	-62.5330148310346
4.191257	16141.961644479	31154.8690759938	35088.299942775	-62.6104214291568
3.564097	18064.9785419443	34941.4693597483	39335.0954077798	-62.6607271235693
3.051758	20136.6932932254	38892.6233655298	43796.3762089786	-62.6270945009951
2.604164	22509.8413505306	43539.5162987576	49014.1044716298	-62.6611281940259
2.214424	25220.0795099646	48781.5379296343	54915.30618388	-62.6610136024669
1.892567	28229.8158616467	54550.1105965266	61421.7963729144	-62.6383244737797
1.607507	31601.7086719976	61311.1905679092	68976.3008564846	-62.7320030732836
1.376413	35360.564880751	68432.510093101	77028.4232366739	-62.6736186739597
1.17375	39701.0444154664	76835.5574141214	86486.2752742746	-62.674535406432
1.001604	44504.1514127931	86259.1925708442	97063.2154626396	-62.7091993530374
