EC-Lab ASCII FILE
freq/Hz	Re(Z)/Ohm	-Im(Z)/Ohm	|Z|/Ohm	Phase(Z)/deg
6999984	10.5989733422423	-2.28678825933562	10.8428610824172	12.1752557437048
5969734	7.01141913418138	-1.84286052180517	7.24956089552966	14.7263675152587
5091109	4.96000931031378	-1.29212192902529	5.1255508423844	14.601474175076
4341796	4.00534117734869	-0.992193201751324	4.12640343356857	13.9130940321161
3702781	3.45682299370059	-0.672969344901739	3.52172016903027	11.0164657917866
3157797	3.27652520131018	-0.436821565002326	3.30551516022417	7.59381072932539
2693047	2.95214348771376	0.801517778547739	3.05901649576769	-15.1898445348959
2296687	2.92540645089064	0.677572932313842	3.00284997652513	-13.0407084932499
1958656	2.92999585105898	0.544873735781887	2.9802286951118	-10.5346140156595
1670375	2.91270722487391	0.449585641590768	2.94720047281437	-8.77453923521919
1424531	2.91349597600167	0.367455702626313	2.93657666264147	-7.18829984982155
1214875	2.93987603525873	0.282760893042572	2.95344287659721	-5.49387915720968
1036062	2.9275816173599	0.205070420972892	2.93475518635909	-4.00689382362035
883578.1	2.91604644173042	0.156584759816557	2.920247530148	-3.07369511733677
753531.2	2.90086425683585	0.135943610952626	2.90404788217182	-2.68309718332459
642624.9	2.88883010214468	0.126165221632336	2.89158382590005	-2.50071612276752
548046.8	2.88277999834655	0.0984538527690659	2.88446072602696	-1.95602806524845
467390.6	2.87598644837575	0.0853531766434698	2.87725272021839	-1.69991822265616
398593.7	2.87144548539675	0.0713998496286484	2.87233304373507	-1.42439313221806
339937.5	2.86577009583069	0.0608393205566988	2.86641582208222	-1.21618714496106
289906.2	2.8638993604909	0.0503422535461226	2.86434178992527	-1.00705411199154
247234.4	2.86065013152262	0.0422628581173703	2.86096230736384	-0.846418518633067
210843.7	2.85861134119593	0.0342500609297569	2.85881651504389	-0.686448702232542
179812.5	2.85811168433454	0.0289754999632738	2.85825855718613	-0.580843986223004
153343.8	2.8554689395124	0.0258460348946014	2.85558590871293	-0.518593726063866
130781.2	2.85209817773496	0.0213010146242351	2.85217772038544	-0.427907971602843
111531.3	2.85216447824718	0.0180067265220952	2.85222131910815	-0.361723783222337
95109.37	2.85141524574093	0.0157558263768992	2.85145877573368	-0.316591267446307
81109.37	2.85036773550298	0.014186092357745	2.85040303690772	-0.285154963988203
69171.88	2.85031312929627	0.0121580159810589	2.85033905919827	-0.244393772414344
59000	2.85099076448725	0.0103275539457275	2.851009469918	-0.207549835990016
50312.5	2.85067784619894	0.00991785611604557	2.85069509886262	-0.199338204870201
42906.25	2.85073745324009	0.00889600881515689	2.85075133364498	-0.17879657929495
36593.75	2.85071183390964	0.00832336102184204	2.85072398494333	-0.167288779275527
31203.13	2.85165241990818	0.00735044411139457	2.85166189317682	-0.14768577316026
26609.38	2.8517143945534	0.00729063761231548	2.85172371408941	-0.146480957508658
22703.13	2.85274117099339	0.0063044256141908	2.85274813722891	-0.126620807934936
19359.37	2.85188607104544	0.00553057547838903	2.85189143367838	-0.111111814448997
16500	2.85351433697167	0.00490898260153265	2.85351855950037	-0.0985674764824024
14112.02	2.85301716331774	0.00498131882159425	2.85302151196286	-0.100037342410031
12011.13	2.85308307547622	0.00385499119271351	2.85308567984313	-0.0774161092215734
10236.38	2.85356249773587	0.00312406434928701	2.8535642078395	-0.0627270756362455
8750.684	2.85390504259228	0.00298495459670342	2.85390660360279	-0.0599267444125435
7449.463	2.85451758672896	0.00254394589043618	2.85451872031095	-0.0510619815133251
6363.206	2.8533607669789	0.00184189713275883	2.85336136146816	-0.0369854799180377
5414.761	2.85403209015814	0.00121309699467042	2.85403234796958	-0.0243533820059633
4620.567	2.85442036378218	0.00125269128671351	2.85442063866029	-0.0251448315266893
3941.215	2.85403236737206	0.00134588784478149	2.854032684715	-0.0270192056576802
3361.769	2.85368650315405	0.000698997110600543	2.85368658876208	-0.0140343319015658
2867.244	2.8540362275336	0.000633980206216346	2.85403629794807	-0.0127273750638267
2442.658	2.85427182847803	0.000609398176299776	2.85427189353248	-0.0122328723795832
2083.003	2.85471695810764	0.000227845237891428	2.85471696720022	-0.00457298242774535
1777.843	2.85397630946556	0.000448274633409485	2.85397634467085	-0.00899945954727574
1513.548	2.85434591426442	0.000698393094635939	2.85434599970482	-0.0140189651735004
1292.065	2.8542318779276	-1.24021455629478E-05	2.85423187795455	0.000248960360633096
1101.762	2.85394204939964	0.000779980098366824	2.85394215598361	-0.0156588907043018
939.101	2.8543459276506	0.000524058489074338	2.85434597575923	-0.0105195165777578
801.2801	2.85479085758433	0.000286036912849191	2.85479087191412	-0.00574077354662509
684.3433	2.85486406053847	0.000332924256224975	2.8548640799507	-0.00668163327158736
582.9476	2.85470763862541	0.000578965547893777	2.85470769733565	-0.0116202028796718
497.0677	2.85471450766335	0.000388138976654588	2.85471453404985	-0.00779017482487263
423.5089	2.85563180590207	-0.000201935832153057	2.85563181304201	0.00405166761052085
361.5036	2.85560989680491	-0.00032751361279347	2.8556099155864	0.00657132743686878
308.1262	2.85573562356139	-0.0002149476225645	2.85573563165081	0.00431258113126752
262.7298	2.85564425414707	-4.50715185166646E-05	2.85564425450276	0.000904317049746627
224.2111	2.85559958764432	-4.76239194554029E-05	2.85559958804144	0.000955543487335889
191.2854	2.85540326840707	-2.26976691107243E-05	2.85540326849728	0.0004554455264482
163.1722	2.85543504190392	2.6448644113364E-05	2.85543504202641	-0.000530705710078255
139.1537	2.85538269949617	1.88484611503636E-05	2.85538269955838	-0.000378211044847683
118.6706	2.85544925431513	0.000266734368699617	2.85544926677328	-0.00535213627418785
101.1982	2.85546666221046	0.000164837809739192	2.85546666696826	-0.00330751919352965
86.24196	2.85516777965379	0.000168530504038106	2.85516778462767	-0.00338196818351336
73.61024	2.85518656116422	5.74280518725114E-05	2.85518656174177	-0.00115242381785654
62.69291	2.85503097945456	9.46162691496482E-05	2.85503098102236	-0.00189879301926166
53.57697	2.85490604070461	-1.19115958462835E-06	2.85490604070486	2.39056613256921E-05
45.65746	2.85507042845174	0.00013266878464929	2.85507043153415	-0.00266240767734242
38.96512	2.85502573689958	0.000133994066500569	2.85502574004393	-0.00268904563115364
33.18414	2.85491840218372	0.000101997755445767	2.85491840400576	-0.00204700803353728
28.30617	2.85481294703077	-0.00031486417275581	2.85481296439434	0.00631928903236868
24.17237	2.85493817805929	0.00012655364254114	2.85493818086422	-0.00253980616834032
20.61345	2.85465784636283	-0.000111129774661394	2.85465784852593	0.00223048344348305
17.55618	2.85450242128412	0.000142986993235928	2.85450242486536	-0.00287004529046665
14.98558	2.85487584073145	-4.68290993948862E-05	2.85487584111552	0.000939834130508992
12.76553	2.85483959849921	0.000165599253356078	2.85483960330212	-0.00332352763432561
10.8809	2.85417861133535	5.54598871052706E-05	2.85417861187418	-0.00111332116721224
9.278505	2.85423058212667	0.000168624061234634	2.85423058710771	-0.00338495673137277
7.923394	2.8544511950387	-7.78554132645945E-05	2.85445119610046	0.00156274754283948
6.75822	2.85439458819982	0.000256483567401301	2.85439459972307	-0.00514835122927808
5.761429	2.85419886300172	7.2336530579517E-05	2.85419886391837	-0.00145209850640161
4.919708	2.85388356315309	0.000170649052337877	2.8538835682551	-0.00342602290838097
4.191257	2.85417157436909	6.61125461912911E-05	2.85417157513479	-0.00132716964283569
3.564097	2.85421923198018	-0.000105409284672952	2.85421923392661	0.00211599272502882
3.051758	2.85430156379004	-4.681967941536E-05	2.85430156417404	0.000939834130508992
2.604164	2.85417600704358	7.78479074872587E-05	2.85417600810523	-0.00156274754283948
2.214424	2.85403755311964	-7.39995427746194E-05	2.85403755407897	0.00148556611713079
1.892567	2.85405122542504	8.14849605602975E-05	2.85405122658827	-0.00163583060143959
1.607507	2.85375029809146	6.07585697807802E-05	2.85375029873825	-0.00121987183654154
1.376413	2.85370012851577	-7.79709922798094E-05	2.85370012958096	0.00156547940560666
1.17375	2.85348491888369	6.40865034085315E-05	2.85348491960335	-0.0012868076309577
1.001604	2.8533552409464	-1.44902395739065E-05	2.8533552409832	0.000290966073833758
