EC-Lab ASCII FILE
freq/Hz	Re(Z)/Ohm	-Im(Z)/Ohm	|Z|/Ohm	Phase(Z)/deg
6999984	-15.4527903157819	87.9808891562321	89.3276305812749	-99.9617119810737
5969734	-10.2422610261231	92.8550251025996	93.418197358607	-96.2944956133389
5091109	-7.64648743972499	99.3422633995466	99.6361082515308	-94.4014430582266
4341796	-4.61540701557512	108.933587529062	109.031318775254	-92.4261137637336
3702781	2.05895584964092	121.072561330406	121.090067331288	-89.0257238411912
3157797	4.73196454657554	134.046268085517	134.129763572909	-87.978242400133
2693047	8.44256567071681	151.69004562231	151.924806585373	-86.8143932308838
2296687	13.3992796330951	173.816870221005	174.332570302028	-85.5918731834132
1958656	20.4253002438836	198.609304953739	199.656827842827	-84.1282524957515
1670375	28.7839570404532	227.688037483032	229.500236591994	-82.794979706482
1424531	40.3995979936601	262.13689732991	265.23174858942	-81.2387117433477
1214875	55.6540882287371	300.800016304361	305.90525877349	-79.5176611183337
1036062	72.3680443919638	344.33899996301	351.861451063686	-78.1311605498966
883578.1	96.7022634060683	394.443608977805	406.124474036338	-76.2249872612759
753531.2	127.428519757634	449.712896698843	467.41813946924	-74.1796425242179
642624.9	222.548387415666	572.869169938295	614.578612227195	-68.7698323183722
548046.8	283.407714892272	632.822153298297	693.385758842473	-65.8749057626942
467390.6	359.049397190392	691.148070663616	778.846663474154	-62.5482555083851
398593.7	443.630853961768	748.358715970864	869.970747988924	-59.3403221092272
339937.5	539.890760555378	798.675991691303	964.035981194245	-55.9420062939031
289906.2	634.718680555798	855.807409488841	1065.49243337646	-53.4371264868384
247234.4	780.244425853687	826.747411176778	1136.79050223128	-46.6575575393293
210843.7	937.327273879687	988.164430887496	1362.00270221095	-46.5123814931991
179812.5	1066.16687715456	914.844150067388	1404.86712142253	-40.6318520811857
153343.8	1111.85395139571	895.674780264319	1427.7438570121	-38.8538322626018
130781.2	1254.29328641404	900.570171665939	1544.11083877996	-35.6779730408153
111531.3	1368.56331811307	873.678700648725	1623.66253502749	-32.5538003417275
95109.37	1472.67652749692	838.945454703062	1694.87628769987	-29.6690380573351
81109.37	1565.64485365232	799.418055195021	1757.92862049055	-27.0488504940003
69171.88	1646.38483687707	760.485765246599	1813.53842811269	-24.7928062573609
59000	1716.76725705699	722.837152376661	1862.73545189836	-22.8333077867473
50312.5	1780.20546949831	691.187288653667	1909.67834506969	-21.2193315144874
42906.25	1841.27362667431	646.75362707129	1951.55804997346	-19.3539986575036
36593.75	1882.29866676724	626.59693674992	1983.85281511964	-18.4120445831526
31203.13	1925.71910719509	609.326469099264	2019.81999835659	-17.5581541219132
26609.38	1968.09160532421	600.175409246688	2057.57019049461	-16.959241338663
22703.13	2006.28896420814	597.291075021683	2093.311261185	-16.5787629852284
19359.37	2042.67895278616	601.78313657633	2129.47886761602	-16.4152293713422
16500	2082.10266959769	616.012673545188	2171.31829557854	-16.4814231854136
14112.02	2121.61479059269	634.25624806772	2214.39163380704	-16.6440228780938
12011.13	2163.25903877128	660.783404126339	2261.92934814384	-16.9856776113303
10236.38	2208.17052457238	696.663171152759	2315.46035155666	-17.5101402586813
8750.684	2254.25501531432	737.738896861698	2371.90310805743	-18.1214633077741
7449.463	2305.4090698023	788.709296400551	2436.59051409041	-18.8864593670989
6363.206	2362.11231224227	845.031296149453	2508.71530212549	-19.6843603925981
5414.761	2421.99492084909	908.38299421111	2586.73907860664	-20.5588429569944
4620.567	2493.32439211717	986.569263634029	2681.41481988032	-21.587926723251
3941.215	2570.69312517585	1071.48926284271	2785.05877571975	-22.626836715694
3361.769	2639.77739120169	1159.59480749459	2883.24206279459	-23.7148033545561
2867.244	2732.12159569879	1262.07973284772	3009.54044095584	-24.7941641673353
2442.658	2834.12171338038	1375.14539986229	3150.12234000785	-25.8831449414948
2083.003	2944.10402596734	1497.31788895884	3302.98491917739	-26.9570626552203
1777.843	3049.25151647902	1616.41273504731	3451.1918145436	-27.9281287151419
1513.548	3205.40273050826	1771.28094422646	3662.24560183088	-28.9247028561027
1292.065	3350.6496645204	1927.49938721718	3865.50217463052	-29.91015588626
1101.762	3503.57508655721	2109.43101462837	4089.5889270953	-31.0512872789323
939.101	3681.7367889303	2301.49298004481	4341.89540640471	-32.0099430730114
801.2801	3857.20298178486	2512.22782437848	4603.1840593519	-33.0765269269592
684.3433	4053.3612638051	2733.28576349363	4888.8228235264	-33.9928010329324
582.9476	4282.91597090428	2987.4170337431	5221.87990548666	-34.8965216336143
497.0677	4523.77286705722	3250.13485610807	5570.26907210161	-35.6956086817494
423.5089	4791.51367782053	3547.69648412059	5961.94210540347	-36.5167087683734
361.5036	5078.65374840103	3851.36247073293	6373.83062036621	-37.1746132862104
308.1262	5393.72259279114	4196.56887584032	6833.99105484176	-37.8845882084688
262.7298	5735.76847079672	4568.12665699426	7332.58624940255	-38.5347979031171
224.2111	6104.43701740204	4971.59198043604	7872.79353973952	-39.1601526886126
191.2854	6513.41893252312	5399.26446915722	8460.30040828659	-39.6568555307895
163.1722	6978.32482627192	5879.79731243444	9125.18678254173	-40.1168203191426
139.1537	7431.71853635774	6387.50633698622	9799.52435624721	-40.6788117020746
118.6706	7933.00681534946	6940.8697399541	10540.7907615791	-41.1838338914367
101.1982	8497.99152171769	7542.16734736668	11362.2246148749	-41.5898088667546
86.24196	9105.79301728868	8213.34147640219	12262.7258259203	-42.0501689959863
73.61024	9754.11423094746	8920.63115507979	13218.1846195063	-42.4444957393292
62.69291	10461.9992345963	9701.88716961837	14268.1478348347	-42.8411601504763
53.57697	11229.6916326532	10555.9485507432	15412.1388512568	-43.2286343185894
45.65746	12044.5665476016	11672.9639497397	16772.8849841501	-44.1023720378521
38.96512	12756.8843665715	12450.457313249	17825.599177899	-44.3035317901446
33.18414	13811.5211344638	13805.7639413052	19528.3699793604	-44.9880559271433
28.30617	14778.9571458207	14700.0574538536	20844.8857867967	-44.846649943305
24.17237	16127.564429093	16122.2669621738	22804.0747765426	-44.9905884005977
20.61345	17345.7750893179	17854.9695400762	24893.2892709311	-45.8287511703608
17.55618	18455.1828829941	19625.0493470969	26939.4940026858	-46.7596357001098
14.98558	19708.1513954525	21344.0705470037	29051.3438405446	-47.2820127810865
12.76553	21233.4697241795	23297.6891082599	31522.096286776	-47.6540170887311
10.8809	22953.027212356	25495.7469639672	34305.6055399376	-48.0042776480504
9.278505	24805.6816716916	28354.1431602708	37673.3231551243	-48.8188746636997
7.923394	26622.2029698251	31124.8678223684	40957.2836980978	-49.4584559912484
6.75822	28822.9515059724	34231.4887916507	44749.9425520139	-49.902584226144
5.761429	31059.0444606155	37837.2728808557	48952.2569639729	-50.618850224993
4.919708	33394.9721830343	41568.6430680206	53321.4427188738	-51.2226732565475
4.191257	36076.4996629769	46247.9330887587	58654.7964186653	-52.0433722727149
3.564097	39161.024910592	51335.4966089997	64567.1672302621	-52.6619833449618
3.051758	42269.7604922911	56974.8077563605	70942.6625589277	-53.4281826156564
2.604164	45736.6147175378	63243.2272952151	78048.3422279726	-54.1260738580155
2.214424	49984.1797998269	70929.9907810243	86772.5868143714	-54.8277466218224
1.892567	54109.5328210203	78719.5485702007	95522.8185786268	-55.4964972307212
1.607507	59172.2382807814	88316.3190296513	106306.754207363	-56.1777784265995
1.376413	64444.1048624252	98689.9919202898	117867.540725792	-56.8556505235967
1.17375	70648.7586838863	110654.117441636	131284.350972846	-57.4432015537695
1.001604	77363.4975231727	124489.831870833	146570.218626589	-58.1413506271364
