EC-Lab ASCII FILE
freq/Hz	Re(Z)/Ohm	-Im(Z)/Ohm	|Z|/Ohm	Phase(Z)/deg
6999984	14.4464069607425	5.25403378467868	15.372167872032	-19.9858908914416
5969734	14.6449076005464	3.26876309545966	15.0052701009606	-12.582256313476
5091109	11.0953965928568	-5.69834161458131	12.4731280242467	27.1839940491378
4341796	10.8202965950367	-7.98202549541258	13.4458748102895	36.4158280893848
3702781	5.37437496546802	-7.98711192521703	9.62693425631408	56.0641437070912
3157797	4.18218688483243	-5.28590630154387	6.74028876001359	51.6491028251516
2693047	2.48646621857419	-4.84733179435489	5.44785643906614	62.8441882095702
2296687	2.49026860815343	-3.1514828548339	4.01662568894171	51.6845803718261
1958656	1.74247415958349	-3.29502777317825	3.72738839173384	62.1292514728059
1670375	1.20896199800876	-3.07551676663513	3.30460171495494	68.5405919045403
1424531	1.25474064501494	-2.36749384231011	2.67944046017611	62.07699772189
1214875	1.08938656349627	-1.58086208315389	1.91986666481812	55.4289168587855
1036062	0.814778527941248	-1.83860442494109	2.01105203339125	66.099447922606
883578.1	0.746600364229758	-1.59214764791674	1.75850682018433	64.8768705793558
753531.2	0.669811086444716	-1.36918299574352	1.52424045588531	63.9318912878465
642624.9	0.679025860168856	-1.23347604139369	1.40802672683096	61.1673126305608
548046.8	0.554566317677766	-1.03124510692337	1.17090147803138	61.7302436642768
467390.6	0.5205453865734	-0.892810904406562	1.03347898406795	59.7560602853741
398593.7	0.48859849638875	-0.776013224048776	0.917019636960912	57.80439414782
339937.5	0.46087428977021	-0.674980035551991	0.817314602442023	55.6748589923454
289906.2	0.439032252596495	-0.5860834591994	0.732286241825618	53.1632984973895
247234.4	0.417092756664535	-0.507493564679557	0.656898839893316	50.5843065995245
210843.7	0.40271071379814	-0.440592142915961	0.596906487992119	47.572015369092
179812.5	0.390105967451884	-0.378903124654391	0.543829241319765	44.1653802065826
153343.8	0.38020674019985	-0.329522562570932	0.503132472154909	40.9152484658133
130781.2	0.371354593043397	-0.288358673804765	0.470164820603233	37.8295155052008
111531.3	0.362642389017181	-0.249953724897814	0.440438834462153	34.5768169135093
95109.37	0.354154047743046	-0.218808885256205	0.416296069882778	31.7092376333929
81109.37	0.344189407821889	-0.202054531453536	0.39911449752883	30.4148343009451
69171.88	0.332189825484233	-0.183842950041492	0.379668685086357	28.9613435071013
59000	0.316916395078274	-0.126485200367954	0.341225009900403	21.7575451489215
50312.5	0.313973715379903	-0.117689016220061	0.335306126529633	20.5478650856397
42906.25	0.339133881991759	-0.117008001058303	0.358751532716531	19.0354627713006
36593.75	0.328165487394773	-0.0813349061247666	0.338094593377908	13.9200955763726
31203.13	0.309664509819342	-0.0789842116061043	0.319578807690202	14.3089849502397
26609.38	0.344256931515203	-0.0615004711683789	0.349707224475268	10.1288682234597
22703.13	0.295705307045534	-0.0408126806225781	0.298508464728379	7.85820783346646
19359.37	0.326083998442688	-0.0480403951555202	0.329603782756008	8.38082555671709
16500	0.315203524861033	-0.0712464815473525	0.323155261782471	12.7367200054653
14112.02	0.29772119146659	-0.0422889670558798	0.300709601747166	8.08433708647074
12011.13	0.298120510617299	-0.0543284994336689	0.3030304022725	10.3280570009369
10236.38	0.310507035746569	-0.0334138534448499	0.312299703570392	6.14199870182135
8750.684	0.260894098421981	-0.0422575803071725	0.264294218031412	9.20041876433993
7449.463	0.292272000573802	-0.0405285031156545	0.295068605385608	7.89469378586039
6363.206	0.300972902801178	-0.031547457172972	0.302621761072544	5.98379359542983
5414.761	0.305865634187211	-0.0280683506067962	0.307150807393585	5.24317287958326
4620.567	0.313149690037166	-0.0275602299105139	0.31436013526383	5.02962864454902
3941.215	0.476663514984505	0.258696128930746	0.542339186894269	-28.4896903797276
3361.769	0.307557761416759	-0.0220300353830081	0.308345745984381	4.09703841944387
2867.244	0.303751271465896	-0.0206156792386597	0.304450063471203	3.88272527504857
2442.658	0.304101807820586	-0.0191480948054362	0.304704051588466	3.60293336791013
2083.003	0.30501711845659	-0.0199342044736661	0.305667818161414	3.73921252539759
1777.843	0.304403925316393	-0.0179719973303901	0.304933996851896	3.37881863451353
1513.548	0.305880363378834	-0.0113125992968387	0.306089483000671	2.11804677872437
1292.065	0.296837676756178	-0.0153188578166186	0.297232692930658	2.95423399000978
1101.762	0.305702751978069	-0.019720020151373	0.306338133051919	3.69087494101138
939.101	0.300521499283977	-0.0154396470104633	0.300917852962727	2.941052522975
801.2801	0.298600968192764	-0.0186484894737963	0.299182727384638	3.57364491133863
684.3433	0.29833446079943	-0.012758324509585	0.298607142152994	2.44877176906096
582.9476	0.296166426781799	-0.0136117584653066	0.296479058824087	2.63145248654488
497.0677	0.296275716028999	-0.0103705343918	0.296457160298191	2.00470484064938
423.5089	0.297105641990446	-0.0159039999562396	0.297531006312222	3.06410609567746
361.5036	0.294587540307937	-0.00467270634366519	0.294624596884331	0.908741429840628
308.1262	0.293933339768879	-0.0139460508690454	0.294263998074059	2.71643587854987
262.7298	0.291992217206837	-0.0169987575722105	0.29248660254508	3.33179770714053
224.2111	0.273105541389016	-0.0146359158443369	0.273497434668024	3.06758624132508
191.2854	0.278430106309308	-0.0125621808665668	0.278713351828607	2.58331314555579
163.1722	0.282914827178669	-0.0148264846039753	0.283303060490437	2.99990846656423
139.1537	0.285627244163948	-0.0114223499034954	0.285855545137767	2.29006131389413
118.6706	0.243402120520805	-0.0037809767191611	0.243431485348497	0.889953570780493
101.1982	0.282740946125461	-0.0157107160406603	0.283177098675778	3.18041309034224
86.24196	0.27857757736436	-0.0230991688335455	0.27953360837473	4.74002311629558
73.61024	0.245276523439962	-0.00752249868071037	0.245391851815001	1.75668000550418
62.69291	0.16312435417616	-0.0352913640788379	0.166898278313272	12.207593481662
53.57697	0.269685818871424	-0.0640168787538145	0.277179728093039	13.3534804240339
45.65746	0.308337443863093	0.0200402123473057	0.308988008503487	-3.71867542618892
38.96512	0.266853101262476	-0.00224211302055083	0.266862520268767	0.48139065969355
33.18414	0.27508389139089	0.00658311429681665	0.275162651347526	-1.37090064654905
28.30617	0.25920880725633	-0.0275187683766723	0.260665472151986	6.06007719627354
24.17237	0.273664158519142	-0.0063056864741179	0.27373679573616	1.31995839602618
20.61345	0.258864884935508	0.011552923629016	0.259122555361458	-2.55536712909828
17.55618	0.250529725401351	-0.00299761345292135	0.250547658133317	0.685517072857659
14.98558	0.277872196627727	0.000558904831707785	0.277872758710402	-0.115243069335008
12.76553	0.263379212749518	-0.0165775144549896	0.263900404876653	3.60153821567899
10.8809	0.263915160057956	-0.0140479523408856	0.264288775155867	3.04692423731707
9.278505	0.26056149600825	-0.0061954799855887	0.260635141863697	1.36208912861774
7.923394	0.263334218616827	-0.0286769237099981	0.264891065625106	6.21498206576511
6.75822	0.27443186349796	-0.0217198586453252	0.275290028810591	4.52523097918355
5.761429	0.247693627771769	-0.00666731509200353	0.247783345544602	1.54189187909671
4.919708	0.260789650356372	-0.0183231727824173	0.261432554196705	4.01901703760752
4.191257	0.266562874306926	0.0248514156438708	0.267718805499864	-5.32623800889014
3.564097	0.268304473241798	-0.0379059699158073	0.2709689150379	8.04150849128471
3.051758	0.212759737754893	0.0352191843524988	0.21565504157331	-9.39922366009442
2.604164	0.34183951577731	-0.162847903305961	0.378647189555149	25.4725232784584
2.214424	0.378966830458686	-0.0588254701782067	0.383505273144437	8.82337242809819
1.892567	0.259467296033579	-0.0019993876548035	0.259474999300455	0.441497671066653
1.607507	0.239084508467342	-0.0108054300934773	0.239328559742826	2.58772320170491
1.376413	0.268281546954505	-0.0104001115601936	0.268483054878268	2.21999716991656
1.17375	0.238469987660652	0.000875604204311251	0.238471595158825	-0.210375320060924
1.001604	0.282023267474655	0.00291298372295591	0.282038310999146	-0.591780031658666
