EC-Lab ASCII FILE
freq/Hz	Re(Z)/Ohm	-Im(Z)/Ohm	|Z|/Ohm	Phase(Z)/deg
6999984	20.8837340666204	90.7249386674541	93.0975018181403	-77.0370403443148
5969734	16.9398998734688	89.4331870844451	91.0233769962668	-79.2744405343007
5091109	12.6154732712948	94.3568923650848	95.1964983739158	-82.3847419251684
4341796	10.0449560818432	103.294131118944	103.781398459954	-84.4456711142539
3702781	10.8416770549198	115.367040454608	115.875346750801	-84.6313667356558
3157797	11.5404908168784	129.348786786842	129.862587266397	-84.9015736318395
2693047	11.8823604727384	146.147723487777	146.629968188853	-85.3518611630329
2296687	12.1542776387241	167.978377519071	168.417522184774	-85.8615071218017
1958656	13.8174213504642	193.504177907293	193.996876264422	-85.9156516334416
1670375	16.0858302123412	224.129731435789	224.70623143807	-85.8949105612579
1424531	18.4729194805659	260.276759302008	260.931485618143	-85.9402888186322
1214875	23.268825730568	300.102939251402	301.003675057648	-85.5663765615298
1036062	29.2319103327978	351.049756643346	352.264724633417	-85.2399625056438
883578.1	35.8098022819086	406.708645401546	408.282088982397	-84.9682086234132
753531.2	44.4129251074084	472.30695325131	474.390520569427	-84.6280435804441
642624.9	109.365976610717	618.688030054304	628.280029423578	-79.9753398050842
548046.8	135.05914670551	707.04919051161	719.832988207642	-79.1857466676145
467390.6	163.524889373213	808.107414109273	824.486496058545	-78.5603632342292
398593.7	196.311371686643	922.974132289708	943.620370450655	-77.9924474676955
339937.5	235.012057431833	1054.56403077049	1080.43322891016	-77.4367929979776
289906.2	276.56303408211	1205.1623806272	1236.48836448214	-77.0754285165886
247234.4	327.79120642637	1380.04136266168	1418.43619442947	-76.6385481978014
210843.7	386.688049352855	1580.45834907052	1627.07597876037	-76.2516297987495
179812.5	460.314935314012	1808.67376718518	1866.33079484237	-75.7211281762379
153343.8	548.8944563109	2074.33553725766	2145.72902420107	-75.178537144249
130781.2	659.657843828296	2375.11383215596	2465.01809052647	-74.478038943922
111531.3	798.384441242449	2718.53485700766	2833.34598748259	-73.6334418581197
95109.37	970.271078158339	3109.09916735784	3256.98074872661	-72.6681798606628
81109.37	1180.85243722299	3541.98146587119	3733.63699133572	-71.5622567245013
69171.88	1446.36045218115	4023.41436927185	4275.49081913374	-70.2272077660669
59000	1774.16361763149	4557.5736541842	4890.71918591133	-68.7301263431696
50312.5	2755.18304254394	5380.9400647338	6045.29152135602	-62.8863579032918
42906.25	3323.49142870263	6441.54188077153	7248.3830664772	-62.7086836910218
36593.75	4061.67318026229	6371.86067643545	7556.30845738621	-57.4849701770345
31203.13	4781.95610680639	6933.07690503463	8422.27164003557	-55.4047781468767
26609.38	5619.84349937171	7494.67004573203	9367.64218209808	-53.1357736049114
22703.13	6573.06949660627	8015.13448280933	10365.694544252	-50.6454297371091
19359.37	7678.21360116391	8459.39138912331	11424.3716142058	-47.7713703043298
16500	8859.09457758387	8792.75396895022	12481.8299577052	-44.7846673690277
14112.02	10099.7137712201	8986.08154715603	13518.6493346307	-41.6606493685446
12011.13	11419.2192505584	9032.13844523148	14559.4674760498	-38.3425648332727
10236.38	12724.9005295438	8952.34232487022	15558.519421476	-35.1275152982993
8750.684	13939.8653886992	8676.57512622694	16419.5859562936	-31.8993278410834
7449.463	15095.7501415699	8283.23878308167	17218.9929169582	-28.754161968382
6363.206	16141.137365171	7860.74333922734	17953.4843773159	-25.9661092302298
5414.761	17056.1798256871	7313.98928707204	18558.2248487721	-23.2105030920158
4620.567	17869.4180194932	6795.93746354903	19118.0769525561	-20.822363435709
3941.215	18555.2013211681	6274.22685998009	19587.276961323	-18.6823718004733
3361.769	19146.3116877464	5763.68561074057	19995.0324596834	-16.7535666789449
2867.244	19645.9323682807	5313.52469029083	20351.8108101808	-15.1343707611713
2442.658	20053.4566226783	4875.71154585698	20637.6763613553	-13.6654903209503
2083.003	20418.3723891262	4554.38803014659	20920.1429572117	-12.5741833381426
1777.843	20747.7102801268	4273.61786655396	21183.2785832932	-11.639013084086
1513.548	21013.5727174682	4035.46111165404	21397.5509050919	-10.8707740836407
1292.065	21296.7132044954	3884.73521463096	21648.1214197058	-10.3376712327392
1101.762	21537.8402222632	3776.61930129884	21866.4449508072	-9.94559621353117
939.101	21748.2850247052	3702.63825140135	22061.2200826825	-9.66194772747371
801.2801	21964.7207503705	3759.20220628887	22284.0875709445	-9.71192110636502
684.3433	22131.4228509424	3840.30639730313	22462.1421648155	-9.8441024697017
582.9476	22351.3245008875	3943.40185994573	22696.5223145088	-10.0056192721491
497.0677	22525.0653302858	4137.77545579466	22901.9596073398	-10.4089872894991
423.5089	22778.9591750913	4428.96506453203	23205.5319405378	-11.0028695033081
361.5036	22918.2637860737	4762.27686685948	23407.8212553984	-11.7386676333931
308.1262	23156.9753398675	5136.39796778941	23719.7826924014	-12.5061789774385
262.7298	23435.488910981	5617.91293678294	24099.441617224	-13.4804650601687
224.2111	23656.4718970322	6171.72625865043	24448.2896666983	-14.6219459570961
191.2854	23933.688437268	6807.95834304011	24883.1215689026	-15.8784481313959
163.1722	24301.5840069669	7422.4521748546	25409.8363146178	-16.9842853238882
139.1537	24649.8866546244	8308.24110059954	26012.377482105	-18.6263823647331
118.6706	25009.6870527185	9315.85808869626	26688.3805878821	-20.4298586981546
101.1982	25406.0936989455	10415.0225851901	27458.0096235983	-22.2907797801159
86.24196	25834.1184112837	11677.560313918	28350.7863907409	-24.3239606231833
73.61024	26304.2299783634	13125.4431563097	29397.1048371119	-26.5185551362949
62.69291	26875.6757348468	14744.0754442701	30654.3586935196	-28.7493032862793
53.57697	27532.4822190815	16560.8138656728	32129.3967113841	-31.0269480317952
45.65746	28248.9619206959	18673.5802724799	33863.0543482078	-33.4661382276482
38.96512	29122.7649641451	21002.9791078555	35906.2748076412	-35.7986780595155
33.18414	30107.3733389525	23704.4751181279	38319.1345152394	-38.2144629294374
28.30617	31257.3291217885	26644.42525901	41072.4484443133	-40.4449933554596
24.17237	32588.8378213438	30115.2368300186	44372.962937739	-42.7409211842181
20.61345	34100.5555721656	33961.4391524582	48127.1985434065	-44.882889523847
17.55618	35928.898300082	38333.7646287458	52539.1591450579	-46.8547753419913
14.98558	37928.3501426919	43186.2726238391	57477.0727132758	-48.7087750937874
12.76553	40293.1795777535	48722.4788473476	63225.1553221922	-50.4094685283404
10.8809	43047.6525838297	54916.3707653519	69777.5620885088	-51.9079365091019
9.278505	46136.5891577484	61905.7688986285	77206.9237959995	-53.3038966107366
7.923394	49605.8855918405	69510.0724586604	85395.5154475865	-54.486435663263
6.75822	53666.7164019423	78239.824473287	94876.691463063	-55.552767415781
5.761429	58552.3012439086	87825.8214258438	105554.473567356	-56.3091404602891
4.919708	63929.2191610715	98476.6029320606	117407.778224371	-57.0091000802886
4.191257	69883.8639325023	110830.760637639	131023.707555748	-57.7666935249003
3.564097	77150.7660458	124391.82988699	146374.752071823	-58.1918282088874
3.051758	84697.6141961348	139213.623813979	162954.346078702	-58.6836551802277
2.604164	93773.6136014391	155494.614586184	181582.118539183	-58.9072233118878
2.214424	104178.553635956	174583.306381311	203303.964311349	-59.1743362359777
1.892567	115495.081690629	194471.918184594	226182.317737529	-59.2943135982781
1.607507	129180.966965977	218548.50342013	253872.350943232	-59.4132596365473
1.376413	143016.750937229	243353.802994615	282267.363470493	-59.5576450009203
1.17375	159713.09849951	271458.683641048	314957.284018714	-59.5295127731793
1.001604	178347.967506392	302500.843174651	351162.010523684	-59.4773163180429
