EC-Lab ASCII FILE
freq/Hz	Re(Z)/Ohm	-Im(Z)/Ohm	|Z|/Ohm	Phase(Z)/deg
6999984	4.7968879926488	8.37228144797388	9.64910519468546	-60.1895028573905
5969734	11.7016031345653	28.6785567351743	30.973975081211	-67.8032525179865
5091109	24.5803473005961	16.4063867691949	29.5527156152922	-33.721505516938
4341796	33.9374549592597	28.7193928468396	44.4584567276338	-40.2393931802549
3702781	30.2226292869888	32.5691465033532	44.4314823630232	-47.1401369718562
3157797	126.815551423705	74.8948077060704	147.280060782944	-30.5652758292126
2693047	175.730779212055	9.06078061993766	175.964213713808	-2.95158978978526
2296687	79.5534808125491	124.600651969712	147.831251028562	-57.4430869622105
1958656	113.514256352002	34.5111529255113	118.644452341423	-16.9105743035446
1670375	183.842595697317	56.4942635320461	192.327069869937	-17.0820319237375
1424531	152.760201293714	-5.31720329725999	152.852712603344	1.99351898561504
1214875	352.303334897253	172.133800123167	392.106726446472	-26.0399233829765
1036062	126.962000222512	67.3254825986831	143.708281277199	-27.9361386651178
883578.1	115.220599027348	81.6301409778623	141.206467119203	-35.3163621875744
753531.2	33.1772774139968	198.872773915695	201.621209056807	-80.5287597394011
642624.9	416.23881644117	-243.6056073031	482.284609148849	30.3384934043219
548046.8	445.670461052132	89.3902213972153	454.546775960256	-11.3415906926336
467390.6	489.770569963019	-156.056509711139	514.031949809663	17.6735363626967
398593.7	406.379575501299	319.574549599595	516.983802586116	-38.1813058618332
339937.5	236.771840867745	520.445065399191	571.772656504549	-65.5372617340236
289906.2	424.801385904242	413.014992346268	592.484262549608	-44.1940166371833
247234.4	519.272318926782	-135.647494324932	536.697292633595	14.6399998572206
210843.7	228.340953149697	397.986363264507	458.838464200442	-60.1553545728007
179812.5	393.242602522439	-138.213288769059	416.824492599679	19.3650853908394
153343.8	333.95884137232	-24.8532145986818	334.882352486109	4.25610582731706
130781.2	84.6670560769738	334.163104522652	344.722338714737	-75.7821481814193
111531.3	303.883834451333	-67.6318104543928	311.318882540369	12.5471454597904
95109.37	180.525769898575	347.594494824027	391.677783936547	-62.5545580441316
81109.37	288.460686478927	146.786191934851	323.659935405402	-26.9697364816486
69171.88	340.510772628347	-70.6261913348889	347.758026763476	11.7177145668252
59000	250.403756017799	231.334661756902	340.907270028084	-42.7331919835618
50312.5	293.225796139714	221.475199028177	367.467864317874	-37.0639694063927
42906.25	401.572109662208	-110.701816505664	416.55137910732	15.411991731224
36593.75	320.713953958477	270.283725962144	419.4171345852	-40.1227275140104
31203.13	-148.301039147064	541.868857289172	561.796276876211	-105.306147702495
26609.38	609.242716299043	308.462880261673	682.880689332158	-26.8533401055678
22703.13	545.434011718783	269.497602424575	608.380817294759	-26.2938640073564
19359.37	522.395376605574	278.127655847156	591.820853338165	-28.0312095520639
16500	641.06573174226	333.759542319639	722.745255607848	-27.5029424649533
14112.02	-46.0269835343705	835.908621336402	837.174836242584	-93.1516502197078
12011.13	750.476397682927	569.970332678944	942.380498319701	-37.2158719770377
10236.38	-174.55299053975	1070.7850501989	1084.9190616059	-99.2585781748892
8750.684	-265.368941276786	1152.63670462063	1182.78994239598	-102.965156743149
7449.463	125.848904623728	1330.46833183427	1336.40709696142	-84.5964736059324
6363.206	-247.581226282762	1377.41251934334	1399.4862314619	-100.189749183536
5414.761	-215.561522793797	1418.5277613958	1434.81280310699	-98.6406431928406
4620.567	-294.024785399925	1707.31716141095	1732.44984460671	-99.7713181057517
3941.215	-520.340369365048	2213.2432291308	2273.58740568387	-103.230149723398
3361.769	-398.509086462212	2854.58574260915	2882.26807460728	-97.9473069649528
2867.244	-954.823471383206	3015.20735520004	3162.7777753672	-107.571393641324
2442.658	-1495.44785772826	3464.9019053054	3773.84545372132	-113.344974751299
2083.003	-1394.09299170188	4265.6072990261	4487.63867741344	-108.098514812845
1777.843	-1884.75523204594	5562.09466524997	5872.75057787463	-108.719314583869
1513.548	-2576.20890794297	6633.03054995712	7115.75341155307	-111.225718458669
1292.065	-3869.85950415498	7578.1812801221	8509.09184909245	-117.051496023779
1101.762	-6309.09840232337	7697.14555027906	9952.42544671298	-129.340352109525
939.101	-7149.73051432936	10408.5164874668	12627.583375191	-124.485623415602
801.2801	-8074.96092378415	14405.5345652759	16514.370107031	-119.272624212383
684.3433	-11681.7594666899	15922.7981019044	19748.392431578	-126.265631397735
582.9476	-18139.074617525	17072.4892714826	24909.7554766206	-136.735002709263
497.0677	-15994.7738116665	33045.5533707186	36712.9593857998	-115.828001948057
423.5089	-42450.1897570326	33078.1390108303	53816.1861416051	-142.073479669615
361.5036	-5680.15175083545	64842.1231219745	65090.4375071932	-95.0063146025463
308.1262	-39860.5098758926	56419.6164738997	69079.9056935378	-125.24124015582
262.7298	-65649.0222484978	69400.9306592424	95531.5827281885	-133.408638933851
224.2111	-97315.4616842177	117569.469578403	152620.048682208	-129.615486442747
191.2854	243990.443639738	39049.6661008223	247095.554411855	-9.09284020872617
163.1722	210863.631914827	-405209.915943369	456791.57965438	62.508377645844
139.1537	1240359.16671343	97901.4989479933	1244216.84844174	-4.51299718434192
118.6706	-465161.179772886	550854.631959314	720982.488496589	-130.178933138478
101.1982	71421.4454013596	1760599.11592744	1762047.18151011	-87.6769811914533
86.24196	-2089265.71142387	-1017123.5481256	2323697.81277237	154.041651277425
73.61024	-2687575.3395536	-966401.180809527	2856044.89601384	160.22237619662
62.69291	-1203491.24656657	-1625797.67094041	2022772.66330095	126.510570855153
53.57697	-2858632.38997618	-1381200.0115125	3174821.66630238	154.211647855241
45.65746	-2094232.21740606	-1599405.08792722	2635129.07002845	142.630337350702
38.96512	-3330119.46520714	-1876587.57930475	3822469.9600327	150.597888449791
33.18414	804908.970544259	-3195253.69226802	3295075.8123016	75.8609298782498
28.30617	-2300306.29851269	-1479354.13724238	2734940.16942845	147.254450532085
24.17237	-2649621.37515594	-3173279.25472959	4134028.86542661	129.861170745299
20.61345	2931699.09208149	-455850.586808751	2966927.58994979	8.83816046879051
17.55618	798527.700967926	-3345853.97881388	3439823.44557941	76.5767833474862
14.98558	2114363.84989664	623372.718054564	2204342.99403801	-16.4269692765644
12.76553	-627895.650859214	2701910.26096974	2773909.1561732	-103.08272768271
10.8809	-598235.168955213	1525774.16615467	1638863.05818389	-111.409466023567
9.278505	1635617.4651208	772969.340684957	1809067.7416413	-25.2947459337852
7.923394	2475528.11762814	1576887.64891873	2935100.35918365	-32.4967452044884
6.75822	-41823.4324122279	1883996.20614005	1884460.37481525	-91.271718398104
5.761429	1594180.31173893	-1417325.60493533	2133125.11042867	41.6390889667138
4.919708	-257483.654286035	1993810.40378998	2010367.56800483	-97.3585355346763
4.191257	-122565.689533965	1989365.2456756	1993137.33318928	-93.5255624768102
3.564097	-1564251.07378435	660380.763170032	1697935.26796534	-157.111960214193
3.051758	-1535193.96431206	987199.368994166	1825207.68741605	-147.257143433722
2.604164	-1570064.70354113	513864.606615751	1652016.95125627	-161.877307492075
2.214424	-1564433.72037219	519386.052999127	1648397.62723913	-161.634029612263
1.892567	-1598190.14931359	432176.402751713	1655593.00447254	-164.868204478438
1.607507	-1728704.52193768	473106.37164202	1792274.80121103	-164.694254491836
1.376413	-1636755.30224205	790906.704278813	1817828.74173852	-154.20941331984
1.17375	-1657463.37988688	379301.356434917	1700310.0819143	-167.110131035005
1.001604	235067.93955272	1377016.57683006	1396936.50144534	-80.3125254675187
