EC-Lab ASCII FILE
freq/Hz	Re(Z)/Ohm	-Im(Z)/Ohm	|Z|/Ohm	Phase(Z)/deg
6999984	23.0772558447251	2.35226990718497	23.1968297626884	-5.82007090547119
5969734	22.1874084309209	-2.54966749183048	22.3334255590001	6.55539348058619
5091109	11.0312010098022	-4.6193380638213	11.959334424061	22.7215982054307
4341796	11.083132649245	-3.09148249217437	11.5062197667254	15.5856896163959
3702781	5.63256438242597	-6.3171871241487	8.46360648209046	48.2789937220818
3157797	4.49510815518852	-5.2395685526503	6.90355531192185	49.373188412177
2693047	3.68627886587521	-3.79008768306704	5.28709906492536	45.7954966999314
2296687	3.0342311754778	-3.95573857522731	4.9854213966106	52.5101552588301
1958656	1.80103626790656	-3.24613968527281	3.71229773787312	60.9774344172545
1670375	1.69492324843846	-2.68326553952241	3.17374837907571	57.7208569012899
1424531	1.27403282113426	-2.37222924234729	2.69269961332024	61.7614698641115
1214875	1.62627929369321	-0.651017958653047	1.75174448010664	21.8167832553601
1036062	0.809308801374896	-1.81217805060376	1.98468385973004	65.9347225565059
883578.1	0.741463153696075	-1.57482535852752	1.74064428248573	64.787890233772
753531.2	0.678846577844154	-1.35149182646684	1.51240299961928	63.3298845325026
642624.9	0.619257594958382	-1.15359312780603	1.30929640396471	61.7727571326756
548046.8	0.583867089212239	-1.01817108746418	1.17370061822134	60.1680169400731
467390.6	0.541787979912894	-0.879033517514805	1.03258614172985	58.3526001662011
398593.7	0.514349046129271	-0.762246014627246	0.919550938267811	55.9892753120014
339937.5	0.487885562295776	-0.66406058839843	0.824019894760275	53.6952611622787
289906.2	0.468668740971923	-0.573245763935951	0.740446550829106	50.7315854007629
247234.4	0.450443760296687	-0.497554420508572	0.671163156436525	47.8449667331143
210843.7	0.436965315596476	-0.429336496356019	0.612591637338929	44.4954554627795
179812.5	0.427192914944297	-0.369586300341209	0.564878588706022	40.8647479657504
153343.8	0.418479409255726	-0.321916212857424	0.527972597841486	37.5693640183217
130781.2	0.411167408088132	-0.283462882719834	0.49940949465719	34.5827642154227
111531.3	0.404497126385918	-0.243556875689361	0.472162977106452	31.0530978255649
95109.37	0.398169544496086	-0.213497687958824	0.451796689815213	28.2001175100685
81109.37	0.39036332753972	-0.185133190662608	0.432039148426159	25.3730520756458
69171.88	0.385326679573795	-0.161151079589457	0.417667715348234	22.6956260285774
59000	0.375319492144455	-0.137373186901018	0.399670005958558	20.1034675605804
50312.5	0.368852112173493	-0.1069456309179	0.38404329004329	16.169080972976
42906.25	0.4011874819715	-0.106586242991325	0.4151048336091	14.8784591619761
36593.75	0.383891319970884	-0.0971500360502144	0.395993276525682	14.2014866087173
31203.13	0.378545809920572	-0.0852602510782516	0.388028659537344	12.692980407385
26609.38	0.374325986148822	-0.0734384987591745	0.381461868351594	11.0998025030884
22703.13	0.373908740656081	-0.0655390966112473	0.379609166806644	9.94186625828487
19359.37	0.371735375830629	-0.0589776912011683	0.376384853180039	9.01512421339462
16500	0.368906429033529	-0.0525411108478766	0.372629201366987	8.10577716716454
14112.02	0.366975363814594	-0.0473807877698193	0.370021427347852	7.35685257399314
12011.13	0.364618366947333	-0.0425832977476939	0.367096568715112	6.66132191774998
10236.38	0.362414466616989	-0.0389444699663029	0.364500915436755	6.13337568700463
8750.684	0.360526735190592	-0.0352603723910313	0.36224690564357	5.58589847093887
7449.463	0.358713839865694	-0.0315429226031929	0.36009800732237	5.02528619741973
6363.206	0.355694360681875	-0.0294809019290002	0.356913997763376	4.73799828344759
5414.761	0.354745199375177	-0.0274388919746733	0.355804790963432	4.42291733274925
4620.567	0.354955642147578	-0.0250013194234743	0.355835037433519	4.02897733591807
3941.215	0.353905522550829	-0.0249940237824959	0.354787006691078	4.0397174297878
3361.769	0.353060856871465	-0.0240809439507341	0.353881138966703	3.90188498371775
2867.244	0.353442415538646	-0.0236297436551481	0.35423142984072	3.82487429943201
2442.658	0.352338713379079	-0.0232763492288496	0.353106722364568	3.77960604995431
2083.003	0.351492782058608	-0.0218513827425812	0.352171348589096	3.55734999164511
1777.843	0.349140248128051	-0.0217319970450488	0.349815940972511	3.56174171314479
1513.548	0.34660073263419	-0.0207791263536759	0.347223040644741	3.4308437752692
1292.065	0.342878310077981	-0.0207644497361355	0.343506474312751	3.4655564232872
1101.762	0.337138620573938	-0.0181450861792105	0.337626559433568	3.08073504976554
939.101	0.336773630642329	-0.0187304435957062	0.33729409691441	3.18335752045142
801.2801	0.336440557148374	-0.0139749954917016	0.336730677238207	2.37857240704374
684.3433	0.341433974880311	-0.0145547440511851	0.341744055949719	2.44094287374829
582.9476	0.338605629138358	-0.021401821763416	0.339281314043341	3.61661158935329
497.0677	0.327547791857945	-0.0216675115694656	0.328263669949369	3.78464120305792
423.5089	0.339777850446788	-0.0205146873744079	0.340396592304197	3.45513947761393
361.5036	0.3588051210823	-0.0142192411252091	0.359086760732084	2.26941134199982
308.1262	0.332737799017109	-0.0187162421060453	0.333263770328132	3.21945042379789
262.7298	0.329779435854825	-0.0260783473098344	0.330808942610593	4.52143513379081
224.2111	0.328565718971736	-0.0149767318451774	0.328906877672353	2.6098582802042
191.2854	0.329089760768003	-0.0158203225641192	0.329469806277258	2.75225949173263
163.1722	0.309456129301164	-0.0261591065761097	0.310559808763013	4.83186939677064
139.1537	0.295491576558431	-0.0284486931905173	0.296857878388354	5.49924891766564
118.6706	0.224006642256771	-0.215240149226525	0.310656237043794	43.8566418986764
101.1982	0.322553553272504	-0.0166194146994426	0.322981423109241	2.94952886059617
86.24196	0.321425893054944	-0.01182286879034	0.321643257278312	2.10653605662019
73.61024	0.303080599752602	-0.014684755477976	0.303436141535323	2.77390583723267
62.69291	0.315553537028545	-0.0835517742008042	0.326427532085343	14.8303650846529
53.57697	0.313088329245203	-0.0222301757646188	0.313876540416895	4.06135002430076
45.65746	0.300969166956346	-0.011454898998907	0.301187075037213	2.17962770958723
38.96512	0.318645475615611	-0.0218439165819705	0.319393324635846	3.92162853638016
33.18414	0.311662579333781	-0.0150203009833529	0.312024314434974	2.75918425964458
28.30617	0.321581060081709	-0.0230824773437975	0.322408403990347	4.10554111312361
24.17237	0.317551036250062	-0.017017748969128	0.318006704966208	3.06758051174713
20.61345	0.299953906256353	-0.0110561988023762	0.300157600953904	2.1109472586849
17.55618	0.305936686563026	-0.00878289551242539	0.306062731214935	1.6444077796327
14.98558	0.306816848581453	-0.0109093925424169	0.307010738279785	2.03639055263571
12.76553	0.310173739147186	-0.0104591956124085	0.310350033396816	1.93130722821974
10.8809	0.301955945727327	-0.0239237703478143	0.302902195349818	4.53004382466265
9.278505	0.295949352858935	-0.0192935957374343	0.296577582251427	3.72996097587961
7.923394	0.302378519763934	-0.0113536089766702	0.302591595473871	2.15031289695716
6.75822	0.311463347764785	-0.0152045823757448	0.311834244954059	2.79476665759559
5.761429	0.278141883951526	-0.0212737892273748	0.278954264559973	4.37377416970308
4.919708	0.31249559506764	-0.0420917612205838	0.315317638738033	7.67131473027274
4.191257	0.289855419225153	-0.0124594309255555	0.290123079869868	2.46134303604393
3.564097	0.295115097317942	-0.0159337812583911	0.295544930679192	3.09049882355236
3.051758	0.292117843686143	-0.0225808044303458	0.292989295586995	4.42019234547561
2.604164	0.310090757372898	0.00933413694436275	0.310231210423119	-1.72415720217917
2.214424	0.292255228664596	-0.0259290327985581	0.293403192592827	5.07003592009283
1.892567	0.289190416446243	-0.00540175074343321	0.289240861351652	1.07009608523198
1.607507	0.271634610099366	-0.0114512097484215	0.271875875370613	2.41396973962692
1.376413	0.279909592612357	-0.0222569122659575	0.280793073596965	4.5462883240702
1.17375	0.279092854362318	-0.0150665654026271	0.279499235686142	3.0900593649235
1.001604	0.286048784024114	-0.00617159885757191	0.286115353440065	1.23598398269842
