EC-Lab ASCII FILE
freq/Hz	Re(Z)/Ohm	-Im(Z)/Ohm	|Z|/Ohm	Phase(Z)/deg
6999984	8.23825625585568	-9.26412732717918	12.3972949174944	48.3544522637006
5969734	4.13971861437471	-6.38399460695485	7.60872245175425	57.0384985447568
5091109	2.34410723045175	-4.36029667980523	4.95045713482873	61.737405636716
4341796	1.56417050068019	-3.42411928294252	3.76446838464834	65.4486251631169
3702781	2.03037642511495	-1.53270394273279	2.54393588829027	37.0486657036847
3157797	1.61368133885227	-1.24696649362266	2.03933638705772	37.6949277191246
2693047	1.37155250476435	-1.00171727414225	1.69840918822301	36.1426303535105
2296687	1.22885077257569	-0.806962509720107	1.47012336671235	33.2921309452669
1958656	1.14886411941657	-0.655830984039042	1.32287680624782	29.7199568165884
1670375	1.1003773628588	-0.542201228188886	1.22670799807518	26.2313657710635
1424531	1.06908950680282	-0.462767535006604	1.16494899674277	23.4059218072011
1214875	1.05223814948295	-0.396879661151315	1.12459707836313	20.6653042449077
1036062	1.03918580263041	-0.35337834935286	1.09762625250126	18.7807601130532
883578.1	1.03814031338261	-0.301105684580147	1.08092550324091	16.1744495875164
753531.2	1.0330166948753	-0.257892701010426	1.0647216242406	14.0173723508299
642624.9	1.02829775324571	-0.219962542163508	1.05156064460649	12.0741401520201
548046.8	1.02549659855904	-0.187284083454434	1.04245796153683	10.3497377239047
467390.6	1.02033264867469	-0.161148474299393	1.03297993432619	8.97499997900161
398593.7	1.01682617530401	-0.137804233375006	1.02612157053609	7.71792484690663
339937.5	1.01404824202792	-0.1167176509255	1.02074328173027	6.56589006739299
289906.2	1.01265512074916	-0.0983814675940754	1.01742287508462	5.54898509202977
247234.4	1.01239978656553	-0.0817218829450737	1.01569276554971	4.61496419131017
210843.7	1.011115052938	-0.0670554714800702	1.01333611725489	3.79420501457424
179812.5	1.01108126329487	-0.0548501815901003	1.0125679549573	3.10519690987085
153343.8	1.01288663796776	-0.0440789027253025	1.01384529936234	2.49183126623843
130781.2	1.01485309838945	-0.0367866828166133	1.0155196065775	2.07596474754539
111531.3	1.01582204416239	-0.0305256152859116	1.01628059048417	1.72122938784605
95109.37	1.01632279747788	-0.0256105842834994	1.01664543017741	1.44350585834803
81109.37	1.01686472132635	-0.0212952122124623	1.0170876793774	1.19971460835105
69171.88	1.01684072635136	-0.0174685404193936	1.01699076331653	0.984200544417152
59000	1.01691991053354	-0.013842792486957	1.01701412347292	0.779888951293657
50312.5	1.01724632456758	-0.0108453553384326	1.0173041367156	0.610834889051332
42906.25	1.01780353300688	-0.00786229478324842	1.01783389975012	0.442587723271889
36593.75	1.01860190346751	-0.0049580900335069	1.01861397025783	0.278887550554605
31203.13	1.01908473753319	-0.00266966774503582	1.0190882343541	0.150095805533918
26609.38	1.020076524251	-0.00085176562582252	1.02007687986381	0.047842061837093
22703.13	1.02101963854228	0.00101651789040584	1.02102014456015	-0.0570431395028973
19359.37	1.02206828062008	0.00240456928851417	1.02207110917155	-0.134796686488335
16500	1.02302962375037	0.00367399650687233	1.02303622092336	-0.205764900570845
14112.02	1.02397687946867	0.0049331932115451	1.02398876267352	-0.276030611100744
12011.13	1.02446872252377	0.0061239720086786	1.02448702600991	-0.342493199673904
10236.38	1.02546499940108	0.00705437934957163	1.02548926335904	-0.394142938482208
8750.684	1.02633155464582	0.00830904157707706	1.02636518853361	-0.463848754654706
7449.463	1.02751377971141	0.0091669854420192	1.02755467062289	-0.511151921037589
6363.206	1.02837337461758	0.0100881892272117	1.02842285524206	-0.562045011781644
5414.761	1.02889596804827	0.0110428133106342	1.02895522584406	-0.614913775594868
4620.567	1.02999117106189	0.0120874394470297	1.03006209456412	-0.67236253483925
3941.215	1.03101378018893	0.0129693217712444	1.0310953487659	-0.720696681478691
3361.769	1.03272552708285	0.0136228218792953	1.03281537341604	-0.755752531215976
2867.244	1.03418112991169	0.0142140598742515	1.03427880620437	-0.787438816160096
2442.658	1.0355884830798	0.0147731953563469	1.03569385128451	-0.817297938695543
2083.003	1.03696819619006	0.0149814891974553	1.03707641228997	-0.827717176199997
1777.843	1.03879023372299	0.0148911429798056	1.0388969611167	-0.821283433118473
1513.548	1.04058040826605	0.0147387986738255	1.04068478332947	-0.811484135948351
1292.065	1.04238199896675	0.0142465067291837	1.04247934978296	-0.783027614095383
1101.762	1.04386755885833	0.0136465481084979	1.04395675615043	-0.748988764444456
939.101	1.04505916340209	0.0128290277721465	1.0451379042807	-0.703321163383554
801.2801	1.04653718763691	0.0122063480818724	1.04660836994574	-0.668242395334465
684.3433	1.04765470120336	0.0114636961799788	1.04771741862184	-0.626919533234039
582.9476	1.04889212721551	0.0105009252750755	1.04894469061352	-0.573594351241214
497.0677	1.0497559068347	0.00972859428874053	1.04980098565451	-0.530972421931888
423.5089	1.05038763992025	0.0088836835544823	1.05042520625256	-0.484569143062038
361.5036	1.05079636232378	0.00798765734895446	1.05082672108336	-0.435527049770933
308.1262	1.05124229562959	0.00726799084123677	1.05126741974221	-0.396120445016323
262.7298	1.05163712025488	0.00631534611705859	1.05165608270697	-0.344071469216372
224.2111	1.05207232466942	0.00593636951936726	1.05208907266372	-0.323290805648992
191.2854	1.05237173004369	0.00511427430983285	1.05238415704383	-0.278441560206875
163.1722	1.05280609419456	0.00450242430100105	1.05281572167107	-0.245029297200703
139.1537	1.05286505786431	0.00404449572730306	1.05287282613681	-0.220096007421554
118.6706	1.05294925343306	0.00348338258668442	1.05295501530668	-0.189546069672517
101.1982	1.05304074959299	0.00304656279868371	1.05304515660452	-0.165762534300857
86.24196	1.05292045675037	0.00268945319569534	1.05292389155242	-0.146349119919999
73.61024	1.05320331103215	0.00238618784530245	1.05320601415939	-0.129811839079138
62.69291	1.05323176907313	0.00199003008099144	1.05323364910386	-0.108257453305214
53.57697	1.05298480232949	0.00196121383976303	1.0529866287359	-0.106714879033383
45.65746	1.05278086386787	0.00178205650366651	1.05278237212244	-0.0969852535311486
38.96512	1.05254282439789	0.00153399173397175	1.05254394222861	-0.0835036712032794
33.18414	1.05238593362382	0.00148257597443768	1.05238697793198	-0.0807168617835426
28.30617	1.0520131988613	0.00125078747410137	1.05201394242077	-0.0681215878689612
24.17237	1.05196532083211	0.00112120715476885	1.05196591833524	-0.0610670450164129
20.61345	1.05162051795562	0.000910555212445771	1.05162091216181	-0.04961006062384
17.55618	1.05147177607736	0.000814925803639061	1.05147209187469	-0.0444061370720966
14.98558	1.05104454952131	0.000683481964570446	1.05104477175145	-0.0372587693271592
12.76553	1.05060423352863	0.000633748609370447	1.05060442467447	-0.0345621262756421
10.8809	1.05062955208869	0.000645778045616654	1.05062975055505	-0.0352173149735301
9.278505	1.05027608558637	0.000606381691632406	1.05027626063497	-0.0330799761328859
7.923394	1.04969947844769	0.000365209672788268	1.04969954197925	-0.0199342502053664
6.75822	1.04941165238655	0.000629601417566266	1.04941184125328	-0.0343749753414406
5.761429	1.04932037829133	0.000329144845931292	1.04932042991347	-0.0179722135317204
4.919708	1.04934450086438	0.000313904910861143	1.04934454781573	-0.0171396772075056
4.191257	1.04877381660053	0.000360768034034373	1.04877387865088	-0.019709192383439
3.564097	1.04858165022234	5.93878269232523E-05	1.04858165190409	-0.00324502324906797
3.051758	1.04789111912804	0.000322589204438711	1.04789116878195	-0.0176382822695623
2.604164	1.04749823417154	-0.000119876641190332	1.04749824103093	0.0065569805736787
2.214424	1.04749101705379	-0.000296243142162226	1.04749105894436	0.0162039397252318
1.892567	1.04666678016495	0.000199835485431235	1.04666679924181	-0.010939231081003
1.607507	1.04606500536331	-9.48410864664289E-05	1.04606500966267	0.00519470007715739
1.376413	1.0457963489907	8.4600145528576E-05	1.04579635241258	-0.00463496672089599
1.17375	1.04552317631956	4.94057481587892E-05	1.04552317748688	-0.00270748742370551
1.001604	1.04499347003934	6.42298026713572E-05	1.04499347201326	-0.00352164555368374
