EC-Lab ASCII FILE
freq/Hz	Re(Z)/Ohm	-Im(Z)/Ohm	|Z|/Ohm	Phase(Z)/deg
6999984	49.0113851166274	55.177534193857	73.8015999200872	-48.3869504298404
5969734	49.6263065090235	49.9855819109222	70.4366999276731	-45.2066507851416
5091109	50.3969697614383	46.7049255218687	68.7110226174712	-42.8225275629786
4341796	53.4492583002261	42.5072430950468	68.291206816	-38.4946049137887
3702781	57.3543998719518	37.5091442315717	68.5307455501295	-33.1842429924438
3157797	58.5395098631018	34.2021080490781	67.7986608275783	-30.2958997218319
2693047	61.2829120514598	31.116239057747	68.7300199520255	-26.9190640942473
2296687	63.9776249373396	28.603423607434	70.0806131158197	-24.0886926933467
1958656	65.6298970695579	25.4011553074516	70.3740156614219	-21.1582484839485
1670375	67.4758893191003	22.7553040834475	71.2095464339834	-18.6359622190677
1424531	68.7072590242294	20.1345119491976	71.5966899657724	-16.3331073305661
1214875	69.5562929578085	18.0978132769847	71.8721694082005	-14.5843828440473
1036062	70.3851643931771	16.2366626775512	72.2336526942889	-12.9899272438675
883578.1	71.2575650025143	14.6525806528798	72.7484617698319	-11.6196757585003
753531.2	71.7997523548172	13.4175261025752	73.0426891956092	-10.5850171128972
642624.9	72.3447251534729	12.3069508431826	73.384060235095	-9.65447062824725
548046.8	72.7692583816191	11.3920811633416	73.6555800916875	-8.89747878932041
467390.6	73.1975817302581	10.7286855816747	73.9796638642556	-8.33855846017029
398593.7	73.5922205704729	10.2696094664165	74.3053147970309	-7.94418015062584
339937.5	74.0009158907237	9.97766653096378	74.6705389164232	-7.67897517599364
289906.2	74.3594430519056	9.83019502566047	75.0063964287854	-7.53073953523739
247234.4	74.7522767153867	9.91939815363344	75.4075416245885	-7.5588144671988
210843.7	75.173322383507	10.2007186018071	75.8622637295245	-7.72760783364434
179812.5	75.6192433623598	10.5137780203376	76.3466403645683	-7.91541766931027
153343.8	76.0808081679241	11.0553935331542	76.8798484497555	-8.26784973867319
130781.2	76.6237506592506	11.7782194809476	77.5237100455878	-8.73882104627073
111531.3	77.199226870787	12.655729142645	78.2297137255355	-9.31002559054846
95109.37	77.8371702313262	13.6995436693687	79.0335534211223	-9.98197330394403
81109.37	78.5241943644435	14.9249629007718	79.929991981573	-10.7617459448053
69171.88	79.3036895665269	16.3729809053212	80.9762291205887	-11.6653404947722
59000	80.1513361023448	18.0534329722516	82.1593763430238	-12.693570553914
50312.5	81.081863750164	19.9582350493856	83.5020944377247	-13.8283994108399
42906.25	82.0998682699318	22.1014041268211	85.022705404599	-15.0669221695285
36593.75	83.2042189137951	24.6123831397871	86.768147663036	-16.4785813147498
31203.13	84.4996528480876	27.4556701657482	88.8482141390455	-18.0000420918299
26609.38	85.7815340181443	30.6725245699522	91.1003586271776	-19.6753019298571
22703.13	87.2242174932593	34.3597532707444	93.7478360397606	-21.5006938989423
19359.37	88.8457103565341	38.5509759587803	96.8490474714729	-23.4564681438875
16500	90.6361214195158	43.3656363626888	100.476290353069	-25.569186988075
14112.02	92.56491023279	48.7213019253103	104.604148424915	-27.7599598726931
12011.13	94.8008963528278	55.0163883683942	109.608452860177	-30.1281434089955
10236.38	97.21690493852	62.1392178036602	115.379413220366	-32.5859490036123
8750.684	99.9383542515135	70.1053886191807	122.075551049124	-35.0491346719254
7449.463	103.054865423572	79.4709944067956	130.138173644306	-37.637694964969
6363.206	106.377827660342	89.8973904015907	139.275924045577	-40.2003632952506
5414.761	110.382852861881	101.974021796131	150.276662616673	-42.7324070313825
4620.567	114.949249136524	115.536421088023	162.978509242414	-45.1459630954813
3941.215	119.817840037426	131.310198086952	177.76018371072	-47.6201953900845
3361.769	125.690832536956	148.922726474239	194.874738856411	-49.8356226486271
2867.244	132.359952927449	168.956290688711	214.628482038719	-51.9249361668835
2442.658	140.012912795939	192.171176635154	237.767484906879	-53.923504629547
2083.003	148.862842789113	218.151611776001	264.10276727767	-55.6910565092138
1777.843	159.05368417148	247.590196699609	294.2770462511	-57.2830254725627
1513.548	170.944813339232	281.332711082955	329.196329768226	-58.7160845914321
1292.065	184.287864018628	318.737523428464	368.178795785226	-59.9643304439041
1101.762	200.018944099954	361.567466518705	413.20528898311	-61.0486530711892
939.101	218.318118590086	410.110623240489	464.600391949272	-61.9718599664835
801.2801	239.187089466163	464.664840973316	522.612550752516	-62.7627709068821
684.3433	263.316804197376	525.518093355808	587.796738521951	-63.386320875323
582.9476	291.745141914053	594.999642404207	662.676242437878	-63.8799813116077
497.0677	323.298360469635	672.876921344661	746.515358958289	-64.3370297447836
423.5089	362.41528227517	760.742587913427	842.658959420601	-64.5270225496489
361.5036	404.697285915223	857.926052041887	948.586845786577	-64.7460070189479
308.1262	452.705200895392	967.765361217103	1068.41555271786	-64.9305567247596
262.7298	508.965769322103	1090.17671461291	1203.13400061083	-64.9737577425124
224.2111	573.373544800696	1226.29461402465	1353.71921101208	-64.9408126692924
191.2854	646.896586799469	1377.94519086781	1522.23787334586	-64.8516031405905
163.1722	729.080117582928	1544.55496598829	1707.98356573295	-64.731167412054
139.1537	826.808956643466	1735.08231529495	1922.01032557974	-64.5210637885796
118.6706	933.973012960535	1944.79318896613	2157.43508286753	-64.347686759773
101.1982	1058.5810728305	2179.14624681219	2422.65809654409	-64.0905433013183
86.24196	1198.79505543273	2439.19074916584	2717.85965343065	-63.8271546028966
73.61024	1354.83072674637	2724.30439792647	3042.59769780653	-63.5582655096417
62.69291	1532.7528668405	3044.502268017	3408.56647445352	-63.2770578237915
53.57697	1728.3124669909	3391.48915604195	3806.47641252462	-62.996480391516
45.65746	1952.46423866233	3783.02098953551	4257.15449690536	-62.7011779439055
38.96512	2202.00555307246	4212.14608028764	4752.99937486263	-62.4005469888004
33.18414	2484.7118841083	4693.8997892118	5310.97809995406	-62.1055310200875
28.30617	2795.99518712973	5223.00298677024	5924.30158636978	-61.8388191664541
24.17237	3149.24958514198	5799.23514460537	6599.15912915752	-61.4960185176274
20.61345	3538.2096504775	6444.07482579576	7351.53234987011	-61.2303952838047
17.55618	3978.8484892734	7161.71096768118	8192.76139559783	-60.944661231373
14.98558	4458.77854189101	7944.76379635776	9110.43236435817	-60.6978883090101
12.76553	4999.58569370758	8817.79553971148	10136.5366515828	-60.4472765694199
10.8809	5603.34051567393	9779.69287094499	11271.1941507812	-60.1891590827135
9.278505	6274.92787709104	10842.8485134778	12527.6527629449	-59.9413548363194
7.923394	7007.79799789181	12007.9355648843	13903.2280176105	-59.7322825368761
6.75822	7832.27468841119	13312.7875108698	15445.8679945252	-59.5305440972106
5.761429	8747.53183861738	14729.5951360763	17131.2663320709	-59.2950011476323
4.919708	9723.11107233054	16288.2602436822	18969.6154597503	-59.1653407985942
4.191257	10832.592844558	18113.4818985961	21105.5275751813	-59.1188739214091
3.564097	12091.3374109539	20052.3381304536	23415.7362661006	-58.91048917132
3.051758	13382.7163653934	22187.9463228355	25911.4271961542	-58.9036136777784
2.604164	14873.0245806355	24534.6001458967	28690.6511688951	-58.7755003147872
2.214424	16537.778026808	27300.0560669109	31918.5081625137	-58.7934338937748
1.892567	18275.4373859469	30149.8181668049	35256.2497599939	-58.7776775544087
1.607507	20349.6552709772	33536.257495055	39227.4016017151	-58.7508058338171
1.376413	22454.1424126321	37146.9491219071	43406.0403694269	-58.8483805463278
1.17375	24853.8293699191	41206.7259537418	48121.7944197411	-58.9037282693375
1.001604	27565.182619683	45771.7763261663	53431.2156038871	-58.9423456247293
