EC-Lab ASCII FILE
freq/Hz	Re(Z)/Ohm	-Im(Z)/Ohm	|Z|/Ohm	Phase(Z)/deg
6999984	21.9411431130828	86.3989229040676	89.1413912842502	-75.7508646858052
5969734	20.3791836950029	85.0004053529045	87.4092674619388	-76.5175968072492
5091109	18.3334560989521	89.0296846630194	90.8977467472592	-78.3640105978378
4341796	18.978050477487	96.8591875654278	98.700904837599	-78.9142219685019
3702781	24.0624089272564	106.394990293998	109.082049316294	-77.2563112925114
3157797	28.5037480066001	117.471036707825	120.879725825446	-76.3610647376195
2693047	34.6359375335488	130.599008836964	135.113838218094	-75.1466233950602
2296687	42.36572797209	147.160360755224	153.13728051723	-73.9395159122786
1958656	53.2608138603538	165.334159746183	173.701176369199	-72.1441526612361
1670375	67.4076294432339	186.162191300754	197.99027748113	-70.0951409942893
1424531	85.4974546717992	207.960717638993	224.84989400994	-67.6513041107178
1214875	107.704975473254	230.431173492931	254.359759905185	-64.9483184164086
1036062	134.179010501161	253.318685181926	286.660710808737	-62.0905195258551
883578.1	165.385387361653	275.568085435314	321.387765889196	-59.0294352095892
753531.2	202.261273487074	295.726193274435	358.27866827541	-55.6299104533174
642624.9	242.938601497136	312.712210562851	395.990013425199	-52.1572247161854
548046.8	287.857069569984	324.593848532989	433.846584643553	-48.4326724618918
467390.6	334.619447678037	332.357344927849	471.62652543283	-44.8056777313752
398593.7	382.949260166254	333.593245748648	507.872611459802	-41.0596452893421
339937.5	487.536210397808	313.701202815684	579.741322571595	-32.7589249619623
289906.2	526.542898394195	297.790885032986	604.918866508633	-29.4907049436007
247234.4	561.738719607232	278.867640687483	627.150340929968	-26.4014826700158
210843.7	591.768696146093	259.546400456609	646.184589516363	-23.681984332051
179812.5	618.243260335685	240.418903445801	663.344539500085	-21.2497784917207
153343.8	640.337301548189	221.011566988598	677.405323640707	-19.0420460563667
130781.2	659.641326205312	202.986324604192	690.166738704657	-17.1042970636563
111531.3	676.00744955625	186.315915487495	701.213014867443	-15.4088576520846
95109.37	689.422018832506	171.760780227988	710.495943461759	-13.989715678059
81109.37	701.125721934261	158.926892803406	718.912397454644	-12.7716360535006
69171.88	711.862338913985	148.011816079769	727.086987411631	-11.7456978255393
59000	720.826452575242	139.075153829186	734.120339688814	-10.9203750399652
50312.5	731.274400796338	133.158430170842	743.299009003514	-10.3199725664476
42906.25	736.631405571916	123.450753867557	746.904221641119	-9.51368916840566
36593.75	743.014181063123	120.907967875392	752.787360385827	-9.24251970312614
31203.13	749.080440295501	119.70701194174	758.585047797095	-9.0793986188524
26609.38	755.345750919766	119.289755341392	764.707296396441	-8.97444993951828
22703.13	761.588487029153	121.033638922991	771.146007787303	-9.03007841184754
19359.37	767.857798179584	124.276790269166	777.849804798333	-9.1935260820645
16500	774.485499111302	129.613676519417	785.256323422208	-9.50066583772233
14112.02	781.051787256216	136.317373968707	792.85832329733	-9.90014347164345
12011.13	788.254690974035	145.185161476162	801.513686068697	-10.4360939227868
10236.38	796.207993201927	156.115582257035	811.36874690987	-11.0934713194522
8750.684	804.315182188959	169.11799823491	821.902554824257	-11.874229447721
7449.463	813.470720993698	184.24709501882	834.075299920145	-12.7618900414054
6363.206	822.403627845003	201.031990186667	846.617734382545	-13.7362677973828
5414.761	833.544592848243	222.424369134485	862.710373330132	-14.9407740517746
4620.567	845.11571710409	246.387723523271	880.299656707499	-16.253683921005
3941.215	857.924146762518	273.232790753032	900.383251477328	-17.6657040296373
3361.769	871.801748208244	304.994085221038	923.612299722544	-19.282052347169
2867.244	887.369532161005	339.166152104438	949.978086768833	-20.9176176691495
2442.658	904.041329162938	380.381285325855	980.80612103557	-22.8192416728769
2083.003	923.031804481192	426.532768926606	1016.81754265552	-24.8016469961397
1777.843	943.230230793362	477.641133721099	1057.27211298931	-26.8571388157495
1513.548	967.690195573217	538.209492419466	1107.29118678826	-29.0819167455087
1292.065	994.073007682471	604.601595385086	1163.49655510666	-31.3082359317367
1101.762	1023.76227769616	683.901314535956	1231.18244353046	-33.7440112991307
939.101	1057.03329920379	771.378071698472	1308.56544548712	-36.1203824023256
801.2801	1095.45914959787	871.846166764391	1400.05231578661	-38.5153287972385
684.3433	1138.47397637106	984.651748169424	1505.21163297632	-40.8561134917778
582.9476	1189.12372855532	1114.5718686364	1629.81155112146	-43.1464492524558
497.0677	1248.22870743692	1258.9815377122	1772.88167071856	-45.2457265067695
423.5089	1315.61917813514	1425.7542117263	1940.00744692701	-47.3006281798503
361.5036	1395.83940178185	1608.73080535877	2129.87850350131	-49.0529680300563
308.1262	1485.22794899394	1819.61906117212	2348.81152676277	-50.7776397483355
262.7298	1592.16313223823	2054.49374773962	2599.21680495487	-52.2255270149429
224.2111	1719.4351005947	2313.83792817142	2882.75961935811	-53.3836064991952
191.2854	1863.20114125483	2606.27657734365	3203.77840843955	-54.4394015578607
163.1722	2034.24218837594	2938.56165539145	3573.97340274176	-55.3067794455975
139.1537	2225.35927299896	3295.00663973573	3976.09012093854	-55.9659616593175
118.6706	2455.57036241344	3690.89092894277	4433.11421622715	-56.3639553325493
101.1982	2719.65718146771	4135.74487891383	4949.84049118462	-56.6711638431425
86.24196	3023.44743790911	4616.77020013497	5518.67751283343	-56.7798653960347
73.61024	3370.55096889801	5144.40224727959	6150.24294770171	-56.7676613949984
62.69291	3779.38331742739	5722.64667028927	6858.01889564482	-56.5581994842545
53.57697	4226.75198983922	6332.46611804155	7613.5116417954	-56.2779486379222
45.65746	4744.59640200945	7006.98261586	8462.2101366561	-55.8971265098105
38.96512	5334.60830590154	7726.44349842799	9389.14132984448	-55.377436600893
33.18414	6000.49594779822	8489.06502500268	10395.6806712339	-54.7454183162401
28.30617	6748.398192201	9300.62508302531	11490.9749410353	-54.0359074897957
24.17237	7554.92487276761	10167.8959392428	12667.3990094428	-53.3870041389203
20.61345	8461.8373479341	11082.4957569553	13943.6151519548	-52.6371169766531
17.55618	9479.85141605677	12036.6870082653	15321.5344207248	-51.7767463627508
14.98558	10584.263371086	13036.101153307	16791.8600633689	-50.9261847863012
12.76553	11778.470486403	14091.8673343879	18366.0853741088	-50.1099548409357
10.8809	13075.9283684733	15190.1353732387	20042.9567518059	-49.2775674857476
9.278505	14466.4496746348	16341.2422486393	21824.6274748838	-48.482422387243
7.923394	15928.2957083553	17543.7664884958	23695.8719353325	-47.7631369008137
6.75822	17497.8587554211	18855.8552771112	25723.8865503646	-47.1392947238973
5.761429	19220.195683676	20215.0437017295	27893.7970520621	-46.4451162480507
4.919708	20964.751123563	21583.1491080985	30089.0863120726	-45.8326873904133
4.191257	22812.3362344628	23071.3817845828	32445.2052224079	-45.3234711499908
3.564097	24846.5507786756	24765.3329072609	35080.9463898106	-44.9062031765309
3.051758	26816.1491095154	26467.1775788653	37677.809676983	-44.6247548484067
2.604164	28983.2682212688	28455.4624602956	40617.0306720629	-44.4735226383819
2.214424	31177.2906371817	30663.6303982358	43729.6430430767	-44.5241033525361
1.892567	33596.8739815138	32966.2913767101	47069.3776086308	-44.4572277186884
1.607507	36176.3109224127	35751.309876201	50861.3962629736	-44.6614585247628
1.376413	38658.8113747843	38473.634266766	54541.0325406847	-44.8624463897167
1.17375	41533.3636975389	41777.0504031389	58909.6107644453	-45.1675922522475
1.001604	44422.7018806214	45548.7385440936	63624.3980351308	-45.7170473186221
