EC-Lab ASCII FILE
freq/Hz	Re(Z)/Ohm	-Im(Z)/Ohm	|Z|/Ohm	Phase(Z)/deg
6999984	2.11462255547507	1.00045389881627	2.33934532632114	-25.3194060372877
5969734	5.15552660356597	8.18626891860951	9.67442263744294	-57.7982062036325
5091109	19.3869549948268	-22.5818366885833	29.7622810315555	49.3532552104844
4341796	26.0922667523962	-30.0820417128346	39.8212960347967	49.0626051801704
3702781	45.6005394603798	-25.7893456998474	52.3879714314641	29.4902924139882
3157797	85.8584721166188	-27.0656523560171	90.0234790021858	17.4967101279634
2693047	-0.436770020753759	-189.844107004241	189.844609437004	90.1318188646913
2296687	88.1796911150648	-99.4973239137282	132.948769799279	48.4509727338683
1958656	16.4226982792902	-41.4104820755487	44.548098101961	68.3675586504108
1670375	90.4273323405242	-65.2299242214554	111.499082723404	35.8048660037029
1424531	-0.458491819854325	-24.4883424871973	24.4926342503036	91.0726155642961
1214875	218.952129235223	-246.056958437275	329.369187526764	48.335928538184
1036062	7.68296941898652	-25.8179575822398	26.9368697663892	73.4279218970063
883578.1	0.878937199904238	-30.0618240066885	30.0746702926315	88.3252829366438
753531.2	13.6340223983325	-18.6474778488694	23.1001081573725	53.8277576524027
642624.9	69.4235761374093	-46.9362813613759	83.8012376504125	34.0620601712078
548046.8	0.460309032683598	-31.9009332769248	31.9042540791096	89.1733177692169
467390.6	-0.0403766231201031	-42.8775194692203	42.8775384800138	90.053953900333
398593.7	1.12739158084565	-49.890826424546	49.903562729536	88.7054977294926
339937.5	25.1934507596985	-49.160157322499	55.2397594958034	62.8659033100057
289906.2	-7.47197449877025	-71.0856741318177	71.477293385279	96.0004536728778
247234.4	-11.287975227777	-82.3901406950327	83.1598080113837	97.8013173187534
210843.7	-12.2051589943236	-95.2976162053011	96.0760196952891	97.2983749661876
179812.5	-12.7929372061726	-111.413096514642	112.145161809782	96.5502639730853
153343.8	-15.5068075430159	-129.284873808917	130.211518983398	96.8395503638468
130781.2	-23.3178826470023	-153.859335549723	155.61625489306	98.6177821768149
111531.3	-19.2281212186148	-174.794433413098	175.84884019465	96.277536062603
95109.37	-23.6959599442291	-203.6052024007	204.979454976123	96.6383275861969
81109.37	-27.4692342184906	-236.618078455432	238.207207868467	96.6218836974766
69171.88	-32.87570833944	-276.578371791116	278.52541704743	96.7787022460039
59000	-38.9897170440742	-318.359981729601	320.738641267386	96.9822741506139
50312.5	-46.7181120792542	-373.212165952571	376.124850031554	97.1350819945753
42906.25	-56.2048242041685	-426.756503476471	430.441744633678	97.5028063074903
36593.75	-155.766377306516	-498.415984416176	522.189293092784	107.355216665221
31203.13	-168.302182054207	-580.525415844425	604.429799832495	106.167589747474
26609.38	-179.935019168578	-668.79376753446	692.576143551114	105.058515343439
22703.13	-195.53613663866	-773.577732276091	797.907819616396	104.185442255219
19359.37	-216.314190721651	-894.727224222966	920.504554509806	103.591342317448
16500	-241.182280273635	-1038.69363278683	1066.32703947236	103.072299850839
14112.02	-275.646741786852	-1188.94472167045	1220.47969153351	103.052933877364
12011.13	-317.670278826611	-1383.51651421297	1419.51835181859	102.931581416355
10236.38	-373.260405593051	-1591.51688255474	1634.70159902052	103.199095410901
8750.684	-413.158352140407	-1860.2427371563	1905.57153239812	102.522088480175
7449.463	-652.066756307234	-2013.86684394951	2116.80200298474	107.94135248964
6363.206	-579.063345572448	-2476.76650768572	2543.55788056401	103.15927484414
5414.761	-691.515701253516	-2839.72786232849	2922.7124896515	103.685994945204
4620.567	-804.277821320449	-3286.27268063892	3383.26040165129	103.752171570541
3941.215	-1535.3554046346	-3705.09760394018	4010.61896385882	112.508628257746
3361.769	-1764.30331115617	-4232.7475249252	4585.72979835457	112.627459704456
2867.244	-2035.46833115824	-4862.14744088121	5271.01594230332	112.715924388024
2442.658	-2340.65508349853	-5589.64417068987	6059.93301735546	112.721424782858
2083.003	-2767.32588152697	-6343.1826481593	6920.55334799742	113.570089869005
1777.843	-3278.24496817425	-7204.59891013845	7915.37336626188	114.466539635267
1513.548	-3947.80575872348	-8188.72058943466	9090.67187838398	115.738849715135
1292.065	-4680.17534466724	-9036.68108193361	10176.7207996195	117.380030023507
1101.762	-5502.90217528854	-10136.8052229126	11534.1559066133	118.495922625304
939.101	-6742.5295031132	-11256.1362744207	13121.0635212501	120.921997817227
801.2801	-7895.2951373454	-11991.8478295731	14357.5798682587	123.360448897524
684.3433	-9388.27429982916	-13172.8562673823	16176.0266001867	125.477413358973
582.9476	-10908.8105460545	-13838.0097002992	17620.8019112435	128.249497763375
497.0677	-12636.4349481134	-14747.4193606478	19420.7586359728	130.591863821429
423.5089	-14574.5894910565	-15237.7396485693	21085.7147953394	133.725713777677
361.5036	-16387.5334102834	-15846.102156402	22795.8374451188	135.962311826749
308.1262	-17931.1913702677	-16208.0374172486	24170.8109271512	137.889512666451
262.7298	-19681.3059850135	-16576.6171734711	25732.0431017739	139.894177400055
224.2111	-30986.1874587308	-18543.3740913433	36110.9475909884	149.102010238264
191.2854	-32586.5405583718	-18997.6014866315	37719.9083748526	149.758276096807
163.1722	-33863.0688040239	-19973.8946228578	39314.9322170481	149.46606762129
139.1537	-34984.0045558582	-20469.4267724863	40532.4315475704	149.667748765176
118.6706	-36329.3961168735	-22143.6202424408	42546.0331835781	148.636711212838
101.1982	-38007.425957625	-22646.6326473505	44242.9022351426	149.211502472913
86.24196	-39505.6029962717	-25312.0771080375	46919.0144357516	147.351452286801
73.61024	-45535.2773038775	-26932.862417127	52904.0693814844	149.396854319638
62.69291	-104641.448862326	-179489.569701357	207765.104027566	120.241954210186
53.57697	10066.2436628075	-66948.3819463841	67700.9239724092	81.4491591414993
45.65746	-36764.2125857502	-41373.7074751264	55347.9086984103	131.623932697798
38.96512	-47169.3492374164	-35101.5160996382	58796.8021237084	143.34487301701
33.18414	-50417.6428632026	-37021.4808066749	62550.2098557666	143.710305498744
28.30617	-59754.7828320788	-46110.8187606186	75477.4249566287	142.343801157357
24.17237	-57995.5761979055	-50165.6175045547	76681.6538563192	139.14050871634
20.61345	-50651.094857266	-58016.0052558525	77015.5197092564	131.122709218618
17.55618	-51775.677928418	-67705.9482735819	85233.8914785205	127.405645522706
14.98558	-59676.5318890581	-71887.464126997	93429.6310434545	129.697362111671
12.76553	-70740.0509414074	-85643.8180505617	111081.134210408	129.556013423612
10.8809	-129568.70752015	-116449.311147162	174208.185901498	138.052519159166
9.278505	-136984.532288131	-122838.169781239	183994.505465252	138.116461249103
7.923394	-130996.722284233	-151404.40950566	200208.482505038	130.866711675753
6.75822	-146083.130370262	-182117.790020402	233467.707447283	128.734334649615
5.761429	-164584.665702467	-206144.766168858	263787.370439159	128.603642976546
4.919708	-155395.384179928	-191117.142373319	246319.888627311	129.114205667787
4.191257	-199211.31985405	-232836.78657542	306427.999929446	130.549751423487
3.564097	-202542.347235452	-244088.586426692	317179.192961056	129.685559181091
3.051758	-202162.834472652	-268966.912439258	336471.41279628	126.929517594953
2.604164	-270567.544769157	-351586.427006449	443643.789472558	127.58051224178
2.214424	-305142.49897066	-379934.515606481	487300.914043048	128.769514258236
1.892567	-402154.009002605	-352193.502748141	534572.829776142	138.789170996366
1.607507	-447903.390010527	-410002.631380881	607222.862318415	137.52958057955
1.376413	-578971.384714701	-370150.447035358	687182.084864655	147.408232404298
1.17375	-595019.566110148	-366514.357858604	698842.656518915	148.36816589426
1.001604	-700905.617215482	-442664.870086399	828987.85965346	147.725078065006
