EC-Lab ASCII FILE
freq/Hz	Re(Z)/Ohm	-Im(Z)/Ohm	|Z|/Ohm	Phase(Z)/deg
6999984	21.1427269798113	94.5436713431103	96.8788970580121	-77.3943941211379
5969734	19.0246885386465	93.5234712986018	95.4388728859101	-78.5016923560078
5091109	16.0949852340837	99.226921059383	100.523780333861	-80.7866480429895
4341796	15.1611432412381	109.031158906199	110.080215646637	-82.0835953080476
3702781	18.0544876821853	120.610398752289	121.954224250956	-81.4864586939623
3157797	18.0095446676423	134.022017684484	135.226642801469	-82.3465829360127
2693047	18.3159847380752	152.18369732949	153.281939672615	-83.1372073975137
2296687	20.0406500301171	175.454727869117	176.595552563635	-83.4838468635678
1958656	22.9966619028189	201.438061611586	202.746489795769	-83.4871700187796
1670375	26.434817298645	232.617382586712	234.114600670496	-83.5166773452288
1424531	30.8478746343753	269.030969468605	270.793747901748	-83.4588659037001
1214875	36.7398072881464	311.133808517667	313.295483916188	-83.2654926478435
1036062	44.0729332509825	360.604801102616	363.288103333432	-83.0318977547686
883578.1	52.5307941758999	417.919044807436	421.207564449536	-82.8357170057159
753531.2	64.0827838490972	484.649804029613	488.868116910678	-82.4677635096828
642624.9	133.261410996131	636.124153824773	649.932721702764	-78.1682309192416
548046.8	165.28309934203	725.386788217467	743.978827285132	-77.1640077917158
467390.6	198.316881860432	822.855413406938	846.416337864498	-76.4495294211877
398593.7	241.602836342235	957.81488991931	987.816427216997	-75.8428244119237
339937.5	325.266941618193	1081.74446426884	1129.58827423356	-73.264628925394
289906.2	371.803360993863	1227.8855727969	1282.94221192114	-73.1537042962566
247234.4	422.643125673709	1371.81640946568	1435.44678513644	-72.8764500191928
210843.7	504.054428779658	1555.08095508139	1634.73167340369	-72.040733779215
179812.5	601.309582062443	1764.45868298244	1864.10505536363	-71.1814116780778
153343.8	721.706548424455	1997.06234956079	2123.46847635467	-70.130950856485
130781.2	865.924559583421	2253.95649952824	2414.56937043758	-68.9842331253101
111531.3	1038.53738894674	2535.75496321511	2740.18487363725	-67.7280804552653
95109.37	1248.11041952751	2845.32879128842	3107.03645776292	-66.3152238282522
81109.37	1497.16729409599	3172.65856547068	3508.17221349882	-64.73752724358
69171.88	1784.30004678275	3521.09792493813	3947.38612932059	-63.1265991067902
59000	2118.20700132178	3888.0340275324	4427.59635690726	-61.4183827363871
50312.5	2492.02875920277	4281.50865133683	4953.94021645052	-59.7986883453318
42906.25	3704.07561251483	4686.81875356234	5973.81336936222	-51.6800597348225
36593.75	4114.16287826809	4960.92792577909	6444.93150263786	-50.3306352653083
31203.13	4626.37683303405	5236.57277107521	6987.49289716994	-48.5402338287717
26609.38	5170.39014673232	5610.64912651028	7629.69972477536	-47.3384548534848
22703.13	5765.09795662822	5937.0896269064	8275.58986945574	-45.8420380616299
19359.37	6421.03481273214	6252.63788270989	8962.43095140023	-44.2387474522491
16500	7110.2406174224	6556.40492687176	9671.70963184646	-42.6793797874431
14112.02	7825.62987463737	6839.73651439454	10393.3862874984	-41.1540228973561
12011.13	8611.51647332204	7093.39386864967	11156.8119346923	-39.4786312790361
10236.38	9394.45986493028	7327.88277564181	11914.4341924967	-37.9550047214904
8750.684	10031.2229842353	7377.3517893633	12451.937760183	-36.3322106287634
7449.463	15409.3181407281	-981.490004145447	15440.5442970904	3.64450718552482
6363.206	23455.1346451291	6390.73557500656	24310.1798103344	-15.2412044716514
5414.761	19169.3671463299	-142.735751988887	19169.8985465674	0.426618415493342
4620.567	13466.8239884278	2648.53012171024	13724.7972713953	-11.1263992039383
3941.215	11366.9699717768	6669.75176557853	13179.2865874338	-30.40296261543
3361.769	16071.1246795038	10667.9879858071	19289.5571781594	-33.5761461243133
2867.244	17035.1598647216	6940.78427472235	18394.8677071854	-22.1678860626383
2442.658	18196.0900187659	7345.91057911657	19622.9481527982	-21.9843333033902
2083.003	18977.893437313	7665.54601724583	20467.5605547051	-21.9947554056836
1777.843	19463.002021525	7863.673384489	20991.5651343059	-22.0002787188287
1513.548	20520.3130536794	10424.6699285842	23016.4504418238	-26.9313483093749
1292.065	20363.5880219999	11287.2557573266	23282.5655729999	-28.9989982933973
1101.762	22003.2113729849	13090.1763271893	25602.6175810435	-30.7493098730086
939.101	21942.0596315734	8091.40391018003	23386.4233715461	-20.2420717808005
801.2801	21256.5431582365	9222.80207052075	23171.1179072131	-23.4550873156012
684.3433	23660.0322610189	13955.3969117389	27469.0776975971	-30.5333792687577
582.9476	25745.1377284705	10661.8201751723	27865.5078207024	-22.4958872116168
497.0677	24833.3541002013	11111.8744003806	27206.0513223771	-24.1064944920414
423.5089	24011.8516141714	10884.8641929174	26363.7874069573	-24.3853645100875
361.5036	26421.5190575641	17937.6933807249	31935.2080489563	-34.172767076383
308.1262	30616.9766381832	12922.583229356	33232.4000906147	-22.8832697064827
262.7298	27074.0335047226	18698.1776305013	32903.2693955573	-34.6301764729698
224.2111	27863.0152888847	19114.9641690779	33789.4876577576	-34.4514308296228
191.2854	32115.5069340327	16961.2719705717	36319.285957871	-27.8400307245626
163.1722	32097.3051163061	24021.1513391047	40090.5563366913	-36.8106418468535
139.1537	33559.3216787885	21040.9595175006	39609.9741095283	-32.0868110908061
118.6706	38106.8730742022	25123.612716704	45643.5065637193	-33.3966040696311
101.1982	39288.4291858481	27040.8605490407	47694.7461165699	-34.5382855017867
86.24196	36670.7831986221	31596.3689973137	48405.3393151494	-40.7489245474647
73.61024	38895.188032556	33834.2344281141	51551.8289823403	-41.0194293817019
62.69291	42210.3556360942	39349.6517270097	57707.0984711803	-42.9911834195533
53.57697	45023.0734161533	43585.5677729227	62664.015654316	-44.0705671506444
45.65746	48674.1584550164	47692.3937673216	68144.978718621	-44.4163013433822
38.96512	50753.0831257119	52699.402588978	73164.8992345415	-46.0778159239041
33.18414	53836.6429244253	58458.8205661641	79472.1197864952	-47.3570129564691
28.30617	57558.5534525302	65355.7479423066	87088.2360864319	-48.629752754683
24.17237	60952.6843622201	72684.7311639001	94859.3689380699	-50.0171414077025
20.61345	65870.4371888802	80966.123315446	104376.374818185	-50.8697312547469
17.55618	70599.4997321006	90411.5499007484	114710.669590402	-52.0148561632513
14.98558	76351.7645466994	100356.610504445	126099.33077275	-52.7359579258911
12.76553	82946.2827251149	112080.617500436	139435.112640947	-53.4963703228549
10.8809	88787.3424250897	124528.373799602	152939.556871607	-54.5115541330016
9.278505	97235.3129894095	139403.955576231	169965.199151026	-55.1039351973873
7.923394	104200.713816466	155672.685631202	187327.984592511	-56.2033208851064
6.75822	112674.37582942	174291.595332637	207540.538623531	-57.1185235600027
5.761429	121786.93341891	194199.516113385	229228.072474239	-57.9072400720459
4.919708	132897.004827005	218069.751949745	255374.295118777	-58.6408552329314
4.191257	144274.519794634	243332.155939272	282888.096561214	-59.3357957426456
3.564097	157734.847104788	272416.195807528	314787.016456232	-59.9282341028109
3.051758	168824.624083349	305945.902343949	349434.756224874	-61.1095584848116
2.604164	184083.296260021	344450.740698705	390554.698768099	-61.8788116205543
2.214424	202193.990589562	387331.575030469	436930.382150424	-62.4346379776107
1.892567	221028.858723754	435778.861576453	488627.64206049	-63.1056861472679
1.607507	241731.2721315	497256.236987381	552899.424081056	-64.074214004157
1.376413	263971.55126163	552220.298377611	612068.817875678	-64.4513348249122
1.17375	290465.824627359	636536.169200614	699677.561436012	-65.4717153622606
1.001604	320730.495591563	706697.046957149	776072.655735508	-65.589343597601
