EC-Lab ASCII FILE
freq/Hz	Re(Z)/Ohm	-Im(Z)/Ohm	|Z|/Ohm	Phase(Z)/deg
6999984	4.26784558010765	2.75395020289104	5.07924675671974	-32.8332948837703
5969734	6.75755849635586	2.92632649226547	7.36396520707465	-23.4147797347138
5091109	8.48767497071896	-1.10513347421698	8.55931927225548	7.4184340778138
4341796	1.66326080518835	-1.42482693191983	2.19010691337201	40.5849039194526
3702781	1.64810565801538	0.166760271616289	1.65652082636224	-5.77769494694332
3157797	10.0326395097674	-8.04376918556266	12.8590854357358	38.7212440992306
2693047	0.303307197238094	-12.0218418072754	12.0256673700486	88.5547525335937
2296687	-3.36647777693724	-13.3697845068947	13.7871066719386	104.133131208524
1958656	-4.00151951320878	-10.7568805097014	11.4770482579183	110.405013712923
1670375	-5.7549407952482	-9.41490587418917	11.0344821435649	121.435711776341
1424531	4.34611796689657	-12.1381424928175	12.8927593849464	70.2998588144895
1214875	11.5688318968768	7.43454642359916	13.7517399620137	-32.7262549084839
1036062	6.53787093310809	-7.55724264898101	9.99278103400435	49.1364823582746
883578.1	11.9752339156624	1.480757811911	12.0664357219672	-7.04893932531188
753531.2	12.9734366089952	6.9110643175913	14.6994172486361	-28.0446224940479
642624.9	7.02542498532408	-7.58326025728156	10.3374287109552	47.1867871955357
548046.8	4.264737273758	3.61360138458011	5.589821015097	-40.2753061748537
467390.6	5.16091284875332	1.03549914393121	5.26377050311935	-11.3453321070358
398593.7	2.89618809502059	-4.04735062475825	4.97684162511427	54.4133892739618
339937.5	1.96907044882537	2.09788904365431	2.87721686216422	-46.8142042005181
289906.2	-0.154818646643099	-0.675312067726112	0.692831294158194	102.912215442879
247234.4	-0.332312843134812	0.258083077300014	0.420759670715941	-142.166126945087
210843.7	-0.314079954780576	0.215157644839464	0.380708589511497	-145.587257939813
179812.5	-0.29760777045275	0.193673921932313	0.355077418418153	-146.945167914273
153343.8	-0.295943724653371	0.175274738114463	0.343953371814849	-149.363565471741
130781.2	-0.278783521783297	0.150058211280443	0.31660340931611	-151.708166065196
111531.3	-0.277786199359822	0.132570435274571	0.307798786325846	-154.487698920935
95109.37	-0.271321910460827	0.114732142838553	0.294582829941664	-157.078270295839
81109.37	-0.266595593990718	0.10304842186996	0.285818452842277	-158.86675805334
69171.88	-0.260466021599259	0.0896667342957543	0.275468095515635	-161.003718741839
59000	-0.257200552427961	0.0782837169109815	0.268850264092574	-163.071408832908
50312.5	-0.257115350144973	0.0738298768327745	0.267505427969816	-163.978744797277
42906.25	-0.249347764617443	0.0615205152179436	0.25682500172763	-166.140457262526
36593.75	-0.248303893843812	0.0537469302106094	0.254054238707138	-167.786393120598
31203.13	-0.247696685074802	0.0478989441058972	0.252285466572106	-169.055380045254
26609.38	-0.243451691615553	0.0427367851202371	0.247174349302042	-170.043445762957
22703.13	-0.241045367126046	0.0385248354917071	0.244104551294304	-170.919555527491
19359.37	-0.235871851063821	0.03457797885122	0.238392883169168	-171.660046181919
16500	-0.232696183193652	0.0312964541859825	0.234791357842466	-172.3399751974
14112.02	-0.22063036634047	0.0287738610937191	0.222498749735297	-172.569616681689
12011.13	-0.210154571160122	0.0248789580929428	0.211622083760853	-173.248514373139
10236.38	-0.204741742357119	0.0226956981274293	0.205995814950014	-173.674565789599
8750.684	-0.201171483556316	0.0206366187418908	0.20222718865016	-174.142958787118
7449.463	-0.198037203130957	0.0203403128702031	0.199079034937358	-174.135739518899
6363.206	-0.193890166268117	0.0178979067096783	0.194714487494039	-174.726000639443
5414.761	-0.191495189529627	0.0169746575777018	0.192246057470285	-174.934385389532
4620.567	-0.189581374980563	0.0159554572969303	0.190251608027567	-175.189237016806
3941.215	-0.18833343614459	0.014931857525176	0.188924438702833	-175.466835068547
3361.769	-0.183862245226549	0.0208874163259957	0.185044884772649	-173.518778565102
2867.244	0.145420726973923	0.107666636977253	0.180940024736418	-36.5155170161596
2442.658	-0.189406983837981	0.0121935233384895	0.189799071488792	-176.316531478726
2083.003	-0.188441454017892	0.0121152812493577	0.188830510331695	-176.321401619985
1777.843	-0.187068252009058	0.0118737246714477	0.18744470183843	-176.368154976068
1513.548	-0.186835379196958	0.0110607794589161	0.187162495607186	-176.612005813675
1292.065	-0.187570868782268	0.0107826710812292	0.187880538671201	-176.709924300863
1101.762	-0.187960314522401	0.0104324635898736	0.188249611239742	-176.823140761181
939.101	-0.191260408964554	0.010152566702979	0.191529680853769	-176.961452772926
801.2801	-0.19215055981724	0.00978576957702385	0.192399581403634	-177.084581403099
684.3433	-0.191971758933511	0.00930901935059236	0.192197331067046	-177.223810147316
582.9476	-0.191399155682719	0.00899158156822741	0.191610243293922	-177.310326774381
497.0677	-0.190357202820658	0.00927690223603716	0.190583119873724	-177.209944568674
423.5089	-0.190467153727264	0.00847197001629748	0.190655477038878	-177.453165152707
361.5036	-0.189115557851891	0.00901186203863416	0.189330155757173	-177.271766714768
308.1262	-0.188843724180702	0.00789555429631883	0.189008708635563	-177.605858405109
262.7298	-0.188478907441834	0.00735094327875294	0.188622201549963	-177.766515770864
224.2111	-0.188705909570156	0.00851729140879348	0.188898026881284	-177.415693712905
191.2854	-0.187739687488555	0.00809652943419064	0.18791419330955	-177.530571750829
163.1722	-0.188308168233808	0.0090117014976291	0.188523677524747	-177.260135671527
139.1537	-0.0508418072319687	0.179011840422069	0.186091720326051	-105.855270453348
118.6706	-0.0523379122509179	0.180193785379783	0.187640766754669	-106.196123045672
101.1982	-0.0502408923685744	0.17776828578405	0.184731455622994	-105.781358897777
86.24196	0.150984194331541	0.103506370494777	0.183056809955125	-34.4323685237788
73.61024	-0.182721962496765	0.0129887952123354	0.183183035185405	-175.933967558917
62.69291	0.158115599963202	0.11462329475403	0.195292198133957	-35.9396142179618
53.57697	0.150811700714877	0.102400785044596	0.182291222636371	-34.17641108796
45.65746	-0.179568714994903	0.0209544206259476	0.180787198519945	-173.344083733367
38.96512	0.139525214034662	-0.105009925310571	0.174626371906279	36.9659707051135
33.18414	-0.173266059961948	0.00861749179716864	0.173480225673163	-177.15270608494
28.30617	-0.180387114608535	-0.00923045282101904	0.180623122484564	177.070715824457
24.17237	0.156524775650731	0.105364415174004	0.188684035830993	-33.9464086402607
20.61345	-0.0453896064856475	0.187403386415451	0.192821797566823	-103.615005474387
17.55618	-0.173896634371462	0.0190174273197287	0.174933421585423	-173.758905177042
14.98558	0.1360382099481	-0.0984510067715131	0.167925564760723	35.8933020393814
12.76553	-0.182242139277284	-0.00619600391106536	0.182347437033886	178.052765485311
10.8809	0.143878872785629	0.0971120679312451	0.173585378911779	-34.0176616716631
9.278505	0.141278398122357	-0.105387354206346	0.176255723886156	36.7212890787029
7.923394	-0.0443482620012149	0.174243149247591	0.179798340932965	-104.279693812518
6.75822	0.14780541956405	0.0979044730374929	0.177289954293113	-33.5199962603905
5.761429	0.142284657553193	0.0953955400607735	0.171304503263971	-33.8400963213741
4.919708	0.146827158940655	-0.107013618147859	0.18168689845908	36.086090878287
4.191257	0.153381276267089	0.0955331545741635	0.180699749673906	-31.9166139777625
3.564097	0.146903481432036	0.102067907404236	0.178881219189529	-34.7914067965196
3.051758	0.135306135705492	-0.112311077390953	0.175845183227376	39.6944243734162
2.604164	0.146087183563862	0.0934909601605806	0.173441704423616	-32.6178971302688
2.214424	0.1367627111151	0.0961517776318045	0.167180152809202	-35.1093468066157
1.892567	0.154136401883943	0.0938173326995549	0.180443127606976	-31.32738418125
1.607507	0.141931467021015	-0.0974279786903165	0.172153281590617	34.467410622529
1.376413	0.13636218360488	0.0818321099364519	0.15903188150224	-30.9683287197753
1.17375	0.161936740253209	0.0913552481169911	0.185928182915749	-29.4291520876697
1.001604	-0.167117979364275	0.00969729638951403	0.167399093737285	-176.679041875706
