EC-Lab ASCII FILE
freq/Hz	Re(Z)/Ohm	-Im(Z)/Ohm	|Z|/Ohm	Phase(Z)/deg
6999984	86.1108573053166	132.264982087267	157.826186776472	-56.9339394767234
5969734	7.7069347575601	14.6448319156104	16.5489560152225	-62.2441295107297
5091109	-10.4973315334403	31.4015197048114	33.1096573388282	-108.484459183645
4341796	-12.7655934028679	24.2135613137859	27.3725579079452	-117.79857569285
3702781	-0.268605969377588	-7.07530041581759	7.08039724456572	92.1741269254351
3157797	53.5402456549118	33.5929784697957	63.2063771091214	-32.1055639994407
2693047	10.0116255550718	-25.8218102585008	27.6947383320548	68.8077048286303
2296687	-3.41712194297213	-11.1936066598457	11.7035700719261	106.976090492183
1958656	-0.941625385989404	-18.1181491289873	18.142601418423	92.9750646272485
1670375	-2.187336792342	-15.5164960404586	15.6699103895556	98.0240260137208
1424531	-4.13853417047075	-18.8439010331866	19.2930057593078	102.386755848965
1214875	-8.50487086977898	-22.9709077490853	24.4948041700399	110.316835508253
1036062	-10.2438520643883	-27.0016792044139	28.8795288219035	110.775660110593
883578.1	-13.2705689994352	-29.3624986393724	32.2221093027119	114.320893763745
753531.2	-18.0415916837729	-32.599754220623	37.259133185422	118.961336242289
642624.9	-22.7393548699674	-35.323682515648	42.0100084071475	122.771104509452
548046.8	-26.310871591274	-38.5552417155633	46.6772817078932	124.310412921851
467390.6	-33.0582618227061	-40.5285838991776	52.3011929845894	129.203357900709
398593.7	-44.5832056236576	-37.0114266406725	57.9440068139856	140.301722279732
339937.5	-50.5274992470028	-37.661236940426	63.0190205258601	143.300583379446
289906.2	-55.9609610491711	-37.2716747514544	67.2369459473365	146.335197045577
247234.4	-61.1939459860878	-35.3465698902326	70.6687981244434	149.988605130449
210843.7	-67.249085945622	-32.6860188133017	74.7717552715272	154.078205984755
179812.5	-71.2226761411398	-30.9731825849606	77.6660005159722	156.49683272534
153343.8	-75.1745272125929	-28.7767421543665	80.4941639540145	159.053198519876
130781.2	-78.4863732888661	-26.1475703069312	82.7273003608551	161.574613888908
111531.3	-85.0541750611001	-22.4344271560099	87.963152610298	165.223839381876
95109.37	-82.9338662590171	-20.0803077374508	85.3302111300521	166.389235537172
81109.37	-83.6106805003204	-17.4408131287178	85.4103498196648	168.217314678316
69171.88	-85.8209971267749	-15.4258706433132	87.1963361210673	169.810194644559
59000	-84.19076145602	-13.7665406217283	85.3088621142854	170.713405312803
50312.5	-81.6845957344435	-12.9456930237171	82.7040757651265	170.994441111315
42906.25	-90.9059690228923	-13.1246806937574	91.8485299136798	171.78460720658
36593.75	-87.5682008746424	-9.24698736850811	88.0550769678561	173.97204547683
31203.13	-87.9434865962748	-8.50434677917128	88.353725155477	174.476534815443
26609.38	-85.5683739965053	-8.7982879528633	86.0195123173068	174.129379687373
22703.13	-84.915874460374	-8.97008513490294	85.3883373927459	173.969925532988
19359.37	-84.8668342071406	-10.2769847630348	85.4868174876217	173.095362754501
16500	-85.0298269317052	-11.0036137623315	85.7388534088619	172.626396799186
14112.02	-85.3318562408068	-15.0618584883374	86.6509392368277	169.989874209112
12011.13	-86.1374541196458	-15.2617942871069	87.479045302724	169.952631952429
10236.38	-88.117338311498	-16.9532597363236	89.7333735395602	169.109696444232
8750.684	-88.7157319060816	-11.0835791909721	89.4054070809719	172.878727412162
7449.463	-18.2681289307696	-84.8196423649653	86.764602607007	102.154478758819
6363.206	-21.2361506269724	-88.5929952375862	91.1026503380579	103.479730138956
5414.761	73.2390615177271	56.3426445691611	92.4037538687916	-37.5710026776157
4620.567	79.5427628140503	-50.9782038142075	94.4766022897476	32.6554258658499
3941.215	77.0238030967968	55.2081934874742	94.7660850285824	-35.6317410763262
3361.769	-24.1527530296706	-95.2293089457453	98.2444744563096	104.231679949286
2867.244	82.0073247181278	-54.3805557184626	98.399421480379	33.5490853276493
2442.658	-22.6580051208127	-101.155484519845	103.662033765981	102.625392770637
2083.003	-106.062231368645	-38.8411057442326	112.95055740602	159.886737520232
1777.843	-111.396568202937	-47.5281716623671	121.112024625795	156.894121660484
1513.548	-109.01690685407	-50.3621674671568	120.087609236003	155.204641009982
1292.065	-109.440661902356	-61.762399317792	125.665637495364	150.561963996037
1101.762	-115.339949200604	-63.8673754765592	131.842123510894	151.025314964959
939.101	-117.106863411155	-78.9527289817244	141.235798831813	146.0123926238
801.2801	-118.221909547873	-83.7484583430949	144.880033724425	144.686224511191
684.3433	-134.959581302753	-95.9853666146033	165.611832879038	144.578966811942
582.9476	17.6571787734944	-156.668722470092	157.660599271505	83.5696759412784
497.0677	165.261286184221	103.554528621641	195.025211471013	-32.0717079233265
423.5089	155.996864281203	-143.762802565312	212.138551581274	42.6628900620993
361.5036	-180.493714330329	216.772496146562	282.078528070411	-129.78215986535
308.1262	-170.748204532821	92.2347736336777	194.067521286891	-151.62296724106
262.7298	260.073458278937	42.9133712124913	263.590138529474	-9.36965330828772
224.2111	26.8285798854492	-222.847330359099	224.456466484812	83.1352020452307
191.2854	251.734182867287	-78.8156524087559	263.784013709092	17.384857307198
163.1722	218.394273989347	169.595574124172	276.511695365389	-37.831371888457
139.1537	297.22425617334	-168.055498398128	341.445323587303	29.4845341881471
118.6706	-246.835573947245	-399.733003649113	469.802378423319	121.695376249094
101.1982	775.131973165176	387.902346633709	866.774368764373	-26.5849380264388
86.24196	256.256523124837	1053.36141758068	1084.08379827927	-76.3269737488092
73.61024	-265.591905865544	897.904586243124	936.360884732872	-106.477731801979
62.69291	3569.83312938698	-1695.03489329446	3951.81627370942	25.3993909454879
53.57697	1835.97320714844	-210.834583408645	1848.03918760615	6.55088430273851
45.65746	-980.78577595616	1934.25966542493	2168.70956829348	-116.887744685931
38.96512	206.603680855419	1789.076977706	1800.96682731822	-83.4126282096331
33.18414	-470.707943787668	2720.70560677311	2761.12385942237	-99.8155504475358
28.30617	2987.53887194647	-118.04950894795	2989.87026440179	2.26280628453756
24.17237	594.331005008109	3520.98918978131	3570.79742047498	-80.418981025854
20.61345	17.5174589241087	6191.3711108719	6191.39589219639	-89.8378915157892
17.55618	-302.797677641673	4282.72358585402	4293.41446245474	-94.0442038729626
14.98558	-2440.51042856528	6059.46134230166	6532.46989359952	-111.937618519119
12.76553	228.13320411647	6380.71477479051	6384.79175823694	-87.9523447077931
10.8809	-2936.90121514961	9579.79263025523	10019.8710364076	-107.044100582465
9.278505	2027.22405553923	3226.19660301622	3810.24695953823	-57.8562468282793
7.923394	643.096418978431	4192.37202167814	4241.40969162996	-81.2789906763454
6.75822	-4092.80458845885	-20355.0725588854	20762.4668157904	101.368896325915
5.761429	8153.17195421971	-40027.7191989924	40849.6330116742	78.4870246364524
4.919708	8464.01000345438	21590.0533294887	23189.8656336931	-68.5931894301334
4.191257	24962.3266019947	11549.0255888319	27504.5040209081	-24.8280087842937
3.564097	3348.13744135984	-52448.3662066327	52555.124793604	86.3473753320727
3.051758	23731.8954036017	-18992.8250113532	30396.2211690758	38.6705659822513
2.604164	33836.2449548652	-69290.1989782764	77110.4606852714	63.9725139955213
2.214424	30182.0178216038	-93487.7110250451	98239.0264227305	72.1075979539068
1.892567	43666.3971418381	-57472.9063311918	72179.5622146787	52.773389258647
1.607507	21221.7642700746	-49604.897553259	53953.7685431141	66.8379905205296
1.376413	17017.0024424383	24273.3446025875	29644.1162850559	-54.9673477886061
1.17375	-17101.218383408	24529.2948217334	29902.1399677102	-124.883256125423
1.001604	11575.9576901655	18856.3004843638	22126.0675313333	-58.4540709917188
