EC-Lab ASCII FILE
freq/Hz	Re(Z)/Ohm	-Im(Z)/Ohm	|Z|/Ohm	Phase(Z)/deg
6999984	5.65451962853086	1.2915616225852	5.80014858899112	-12.8663345178798
5969734	3.76355549204294	-0.270665295750902	3.77327571799497	4.11348402703751
5091109	2.22978385555042	-0.924942219071828	2.41401204452149	22.529284921495
4341796	1.34730862326987	-1.38672639662095	1.93345561765008	45.8260009729441
3702781	0.732619704472587	-0.993039525693708	1.23404178655809	53.5817696822192
3157797	0.486014648904753	-0.841970151833783	0.972174868801397	60.0049531515789
2693047	0.345662325947882	-0.65046007869091	0.736600812890051	62.0132848150715
2296687	0.271731539490038	-0.494723638229535	0.564437337333998	61.2218009168777
1958656	0.233592704192657	-0.358280873696542	0.427704028399074	56.8963706340966
1670375	0.213171807159108	-0.269089801687848	0.343295121928473	51.6138831094849
1424531	0.211820403972815	-0.192562742344583	0.286266123176447	42.2735022149504
1214875	0.201057896218834	-0.153536422052561	0.252977687807928	37.3669036518342
1036062	0.203136151007347	-0.118886493968046	0.235368422465916	30.3385277817896
883578.1	0.208459212775655	-0.0942159870415969	0.22876165676369	24.3212390736564
753531.2	0.210679008052301	-0.0720722777273915	0.222665798116181	18.8855712825164
642624.9	0.209311104569897	-0.0558337167496907	0.216629966584392	14.9358695330483
548046.8	0.213472589073643	-0.0457682330594823	0.21832379037382	12.1009431176764
467390.6	0.213804844631723	-0.0359940528875987	0.2168134761293	9.5561396114469
398593.7	0.217698533945399	-0.0295799952478445	0.219698948110451	7.7377319978843
339937.5	0.218054990223689	-0.0230934435099293	0.219274453356061	6.04546104291976
289906.2	0.220530533056788	-0.0200122035579588	0.221436682375699	5.18514543296579
247234.4	0.221257505753804	-0.0185408192284249	0.222032983653455	4.79005035321964
210843.7	0.220929488368151	-0.0164024969599488	0.221537537986532	4.24602807265851
179812.5	0.220162099623166	-0.0156084226408393	0.220714686796815	4.05520734377916
153343.8	0.220139208162485	-0.0139245018611977	0.220579152964392	3.61931766901969
130781.2	0.219635980103743	-0.0122207068809975	0.219975701914559	3.18469537690305
111531.3	0.21929528994635	-0.0111402779663497	0.21957807264347	2.90814583792726
95109.37	0.219071370102894	-0.0100549266152912	0.219301998960333	2.62791447215995
81109.37	0.218675357906606	-0.00903663217388049	0.218861995048542	2.36636840600745
69171.88	0.218135510441792	-0.0081109243623736	0.218286252452401	2.1294457740585
59000	0.217646427290371	-0.00715516676126712	0.217764009247728	1.88293125566125
50312.5	0.217260374637274	-0.0062736827283995	0.217350936235631	1.65403232467531
42906.25	0.21693273829318	-0.00541641490464729	0.217000346759623	1.43027397102728
36593.75	0.216639150449778	-0.00463337420086981	0.216688692977015	1.22522784601043
31203.13	0.216450028634098	-0.00394677156153937	0.2164860085582	1.04462123574488
26609.38	0.216355615584189	-0.00328632237344981	0.216380572856149	0.870224342062958
22703.13	0.216277504997341	-0.00280764734421563	0.216295728232169	0.743754222028141
19359.37	0.216176030784154	-0.00235363386638815	0.216188843093182	0.623787745925854
16500	0.216178702247506	-0.00194184844992712	0.216187423502891	0.514651661841807
14112.02	0.216186934390342	-0.00158815400230149	0.216192767765781	0.420899093486566
12011.13	0.216210919215324	-0.00130556917993579	0.21621486095738	0.345970938898789
10236.38	0.216270232016134	-0.00112589634629684	0.216273162687595	0.298277416370084
8750.684	0.216299706370504	-0.000949198420483798	0.216301789067052	0.251432215152849
7449.463	0.216345458244786	-0.0007454489186808	0.21634674251589	0.197419942172103
6363.206	0.216342586940669	-0.000606669905177845	0.216343437553707	0.160668939502144
5414.761	0.216363207516099	-0.000494013666578196	0.216363771496425	0.130820989643702
4620.567	0.216412867406906	-0.00042395118544586	0.216413282665105	0.112241859108333
3941.215	0.216405933972275	-0.000372767813377219	0.216406255025717	0.0986941574509058
3361.769	0.216419897231879	-0.00029315066898616	0.216420095774796	0.0776097116605481
2867.244	0.216442817706085	-0.000219242147650728	0.216442928744897	0.058036785829525
2442.658	0.216457292355598	-0.000189273551534743	0.21645737510742	0.0501002890429319
2083.003	0.216458485491991	-0.000163537165927607	0.216458547269196	0.0432876890785335
1777.843	0.216426383896425	-0.000129867056811279	0.216426422859907	0.0343804356292282
1513.548	0.216461394544087	-0.000108767314223162	0.216461421870733	0.0287899259939541
1292.065	0.21646191643539	-8.28471876469252E-05	0.216461932289579	0.0219290027691144
1101.762	0.216524141280467	-5.84684699917827E-05	0.216524149174648	0.0154716996630546
939.101	0.216472470752932	-8.97264804890115E-05	0.216472489348463	0.0237487396447617
801.2801	0.216480845565655	-0.000101871282400792	0.216480869534883	0.0269621734387529
684.3433	0.216490733769332	-5.99164532874277E-05	0.216490742060636	0.0158573059887556
582.9476	0.216468231101964	-9.13239907513644E-05	0.216468250365925	0.0241720408638043
497.0677	0.216452100018299	-7.64997381506246E-05	0.216452113536786	0.0202498009814568
423.5089	0.216462034227436	-8.1584761025512E-05	0.216462049602125	0.0215948365942602
361.5036	0.216448046790435	-9.39744318771615E-05	0.216448067190697	0.0248758908672328
308.1262	0.216427605877489	-5.72325286447754E-05	0.216427613444828	0.0151514047964206
262.7298	0.216388440966334	-4.20286297239784E-05	0.216388445047896	0.0111284274745331
224.2111	0.216411205545739	-7.08883711809275E-05	0.216411217155954	0.0187679946133776
191.2854	0.216379979342021	-4.21898987347454E-05	0.216379983455127	0.0111715654669285
163.1722	0.21640150683241	-5.05016422064304E-05	0.216401512725197	0.013371121794546
139.1537	0.216406383004086	-2.68656623528673E-05	0.216406384671698	0.00711295589976185
118.6706	0.216366070173873	-3.45288877848544E-05	0.216366072929028	0.009143575621485
101.1982	0.216388225445832	-4.38652256825506E-06	0.216388225490293	0.00116147368623063
86.24196	0.216377769258442	-3.30991777949719E-05	0.216377771790022	0.0087645010146485
73.61024	0.216375645542301	-1.18968328316451E-05	0.216375645869358	0.00315025431087994
62.69291	0.216378323770355	-4.34892085276558E-06	0.216378323814058	0.00115157011074179
53.57697	0.216360166783353	-2.6202233218345E-05	0.21636016836996	0.00693878818919798
45.65746	0.216353285694288	3.95122976761407E-06	0.216353285730368	-0.00104638479983829
38.96512	0.216392771311091	-2.57960307930554E-08	0.216392771311093	6.83018976870888E-06
33.18414	0.216381983501885	-1.70632232892777E-05	0.216381984174661	0.00451817042027416
28.30617	0.216366953318682	-1.27804064868824E-05	0.21636695369614	0.00338435856343465
24.17237	0.216359333385485	-6.01947596658909E-05	0.216359341759076	0.0159406369704794
20.61345	0.216378061561004	1.8811765909989E-05	0.216378062378746	-0.0049812572556529
17.55618	0.216385571525927	8.15643340924985E-06	0.216385571679651	-0.00215970596705053
14.98558	0.216347766664144	-1.52619460108099E-05	0.21634776720246	0.00404184940574348
12.76553	0.216391709097246	1.54600494209129E-05	0.216391709649515	-0.00409348207040949
10.8809	0.216387442163242	-1.38985567737601E-05	0.216387442609594	0.0036801056262941
9.278505	0.216399073155323	2.26308636737358E-05	0.216399074338683	-0.00599195251443249
7.923394	0.216392898587796	7.64078780980183E-06	0.216392898722693	-0.00202310194249324
6.75822	0.216433830409093	4.96409819873546E-06	0.216433830466021	-0.00131412855046072
5.761429	0.216414669154425	3.84464338842658E-06	0.216414669188575	-0.00101786926333242
4.919708	0.216421433976991	9.99986490316893E-06	0.216421434208015	-0.00264738128620732
4.191257	0.216458960695917	9.87257848093731E-06	0.216458960921058	-0.00261323013682854
3.564097	0.216456693464463	8.31591117801873E-06	0.216456693624205	-0.00220120988381422
3.051758	0.216484453655083	8.75888306526072E-06	0.216484453832274	-0.00231816661261869
2.604164	0.216504638523488	4.32565009586284E-06	0.216504638566701	-0.00114473988086604
2.214424	0.216524235363955	3.38649533766959E-06	0.216524235390438	-0.000896120888487281
1.892567	0.216538918363173	9.42191149252684E-07	0.216538918365223	-0.000249301958070553
1.607507	0.216552477157974	4.10435374846289E-06	0.21655247719687	-0.00108593607643617
1.376413	0.216560192020063	-4.08408917137327E-06	0.216560192058574	0.00108053594921706
1.17375	0.216563276111781	8.73625568529695E-06	0.216563276287993	-0.00231133638274293
1.001604	0.216545629901406	-3.29389939670362E-06	0.216545629926458	0.000871532404709242
