EC-Lab ASCII FILE
freq/Hz	Re(Z)/Ohm	-Im(Z)/Ohm	|Z|/Ohm	Phase(Z)/deg
6999984	8.03449499510774	-9.28883732294753	12.2815149162713	49.1414269840466
5969734	4.0184101906259	-6.51820851763335	7.65732738881355	58.3465841093523
5091109	2.13239446997669	-4.44792174564386	4.93265790735164	64.3863041151648
4341796	1.31735359174221	-3.49216528795372	3.73237710903721	69.331961211175
3702781	1.8461032504145	-1.70560212187135	2.51339925386379	42.7346301076276
3157797	1.41318613006277	-1.40207350105162	1.99070468441528	44.7738384666997
2693047	1.15579193202383	-1.12883897449847	1.61559042472965	44.3240837862559
2296687	1.00675903766396	-0.909382005847261	1.35666480476087	42.0907687853493
1958656	0.916198623032222	-0.726950841096394	1.16956292785677	38.4299752744979
1670375	0.868885711775654	-0.599128147094682	1.05542262471912	34.587668734149
1424531	0.836103956877886	-0.501746181896974	0.975099511719214	30.9679792155203
1214875	0.817910898992428	-0.428734242368985	0.923466994142351	27.6627232052814
1036062	0.804064374318256	-0.37304674204594	0.886387832609912	24.8890058711633
883578.1	0.802130573443179	-0.314982810924889	0.861758451093128	21.4390780176539
753531.2	0.797760638245846	-0.269339519832259	0.842001076530126	18.6556834263761
642624.9	0.794008972310179	-0.22725597029038	0.825890745886942	15.9718287928463
548046.8	0.791111110945311	-0.192874472561613	0.814283336454237	13.7015293662641
467390.6	0.786189300902339	-0.164066157283659	0.803125968213664	11.7876154178311
398593.7	0.782531955002599	-0.137939520171655	0.794596483647755	9.99701917564417
339937.5	0.779677255828581	-0.115260943076512	0.788150815678874	8.40922134504377
289906.2	0.777831375884369	-0.0948040425177375	0.783587554640754	6.94907851119853
247234.4	0.777315706705326	-0.0763733474128971	0.781058638058533	5.6114529615595
210843.7	0.777601278641994	-0.0593618716641337	0.779863821672177	4.36547716787179
179812.5	0.778052943161708	-0.0448894828580952	0.779346808573605	3.30199874517357
153343.8	0.779856223522994	-0.0319968609997681	0.780512349986458	2.34948104795377
130781.2	0.782346176620761	-0.022165202520071	0.782660102647298	1.62285310737988
111531.3	0.783912839664159	-0.0136869957837344	0.784032316963982	1.00027372944396
95109.37	0.785893933797929	-0.00609607595344944	0.78591757667227	0.444426917794259
81109.37	0.78600888385208	0.0015782497951632	0.786010468357012	-0.115045685374585
69171.88	0.78598993495333	0.00867776004322274	0.786037837109199	-0.63255113540238
59000	0.786397143156585	0.0161419983699236	0.786562795253	-1.17591795224588
50312.5	0.786026116457612	0.0232527158716528	0.786369979430066	-1.6944653833199
42906.25	0.789172819160031	0.0301324325101415	0.789747872418767	-2.18662237835019
36593.75	0.792878611647345	0.0369396154039558	0.793738639599971	-2.66743824678367
31203.13	0.79785164857215	0.0433480816325951	0.799028353258208	-3.10987969393046
26609.38	0.803668175748024	0.0494850721662772	0.805190231608319	-3.52348245637493
22703.13	0.809912604651042	0.055165155600631	0.811789148464721	-3.89653928748918
19359.37	0.81747666785066	0.0602090349701872	0.819690935885141	-4.21235992670103
16500	0.825336641833063	0.0646680281800877	0.82786624899254	-4.48017243225888
14112.02	0.833805566527097	0.0687778791202616	0.836637388256021	-4.71546499928069
12011.13	0.843324571020838	0.0716907815811541	0.84636629201026	-4.85901556414615
10236.38	0.855792018144201	0.0729757976041087	0.858897808447129	-4.87398179471276
8750.684	0.868977549855671	0.0730996934630362	0.872046757540876	-4.80848584323576
7449.463	0.881078514238429	0.071865001626782	0.884004483422689	-4.66299696214938
6363.206	0.88898608209735	0.0692971778325155	0.89168287693459	-4.45723865059318
5414.761	0.891995669161571	0.0659910985514464	0.894433395447099	-4.23111455420905
4620.567	0.896803956534913	0.0619314933189945	0.898939845774674	-3.95046034558894
3941.215	0.898769446929323	0.0579033320851989	0.900632730140433	-3.68619330286736
3361.769	0.900752963562672	0.054084858698842	0.90237523974642	-3.43614535374755
2867.244	0.903575527141108	0.0495625375915587	0.904933797789013	-3.13961734941334
2442.658	0.906315574042798	0.0452653928063699	0.90744524657879	-2.85922784729458
2083.003	0.909005630003665	0.0409987778003414	0.909929741880923	-2.58245485477868
1777.843	0.912395545977983	0.0366917476058936	0.913133022435853	-2.30289384963168
1513.548	0.915111891925051	0.0327196103323306	0.915696646080429	-2.04772480373899
1292.065	0.917526485988349	0.0290671305846385	0.917986792154742	-1.81451665717586
1101.762	0.919397425936452	0.0259785362487897	0.919764378068755	-1.61852154644869
939.101	0.922039820999627	0.0232024586935683	0.922331711261437	-1.44150222493846
801.2801	0.924792510893891	0.0207798476728111	0.925025940325315	-1.28720469070973
684.3433	0.929881269095434	0.018584616749472	0.930066966725654	-1.14496161553275
582.9476	0.935353587474403	0.0166075541344648	0.935501012535831	-1.0172011945433
497.0677	0.942363543775619	0.0148052026268677	0.942479836740376	-0.900083464598406
423.5089	0.94699972298856	0.0132004968672813	0.947091721248767	-0.798610347249556
361.5036	0.950532181603613	0.0116921544875836	0.950604089377216	-0.704739233926503
308.1262	0.954921413492997	0.0103723059169805	0.954977743550864	-0.622319255096934
262.7298	0.958146349679375	0.00914377907480016	0.958189979127146	-0.54676829538585
224.2111	0.961678963531227	0.00834203470313982	0.961715144126099	-0.496996826821544
191.2854	0.965004669227825	0.00719590298809954	0.965031498269004	-0.427238585010791
163.1722	0.968323093083407	0.00651064166259684	0.968344980393597	-0.385229548654917
139.1537	0.970283561957319	0.00590057374751114	0.9703015033355	-0.34842783922009
118.6706	0.972253541069315	0.00527236290456093	0.972267836520585	-0.310702063453276
101.1982	0.975823452102031	0.00470674039371167	0.975834803169809	-0.276355592762143
86.24196	0.980557403396587	0.00425309144986873	0.980566627079842	-0.248514427581146
73.61024	0.984942223397027	0.00370408574186719	0.984949188375452	-0.215472008831731
62.69291	0.989077716602956	0.00341902878580468	0.989083626008618	-0.198058389043217
53.57697	0.993104766658356	0.00308703042714101	0.99310956460826	-0.178101295010559
45.65746	0.994258361374001	0.00285254500801022	0.994262453366884	-0.164382164380828
38.96512	0.992563162560913	0.00238166980513728	0.992566019982541	-0.137481795899436
33.18414	0.989203985662941	0.00226192470025788	0.989206571730495	-0.131012930505071
28.30617	0.987593047051988	0.00196239440891867	0.987594996735629	-0.113849292202573
24.17237	0.986684854906859	0.00186821600395694	0.986686623570831	-0.108485261324558
20.61345	0.986021543646071	0.00160765926439758	0.986022854249581	-0.0934178464113256
17.55618	0.98556441698614	0.00145289547688427	0.985565487897429	-0.0844640057636981
14.98558	0.98477056622623	0.00127602406872395	0.984771392934906	-0.074241407374533
12.76553	0.984433422543937	0.00105744433403076	0.984433990478838	-0.0615451210006701
10.8809	0.984360762485034	0.00112169532412984	0.984361401579987	-0.0652894574876295
9.278505	0.984393898739266	0.000935986906152454	0.984394343719315	-0.0544782767442604
7.923394	0.984219338376972	0.00104999314666215	0.984219898458069	-0.0611247418663826
6.75822	0.984500668519624	0.000926117098551442	0.984501104117444	-0.053897967900618
5.761429	0.984748127633772	0.000732145104202158	0.984748399803053	-0.0425985239833943
4.919708	0.985803261440239	0.000573504617548231	0.985803428262327	-0.033332604683915
4.191257	0.987116477527482	0.000714866423090819	0.987116736379374	-0.0414934029881459
3.564097	0.988426483807486	0.000639390744278286	0.988426690611172	-0.037063339152818
3.051758	0.994085492203202	0.000723184002410756	0.994085755256549	-0.0416819118323219
2.604164	0.998270172534127	0.000459338579121535	0.998270278212892	-0.0263637648583624
2.214424	1.00233902312218	0.000540516582774939	1.00233916886037	-0.0308970470404831
1.892567	1.01313612834836	0.00044735150230857	1.01313622711266	-0.0252990201989369
1.607507	1.01110343545261	0.000500115257559313	1.01110355913691	-0.0283398218092552
1.376413	1.01060245984391	0.00051451705926818	1.01060259081915	-0.0291703756994989
1.17375	1.01642145551258	0.000248210429296518	1.01642148581911	-0.0139916465458286
1.001604	1.0128838381621	0.000418369971242877	1.0128839245656	-0.0236659243250535
