EC-Lab ASCII FILE
freq/Hz	Re(Z)/Ohm	-Im(Z)/Ohm	|Z|/Ohm	Phase(Z)/deg
6999984	18.3363899338678	0.455229829779256	18.3420399630131	-1.42216604526838
5969734	10.9447104560946	-4.37472605622347	11.7866413805946	21.7871556077739
5091109	11.7642142236498	-5.24322293047289	12.8797563252789	24.0221780229099
4341796	9.42091173883533	-7.21602651698246	11.8669548193595	37.4506127857028
3702781	5.35227096276003	-5.49627363384123	7.67175523051031	45.7604947082268
3157797	4.15447742072111	-4.94377635946507	6.45760074111796	49.9581554026938
2693047	2.5626616424659	-4.42652219027855	5.11481508901294	59.9320156242588
2296687	2.351895429239	-3.75595046983408	4.43154330249882	57.9460866105558
1958656	1.72096790807888	-3.19252635523339	3.62683816422751	61.6726041100867
1670375	1.49779932191893	-2.81234827441176	3.18633106022077	61.9611456557146
1424531	1.19703527995355	-2.4315670161443	2.71024198466748	63.789453979977
1214875	0.788066923902012	-2.1084438427824	2.25090757578258	69.5059111977768
1036062	0.824463187728564	-1.83126733393223	2.0083026654981	65.7620330770534
883578.1	0.726774132205212	-1.57930068194179	1.73850259799186	65.2887126424958
753531.2	0.659193184148039	-1.35490538308441	1.50675288323545	64.0559939462719
642624.9	0.626068686349131	-1.16349893299562	1.32124629312966	61.7156905362805
548046.8	0.564583137160855	-1.01766873366739	1.16378854189693	60.9793251779784
467390.6	0.527784633911735	-0.88432931604258	1.02985191120165	59.1704401229709
398593.7	0.495165548559626	-0.765809149289296	0.911949874508216	57.1136419595882
339937.5	0.470129050927948	-0.666737250167765	0.815818536984595	54.8116121303116
289906.2	0.449090322496428	-0.577899954654532	0.731881462635621	52.1489569352016
247234.4	0.430663527521669	-0.500496390849302	0.660278510320141	49.2889005909353
210843.7	0.417095528204985	-0.433891978433944	0.601856235822075	46.1307343058624
179812.5	0.405744787853903	-0.372843522517986	0.551036410007749	42.5802580888855
153343.8	0.397970825691652	-0.325202172843358	0.513942828847467	39.2540031754551
130781.2	0.39110805438818	-0.282631306931456	0.482541154581752	35.8534757430418
111531.3	0.384163647075301	-0.246955188945829	0.45669308411828	32.7344711232661
95109.37	0.377369772024375	-0.215734785228668	0.434683151727081	29.7557437604723
81109.37	0.37098570352428	-0.188294796759848	0.416035242144506	26.9101947075786
69171.88	0.363291776893094	-0.16353004402624	0.398400540232271	24.2341380296406
59000	0.354598323543078	-0.138190375885348	0.38057397578775	21.2913408501794
50312.5	0.348462066682915	-0.107915246323835	0.364789682291128	17.2072346611295
42906.25	0.376733652151299	-0.110344398240503	0.39256099002106	16.3251833242594
36593.75	0.361352198133894	-0.0995023419927994	0.374801450315029	15.3954848171463
31203.13	0.356223708413303	-0.0874959766925148	0.366811772402554	13.7998546534865
26609.38	0.350851668565584	-0.0756482534447597	0.358914407045046	12.1674577881131
22703.13	0.35056084539364	-0.0676562724194038	0.357029799205602	10.923463282481
19359.37	0.347457866688657	-0.0602947242715762	0.352650567699554	9.84456083593781
16500	0.345342795360649	-0.0541242784412466	0.349558412606953	8.907293556351
14112.02	0.342906251513338	-0.0484632078512877	0.346313990248973	8.04437900983832
12011.13	0.340925304454624	-0.0435438649045983	0.343694823045545	7.27855789128851
10236.38	0.339171622718584	-0.0390666213518692	0.341414104221557	6.57051383679969
8750.684	0.341721225576938	-0.0431504375661462	0.344434836031367	7.19686556885876
7449.463	0.345169531442453	-0.0774623583749593	0.353754748945103	12.6486563923537
6363.206	0.397028866086982	-0.0918295050260087	0.407510218889829	13.0230384748481
5414.761	0.275957419641365	-0.071065645968148	0.284961091189641	14.4412522572457
4620.567	0.450912825272274	-0.0829804134342751	0.458484596261148	10.4273391276772
3941.215	0.412426534864429	-0.112975970303773	0.427620411727924	15.3192355937703
3361.769	0.328785078294569	-0.0219917715224591	0.329519750127154	3.8266991700095
2867.244	0.327531435216333	-0.0242599188697855	0.328428660013768	4.23610444364684
2442.658	0.315794358737668	-0.0273884939445101	0.316979820510838	4.95679596850538
2083.003	0.323878833807443	-0.0186349340480953	0.324414487585629	3.2929821083516
1777.843	0.323070389085973	-0.0170066360543965	0.32351769963025	3.01330593868777
1513.548	0.322490741509334	-0.0152766656246943	0.322852373186026	2.71212322522592
1292.065	0.321557165825813	-0.0146336285580764	0.321889971851727	2.60565506181912
1101.762	0.326186525175663	-0.0127468750381427	0.326435494438658	2.23789350664747
939.101	0.321610319617709	-0.012931912328853	0.321870209931094	2.30261596510104
801.2801	0.325872377116319	-0.0114976768488269	0.326075148915645	2.02071500031872
684.3433	0.320700370176012	-0.0119904502945798	0.320924443334094	2.14119599252104
582.9476	0.322846880711685	-0.0126840035901159	0.32309594911162	2.24987863780602
497.0677	0.318812627103052	-0.0132284341604007	0.319086951583241	2.3760003995014
423.5089	0.332554002202763	-0.00304136130747844	0.332567909245131	0.523981993056615
361.5036	0.2875408505195	0.0853532204376144	0.299941515893597	-16.53292063204
308.1262	0.391780089010275	-0.122135573506135	0.410376335161485	17.3146184110929
262.7298	0.252402440486025	0.00833181013462281	0.252539919663052	-1.89064842420387
224.2111	0.437585788168729	-0.0383753476756041	0.439265283532026	5.01189617374752
191.2854	0.2457544632581	0.0236604004364003	0.246890807362461	-5.49929246245807
163.1722	0.288437439563802	-0.0947676884187721	0.303606770857238	18.1882186204848
139.1537	0.41374358944671	0.0684426293431194	0.419366368846678	-9.39296696097159
118.6706	0.239730851819519	0.0297229358497082	0.241566417843288	-7.06772661141422
101.1982	0.302331906110106	-0.00641750782337943	0.302400009687224	1.2160175494537
86.24196	0.31073061434626	-0.0129622898842041	0.311000861174123	2.38873839720274
73.61024	0.29913151781053	-0.03235374327969	0.300876103490855	6.17305301431744
62.69291	0.224411601099371	-0.0571701146105467	0.231579335676926	14.2924035516486
53.57697	0.268817255778203	-0.00415675409601668	0.268849392055736	0.885901040295533
45.65746	0.287751429405596	-0.0407392217588523	0.290621006320053	8.05825604763639
38.96512	0.299445605589809	-0.0168065319277793	0.299916872187089	3.21238356235275
33.18414	0.289322342219492	-0.00454176166247299	0.289357988150269	0.899351224536229
28.30617	0.325974102692784	0.00321826334917108	0.325989988872895	-0.565648973608796
24.17237	0.311284070821076	-0.0004991192212892	0.311284470969783	0.091869141491087
20.61345	0.287356858635478	-0.0286429594785153	0.288780856935736	5.69228699321214
17.55618	0.270642166742584	-0.0200049784139411	0.271380510686495	4.22742757079738
14.98558	0.282936927905263	-0.0294101511791267	0.284461354431225	5.93435306728799
12.76553	0.282709795866071	-0.0139859700218654	0.283055535250749	2.83217736387086
10.8809	0.266591430658271	-0.00362831210243735	0.266616120197441	0.779748003676055
9.278505	0.259889146010729	-0.0140820115549627	0.260270381072491	3.10152081265729
7.923394	0.244627676976715	0.000869815533014004	0.244629223360754	-0.203724082200368
6.75822	0.302611932104763	-0.0585816174310465	0.308230088331778	10.956173443005
5.761429	0.215712233553361	-0.0325526910043673	0.218154636430688	8.58163580475454
4.919708	0.365727102674608	-0.00935145558576251	0.365846639115813	1.46470472381008
4.191257	0.254671676327118	0.0162247769526367	0.255187981908293	-3.64530760756462
3.564097	0.255114069773713	0.137870761411152	0.289985405578622	-28.3880247485596
3.051758	0.243127585197527	0.0961575061388302	0.261452268436936	-21.5789083675556
2.604164	0.228181184851345	-0.0158965019433561	0.228734238570003	3.98513689726585
2.214424	0.242998513732256	-0.028592212982423	0.244674870633086	6.71080255293747
1.892567	0.220475867117556	-0.0430377031918229	0.224637156047849	11.0454517266423
1.607507	0.219182510412817	-0.0570498275295609	0.226485442560924	14.5894878980019
1.376413	0.303651258626615	0.00517951435030568	0.30369543005194	-0.977224783261434
1.17375	0.220029446997132	-0.0704355854117963	0.231028416516597	17.7508512875716
1.001604	0.220727138972257	-0.0909867541952524	0.238744757676196	22.4021283980216
