EC-Lab ASCII FILE
freq/Hz	Re(Z)/Ohm	-Im(Z)/Ohm	|Z|/Ohm	Phase(Z)/deg
6999984	52.3935392336357	55.2469755560014	76.1400765793674	-46.5184949528731
5969734	48.8470074960883	49.7517789635647	69.7228058196334	-45.5257481699838
5091109	48.685282788423	47.2351088967362	67.8337104445515	-44.1338388799607
4341796	51.0807334296492	44.9423493911055	68.037167022908	-41.3422796401022
3702781	54.8780947657556	41.4019578642716	68.7439262779933	-37.0321817079188
3157797	58.1298372030017	38.183147416003	69.5487650489906	-33.299298647284
2693047	60.8952504464629	35.0905895171388	70.2821527814691	-29.9524860081643
2296687	63.7983976299772	32.089128892774	71.4139183440438	-26.7013458616755
1958656	66.3277575406449	29.1487705168317	72.450136252553	-23.7238388989853
1670375	68.66737661027	26.0215825565026	73.4324953224493	-20.7542616721797
1424531	70.5507937175361	23.2454466425337	74.2816618270298	-18.2362897794962
1214875	71.8194634012203	20.6756923234581	74.7363337092042	-16.0602762876807
1036062	73.0630150187398	18.2795675115364	75.3149835825343	-14.0464384997769
883578.1	73.9551614559651	16.2696544206841	75.7236261740439	-12.4070630084588
753531.2	74.7240864878678	14.4094393458345	76.100729587223	-10.9146741099036
642624.9	75.3402280224294	12.8912585196164	76.4351653670693	-9.70969230054196
548046.8	75.856417026505	11.5197324082244	76.7261379117711	-8.63509276704025
467390.6	76.2536358131094	10.4624713999606	76.9680471527848	-7.81255455635044
398593.7	76.5938091021935	9.57013480398314	77.1893715024916	-7.12200290334696
339937.5	76.9057859814478	8.8673227696318	77.4153042396985	-6.57722317258068
289906.2	77.1517655787324	8.30905317679254	77.5979078107808	-6.14692040928152
247234.4	77.394981051643	7.97034877933093	77.8043029121677	-5.87975018941202
210843.7	77.6400569493357	7.73708762104138	78.0246177046178	-5.69092449957532
179812.5	77.8705065418869	7.64764098633092	78.2451417133732	-5.60901559909901
153343.8	78.0918900920863	7.7635422338757	78.4768493644569	-5.67743191645779
130781.2	78.3091021981365	8.01528163612743	78.7182331279395	-5.84412367371079
111531.3	78.5726888828031	8.40581266598281	79.0210422915907	-6.10635499738626
95109.37	78.8280917485831	8.93092789826667	79.3323989417128	-6.46383482492428
81109.37	79.1090924785412	9.66284136802947	79.697045215504	-6.96394103640422
69171.88	79.4651884426672	10.5573456120729	80.1634188430194	-7.56771250175718
59000	79.8259657066174	11.6120702575433	80.6661327736751	-8.27661026336074
50312.5	80.2617826134162	12.9178776904002	81.2946819435774	-9.14316309187251
42906.25	80.6990767289369	14.3942572365007	81.9727736891549	-10.1134613883486
36593.75	81.2231299876374	16.1774256543202	82.8185120959662	-11.264344522694
31203.13	81.8595077116052	18.2604018427687	83.871456874468	-12.5750886114589
26609.38	82.4790747785564	20.5970236106148	85.0119706743875	-14.0213715962399
22703.13	83.2529412185186	23.355674636545	86.4669865281673	-15.67086552222
19359.37	84.1246791815606	26.5188215380786	88.2054961052255	-17.4965382406249
16500	85.1537709705453	30.1449581418533	90.3320718896571	-19.4942759144855
14112.02	86.2509132589832	34.231448985881	92.7955394277205	-21.6472450437809
12011.13	87.6032760726942	39.0429641441489	95.9097858814728	-24.0215420397573
10236.38	89.1238969446151	44.4872198615812	99.6101487681202	-26.5266051933165
8750.684	90.8562075990677	50.5827442495216	103.987809261939	-29.1061757785545
7449.463	92.865717302521	57.781526198579	109.374339860631	-31.890086031848
6363.206	95.1431929245018	65.8175312259326	115.68999341579	-34.6744546513775
5414.761	97.7727708989394	75.1894657893787	123.340871145572	-37.5610962373379
4620.567	100.796722893424	85.696946073279	132.302478859393	-40.3710474224201
3941.215	104.347073910554	97.7590995950437	142.986549672787	-43.13301339216
3361.769	108.347099613338	111.418532318122	155.412944565589	-45.8007106158671
2867.244	113.0524365176	127.052443196556	170.068153176249	-48.3370171579947
2442.658	118.546874272556	144.974135679901	187.272158678026	-50.7267725552838
2083.003	124.830121484486	165.299032230322	207.138430249224	-52.940715853137
1777.843	132.109005754686	188.214504161832	229.951057789209	-54.9347293013293
1513.548	140.775544988183	214.835339033488	256.850106023637	-56.764303862319
1292.065	150.479305154322	244.165856454259	286.811761853954	-58.3544909269251
1101.762	162.275471616359	277.806683666718	321.729517107479	-59.7094788166299
939.101	175.860961274706	316.0917944084	361.719643083958	-60.9101691721061
801.2801	191.554046287092	358.919175031561	406.836486631047	-61.9112983275382
684.3433	209.631259888536	407.050135980334	457.859234180183	-62.751483638318
582.9476	230.896991977422	462.011434816606	516.495872980144	-63.445736598678
497.0677	255.506885754066	523.592010713038	582.608240887703	-63.9881557433284
423.5089	283.719880160605	593.068247861929	657.439667969895	-64.4338596121607
361.5036	316.811112223699	669.9155893785	741.050725470774	-64.6899717465841
308.1262	354.44141918336	756.585063197185	835.493672917876	-64.8980700177757
262.7298	397.653059485937	853.674423025506	941.747299569506	-65.0232612960117
224.2111	446.896062972311	960.874148358387	1059.71468805694	-65.0571803974835
191.2854	503.234598548855	1080.95903245554	1192.35795423348	-65.0359236632841
163.1722	566.886115178002	1214.57476769947	1340.35507754991	-64.9798310951408
139.1537	638.944509123685	1363.90217369945	1506.14714591948	-64.8984137924527
118.6706	720.282367670431	1529.66393479247	1690.76268073959	-64.7853692194734
101.1982	812.091649116403	1715.15111586826	1897.69233460768	-64.6633292091105
86.24196	914.628275108726	1922.84346413725	2129.28905252521	-64.5612281300182
73.61024	1027.76424934395	2150.70311664226	2383.65753583947	-64.4580957268947
62.69291	1156.76570086673	2410.00668015894	2673.24504771119	-64.3597188734707
53.57697	1297.9097388842	2693.23986881369	2989.66731949527	-64.2699363869737
45.65746	1456.80886776184	3014.7895676765	3348.32020788941	-64.2092028606899
38.96512	1632.21588798599	3371.72388353672	3746.01797270192	-64.1688666319127
33.18414	1829.47997979876	3775.81025617859	4195.68112314889	-64.148583925965
28.30617	2049.25423834958	4226.72430312204	4697.30148787537	-64.1343745726458
24.17237	2284.13149988499	4724.28524511092	5247.48775948449	-64.196826972315
20.61345	2549.66727326657	5288.62849111145	5871.14933563798	-64.2611128369287
17.55618	2846.22407776839	5928.53394316697	6576.35964771935	-64.3548487322121
14.98558	3172.39966578494	6645.25240955142	7363.66072182317	-64.4804983766843
12.76553	3535.05232046979	7456.15896515528	8251.72111878027	-64.6338218826613
10.8809	3932.84225398994	8362.46067720891	9241.10365555078	-64.8125274189626
9.278505	4381.05136131972	9397.108215761	10368.1846940168	-65.0044682803314
7.923394	4882.85491314102	10552.2570263272	11627.2266879277	-65.1685633928569
6.75822	5442.72460761714	11868.8603439409	13057.3005256958	-65.3651452123663
5.761429	6074.79168594431	13354.1241696206	14670.9142988862	-65.539209790527
4.919708	6762.06039513303	15052.2386368358	16501.3741478605	-65.8084999542385
4.191257	7593.37807824739	16960.6928233584	18582.9085906251	-65.8817239604563
3.564097	8487.22741934066	19141.527722386	20938.746686812	-66.0878168793648
3.051758	9500.29889261987	21545.2562453809	23546.8415234027	-66.2051013400281
2.604164	10631.607720648	24268.501126771	26495.1170910006	-66.3426112108595
2.214424	12002.4608463303	27437.1187168809	29947.5299457552	-66.3728633824424
1.892567	13448.4178008658	30926.0336720472	33723.5748406251	-66.4978254775604
1.607507	15211.6610242246	34972.761265709	38137.7590016009	-66.4930126320813
1.376413	17114.6182017681	39366.8530954134	42926.2073659921	-66.5031539850551
1.17375	19287.6834652431	44430.4300099344	48436.3277336659	-66.5338645228742
1.001604	21802.6215684424	50097.6608727902	54636.3425952159	-66.4812097015016
