EC-Lab ASCII FILE
freq/Hz	Re(Z)/Ohm	-Im(Z)/Ohm	|Z|/Ohm	Phase(Z)/deg
6999984	-7.95506361031537	-22.6839397506178	24.0383892899217	109.325332043779
5969734	0.936850512200312	14.3526284732935	14.3831718676586	-86.2653850715894
5091109	14.3045598973171	14.0392550788617	20.0429817398828	-44.4637136009293
4341796	-16.6522821741843	14.0074925649074	21.760247001461	-139.930273741148
3702781	-2.11280689180045	-9.51276416948018	9.74456951877226	102.522260367513
3157797	-0.134827116436602	-9.85108271330665	9.85200532763436	90.7841313144477
2693047	-2.96542054536807	-6.23344474431611	6.90286552029903	115.44171380258
2296687	-3.69725475679328	-4.95100591779213	6.17917084523832	126.751213129108
1958656	-0.704762856826449	-3.67842385503432	3.74532945702347	100.846072337858
1670375	4.01535437915771	1.42407871319653	4.26040737155504	-19.5274730891353
1424531	1.4772024250875	2.59874359501158	2.98924660697275	-60.3848241697506
1214875	1.39528697050275	2.54020434430393	2.8981828515253	-61.220826888626
1036062	1.37037402009353	2.59630169455305	2.9357635197826	-62.1741140681647
883578.1	1.39841663613034	2.47368276666661	2.84159735330491	-60.5197557305039
753531.2	1.56623480046396	2.13348463469796	2.64666736419155	-53.7168444824212
642624.9	1.7284792566806	1.98613635161507	2.63294096933105	-48.9678551495897
548046.8	1.85740832955147	1.8830395385563	2.64495814833685	-45.3926099671292
467390.6	1.92149183821767	1.7655670505368	2.60947463951623	-42.5784188943631
398593.7	1.99239201666864	1.43277513251809	2.45407223374683	-35.7207844472675
339937.5	1.86137025092756	1.37975786223635	2.31698747718695	-36.5480323710333
289906.2	2.09429447819878	1.38152579644937	2.50892066189207	-33.4113061666541
247234.4	2.21665358545507	1.42119837726586	2.63312702797529	-32.6657964019417
210843.7	2.2458057265233	1.46659188817485	2.68226306087698	-33.145980870885
179812.5	2.31551152373474	1.32966047027536	2.67012931948272	-29.8661871050617
153343.8	2.42232295139494	1.28901182648965	2.74393876930315	-28.0191717087882
130781.2	2.31463243436779	1.35077794314599	2.67994857374486	-30.2670684855809
111531.3	2.38778252539942	1.43744153108641	2.78706719400428	-31.0478781800513
95109.37	2.2801236441011	1.72481586062394	2.85901269417412	-37.1059442944639
81109.37	2.43038502315766	2.21613046682645	3.28907367001493	-42.359915709612
69171.88	2.9439029044755	2.64845828920585	3.9599110622137	-41.9758735586917
59000	3.27337076614934	2.96373116240483	4.41572854415787	-42.1578965206268
50312.5	4.06951871169015	3.3179908385987	5.25071859366137	-39.1913101335118
42906.25	5.32012789767698	3.41849763329133	6.32375576034206	-32.7231494772343
36593.75	6.04897089013605	3.23311357419999	6.85879524504046	-28.1240516331869
31203.13	7.01309110251419	2.55625132321437	7.46444020939273	-20.0266511089872
26609.38	7.78171059708411	1.90146191097602	8.01065398177101	-13.7311684730062
22703.13	8.53699963625538	1.14357213218258	8.61325258023524	-7.62962632109902
19359.37	8.73673503722376	-0.0418488265728409	8.73683526426697	0.27444380448713
16500	8.83163259294038	-1.11749005919321	8.90205135286707	7.21146453347869
14112.02	8.58166169979139	-2.54182266564573	8.95018323797098	16.4988869390092
12011.13	8.08370608585487	-3.47897999867288	8.8005457736241	23.2855662927559
10236.38	6.94632566537853	-4.31301820022907	8.17640301385662	31.8364113456001
8750.684	6.2667158150823	-4.99955061473642	8.01668469233473	38.5826685269003
7449.463	4.96691404948495	-5.1039510944935	7.12183627654781	45.7795913915385
6363.206	4.26482397717658	-5.40569724938632	6.88551278470406	51.7283314290623
5414.761	3.5157582240601	-5.06134605467927	6.16261144120442	55.2150317138632
4620.567	2.92139130726718	-4.44855660047766	5.32204688046146	56.706876302513
3941.215	2.24278451071708	-4.3646547474668	4.90716755635029	62.8035655018954
3361.769	1.68901730187284	-4.16226349871675	4.49190570679924	67.9130312315336
2867.244	1.18902975918398	-3.7910359594535	3.97312791313024	72.5863614875181
2442.658	1.04988917193328	-3.52102864082335	3.67422236164893	73.3966384013921
2083.003	0.872212584303645	-3.59791777608453	3.70213007816888	76.3731541470967
1777.843	0.741827671528378	-3.37451649689976	3.45509332465765	77.6017475471958
1513.548	0.284268355425011	-3.2686320549226	3.28096997980225	85.0295724032718
1292.065	0.54778914270887	-3.38168015551993	3.4257602979641	80.7987374524667
1101.762	0.15510676143129	-3.8554030393423	3.85852182878515	87.6961752775901
939.101	0.501813476332422	-3.77672339115241	3.8099155290251	82.4314379854715
801.2801	0.334455801317532	-4.25230002329825	4.26543270620663	85.5027782462703
684.3433	-0.549281145511914	-4.39247617795693	4.42668688193936	97.1278627263567
582.9476	-0.0339553915722708	-6.24326108599881	6.24335342236557	90.3116130208033
497.0677	0.186169554455308	-5.53252448447342	5.53565590280899	88.0727231405501
423.5089	-0.632059600595636	-6.00654312838131	6.03970692101942	96.0070426875218
361.5036	0.47178491183981	-7.62578290034853	7.64036293943473	86.4597896514773
308.1262	-0.875645995616703	-9.44747435093041	9.48796751265136	95.2953718101898
262.7298	-1.5469251648296	-8.78060910450754	8.91583275481005	99.9915630822
224.2111	-3.74712490779735	-7.99956683672411	8.8336863567738	115.099142336871
191.2854	-6.68655471221626	-8.21643332409027	10.5933842792888	129.138785557198
163.1722	2.14397019730745	-16.2497050301703	16.3905314671149	82.483863623726
139.1537	5.66872573713484	-9.39065738904886	10.9689971137453	58.8824715351381
118.6706	11.0386675709848	-9.39035647511922	14.4924454966208	40.3870959702617
101.1982	0.883500203725391	-16.6663876977279	16.689788839316	86.9655394972393
86.24196	5.58862531646783	-15.5073769089716	16.4836728772677	70.1816003255746
73.61024	8.45834543660822	-5.7533763785137	10.2296112965171	34.2235827032332
62.69291	14.8199369866826	-5.45313937109178	15.7913666694747	20.2015808534186
53.57697	13.139158924262	-5.45644840694691	14.227098314649	22.5522032333002
45.65746	17.3199151925107	7.07448369708771	18.7090294204729	-22.2180255992902
38.96512	-3.01559137168194	13.0660821557598	13.4095598071685	-102.996039168307
33.18414	12.3938401617729	-7.11401270331513	14.2904321382701	29.8556446816313
28.30617	7.65523317356312	5.05916142854644	9.17593097738389	-33.4597669369663
24.17237	16.3593892974826	4.54438317245815	16.9788408498551	-15.5244633464082
20.61345	7.08819778827717	-11.8653536309912	13.8213300616913	59.1464904871344
17.55618	6.26944280840927	-8.64750669379783	10.6810713482868	54.057886150817
14.98558	19.6070101126835	6.1204255647589	20.5400694899659	-17.3360126551631
12.76553	11.8215047437659	-15.8322678368845	19.7587620883933	53.2523475979087
10.8809	18.8354499378065	1.49293001245741	18.8945233965218	-4.53188702988959
9.278505	17.8712207591125	-5.4305364294018	18.6780956559279	16.9024784098994
7.923394	1.48754331493801	11.4182276783205	11.5147170363749	-82.5774276316709
6.75822	5.31435428896855	-12.6245959426277	13.6975466497943	67.1712227741777
5.761429	12.5304095797775	-13.1587250169897	18.1703937301791	46.4010844414949
4.919708	6.76350625445029	-6.31291637461985	9.25191493729442	43.0264718901554
4.191257	4.44330378372933	12.7916666703056	13.5414063050597	-70.844856269218
3.564097	-3.37608098915899	-18.2792398557596	18.5883977940475	100.464310558962
3.051758	13.8238963908413	-21.7014062141611	25.7303545077937	57.5026745729041
2.604164	4.76852382633568	-32.2351262904448	32.5859200643968	81.5852939136223
2.214424	6.53726628196335	-24.3112363386659	25.1748299449225	74.9492394346376
1.892567	21.9184036060799	-2.07904449898152	22.0167854753541	5.41851228883817
1.607507	-3.08303934904452	19.6705845958433	19.9107265053284	-98.9076988211511
1.376413	-1.65542699845516	25.5332023709753	25.5868103104782	-93.7095392248267
1.17375	1.83520769828127	-39.7160847757667	39.7584629633958	87.3543486570151
1.001604	17.5676977465176	-21.8713537793978	28.0531659578126	51.2275720456959
