EC-Lab ASCII FILE
freq/Hz	Re(Z)/Ohm	-Im(Z)/Ohm	|Z|/Ohm	Phase(Z)/deg
6999984	31.0606484454648	81.9128312849035	87.6040855837319	-69.2336989493101
5969734	31.944107895686	78.9596458151962	85.1765912473166	-67.9735928704789
5091109	32.5029462282945	82.3004606640912	88.4861985794453	-68.449434319335
4341796	35.3117383126823	87.7007345887882	94.5427824324862	-68.0683600897935
3702781	42.2032367553501	92.8496265821675	101.991011119	-65.556627707499
3157797	48.2609407981458	99.3078249665287	110.41359747017	-64.0814905681552
2693047	55.894872625171	108.370250053495	121.935835103718	-62.7163613254765
2296687	66.5783459888977	118.120095561021	135.591419824272	-60.592234891588
1958656	78.4755957724607	127.586764854444	149.789190857905	-58.4053122833532
1670375	92.9770996469458	136.542933588635	165.192959207553	-55.7476131731711
1424531	109.074701178263	145.262174149693	181.654588920355	-53.0977865030942
1214875	127.251319758218	153.618152859761	199.477906717143	-50.3629672736876
1036062	146.017218612803	159.600126397615	216.317425274881	-47.5447884146673
883578.1	167.616777221097	165.016046669695	235.214114509486	-44.5520350450487
753531.2	189.281936668063	168.275062261633	253.266950327059	-41.6376737609599
642624.9	212.352572564288	169.910706883492	271.961878557123	-38.6645212775127
548046.8	230.365532653946	170.517726422143	286.608746654936	-36.5090311339187
467390.6	249.119422760296	170.202084818198	301.710517670306	-34.3414687695813
398593.7	280.424588801632	157.077326514754	321.420653520565	-29.2549786475279
339937.5	295.016864488601	153.508705252846	332.565591907958	-27.4897071398858
289906.2	314.217722763251	149.12425792885	347.808599090583	-25.3884990178025
247234.4	331.115029236528	141.506262912396	360.084969180524	-23.1400636606824
210843.7	345.55225254409	133.16331311203	370.322598820632	-21.0748544768672
179812.5	359.073997966162	125.400868297265	380.341312225101	-19.2509407388934
153343.8	371.704893146508	117.530622909957	389.843526187955	-17.5466090223414
130781.2	381.994903072616	109.734199924541	397.443959076669	-16.0275661271567
111531.3	391.309867272566	103.028242679517	404.645809337626	-14.7506781145061
95109.37	398.52922918507	95.7708640171094	409.875108916642	-13.5125678854299
81109.37	407.362839944274	91.2241968200644	417.452197805844	-12.6224779506942
69171.88	412.863870689049	87.0499525139214	421.941074029325	-11.9060973602862
59000	419.149368434113	82.8610190962896	427.261209969254	-11.1825318791273
50312.5	424.155621115172	79.4232587538658	431.527571488405	-10.6058326695943
42906.25	429.877642232551	78.3910966937183	436.966762274044	-10.3347147705163
36593.75	433.720818069779	78.5022649789855	440.767913571246	-10.2593077950992
31203.13	435.90851492236	80.5714110199132	443.292212491441	-10.4721100497887
26609.38	440.756589350455	82.5926547284825	448.428274834387	-10.6134759265813
22703.13	443.964786887843	85.066946441624	452.041057176525	-10.8468301773822
19359.37	448.528102911079	85.2218515141365	456.552541419395	-10.7581534994298
16500	454.113726441333	91.2364581390285	463.1882639232	-11.3601144181502
14112.02	458.176748042481	99.6957319306363	468.897826196676	-12.2757697297046
12011.13	464.17959002907	108.850468860865	476.771555748437	-13.197441098108
10236.38	470.123074324154	119.677132011184	485.116811642738	-14.2821762550055
8750.684	475.065456004396	131.651321977713	492.969834845038	-15.4892493603195
7449.463	482.115056688094	146.643894826267	503.923962295089	-16.9180743210828
6363.206	489.294527602047	162.320158211183	515.516215557778	-18.3529153386951
5414.761	497.170810177841	181.601360559058	529.29941304501	-20.0657096418812
4620.567	506.73747035457	203.916911259658	546.227947434977	-21.9204141317654
3941.215	516.206707694072	228.640176831239	564.575677416034	-23.8896872623639
3361.769	527.08346622853	256.439469644135	586.155424749142	-25.9440961917409
2867.244	539.050216799769	289.510630271162	611.875429537649	-28.2391531246507
2442.658	551.027062982538	326.584014032506	640.537229488456	-30.6544738987586
2083.003	564.819221512458	369.646780490139	675.0255516028	-33.2028010954281
1777.843	580.346458304853	418.847115686505	715.705887907799	-35.8187029344553
1513.548	597.736533602395	475.467195429563	763.778775256724	-38.5003574100518
1292.065	615.322013917678	538.81919896352	817.891991636669	-41.2076689357142
1101.762	635.7782892552	613.467310161269	883.490901891339	-43.976831255361
939.101	658.691072165227	698.131907939127	959.823988777579	-46.6650346385558
801.2801	684.600921774765	796.548034012236	1050.31766270192	-49.3222696529237
684.3433	712.780909717908	908.495832116453	1154.73862940115	-51.8832420281318
582.9476	743.684679044946	1037.24921439499	1276.30436597593	-54.3603161933988
497.0677	780.780367475803	1187.32961278736	1421.04524616123	-56.671335730481
423.5089	822.511632471347	1358.16307254669	1587.80739297314	-58.8006531619934
361.5036	869.414375209911	1555.02332821825	1781.5664195097	-60.7904209929238
308.1262	924.989354047465	1780.87426072574	2006.76815741545	-62.5525526918486
262.7298	990.669755447434	2042.80240279499	2270.34539689961	-64.1286449946945
224.2111	1066.16242647972	2339.14109144255	2570.65815800394	-65.4968682094669
191.2854	1153.77088941366	2678.05577597435	2916.01954802913	-66.6924592405664
163.1722	1248.89098588178	3067.7456157565	3312.21857032564	-67.8485734795813
139.1537	1369.56141748964	3515.15077804963	3772.53011501554	-68.7132813839928
118.6706	1501.70880102788	4029.07736372454	4299.83647665375	-69.5586806107083
101.1982	1669.27112746872	4608.87958512997	4901.86057810996	-70.0903281488102
86.24196	1857.55300034162	5278.7254553192	5596.0205129818	-70.6133240242056
73.61024	2078.02646871338	6037.07114555386	6384.70218735004	-71.0059720012088
62.69291	2344.38784204022	6905.8653314532	7292.95072861961	-71.2487915147852
53.57697	2652.10089289296	7872.50826752988	8307.22730930182	-71.3822906810507
45.65746	3006.68419067106	8993.01226914566	9482.32141911651	-71.5133834245766
38.96512	3428.52116861185	10249.8211000205	10808.0335855346	-71.5051328323267
33.18414	3938.62230912762	11689.9559621632	12335.6319696752	-71.3801134414292
28.30617	4531.28086826769	13311.6659333256	14061.7550905849	-71.2014652009074
24.17237	5219.67389732164	15123.3686028755	15998.7897508787	-70.9584165042129
20.61345	6041.29836975503	17163.4983142371	18195.6852131275	-70.6086830660651
17.55618	7000.05559944651	19497.456365341	20715.9741048718	-70.2506417398878
14.98558	8124.13621556907	22062.6564478574	23510.8995741402	-69.7847697566669
12.76553	9439.21698805376	24976.4486234155	26700.5955586327	-69.2971826730106
10.8809	10961.3903792568	28215.9941814949	30270.3552456296	-68.7697750225927
9.278505	12747.2840927815	31787.9858454792	34248.6393285115	-68.1487460684504
7.923394	14777.0217250461	35731.4441022507	38666.4773246123	-67.5320715935511
6.75822	17167.5526645456	40129.1412354303	43647.140121468	-66.8383915909862
5.761429	19890.7435932915	44999.1163192531	49199.2088372134	-66.1533632511278
4.919708	22976.0093844755	50286.0441617106	55286.3748555557	-65.4440415007558
4.191257	26542.9633919214	56257.452331283	62204.7413661648	-64.7414806523664
3.564097	30746.5695556122	62689.5983386181	69823.6154842713	-63.8740225505383
3.051758	35176.5831166775	69592.8169910642	77977.8954352852	-63.185098097673
2.604164	40421.19779228	77144.2731975536	87092.5491539971	-62.3468608433966
2.214424	46387.3490002286	85614.1455679845	97373.3437271466	-61.5503349166058
1.892567	52936.3054720328	94662.3015252743	108458.304279065	-60.7855508516651
1.607507	60288.8388105855	105007.792358308	121084.187824399	-60.1382804305059
1.376413	68091.7439554402	115364.334994985	133960.499341143	-59.4495278649791
1.17375	77180.6364486685	127014.722807846	148625.672252728	-58.7149959716214
1.001604	87004.9105520483	139728.369640308	164602.162022583	-58.0906438622673
