EC-Lab ASCII FILE
freq/Hz	Re(Z)/Ohm	-Im(Z)/Ohm	|Z|/Ohm	Phase(Z)/deg
6999984	17.8854589128626	-3.04935345010873	18.1435442234252	9.67552109764036
5969734	19.3281690198313	-2.52205747916641	19.4920212288871	7.43429927916097
5091109	13.1457797035731	-4.11264855249396	13.7740844389457	17.3722579652831
4341796	9.21712989422982	-2.61363395471202	9.58053056653589	15.8313567302141
3702781	5.20209622405967	-5.30570159850061	7.43049625373082	45.564909835281
3157797	3.64677525507226	-5.05183309501721	6.23056878470325	54.175548763625
2693047	1.58388656732687	-5.3477791161938	5.57740424693755	73.5019480441372
2296687	-0.19757999856658	-19.467886219117	19.4688888151409	90.5814761423099
1958656	-3.63422711724369	-19.5057430759326	19.8414117361644	100.554093045459
1670375	8.21962968534194	-2.34194608424722	8.54675515185004	15.9033717954841
1424531	1.16401204569009	-0.814954016609634	1.42094126961666	34.9968293548079
1214875	11.81425801545	3.294015074055	12.2648778128331	-15.5793698919156
1036062	16.0564831308865	13.2436994516659	20.8136067441109	-39.5164751414045
883578.1	-7.79721784153698	18.1663636679807	19.7690003537283	-113.229581051359
753531.2	-1.041636842662	5.56329812328224	5.65997290810712	-100.604914401888
642624.9	10.851960432214	-6.44888861828469	12.6235181163327	30.7213323438724
548046.8	7.2928533700833	0.49603126063351	7.30970295491281	-3.8910411844871
467390.6	5.40802713375587	4.87100114976883	7.27828342952437	-42.0093113756156
398593.7	10.3987973636208	8.25832403378003	13.2791152738635	-38.4552484428411
339937.5	12.4043067582332	0.633480359399105	12.420471952309	-2.9235205874018
289906.2	8.2848201600511	-1.35814929525565	8.39540437338146	9.30981932574221
247234.4	3.0552239244624	1.93839976854626	3.6182574385065	-32.3932575675318
210843.7	5.45507288849898	-1.14178282138177	5.57328343349225	11.8217235953753
179812.5	18.7137500910555	8.56054502710219	20.5788088487046	-24.58157390703
153343.8	-4.54251045505737	-5.14233661162611	6.8613429488385	131.455941472266
130781.2	8.6605832267124	-4.43863497179052	9.73176151781444	27.1355905746052
111531.3	2.64045902969581	-2.54731619713224	3.66890224667739	43.9714053450411
95109.37	4.44509373928838	-0.350316889520292	4.45887657085773	4.50615434939467
81109.37	2.78495706932208	0.917678562080333	2.9322550743871	-18.2377049852502
69171.88	-0.386056336895247	-6.59639440593772	6.60768179121418	93.3494352505869
59000	8.5091425296059	-2.32753181575787	8.82172947570447	15.2980819919741
50312.5	2.25516039314728	-6.57121107398689	6.94741415043815	71.0583976394632
42906.25	0.36387135673764	-0.615955075549786	0.715404095144578	59.4278127645436
36593.75	0.509205928642401	-0.0996595064242651	0.518866741066815	11.0736985459422
31203.13	0.366065699493182	-0.00814777115639501	0.366156363484577	1.27506027728413
26609.38	0.348476430819407	-0.0810568845109153	0.357779319362158	13.0943659907639
22703.13	0.342724983421517	-0.0721690470847409	0.35024103931207	11.8912864012821
19359.37	0.351661067959953	-0.0659065461204899	0.357783704967494	10.6149484281148
16500	0.355448549143756	-0.0620124825388006	0.360817431783757	9.89636767977353
14112.02	0.342201307705724	-0.051276820840521	0.346021744043663	8.52202527574913
12011.13	0.332305486169115	-0.0372255549591992	0.334384027848389	6.39174527514092
10236.38	0.334485838649456	-0.0365747224553293	0.336479548531131	6.24027815242014
8750.684	0.332394397561259	-0.0343911340851626	0.334168798115227	5.90708027623976
7449.463	0.341945420927702	-0.0119636120104928	0.342154641800693	2.0037846704304
6363.206	0.33294811060642	-0.0281576250840612	0.334136643017134	4.83403632315183
5414.761	0.323324792147493	-0.0309895537350967	0.324806517265156	5.47487643897637
4620.567	0.327013881627411	-0.022766264616879	0.327805402001907	3.98242909872606
3941.215	0.327746370936706	-0.0193207681943417	0.328315360203876	3.37370269436081
3361.769	0.326580928316354	-0.0204973652444152	0.327223539376271	3.59137337143557
2867.244	0.32482363412417	-0.0152968013136783	0.325183618000758	2.69621734387529
2442.658	0.322498020742137	-0.0162839914442229	0.322908875319263	2.89059843249358
2083.003	0.324618200731414	-0.0216097311689388	0.325336682111462	3.8085427104396
1777.843	0.31822390317164	-0.0150638573926251	0.318580244756856	2.71020381661223
1513.548	0.317553740691911	-0.015502458074675	0.317931917922348	2.79486807112533
1292.065	0.31138221322603	-0.00621278416828026	0.311444186654146	1.14302960184757
1101.762	0.316746575612071	-0.0154040750494596	0.317120921243148	2.78422480712298
939.101	0.313071359299876	-0.00913026088914241	0.31320446624813	1.67047277564879
801.2801	0.31335307946372	-0.0118349426395002	0.313576495095976	2.16295979436908
684.3433	0.318564711494878	-0.0171537708769013	0.319026217206537	3.08223218848421
582.9476	0.308393272164582	-0.01144489472678	0.308605566916226	2.12534912582331
497.0677	0.30627410786186	-0.0276064866913384	0.307515767488461	5.15052445819501
423.5089	0.28989445449909	-0.0244666340698492	0.290925095053749	4.82424046372848
361.5036	0.34301519262517	-0.0142001274588061	0.343308994917886	2.37057448918151
308.1262	0.315358801275653	-0.00880001782938857	0.315481558662015	1.59841130079739
262.7298	0.306663313888517	-0.00387858385565192	0.306687840479228	0.724620869417542
224.2111	0.282438617292462	-0.0146567586394759	0.2828186576446	2.97062000999273
191.2854	0.288872693112944	0.011201589873081	0.289089793043631	-2.22064060152049
163.1722	0.248905557629178	-0.0238575836964734	0.250046317546422	5.47507124462671
139.1537	0.281412646686207	-0.105691527633521	0.300605683127321	20.5849182662508
118.6706	0.293226611256507	-0.00930364070444404	0.293374169413962	1.81729951318681
101.1982	0.277994103378065	-0.0921678660777379	0.292874780495518	18.3427396082536
86.24196	0.307297069136398	-0.00427526356480054	0.30732680745156	0.797074820358606
73.61024	0.308303485412523	-0.106106588569702	0.326051602135935	18.9915570154597
62.69291	0.676225956389019	-0.272213880076751	0.728959491741951	21.9271864929038
53.57697	0.332321100036193	0.0506320982863203	0.336156099016723	-8.6629041384159
45.65746	0.313952885850736	-0.00601800500846742	0.314010558609559	1.09813950451466
38.96512	0.276109335044323	0.0309361039226847	0.277837015936562	-6.39292556819889
33.18414	0.293095873031	-0.0279799844235391	0.294428378924562	5.45313555544013
28.30617	0.313628822206455	0.00546668363628722	0.313676461897586	-0.998588660568477
24.17237	0.272208671445369	0.00167068618240511	0.27221379833207	-0.351649580902111
20.61345	0.275598461109197	-0.0374459117341877	0.2781307391702	7.73746843729854
17.55618	0.294957817306311	-0.0263016197687378	0.296128163457247	5.0956322366325
14.98558	0.273092688815241	0.0192803545489729	0.273772439730284	-4.03838358404074
12.76553	0.263562970407511	-0.0574232285407534	0.269745929619103	12.2911192690362
10.8809	0.310211846543101	0.0196393975809119	0.31083290635488	-3.62253998365951
9.278505	0.302981480329558	0.0183370827431415	0.303535872717245	-3.46343762536081
7.923394	0.27786716895003	0.00780057928013737	0.277976640416798	-1.60804501316472
6.75822	0.272542888571601	-0.0265205121491043	0.273830173055496	5.55782067418848
5.761429	0.346655640238345	-0.108131344462994	0.36312879335634	17.3241237809141
4.919708	0.308307649920633	0.121310087880552	0.331315173846854	-21.4781938463275
4.191257	0.358111915930352	0.00576182668341004	0.358158265265562	-0.921778511511034
3.564097	0.375680739510111	0.0674925566479295	0.381695249173654	-10.1847717155306
3.051758	0.311834835065201	0.176793668859222	0.35846473426105	-29.550917078291
2.604164	0.160437913341091	-0.133889927880493	0.208966114059402	39.8459430623386
2.214424	0.321730105913439	0.0117587723346607	0.321944917304018	-2.09314660590578
1.892567	0.283005453106401	0.0317414906863962	0.284779930330341	-6.39946874621929
1.607507	0.245937117924477	0.00343327644535718	0.245961080986705	-0.799795796927682
1.376413	0.231523655753604	-0.00543350299169651	0.231587404943089	1.34439676486189
1.17375	0.269518143573553	-0.0128239558446973	0.269823059724037	2.72413872314761
1.001604	0.347405219372051	-0.152516292809507	0.379409549193609	23.702221201375
