EC-Lab ASCII FILE
freq/Hz	Re(Z)/Ohm	-Im(Z)/Ohm	|Z|/Ohm	Phase(Z)/deg
6999984	5.59460928662862	1.37386746063574	5.76083022397162	-13.7970987264919
5969734	3.84834701458694	-0.100949201236065	3.84967082825407	1.50262880026978
5091109	2.24800534761749	-0.927952064854232	2.43199981035856	22.4303007328082
4341796	1.446685185119	-1.3050410293386	1.94834034837344	42.0533202638596
3702781	0.787918182838027	-0.967213834402138	1.24752461470933	50.8328213135846
3157797	0.565700398190109	-0.801166422321078	0.980757144642446	54.7742380933352
2693047	0.399493808131685	-0.62664215881077	0.74315254015214	57.4818762049408
2296687	0.349806595942612	-0.468836630572757	0.584955075823583	53.272785002461
1958656	0.299389988877016	-0.3255964094948	0.442320457717802	47.4010734109147
1670375	0.263083363892809	-0.249221039718829	0.362386510504586	43.4500252106279
1424531	0.283259516894197	-0.189485794794486	0.340794395992704	33.780451414901
1214875	0.265380687162054	-0.15365255126915	0.306652923726683	30.0703778040904
1036062	0.263810651586813	-0.117353596500491	0.288735045504107	23.9814235349423
883578.1	0.273847925222286	-0.0815169941737131	0.285723129073703	16.5768206583029
753531.2	0.276873438619629	-0.0708943510820287	0.285805720776194	14.3622012702515
642624.9	0.278705229597848	-0.0527577020581237	0.283654684663665	10.7190147524444
548046.8	0.279069628294326	-0.043851482051439	0.282493911287378	8.93012592448696
467390.6	0.278616220898918	-0.0304067846523107	0.28027053198809	6.22832625281371
398593.7	0.281099659043317	-0.0285447135079942	0.282545251213895	5.79831569799008
339937.5	0.277247476646164	-0.0216208120811597	0.278089235357491	4.4591179521612
289906.2	0.280111343569005	-0.0210963637546781	0.280904648163221	4.30705495333348
247234.4	0.282206415435218	-0.019257388529593	0.282862701545775	3.90373563739602
210843.7	0.281299698554632	-0.0145490439097752	0.281675691328903	2.96074508239365
179812.5	0.282094342122542	-0.0134604798278879	0.282415301240473	2.73186677788833
153343.8	0.28100821864966	-0.0124821235102239	0.281285304194833	2.54335335004998
130781.2	0.280417558297174	-0.0114233397320978	0.280650137523544	2.33276213949185
111531.3	0.280375329889645	-0.0105471141054267	0.280573639579131	2.15432761222764
95109.37	0.279937666148598	-0.00953860104880589	0.280100128237551	1.95154237867037
81109.37	0.279288939978481	-0.00849353696425208	0.279418059839494	1.74190170509437
69171.88	0.278663392859993	-0.00764669470199364	0.278768288117764	1.57183694530143
59000	0.278181621767856	-0.00681221818407165	0.278265019371789	1.40280064475076
50312.5	0.27765495266419	-0.00590980886801297	0.277717839865951	1.21934070466546
42906.25	0.277307223015418	-0.00507556892243187	0.277353668330543	1.04857063382671
36593.75	0.276956274589605	-0.00435387306153515	0.276990494864334	0.900640379575273
31203.13	0.276644459313271	-0.00367310258092283	0.276668842754839	0.760690854452208
26609.38	0.276474299239305	-0.00302581682418638	0.276490856462412	0.627036989582041
22703.13	0.276443558268168	-0.00258876778912266	0.276455679317015	0.536533149220971
19359.37	0.276287726933215	-0.00209541265006586	0.276295672800167	0.434532509630145
16500	0.276295862387435	-0.001759777009536	0.276301466495456	0.364921976338977
14112.02	0.276202889878617	-0.00139560459101624	0.276206415728299	0.289503026103892
12011.13	0.276186162513656	-0.00114449438989833	0.2761885338522	0.237427980724262
10236.38	0.276158521290078	-0.000966824715214844	0.276160213700584	0.200590404131459
8750.684	0.276173527826718	-0.000756447812570486	0.276174563791723	0.156934515185041
7449.463	0.276181659415565	-0.000620879787029156	0.276182357309885	0.12880555330355
6363.206	0.276141018042828	-0.000430219769966829	0.276141353177643	0.0892651056079969
5414.761	0.276072823366756	-0.000372971022333139	0.276073075306296	0.0774058532770406
4620.567	0.275901758025901	-0.000256667451368483	0.275901877412901	0.0533014271626396
3941.215	0.275785843191389	-0.000291845789139819	0.275785997611826	0.0606322846414676
3361.769	0.275671061090197	-0.000175891062249841	0.275671117203564	0.0365573887718277
2867.244	0.27551661675215	-0.000153142373028688	0.275516659313257	0.0318471199267911
2442.658	0.275343605358725	-9.25582157488153E-05	0.275343620915693	0.019260279950954
2083.003	0.275264657545568	-5.90719615748953E-05	0.275264663884007	0.0122957086609752
1777.843	0.275135542967477	-5.1034809909683E-05	0.275135547700693	0.0106277769531478
1513.548	0.274977808827344	-1.04469569179948E-05	0.274977809025794	0.00217678125526102
1292.065	0.274911731124329	-3.65424496367109E-05	0.274911733553019	0.00761600138473081
1101.762	0.274797354399685	2.84080834435367E-05	0.274797355868074	-0.00592314028323728
939.101	0.274748178717919	1.78566836772203E-05	0.274748179298198	-0.0037238194412736
801.2801	0.27471911879915	-1.46222822467477E-05	0.274719119188295	0.00304964234909717
684.3433	0.274623866122473	-4.94339436505812E-06	0.274623866166965	0.00103135840870319
582.9476	0.274609042277516	3.1295572356374E-06	0.274609042295349	-0.000652966194600687
497.0677	0.274610364501862	-2.95754265270552E-05	0.274610366094492	0.00617073253524716
423.5089	0.274533679272192	-1.23331565065943E-05	0.27453367954922	0.0025739567447613
361.5036	0.274418962749399	-2.58598545660989E-05	0.27441896396785	0.00539926434466854
308.1262	0.274399353362243	-1.05067567333621E-05	0.274399353563395	0.00219385654347151
262.7298	0.274277920835691	-3.04714817242402E-05	0.274277922528337	0.00636539494614286
224.2111	0.274236495644289	-2.66828326640276E-05	0.27423649694239	0.00557480027844718
191.2854	0.274136490628448	-1.24443985869774E-05	0.274136490910904	0.00260093618141842
163.1722	0.274071458403521	-4.26237031831396E-05	0.274071461717948	0.00891066254818637
139.1537	0.273981681801279	-8.27633727314816E-06	0.273981681926283	0.00173076970809277
118.6706	0.273870202101569	-1.80242771496763E-05	0.273870202694687	0.00377081916920818
101.1982	0.273720820664578	-1.24107428917588E-05	0.273720820945935	0.00259784106340912
86.24196	0.273564317667532	-2.32405198811974E-05	0.273564318654725	0.00486753430064415
73.61024	0.273441097990068	-2.78701831283949E-06	0.273441098004271	0.000583980930151345
62.69291	0.273381822030282	8.80572417427844E-06	0.2733818221721	-0.00184551711163921
53.57697	0.273294247993915	-1.53602845892735E-05	0.273294248425571	0.00322026345090918
45.65746	0.273261697016396	-2.19997500183097E-05	0.273261697901973	0.00461276804408144
38.96512	0.273188742062019	-4.40301027506901E-06	0.273188742097501	0.000923441807990299
33.18414	0.273091297352251	1.86963491194102E-05	0.273091297992245	-0.00392257792744669
28.30617	0.273029518854877	1.78824970193156E-05	0.273029519440498	-0.00375267703358316
24.17237	0.272932424560223	4.19064811621491E-06	0.272932424592395	-0.000879728565968588
20.61345	0.272714755351077	-2.93647794553663E-06	0.272714755366886	0.000616936889569475
17.55618	0.272607550880712	1.31143069256556E-05	0.272607551196157	-0.00275632290841569
14.98558	0.272446021727911	-1.87122548455293E-05	0.272446022370512	0.00393521336570271
12.76553	0.272345614444003	1.77330003542119E-05	0.27234561502132	-0.00373064967114936
10.8809	0.272236662636995	-8.59217020700421E-06	0.272236662772586	0.0018083350155242
9.278505	0.272145896388188	3.93979629743764E-05	0.272145899239966	-0.008294583949394
7.923394	0.272011971087537	1.87082843301339E-05	0.272011971730891	-0.00394065646475645
6.75822	0.271892697543367	1.15452028924695E-05	0.271892697788485	-0.00243291344320733
5.761429	0.271776909573522	-3.6480533041172E-06	0.271776909598006	0.000769079529530719
4.919708	0.271672658313778	2.7260340885031E-06	0.271672658327455	-0.000574920748536941
4.191257	0.271548888004723	3.91043433100457E-06	0.271548888032879	-0.000825086726962552
3.564097	0.27143029716017	1.29428062893033E-07	0.271430297160201	-2.73207590748355E-05
3.051758	0.271335033969861	7.65298292834656E-06	0.271335034077786	-0.00161602287750413
2.604164	0.271207761200841	1.24537031025944E-05	0.271207761486774	-0.00263098896368862
2.214424	0.271024538217446	-3.12101559292554E-06	0.271024538235416	0.000659796424476441
1.892567	0.270646007142916	1.28666925220924E-05	0.270646007448761	-0.00272387974622421
1.607507	0.270118382989866	-1.70276875340801E-05	0.27011838352656	0.00361180390049435
1.376413	0.269553274136494	1.00255757909871E-06	0.269553274138359	-0.000213101911616392
1.17375	0.269003764972472	1.04368511192412E-05	0.269003765174938	-0.00222297082087329
1.001604	0.267646125669896	-2.4079385964642E-05	0.267646126753074	0.00515474371939836
