EC-Lab ASCII FILE
freq/Hz	Re(Z)/Ohm	-Im(Z)/Ohm	|Z|/Ohm	Phase(Z)/deg
6999984	13.7040122651988	-2.40647006831097	13.9137000957472	9.95978264853861
5969734	9.877879907286	-1.44577938706048	9.98312523705946	8.3269904422866
5091109	7.73307459865765	-0.649958427438911	7.76034075964471	4.80437028739334
4341796	6.59541033041547	-0.211457355201142	6.5987992574119	1.83634749508594
3702781	5.9099651230922	0.0531694427685379	5.91020428968496	-0.515451854698487
3157797	5.63592421605012	0.249202379749814	5.64143098824519	-2.53178533216629
2693047	5.4029010577726	0.298361875110894	5.41113293577232	-3.16080762050846
2296687	5.27344316899531	0.340776574369737	5.2844424048581	-3.69738488747965
1958656	5.17565271626501	0.351482096754929	5.18757368176304	-3.88503028425838
1670375	5.1124544956195	0.345573833610699	5.12412063131386	-3.86699758357223
1424531	5.06369137763888	0.323142641499753	5.0739916766516	-3.65141476470292
1214875	5.03425452247749	0.296112600625595	5.04295560850324	-3.36623361654348
1036062	5.01526458309445	0.267393356766246	5.02238768373015	-3.0518866247807
883578.1	5.00173983722237	0.237227398828638	5.00736240330298	-2.71544523452209
753531.2	4.99515856275631	0.208594217224794	4.999512037643	-2.39124107685188
642624.9	4.99229225397799	0.18384147398864	4.99567609405243	-2.10896768950273
548046.8	4.99486666482853	0.160586013896463	4.99744743516872	-1.84143707918008
467390.6	4.99749580302105	0.139265316553628	4.99943588113777	-1.59624953103637
398593.7	4.99429191769861	0.120775125271382	4.9957520344863	-1.38529277340494
339937.5	4.99241858007357	0.104871537983896	4.99351993268705	-1.20338726781783
289906.2	4.99179845254354	0.091372144702881	4.99263464111322	-1.04865084791803
247234.4	4.99134045797431	0.0806612924073503	4.99199216861405	-0.925833333827175
210843.7	4.99124924997935	0.0703368477083833	4.99174481995675	-0.807360558696794
179812.5	4.99103831206236	0.0612596863054578	4.991414246648	-0.703209436613504
153343.8	4.99168899761423	0.053592183166748	4.99197667973314	-0.615120040401115
130781.2	4.99307611762548	0.0479765345463425	4.99330660627494	-0.550516012323801
111531.3	4.99356696795225	0.0422909554603752	4.99374604764175	-0.48523136768165
95109.37	4.9947229328614	0.0372419337061876	4.99486177363075	-0.427204092951524
81109.37	4.99551992382017	0.0306796369782945	4.99561413135657	-0.351873607400007
69171.88	4.99650197803361	0.0284080180245072	4.99658273542847	-0.32575630033722
59000	4.99726475283037	0.024655669915667	4.99732557593957	-0.282685515891189
50312.5	4.99787554560492	0.0208674211635748	4.99791910885138	-0.239223286679525
42906.25	4.99788748363979	0.0185161333157974	4.99792178273292	-0.21226797154558
36593.75	4.99885820788461	0.0157701952498144	4.99888308340909	-0.180753803123117
31203.13	4.99894963183074	0.0150809669820143	4.99897238011432	-0.172850938959098
26609.38	4.99906530330482	0.0135409463139831	4.9990836424222	-0.155196447713511
22703.13	4.99930967109768	0.0113449729084234	4.99932254369941	-0.130021541632156
19359.37	4.99965635635426	0.0103759367233927	4.99966712308894	-0.118907478209547
16500	5.00007916818179	0.0086491355716153	5.00008664881236	-0.0991101248101708
14112.02	4.99963734573409	0.0088488973759628	4.99964517659441	-0.101408143934881
12011.13	4.99976644361962	0.00785004974786854	4.99977260623179	-0.0899590720894593
10236.38	4.9999869221787	0.00713740617960933	4.99999201644612	-0.0817888085224528
8750.684	5.00009548714597	0.00735852083847477	5.00010090182253	-0.0843207663149154
7449.463	4.99960492332897	0.00677106407994181	4.99960950842004	-0.0775967628143781
6363.206	5.00039080706073	0.00713380738438085	5.00039589578118	-0.0817409665465594
5414.761	4.99980152169013	0.00690136541809375	4.9998062847614	-0.0790869114479544
4620.567	5.00009260803416	0.00700528933025977	5.00009751534872	-0.0802731632669932
3941.215	5.0010321497378	0.00721028810710867	5.00103734748758	-0.0826067057750021
3361.769	5.00130269931196	0.00791687873613166	5.00130896537237	-0.0906970417295878
2867.244	5.00093335715663	0.00838007687120107	5.00094037840987	-0.0960105950258516
2442.658	5.00118594109451	0.0091041989510212	5.00119422776599	-0.104301580800292
2083.003	5.00174223910154	0.00953953943675759	5.00175133620466	-0.109276859814311
1777.843	5.00258012534558	0.00818425339971909	5.00258682008681	-0.0937361817623003
1513.548	5.00248687146692	0.010012430813182	5.00249689135033	-0.11467681514608
1292.065	5.00336407847254	0.0110465852555281	5.00337627295761	-0.12649922629081
1101.762	5.00517426566419	0.0112901406879182	5.00518699919832	-0.129241516889865
939.101	5.00628213340944	0.010937607438044	5.0062940815089	-0.125178272094135
801.2801	5.00824266819223	0.0126065947732584	5.00825853463387	-0.144222873542268
684.3433	5.00918559077551	0.0125329934727082	5.00920126953973	-0.143353868454393
582.9476	5.01149495907211	0.0127854037932149	5.01151126820596	-0.146173565651571
497.0677	5.01345630595906	0.0120527431751993	5.01347079380929	-0.137743293837134
423.5089	5.01385106990001	0.0122024991753578	5.01386591884183	-0.139443775277303
361.5036	5.01558672461481	0.0111016732695135	5.01559901101371	-0.126820254543421
308.1262	5.01677576691608	0.0108945075825475	5.01678759624242	-0.124424202339964
262.7298	5.01771120999474	0.00930848215134409	5.01771984418689	-0.106290718377648
224.2111	5.01830171060417	0.00937106204941901	5.01831046025021	-0.106992706268242
191.2854	5.01879652858672	0.00853113421390251	5.01880377934873	-0.0973933713686203
163.1722	5.01952362457777	0.0073968657188251	5.01952907465599	-0.0844320920145094
139.1537	5.02058037673621	0.00703959130623007	5.02058531200442	-0.0803370480611503
118.6706	5.02047739730032	0.00583800954757442	5.02048079163329	-0.0666257669532131
101.1982	5.02107783703527	0.00509002902148735	5.02108041699814	-0.058082565157356
86.24196	5.02159676052457	0.00487008265266481	5.02159912209407	-0.05556700541699
73.61024	5.02162556278551	0.00418875578764869	5.02162730979669	-0.0477928848695369
62.69291	5.02161602584779	0.0040383960283029	5.02161764969156	-0.0460773976647137
53.57697	5.02154344424766	0.00333675334051693	5.02154455286314	-0.0380723292891993
45.65746	5.02259539883385	0.00220587833537933	5.0225958832347	-0.0251637849705522
38.96512	5.02147689573242	0.00288977440525147	5.02147772724032	-0.0329727413519492
33.18414	5.02127719719305	0.00225204849734829	5.02127770221618	-0.0256972201369749
28.30617	5.02106747396149	0.00179351885059023	5.0210677942828	-0.0204659779575596
24.17237	5.02129312756027	0.0018056460396555	5.02129345221344	-0.0206034362621895
20.61345	5.02142963603337	0.00125515456939165	5.02142979290234	-0.0143216301287783
17.55618	5.02139419164009	0.00121144049632319	5.02139433777362	-0.0138229391230523
14.98558	5.02128520730574	0.00123020987911895	5.02128535800584	-0.0140374086849257
12.76553	5.0210594068999	0.000595795899383377	5.02105944224829	-0.00679868281955464
10.8809	5.0207368551525	0.00111635684155092	5.02073697926302	-0.0127396707381102
9.278505	5.02115565695426	0.00143901856239541	5.02115586315922	-0.0164204604760117
7.923394	5.02039448920563	0.000462742914814101	5.02039451053175	-0.00528110211266312
6.75822	5.02096787092791	0.000412906975877408	5.02096788790593	-0.00471180609080098
5.761429	5.02097741860748	9.72040642356429E-05	5.02097741954839	-0.00110922280010367
4.919708	5.02076043442191	0.000225103836131567	5.02076043946813	-0.00256883392911504
4.191257	5.02083207860486	-0.000219166650785141	5.02083208338833	0.00250104442758413
3.564097	5.02116427823102	-0.000489869207162995	5.02116430212705	0.00558982666958228
3.051758	5.02128560531107	0.000408952531273184	5.02128562196439	-0.00466638543454978
2.604164	5.02151854307379	0.00021777492362886	5.02151854779606	-0.00248482284648839
2.214424	5.02216871397665	-0.00201789142692585	5.02216911936781	0.023021260861862
1.892567	5.02301691093917	0.000318197171556766	5.02301692101771	-0.00362956272735443
1.607507	5.02193727750032	5.1963843128943E-05	5.02193727776916	-0.000592860630060283
1.376413	5.02199259743077	0.000505275734113214	5.02199262284932	-0.00576467734583795
1.17375	5.0203610021534	-0.000377517191469922	5.02036101634752	0.00430848333711674
1.001604	5.02159386306937	0.00012104110109013	5.02159386452817	-0.00138106434487688
