EC-Lab ASCII FILE
freq/Hz	Re(Z)/Ohm	-Im(Z)/Ohm	|Z|/Ohm	Phase(Z)/deg
6999984	18.847710865211	88.8857290898965	90.8620329989433	-78.0280854425526
5969734	20.2147644487643	84.0650432348446	86.4613682276386	-76.4790367476369
5091109	18.5917643673458	83.880221776596	85.9159199891489	-77.5026258486381
4341796	18.0640071699308	89.2857173853609	91.0947182006391	-78.5624831780711
3702781	22.0389274503322	97.0194388592094	99.4911344779869	-77.201880301974
3157797	21.6538134070217	104.461931320399	106.682626187463	-78.2890677182347
2693047	21.1097566550037	116.893300085668	118.784112704315	-79.7632881251063
2296687	21.7171448814762	133.851584645364	135.60192142399	-80.7841843244704
1958656	23.7536407921336	152.233305217745	154.075353864273	-81.1313967483197
1670375	24.8984763124733	175.134561966002	176.895587615141	-81.9086139974147
1424531	27.1684692512799	199.638638549784	201.478812095637	-82.2503260264307
1214875	32.1100466371279	231.258010853648	233.476599853228	-82.0950544639502
1036062	30.5213507352021	268.467408656247	270.196784513254	-83.5140417393712
883578.1	35.0748837234466	312.385888590793	314.348836261362	-83.5936255771149
753531.2	42.9832011995757	355.37994255301	357.969913755812	-83.1035747749395
642624.9	40.581612206427	410.020369231368	412.023749842045	-84.3475807397275
548046.8	36.8963412012639	481.147146002522	482.559753916976	-85.6149060867774
467390.6	181.607917846992	683.442300854709	707.159680993125	-75.1189495335554
398593.7	205.896691941725	787.655012468006	814.121530496842	-75.3504244827882
339937.5	234.435490281736	863.315373374487	894.580031639634	-74.8075469719018
289906.2	226.943580698298	1005.79221734047	1031.07777266452	-77.2849018864884
247234.4	295.826830944168	1116.32948395172	1154.86147682152	-75.1577960720652
210843.7	286.356222676354	1305.82508001237	1336.85415279857	-77.6313121694245
179812.5	330.49589846471	1500.23055550595	1536.2028702537	-77.5763655168715
153343.8	393.124312244493	1701.31403992229	1746.14323218756	-76.9889691853034
130781.2	417.027773450384	1973.96682053972	2017.53740297935	-78.0708853898489
111531.3	448.812233042388	2219.37909531409	2264.30474743257	-78.5675825024478
95109.37	521.192752837322	2569.51022493779	2621.83612792066	-78.5338352883146
81109.37	581.771362002544	3033.51933178494	3088.80194476099	-79.1435769738928
69171.88	748.692790942215	3494.12151039929	3573.43336647598	-77.9059881364102
59000	838.007399706463	4008.16189073767	4094.82821914724	-78.1909773437083
50312.5	779.037601272378	4559.05677779005	4625.13765063372	-80.3031289596786
42906.25	2379.96474936376	6363.2966399637	6793.80426097097	-69.4934780136224
36593.75	2437.81773273557	6880.7488787476	7299.83975374983	-70.4909975349452
31203.13	3050.7103843387	7829.38191421747	8402.7409223293	-68.7116771021664
26609.38	3345.34213111021	8647.79314194125	9272.30501008175	-68.8513642126193
22703.13	3755.59541648519	10099.9088392863	10775.5582451313	-69.6026264735948
19359.37	4413.36468547829	11175.3739491802	12015.2723960401	-68.4500072771302
16500	4983.42178197849	12880.6622693734	13811.0808105216	-68.8489577898797
14112.02	6171.4643767699	14832.8923034898	16065.5428367879	-67.4094586253931
12011.13	7402.13529561866	16742.0636126849	18305.4172568077	-66.1484358140897
10236.38	9421.93568302457	12457.0928515573	15618.9639325843	-52.8979216354187
8750.684	21109.2786988617	12999.5650621383	24790.9325962334	-31.6256889277069
7449.463	12966.0217104698	22428.5052793166	25906.6703391368	-59.9675963033364
6363.206	15613.6960691273	24706.57571451	29226.7409828037	-57.7085383086946
5414.761	18610.4210823157	28031.7784636726	33647.1154290754	-56.419641100658
4620.567	23440.8977598715	29446.7339579043	37637.5587488926	-51.478665069834
3941.215	38736.6382543038	34335.6804990194	51763.5595624522	-41.5533859397182
3361.769	42105.6770528461	36468.6109106008	55703.2101572914	-40.8965242050684
2867.244	46797.6725583319	35845.6943036397	58948.5874045073	-37.4510940702507
2442.658	52208.9475380907	36414.8995813307	63653.9010159904	-34.8951522644839
2083.003	56425.9649053248	35179.2041156582	66494.1043830811	-31.9417954728585
1777.843	60099.4878700114	33167.0590745034	68644.0255950163	-28.8929552646745
1513.548	66102.402542956	32213.4522922583	73533.8978331531	-25.9812009385535
1292.065	67098.9318408611	29835.2534633747	73433.023929349	-23.9721187003493
1101.762	70386.9370272541	29185.0404345391	76197.6869021909	-22.5207134728798
939.101	73576.6143779524	27884.695435754	78683.3808555954	-20.7561352441698
801.2801	75474.0850791001	26204.7957706701	79893.8598385994	-19.1471322455716
684.3433	78737.1108348223	24284.534971163	82397.0342996684	-17.1410981428375
582.9476	78857.6029628496	22596.2169204244	82031.1560576913	-15.9893670309553
497.0677	81192.7128034445	23563.4019720608	84542.8324867315	-16.183559616459
423.5089	81563.0556093658	21512.6056757222	84352.3813729975	-14.775515834925
361.5036	85317.8621940507	23610.7683408818	88524.6066978545	-15.4688348740789
308.1262	85586.1747790941	23177.2480904302	88668.9243329532	-15.1526080077903
262.7298	85849.7843419629	23297.1475291134	88954.7219351216	-15.182768506126
224.2111	87339.65437496	25497.3799790912	90985.3373469353	-16.2742989424739
191.2854	88759.2527859359	25181.9585103457	92262.3216136167	-15.8392119815854
163.1722	90084.0098365738	26501.3124561157	93901.2693744477	-16.3930616342486
139.1537	93438.0111963382	28411.4874072893	97662.0425396765	-16.9128260276795
118.6706	93172.3124419631	33419.3674364038	98984.513564659	-19.7320705881986
101.1982	95955.9408764491	33044.6531229694	101486.411353944	-19.0023343515861
86.24196	97905.7425354719	38606.6725795418	105242.622492439	-21.5205526161215
73.61024	104602.245074656	35280.9047450732	110391.901488693	-18.6385462587237
62.69291	62009.8241875412	18428.5833566307	64690.2695952186	-16.5513240364196
53.57697	93015.099918701	42492.0297483693	102261.33876017	-24.5523129524327
45.65746	121412.211347762	47152.4153627954	130246.978233275	-21.2244938642215
38.96512	110163.986952735	60463.8389983571	125666.144397533	-28.7603155351017
33.18414	119011.275486774	70251.9841848315	138199.222048804	-30.5532207972031
28.30617	106090.354718952	86339.3611883437	136783.217738158	-39.1396809065926
24.17237	124752.930533103	88795.5451828813	153127.210256448	-35.4421665306512
20.61345	137325.625920174	93981.875765706	166405.890841665	-34.3866636804612
17.55618	225441.500105147	112113.470433713	251780.261780685	-26.4414464762262
14.98558	256066.758604201	123351.640941377	284228.450695901	-25.7208947530697
12.76553	257531.413242148	134215.347510474	290406.935719268	-27.5267717796528
10.8809	264481.384976902	153909.984357774	306004.389321968	-30.1964628964869
9.278505	277823.959068994	177984.283505225	329946.294732397	-32.6451240846934
7.923394	280672.600540937	203434.717780654	346645.053466665	-35.9350305556007
6.75822	300545.378838931	218987.003680511	371863.997346348	-36.0782814635393
5.761429	294949.057973985	283614.665404457	409184.830158968	-43.8776866384915
4.919708	324250.749602585	277279.875474001	426641.158306035	-40.535085239166
4.191257	326407.127017005	316712.101304259	454805.637256239	-44.1363312463695
3.564097	364645.824741969	346223.737868986	502829.448387545	-43.5155200161893
3.051758	336594.620979819	394647.01195987	518692.782792861	-49.5391227192248
2.604164	401375.738770432	431937.21312261	589637.379881599	-47.1003622417182
2.214424	423989.235997275	501284.728652896	656546.457931318	-49.7752844632219
1.892567	493587.394179562	577640.977314404	759801.03603885	-49.48650227532
1.607507	483417.647843544	612973.17209912	780659.165039291	-51.7391316835005
1.376413	684054.137992146	591306.042750783	904197.378838143	-40.8405977946857
1.17375	668277.667497178	779377.80808371	1026657.10371518	-49.3885551402424
1.001604	566470.338682887	794041.117480558	975392.198480836	-54.4958722781488
