EC-Lab ASCII FILE
freq/Hz	Re(Z)/Ohm	-Im(Z)/Ohm	|Z|/Ohm	Phase(Z)/deg
6999984	2.17082077130353	1.79456735901985	2.81654661370664	-39.5797526002987
5969734	5.78580950922146	1.41404405747792	5.95609874611612	-13.7337926197079
5091109	8.62339218790531	-3.65456006399933	9.36582628964498	22.9670418657088
4341796	3.8992826192747	-5.13073218347738	6.44428566123107	52.7656887058805
3702781	1.8656395048879	-5.34822201644535	5.66428190500695	70.7695123191583
3157797	1.07789063062958	-6.35410119777587	6.4448778299651	80.3721703739919
2693047	-0.353347123667671	-6.95314018339745	6.96211265348245	92.9091744808084
2296687	-0.197365450469077	-8.73239701836289	8.73462711324026	91.2947513014683
1958656	2.15505301647711	-9.03910079293292	9.29244836674531	76.5901905598923
1670375	-3.72876444375929	-9.11559106110202	9.8487402580374	112.247187615828
1424531	8.77565553251713	-7.68038456075457	11.6619225270311	41.1921589682
1214875	8.87149471728117	-2.09449493610506	9.11538959979866	13.2838660519255
1036062	6.27304387414066	-11.539292784831	13.134167557213	61.470407304185
883578.1	-0.272997939572958	-11.3219159820671	11.3252068140055	91.381267928533
753531.2	10.1419307878408	-10.594270186337	14.666196537837	46.2496516962418
642624.9	8.8978009643548	-12.4281694948088	15.2849684001299	54.3996783939243
548046.8	7.47047895933253	2.75656219141547	7.9628318453281	-20.2537601198211
467390.6	3.41392162002561	8.62272764802757	9.27395778078256	-68.4003318362923
398593.7	9.14655163801847	-1.75778954216101	9.313926719782	10.878503284297
339937.5	13.674346747096	15.3572731193343	20.5629179987093	-48.3176511845193
289906.2	28.2102295238459	-29.5244182979525	40.8351359201918	46.3039738247982
247234.4	-17.7748874009085	-42.0298819990287	45.633952304915	112.924022659216
210843.7	76.1497651669982	-75.065988836684	106.928431275401	44.5893632454015
179812.5	-8.99499324114396	-119.343035551224	119.681535910887	94.3102854730213
153343.8	8.63979353675356	-129.590727254342	129.878414768071	86.1857439380663
130781.2	-21.8823312365561	-155.759269428975	157.288863030395	97.9970397015701
111531.3	-21.7167022496546	-184.652550686007	185.92519902221	96.7076554794077
95109.37	-18.6261233277295	-203.475050228017	204.325790186932	95.2302838046629
81109.37	-18.1065305178014	-242.363363238945	243.038775276466	94.2725275543222
69171.88	-27.9171568236047	-285.049228869923	286.413041819767	95.5935963425553
59000	-24.9979767163735	-328.058974066826	329.010013989986	94.3574971953401
50312.5	-34.8773679502283	-383.163244460326	384.747323188218	95.2010056613317
42906.25	-44.2706649696897	-455.222852719852	457.370459709915	95.5545779167069
36593.75	-39.3646381582316	-547.000629491735	548.415229002334	94.116167372031
31203.13	-38.5030727886489	-623.268319302104	624.45647122905	93.5350162804298
26609.38	-63.646898519736	-712.80429931914	715.640200672818	95.1024569205692
22703.13	-77.8207134577047	-824.551790529875	828.215985543076	95.3915714239922
19359.37	-55.475261976459	-965.411827250199	967.004395484284	93.2887590200826
16500	212.851779334007	-481.488171613105	526.437782999077	66.1511860115063
14112.02	-213.178970694976	-1175.18724822296	1194.36608371656	100.281651613875
12011.13	-249.739865328416	-1503.67780233164	1524.27587186807	99.4299498514128
10236.38	1.92839145336692	-5.45585247751352	5.78662421916345	70.533854778021
8750.684	7.53753301728891	0.710377264084402	7.5709338818965	-5.38395663125603
7449.463	2.77751202276157	4.4762730721122	5.26797813707516	-58.1805409403233
6363.206	4.84166790417247	-0.996159833144413	4.94308431118306	11.6262074773648
5414.761	4.28724034684484	1.32396317778737	4.48701552122913	-17.1614610628765
4620.567	2.96855844891181	4.13873540548505	5.09327694330685	-54.3495560460063
3941.215	0.208028632766878	12.464360445236	12.4660963104259	-89.0438293075173
3361.769	9.46130493657647	3.25907065420853	10.0068892585063	-19.006940932259
2867.244	8.0478089698413	3.66546598445803	8.84323866568561	-24.4874312117121
2442.658	1.75972168288586	0.226674216362505	1.77426086063527	-7.33999615566039
2083.003	-3.86587293460032	5.55753996178206	6.76987621550644	-124.822809078036
1777.843	2.28401225402903	-0.573849611103171	2.35499795174391	14.1034306116586
1513.548	3.86984972175636	1.94140196207045	4.32952404396936	-26.6417181439362
1292.065	2.83939424405484	-2.3378149097915	3.67798018287418	39.4663298751746
1101.762	1.26553584512305	3.39198489546021	3.62037877939885	-69.53965841191
939.101	5.07507496417203	0.93466336497245	5.16042454627401	-10.4350855170673
801.2801	4.85922496556015	3.67730232123448	6.09381814855674	-37.1172430221839
684.3433	6.2170873032619	-1.20692179983668	6.33315361943016	10.9861677835801
582.9476	10.920751599672	0.80879953410207	10.9506608105676	-4.23563805600161
497.0677	-12.3988971729634	11.1490819832274	16.6743719574215	-138.038137918508
423.5089	237.729214842694	-19.3282240514095	238.513647061767	4.64812526961896
361.5036	35602.5366607262	-19891.4629963297	40782.482965272	29.192491870391
308.1262	42.8277766329896	643.539796146594	644.963322736824	-86.1925621358283
262.7298	-4092.32761730137	-54796.6662462526	54949.2654821748	94.2710378640549
224.2111	1432.60797780364	1128.36034406901	1823.61253673421	-38.2249136796206
191.2854	-18.5638727027356	-1777.11834865558	1777.21530561101	90.5984929888253
163.1722	3633.08024116882	-287.99680779132	3644.47721903558	4.53239868120064
139.1537	131.682855203171	-75.3387289999359	151.711233736283	29.7748461733619
118.6706	28138.2960683278	-67333.7832893693	72976.7228483756	67.3203063924707
101.1982	77832.621309593	-51744.0264958432	93463.1543332721	33.616419327733
86.24196	507.096242199705	339.668637841191	610.34529766842	-33.8153903812481
73.61024	-80112.6531479312	-218129.35473988	232375.671260218	110.166835157487
62.69291	-70982.4551685864	-161716.764579746	176609.232170636	113.698145936217
53.57697	90560.5198789984	-135127.057051488	162666.927518013	56.1704846738674
45.65746	-395121.371428085	-711037.287053688	813446.323822217	119.060801715524
38.96512	47794.6504745054	-231547.365503507	236428.659611298	78.3371388772462
33.18414	334199.523026436	-140277.238867361	362445.892424439	22.7697896855791
28.30617	-257379.047779074	-734504.413846894	778293.458919084	109.31106539468
24.17237	-272379.908372766	-850736.64541616	893276.919179656	107.753479628617
20.61345	305127.736818779	-24007.569117025	306070.742069638	4.49878611214929
17.55618	-312452.439468557	-1140796.63876771	1182811.69167098	105.317091196382
14.98558	-403654.48228128	1771095.67367724	1816512.26981377	-102.839106028221
12.76553	-367634.167692436	-1534576.64828281	1577998.85003437	103.47228168762
10.8809	1480787.51956092	1643089.18790621	2211893.70393373	-47.9741400680266
9.278505	1617383.55104158	238287.493490482	1634842.64708682	-8.38103755110129
7.923394	2527239.19619691	-331303.396857112	2548862.47090012	7.46848767079643
6.75822	1606185.78839822	130530.222156854	1611480.97281623	-4.64605746493633
5.761429	816183.695212643	500656.039919642	957503.156464241	-31.5254098544031
4.919708	1792772.99746576	-321480.237480095	1821368.87080366	10.1662365308581
4.191257	1381677.04974072	459277.400249767	1456010.71430138	-18.3871037303306
3.564097	2583771.1422087	573237.789062461	2646596.84843002	-12.5090781438819
3.051758	-544627.265445666	-2052867.84814687	2123884.47431163	104.858323889821
2.604164	8206739.44547706	117545.123544795	8207581.20167071	-0.820591300101955
2.214424	5381756.31898236	2724668.29800595	6032173.605846	-26.8521197054642
1.892567	2291656.65882873	1411768.89714892	2691613.20789432	-31.6350338693455
1.607507	1231835.21207899	957193.30918457	1560011.86561686	-37.8488700195203
1.376413	128706.574610716	-1100896.92441988	1108394.9749729	83.3317838647401
1.17375	3140290.19000261	-1009741.48014883	3298636.13242803	17.8248831642805
