EC-Lab ASCII FILE
freq/Hz	Re(Z)/Ohm	-Im(Z)/Ohm	|Z|/Ohm	Phase(Z)/deg
6999984	18.833795187353	0.323690823877642	18.8365765708268	-0.984628543890115
5969734	10.0295374964193	0.785799984327717	10.0602735552991	-4.47989110998147
5091109	12.6795952136421	-4.28487023023061	13.3840295752712	18.6718752136665
4341796	9.19388174609247	-7.22175796389565	11.6910756412839	38.1494952450475
3702781	5.6931954689978	-5.91428358046021	8.20921585282774	46.0911830292645
3157797	4.3959633138088	-5.23272117872368	6.83416888806651	49.9666752851074
2693047	3.17317800557644	-4.55731413938423	5.55321265756188	55.1511812971738
2296687	2.21825504534732	-3.7015469601807	4.31533374661008	59.0666774662727
1958656	1.73141960670849	-3.1448985806656	3.59001405807374	61.1650780951598
1670375	1.34159765033612	-2.80413004060775	3.10854138464107	64.4318542598777
1424531	1.2112981497239	-2.46268951369738	2.74446403663804	63.8092783196886
1214875	1.07913453048435	-1.87225985744713	2.16099243605609	60.0416797462468
1036062	0.838320637022921	-1.8689725795166	2.04837496407359	65.8415596190176
883578.1	0.711477559858579	-1.55584568404108	1.71080569052466	65.4257068513116
753531.2	0.661791752115222	-1.37284649711097	1.52403275155017	64.2632327807707
642624.9	0.636122359294897	-1.18942744442822	1.3488473974301	61.8615082951413
548046.8	0.5769118957967	-0.98326792379841	1.14001892330021	59.5986114832721
467390.6	0.557791751368903	-0.896239204755733	1.05564025597567	58.1031343422012
398593.7	0.538342326266672	-0.754683020965655	0.927016139225234	54.4983818332915
339937.5	0.479661391460811	-0.64392975912456	0.802944945276035	53.3176819752875
289906.2	0.484475863967821	-0.559452409615788	0.740070173289181	49.1080178150125
247234.4	0.445771171069088	-0.50791286025543	0.675786512568251	48.7281009602172
210843.7	0.4384677506713	-0.410911065642475	0.600917525327881	43.1417853760034
179812.5	0.434476031988816	-0.37033061230545	0.570888942600289	40.4429937327546
153343.8	0.421058293486074	-0.317421491275617	0.527301137526785	37.0113947991115
130781.2	0.415791777696966	-0.275559022352475	0.498814171009861	33.5337587066295
111531.3	0.408841247471005	-0.239451217451009	0.473801700263325	30.3567650284086
95109.37	0.403071255763251	-0.208873635586858	0.453976467304018	27.393427311992
81109.37	0.395271673448662	-0.180519589379997	0.434542308620034	24.5460619828878
69171.88	0.391419008908224	-0.15684842011816	0.42167554758162	21.8368367781896
59000	0.382125822487727	-0.132254553424612	0.404365442531215	19.090844871778
50312.5	0.377259074412415	-0.101341211482647	0.390633396385003	15.0361199584623
42906.25	0.408327342403432	-0.102038467901705	0.420883674530121	14.0305160026502
36593.75	0.393867811537519	-0.0925321866992647	0.404591224003564	13.2208636127729
31203.13	0.388155183738635	-0.0803442859090685	0.396383212234589	11.6945097761224
26609.38	0.384822406501749	-0.0689289427010081	0.390946906481784	10.1550638538531
22703.13	0.385560960088763	-0.0608988021954146	0.39034077170263	8.9756359621542
19359.37	0.38357204583583	-0.0542978232493111	0.387396138282634	8.05716169824769
16500	0.381438389820343	-0.0483866936600088	0.384495146070901	7.22954135191507
14112.02	0.379612232185367	-0.0429733888688361	0.382036855520026	6.45858080194294
12011.13	0.378008016432559	-0.0389432076557322	0.380008728728427	5.88198472481303
10236.38	0.377946223628408	-0.0344157803438975	0.379509939121038	5.20300395448222
8750.684	0.377512963541412	-0.0312300740153027	0.378802527928235	4.72907274691504
7449.463	0.376683391968963	-0.0285559026754062	0.377764235155805	4.33523015290904
6363.206	0.375799478684407	-0.0262039904444568	0.376711955338141	3.98870126770935
5414.761	0.379481456412048	-0.0214180609671459	0.380085397109914	3.23036584275293
4620.567	0.359595357936031	-0.0142981315552488	0.359879504855602	2.27697954151571
3941.215	0.3625520570772	-0.00888111432494488	0.362660817131603	1.4032429681686
3361.769	0.380889768177488	-0.0353363688212287	0.382525390613186	5.30034203542361
2867.244	0.36527857257847	-0.0441822465407546	0.367940900817445	6.89670443914562
2442.658	0.34722213261834	-0.0164222974676225	0.347610272049235	2.70785640852558
2083.003	0.372555687799335	0.0058843096450898	0.372602154598755	-0.904879694301446
1777.843	0.347635671213241	-0.0309343361218775	0.349009302241619	5.08506746784809
1513.548	0.356715244904418	-0.0487529366196048	0.360031408041374	7.78250291999583
1292.065	0.342547057154722	-0.0375409416908406	0.344598039269517	6.25428697051109
1101.762	0.394412324460566	0.00687155502468039	0.394472178936416	-0.998121127007651
939.101	0.401732347070986	-0.0260137397820783	0.402573711685963	3.70495308699554
801.2801	0.396887262015122	-0.0492928237195324	0.399936596500127	7.07979883215763
684.3433	0.325763301514145	-0.0158944581310034	0.326150827705026	2.79332796057201
582.9476	0.334434431549902	-0.043498920618011	0.337251456781195	7.41069341800158
497.0677	0.347100071454655	0.0223194535844792	0.347816931175204	-3.67920493664015
423.5089	0.340293165383845	0.0105692748870448	0.340457263072173	-1.77899613866673
361.5036	0.330476421936533	-0.00227351569324749	0.330484242180442	0.394160642878078
308.1262	0.396340505950569	-0.0115413113019354	0.396508510026861	1.66796379346392
262.7298	0.393938412184829	-0.0109238902542013	0.394089842514357	1.58840172811646
224.2111	0.354132476779437	0.0181862054442368	0.354599138716379	-2.93979889131926
191.2854	0.322864976926288	-0.00414708320892058	0.322891609715636	0.735902981361463
163.1722	0.320457408460183	-0.0129709953038732	0.32071981129358	2.31786752864963
139.1537	0.345318048431109	0.0174120370643082	0.345756754969442	-2.88659116567443
118.6706	0.327508445116904	-0.0429796089593523	0.330316557879242	7.47632000385587
101.1982	0.31864014076055	-0.0293474647612662	0.319988770102666	5.26222258035577
86.24196	0.37731363453574	-0.0284802495006569	0.378386975751267	4.31659355470682
73.61024	0.354092687012131	-0.0510985141457411	0.357760659021326	8.21156809445749
62.69291	0.256370549643309	-0.00350695251625165	0.256394534731854	0.783713444576155
53.57697	0.336496875679023	-0.00607500727156298	0.336551709333192	1.0342873689519
45.65746	0.377609386564061	-0.0649274566102784	0.383150653716219	9.75623366224044
38.96512	0.310669688146564	-0.0392615412565032	0.31314074112916	7.20269254963524
33.18414	0.318936383911116	-0.0360377809736669	0.320965946230756	6.44671484600578
28.30617	0.328173914379921	-0.028454587357922	0.329405193676647	4.95548389515453
24.17237	0.132820381847562	-0.0176017731826127	0.133981626551197	7.54902834805797
20.61345	0.146367742016718	-0.0650668733676557	0.160178693692124	23.9672428295128
17.55618	0.357998300625617	-0.153895893996793	0.389675158869412	23.2618458400375
14.98558	0.291134057805724	-0.0366571642020792	0.293432764533487	7.17643962346234
12.76553	0.339660741456752	0.0109176787963374	0.339836159049108	-1.84101824703184
10.8809	0.263262690755862	-0.0462930371739671	0.267301869867771	9.97313256516516
9.278505	0.255425532619205	0.00358318347413085	0.255450664351483	-0.803709098668426
7.923394	0.294185106606756	0.0132613929847718	0.294483856082341	-2.58105454592738
6.75822	0.363471102819545	-0.0245801474900151	0.364301284976443	3.8688018276691
5.761429	0.29409131941696	-0.0495005153377526	0.298228109297416	9.55428895776863
4.919708	0.298539096258312	-0.0310393268340923	0.300148349662368	5.93575681388606
4.191257	0.247355453903755	-0.0340977850177395	0.249694572466141	7.84871965237909
3.564097	0.268563960512528	0.00381493099927617	0.268591054550787	-0.813827533330436
3.051758	0.254499673242579	-0.00375125069292166	0.254527317909769	0.844461867762696
2.604164	0.291637739178836	0.0149084481749092	0.292018548623759	-2.92639855440674
2.214424	0.309901631729618	0.0169409012871592	0.310364327017621	-3.12898325273571
1.892567	0.317337548123212	0.0250062774415995	0.318321273810498	-4.50561118540489
1.607507	0.325958203433736	0.013692840449571	0.32624568083781	-2.405464754116
1.376413	0.330004956553756	0.0275261855140139	0.331150965933965	-4.7680854431855
1.17375	0.321435920729178	-0.0192187421579361	0.322009955102552	3.42165696998208
1.001604	0.357818895590294	0.0256018679184453	0.358733630542735	-4.09252694976501
