EC-Lab ASCII FILE
freq/Hz	Re(Z)/Ohm	-Im(Z)/Ohm	|Z|/Ohm	Phase(Z)/deg
6999984	5.03620706901753	6.57461051777339	8.28184068323212	-52.547580862008
5969734	4.17288011017936	3.74627232895525	5.60780570068421	-41.9164349170249
5091109	2.98308231353579	1.69689435686273	3.4319426783795	-29.6329187979301
4341796	2.13239523618068	0.787100370089729	2.27302363293509	-20.259890768229
3702781	1.40358824654533	0.325486823409713	1.44083366078584	-13.0559090635548
3157797	1.09229380687995	0.210928701800518	1.11247322565154	-10.9296397675125
2693047	0.901512402241741	0.175996611274266	0.918531120091039	-11.0465575351869
2296687	0.771222980564789	0.167432341182134	0.789188491188871	-12.2488235245996
1958656	0.701505291541416	0.171988468742771	0.722280906186152	-13.7755211359273
1670375	0.661699536150312	0.163784931743466	0.681668379791632	-13.902517231218
1424531	0.632270364914757	0.152318085100753	0.650358834335477	-13.5448368684517
1214875	0.61098662633644	0.13269100075919	0.625229205367488	-12.2529373615687
1036062	0.600212935042612	0.113332694793544	0.610819013376002	-10.6927446375377
883578.1	0.586012087693294	0.0956304225284949	0.593763711113799	-9.26831426306293
753531.2	0.574953534194023	0.0827922672404017	0.58088391783299	-8.19416163664142
642624.9	0.565773340015007	0.0708484913464227	0.570192056238774	-7.13766183988789
548046.8	0.558428648673088	0.0597434299732264	0.561615378247264	-6.10655553261456
467390.6	0.551923330563404	0.0502672888578522	0.554207689543658	-5.20394647005522
398593.7	0.547184065335736	0.0423669908592167	0.548821795550985	-4.42742479172354
339937.5	0.543445869312609	0.0363747222372354	0.544661852244834	-3.82929409586365
289906.2	0.540771795820952	0.0312344987672149	0.541673083204858	-3.30568057196508
247234.4	0.539379050683372	0.027429614929188	0.54007605398801	-2.91121517283577
210843.7	0.538314545739465	0.0239285994427198	0.538846107925052	-2.54517707471188
179812.5	0.538347185666334	0.0216576222996645	0.538782650907151	-2.30375786998674
153343.8	0.53839267099101	0.0189085761977326	0.538724607225862	-2.01142506262847
130781.2	0.538553906052334	0.0178615778472891	0.538850021515655	-1.8995647934117
111531.3	0.539327005005061	0.0160583775465815	0.539566019887425	-1.70546903777538
95109.37	0.539861521922873	0.014155934166853	0.540047084359334	-1.50203235120505
81109.37	0.540397635171023	0.0125261848474116	0.540542791465455	-1.32785375444308
69171.88	0.54074206114198	0.0111089938181941	0.540856160574815	-1.17691776359838
59000	0.541207292323131	0.0097135326273115	0.541294454044965	-1.02822834026839
50312.5	0.541405442849612	0.00858153463436042	0.541473449288019	-0.908089403869769
42906.25	0.541839974796171	0.00768545879427494	0.541894477332989	-0.812628905623022
36593.75	0.542075968456715	0.00665089029449815	0.542116767790847	-0.702943584196563
31203.13	0.542195138816442	0.00601189460272406	0.542228467929244	-0.635273257887047
26609.38	0.542505483652814	0.00531578423721474	0.542531526600464	-0.56139940293809
22703.13	0.542805858092914	0.00472297090716696	0.54282640506351	-0.498519805936781
19359.37	0.54302335901554	0.00415156559965648	0.543039228724268	-0.438033740124631
16500	0.543122595878642	0.00373920125110489	0.543135467245466	-0.394454341043862
14112.02	0.54332261094849	0.00322830338137382	0.543332201797948	-0.340434906090676
12011.13	0.543480290285498	0.00297292118785984	0.543488421393868	-0.313413643514512
10236.38	0.543541397687132	0.00259099504458624	0.54354757312953	-0.273119870909921
8750.684	0.54365062916353	0.00227906800645334	0.543655406246346	-0.240191413465957
7449.463	0.543748680782451	0.00202004053590982	0.543752433021152	-0.212854336553116
6363.206	0.543828509753793	0.00177774257499099	0.543831415412621	-0.187295777932141
5414.761	0.543853227508516	0.00162653552130544	0.543855659793324	-0.17135752446609
4620.567	0.543887216417348	0.00160565001270998	0.543889586491757	-0.169146652222018
3941.215	0.543985706255799	0.00133896041759874	0.543987354104505	-0.141026914961029
3361.769	0.544163879876474	0.00132158185191493	0.544165484701859	-0.139150936548211
2867.244	0.544223278024212	0.00122980084977731	0.54422466753497	-0.129473106430657
2442.658	0.544265958882646	0.00106328694971328	0.544266997509111	-0.111933836997671
2083.003	0.544326401048846	0.00098439686237225	0.544327291173216	-0.103617469192906
1777.843	0.544413752472289	0.00086643086326196	0.544414441931328	-0.0911857747288344
1513.548	0.544452830939673	0.000770172054851304	0.544453375674371	-0.0810494064878365
1292.065	0.54450327586711	0.000710334874013254	0.544503739202631	-0.0747454956426891
1101.762	0.544518825644933	0.000595006847978814	0.544519150732907	-0.0626082441895353
939.101	0.544504505974181	0.000586607999338507	0.54450482195765	-0.0617261183681519
801.2801	0.544574834518792	0.000516116706259456	0.544575079091602	-0.0543016281264436
684.3433	0.544705616969746	0.000433788229889722	0.544705789698091	-0.0456287373336585
582.9476	0.544657061547566	0.000393990771495363	0.544657204048893	-0.0414462714799185
497.0677	0.544637349361713	0.000326563994711503	0.544637447265422	-0.0343544863706867
423.5089	0.544652391908293	0.000263099750434482	0.544652455454763	-0.0276772935220116
361.5036	0.544639276661993	0.000235676758218544	0.544639327653111	-0.0247930755475246
308.1262	0.544657414621299	0.000248850449783259	0.544657471470376	-0.0261780692369605
262.7298	0.544684167404643	0.000134508668506503	0.544684184012967	-0.0141490781591967
224.2111	0.544650448277145	0.000212398653242802	0.544650489691952	-0.0223437726465875
191.2854	0.544573043599749	0.000113412021297445	0.544573055409263	-0.0119323388273032
163.1722	0.544609231861317	0.00010932948785097	0.544609242835182	-0.011502041793582
139.1537	0.544771751045456	0.00012614958249106	0.544771765651313	-0.0132676456167453
118.6706	0.544719792029611	4.87699288110794E-05	0.544719794212849	-0.00512981375277442
101.1982	0.544660197080289	2.71206573709752E-05	0.544660197755508	-0.00285297000225616
86.24196	0.54467612884259	8.32270578110091E-05	0.544676135201179	-0.00875485240537849
73.61024	0.544634889534416	4.88045256205526E-05	0.544634891721094	-0.00513425302977109
62.69291	0.54462881062662	9.53745803834671E-06	0.544628810710129	-0.00100335509646617
53.57697	0.544626935510452	2.75994438060516E-05	0.544626936209765	-0.00290351347415362
45.65746	0.54470527030032	2.01960754455485E-05	0.544705270674725	-0.00212435962771112
38.96512	0.544614269656679	5.27013155027777E-05	0.544614272206584	-0.00554440658628888
33.18414	0.544619751591704	2.37523487476981E-05	0.544619752109656	-0.0024988247890858
28.30617	0.544609024252965	-6.08972552591634E-06	0.544609024287013	0.000640671666232769
24.17237	0.544588016546803	-2.21052414786487E-06	0.54458801655129	0.000232567923522844
20.61345	0.54450234117825	2.63845905955798E-05	0.5445023418175	-0.00277634377265095
17.55618	0.544664791865934	4.13675524608603E-05	0.544664793436876	-0.00435164195599277
14.98558	0.544609520880806	2.94553475640349E-05	0.544609521677356	-0.00309885713186773
12.76553	0.544649610204769	3.35544300986925E-05	0.544649611238369	-0.00352984228790088
10.8809	0.544660390995952	1.89364202389387E-05	0.544660391325137	-0.00199202471168534
9.278505	0.544620369092625	-2.24636350506846E-05	0.544620369555897	0.00236324521306619
7.923394	0.544590711499895	-8.7889045033798E-05	0.544590718591904	0.00924670802460855
6.75822	0.544640365447148	-9.3558648769933E-06	0.544640365527506	0.000984230338222499
5.761429	0.54456809813446	-4.49229580981673E-06	0.544568098152989	0.000472649042613239
4.919708	0.544547082530672	-1.15126891747498E-05	0.544547082652372	0.0012113341924363
4.191257	0.544592105113601	3.89652493239491E-05	0.544592106507572	-0.00409947979260892
3.564097	0.544579756542639	2.75516132358075E-05	0.54457975723959	-0.00289873271431105
3.051758	0.544612287447268	-1.45037604447376E-05	0.544612287640396	0.00152586395773572
2.604164	0.544609289034293	9.76677791537141E-07	0.544609289035168	-0.000102751672668684
2.214424	0.544633535294947	-2.42755965729798E-05	0.544633535835958	0.00255380753797993
1.892567	0.544626377404048	7.79094568446163E-06	0.544626377459773	-0.000819623001428184
1.607507	0.544672161695847	1.17133709210531E-05	0.544672161821797	-0.00123216636490946
1.376413	0.544652681283346	2.45816134060865E-05	0.544652681838062	-0.00258590979028332
1.17375	0.544672729859653	1.40119075076406E-05	0.544672730039884	-0.00147395512741246
1.001604	0.54466049769061	-3.15778688202917E-07	0.544660497690702	3.3218465761547E-05
