EC-Lab ASCII FILE
freq/Hz	Re(Z)/Ohm	-Im(Z)/Ohm	|Z|/Ohm	Phase(Z)/deg
6999984	-9.88963293393016	32.2569793314786	33.7389619751307	-107.044960019158
5969734	-5.74784532761742	36.9008937593555	37.3458657169633	-98.8534970137317
5091109	-2.54411466214683	39.7643684016869	39.8456712052793	-93.660780516461
4341796	0.651086097708471	42.525399021702	42.5303829639659	-89.1228401874659
3702781	3.6487048592269	45.8213113153042	45.9663531053288	-85.4472013401426
3157797	7.13658462194447	49.9606344126791	50.4677702200479	-81.8706268955975
2693047	-0.635642292553608	45.8035930110258	45.8080033819831	-90.7950748083347
2296687	3.2219677020892	51.5568521771112	51.6574300782162	-86.4240370850612
1958656	8.02263112806104	57.8757931125087	58.4291882419981	-82.1080606058997
1670375	14.0569416942517	64.7006913266423	66.2100979303085	-77.7423513901209
1424531	21.578161364911	71.3782113899011	74.5685329687499	-73.179544692817
1214875	30.5520914554136	78.1743971050419	83.9325125028242	-68.6534645901811
1036062	40.8259779608824	83.7571566648701	93.1773672575376	-64.0138815483298
883578.1	52.5027206410997	88.5879882328565	102.977508873841	-59.3463954618555
753531.2	65.2684358917207	91.9672042100848	112.773823975119	-54.6369631351998
642624.9	78.6545105482677	93.7782629771559	122.396464967744	-50.0124775312501
548046.8	92.0471150584379	93.9354867086649	131.516337592616	-45.581731876146
467390.6	104.988695704465	92.5411774628419	139.951762232327	-41.3942239938088
398593.7	117.148436724052	89.5772795898787	147.471506555037	-37.4032520943573
339937.5	128.134066732864	85.7850566486328	154.199270431838	-33.8020920308231
289906.2	137.787218322245	81.3952404954243	160.032817597798	-30.5716814973622
247234.4	146.319669091035	76.8509406022472	165.274053118934	-27.7096369895467
210843.7	153.502092080766	72.4804383365284	169.75366333198	-25.2756893575192
179812.5	160.066420153646	68.1432049077245	173.967684458636	-23.0603423130679
153343.8	165.108879456666	64.7840120494027	177.363779539829	-21.4236253459192
130781.2	169.736052622463	61.8675094655857	180.659669786397	-20.0264161962912
111531.3	173.863130138087	59.7180434970081	183.833165507543	-18.9564347026182
95109.37	177.465506327152	58.2823848897959	186.790905357822	-18.1809707043764
81109.37	180.781734549744	57.9846188111209	189.853236910739	-17.7833208058217
69171.88	184.219561431031	58.2230674468556	193.201377833499	-17.5392751625637
59000	187.577591852509	58.7871907709403	196.573871010176	-17.401094931112
50312.5	191.994994080046	59.7169418122279	201.067627655975	-17.2774620980787
42906.25	190.330078180529	61.8467751303694	200.126365714847	-18.0013025989792
36593.75	194.795062706507	66.9567783675457	205.981374459422	-18.9693491713205
31203.13	198.194846067726	71.5283644472093	210.707152057785	-19.8444734484474
26609.38	201.907640007202	77.6017582683927	216.307022492622	-21.0239070697242
22703.13	205.446611175986	84.4763061708889	222.136346301038	-22.3516680050044
19359.37	209.348836739438	92.8075822555898	228.998215644324	-23.9084516301544
16500	213.454935675304	102.410554002152	236.750778531298	-25.6305736862453
14112.02	217.831239337721	113.381550908794	245.572443319464	-27.4970581883973
12011.13	222.724007210084	126.504030577237	256.143032581415	-29.5959515609882
10236.38	227.919066517879	141.682412132725	268.367298287493	-31.8665202777342
8750.684	233.774434707805	158.635164529344	282.516551281878	-34.1601161682665
7449.463	239.754545997885	178.725979908268	299.040495954683	-36.7028341081217
6363.206	246.766577512226	201.19050224903	318.388696363917	-39.1905996658459
5414.761	254.533614320272	228.212648521251	341.860166974781	-41.8791296349839
4620.567	264.466563899116	259.741869389419	370.686393241667	-44.4836066955762
3941.215	-136.023675686002	521.743892809902	539.183762766982	-104.612295812592
3361.769	-132.286388462811	606.087735362801	620.356374618447	-102.312443222936
2867.244	-132.117934369893	730.115441964294	741.972848005156	-100.256957132905
2442.658	-116.336556166957	816.89617389534	825.138505479918	-98.1051568375113
2083.003	-121.120283869075	1008.26391544432	1015.51279969858	-96.8499781957182
1777.843	-69.9731609831224	1183.53013946399	1185.59682619246	-93.3835262393972
1513.548	-12.8602241274497	1412.75740017053	1412.81593178348	-90.5215447569393
1292.065	12.3723657908357	1627.41326024798	1627.46028985847	-89.5644187601732
1101.762	85.9923479244584	1964.58520760845	1966.46630325961	-87.4936919927909
939.101	143.989185605538	2195.92582356131	2200.64152195554	-86.2484255208536
801.2801	254.029937770056	2457.33408199148	2470.4295172703	-84.0979430283891
684.3433	-0.611138017823076	3060.69113972793	3060.69120074187	-90.0114404319343
582.9476	525.375875566909	3227.75231198634	3270.23008336736	-80.7551353642573
497.0677	604.10082852226	4043.36826386092	4088.24714617634	-81.5025588080054
423.5089	794.200274935289	4602.8396186239	4670.85502145818	-80.2102525010879
361.5036	960.549608116509	5231.14585413291	5318.60343481864	-79.5951823080149
308.1262	890.138171544591	5842.68375580137	5910.10147414965	-81.3375469630078
262.7298	1861.41517667303	6056.07545191902	6335.68594070799	-72.9144944167895
224.2111	928.99679912435	6973.60850450436	7035.21503771412	-82.4119574204371
191.2854	3091.61832319231	8753.17804583019	9283.11530458941	-70.5468036241909
163.1722	5790.99615523622	8366.93952322532	10175.5252176618	-55.3117928263049
139.1537	510.475048611038	12959.2846591729	12969.3347421033	-87.7442464366016
118.6706	4083.83894772417	13849.0852745995	14438.6600311136	-73.5701873175372
101.1982	5705.15865984182	11363.1858228101	12714.9843640361	-63.3399685896969
86.24196	5391.50447929326	15869.8196064343	16760.6531761446	-71.2356707812767
73.61024	8239.46063641252	21703.4876287051	23214.8677969173	-69.2113535953
62.69291	6294.02968009731	17873.6389153348	18949.4532293076	-70.6007762484923
53.57697	8864.74342521471	17558.3228317832	19669.2240990845	-63.2119698182647
45.65746	6694.66906872847	11722.6851040675	13499.6274018551	-60.2698888360474
38.96512	7225.2423243818	11333.9209324663	13441.0524271515	-57.4829648247516
33.18414	11002.6183748293	5239.37704326694	12186.4138655982	-25.4634934636072
28.30617	6039.13433362438	5942.08596349741	8472.28004123765	-44.5359120126937
24.17237	3551.84823661942	5473.93291848304	6525.30209967544	-57.0218369320744
20.61345	10985.1551274275	2672.15176237449	11305.4866421047	-13.6717355609173
17.55618	5756.28084270477	-1010.8054194765	5844.35597274268	9.95962222035598
14.98558	7611.65374838941	39459.9317353088	40187.354794022	-79.0819840109163
12.76553	4216.28915941508	3868.33495406939	5721.98475991296	-42.5355673808653
10.8809	1232.83764715433	-135.592393285306	1240.27172883923	6.27639168224724
9.278505	22778.7447754096	27993.697336064	36090.4184526365	-50.8644142064081
7.923394	8670.25506426964	424.364142251887	8680.63406697475	-2.8020959337109
6.75822	23166.9964644844	6716.85623084911	24121.0671988477	-16.1685710405384
5.761429	18243.919846985	-10067.7870552811	20837.4889939671	28.8918208082402
4.919708	456.054358668195	-232.581075209157	511.937041642531	27.0209188014877
4.191257	3291.65628891222	9326.7246422397	9890.54061598741	-70.5606692028331
3.564097	11139.3323068477	-9868.70816554355	14882.073951538	41.53880989341
3.051758	9611.70996948848	1871.13106937142	9792.14481185461	-11.0161048283757
2.604164	10473.9178530568	-1759.58165239894	10620.6912573543	9.5364413224503
2.214424	2839.26385234647	1173.04573896202	3072.04419384524	-22.4480337765675
1.892567	7742.76394463747	1457.42154609053	7878.73537221468	-10.6600631249034
1.607507	22116.4029873511	-6771.92123068937	23129.9415964151	17.0243006963001
1.376413	11959.6868672535	5540.96219156818	13180.9093757276	-24.8584443023711
1.17375	7911.5656391697	-2130.79691169423	8193.4831629641	15.0736200461536
1.001604	11091.5640972756	3300.15152198229	11572.1127799557	-16.5696930633315
