EC-Lab ASCII FILE
freq/Hz	Re(Z)/Ohm	-Im(Z)/Ohm	|Z|/Ohm	Phase(Z)/deg
6999984	11.1515151190917	9.0839463626799	14.3831279967668	-39.1660197764348
5969734	18.7535764795692	6.08880667148559	19.7172563369698	-17.9872880513103
5091109	10.9768570384097	-5.86241596062131	12.444248122608	28.1053617499097
4341796	8.09854153281129	-5.27358291686547	9.6642150089764	33.0712442560881
3702781	5.79536783355224	-5.12824611787848	7.73855261477931	41.5052001891477
3157797	3.50616262563724	-4.98867509467357	6.09754504350987	54.8995153152405
2693047	3.25967556528826	-4.47617233784985	5.53729208088841	53.9368316278617
2296687	1.89897278429644	-4.12494632847079	4.5410659374494	65.2804047544665
1958656	1.74904005598861	-3.33823152160354	3.76867759423383	62.3480640547664
1670375	3.06873052791909	-0.510781809920297	3.11094922978952	9.45009085314614
1424531	43.8002312264619	7.51707091360966	44.4405964250229	-9.7383287311426
1214875	14.7127984999235	-11.7982920964131	18.8591128129516	38.7263606123411
1036062	39.0767317268574	-43.4057285506714	58.4041799314686	48.0043464029859
883578.1	46.7116974632755	-59.9723182643938	76.0175087588795	52.0854159157216
753531.2	89.5390646943202	-82.5162802691328	121.762804730294	42.6626551494033
642624.9	204.078757479053	90.7042533144154	223.328011730548	-23.963094615076
548046.8	-5.3385851434311	56.9100686839299	57.1599196023164	-95.3590847170083
467390.6	45.5130209290772	-28.7746825291742	53.8462387613599	32.3022890583989
398593.7	-40.4908146246125	-21.8659493732898	46.0176684650582	151.629957326161
339937.5	34.8942638229898	-1.21344340051558	34.9153561149628	1.99165057024512
289906.2	17.0868081318106	-31.6964179643166	36.0086367959405	61.6719165607325
247234.4	-2.97634616224721	-38.9001517999014	39.0138494195702	94.3753161827687
210843.7	-13.3046959506019	74.4134915838086	75.5935358614181	-100.137037066384
179812.5	199.711260632658	137.988819528719	242.745755757778	-34.6422085866675
153343.8	-4.56578722747703	5.53696444878149	7.17665578899131	-129.509030884411
130781.2	1.2993028983189	0.360676408990722	1.34843446024726	-15.5142417793431
111531.3	0.483890968057239	-0.244824774219336	0.542300321813403	26.8371425886995
95109.37	0.478775963997974	-0.222886695432686	0.528114478785701	24.9635992465114
81109.37	0.479251609371028	-0.203276792669817	0.520580022208736	22.9844540531028
69171.88	0.464509367520469	-0.170327903635475	0.494753016434586	20.1371517493561
59000	0.442790572474299	-0.118125677848001	0.458276299669934	14.9372389021786
50312.5	0.442395022112861	-0.0976659072329242	0.453047442356613	12.44928999796
42906.25	0.479512792935926	-0.111323642260923	0.492265651772953	13.0702444675889
36593.75	0.463371070799236	-0.10156612633932	0.474371613055846	12.3631228751503
31203.13	0.456874235408182	-0.088500855853921	0.465367025547242	10.9629572632993
26609.38	0.45354046286727	-0.0761187892371541	0.459883704356643	9.52729691604002
22703.13	0.45114982033431	-0.0697266700465576	0.456506263816239	8.78573483053604
19359.37	0.448362852926781	-0.0614051070233502	0.452548157717156	7.79837385092095
16500	0.446253177028323	-0.0561470772125372	0.449771488966767	7.1712085187928
14112.02	0.444446037562517	-0.0497841736758504	0.447225607779351	6.39128690890482
12011.13	0.442429271841789	-0.0448238445144557	0.44469409442842	5.78506891376665
10236.38	0.44023028060956	-0.0399496560333162	0.442039223353259	5.18522793888829
8750.684	0.43771546330129	-0.0367413712427021	0.43925477251119	4.79809926432563
7449.463	0.436617755964208	-0.0307964591172454	0.437702509379808	4.03462669977806
6363.206	0.431949446251169	-0.029943045752787	0.432986039157898	3.96544090010043
5414.761	0.42842192038689	-0.0283315748314686	0.429357683057404	3.78346549366231
4620.567	0.424817559822159	-0.0262419326763084	0.425627299598888	3.53479722691317
3941.215	0.421856505707025	-0.0245429222828267	0.422569836170925	3.32962161343462
3361.769	0.419840665435719	-0.0223173116403495	0.420433403468802	3.04278633612064
2867.244	0.417822833934209	-0.0217468399280395	0.418388390856713	2.97944184116436
2442.658	0.415767780988147	-0.0208403795191627	0.416289765819808	2.86955197380504
2083.003	0.413458329178262	-0.0202847894264132	0.413955628840766	2.80875141145914
1777.843	0.410817323068918	-0.0190823879553236	0.411260270952094	2.65946668498001
1513.548	0.408151950355732	-0.0178903282579553	0.40854385128694	2.50981182776522
1292.065	0.4066795297588	-0.0170909777270777	0.407038501182022	2.40647717054
1101.762	0.405136883247848	-0.0160247957708422	0.405453681999902	2.26509811571808
939.101	0.403681133855184	-0.015487362617717	0.403978113555004	2.1970943279718
801.2801	0.402063982871144	-0.0153551537478131	0.402357089000339	2.18710996543385
684.3433	0.400752501794014	-0.0148825724831249	0.401028750413081	2.12679126059365
582.9476	0.39875619248109	-0.0150218857614575	0.399039043320133	2.15741814657458
497.0677	0.397644063718789	-0.0144316889352139	0.397905862053219	2.07852243114286
423.5089	0.39550923376452	-0.0139948239294766	0.395756754951593	2.02652651123474
361.5036	0.393915403506635	-0.0141775742648022	0.39417045644217	2.0612666612269
308.1262	0.392277655716869	-0.0136146453631275	0.39251384401456	1.9877470087869
262.7298	0.3905543266518	-0.0127834803432239	0.390763482731085	1.87471504087908
224.2111	0.388961759283029	-0.0131578586160359	0.389184248689369	1.93747168113755
191.2854	0.387478804420739	-0.011226827841387	0.38764141360116	1.65962611162917
163.1722	0.386849722658074	-0.0119320840707116	0.387033696919143	1.76668442156496
139.1537	0.384135752479823	-0.0114749303179049	0.384307104226608	1.71103474979728
118.6706	0.381871253252876	-0.0120701674030481	0.382061962254893	1.81039938246005
101.1982	0.375786816001397	-0.0126810239272071	0.376000717350792	1.93272759059387
86.24196	0.38015985259504	-0.00856379991488388	0.380256298033398	1.29047456084654
73.61024	0.409463684224161	-0.0180316192501192	0.409860522606416	2.52151449073077
62.69291	0.460155606664092	-0.0267299075747734	0.460931307575602	3.32450968398646
53.57697	0.398144566762782	-0.00298411994196577	0.398155749694202	0.429427627562868
45.65746	0.346586625719037	0.0111831584711621	0.346766999815004	-1.84809656763289
38.96512	0.375327058955066	-0.0218043488462152	0.375959879259033	3.32481908119583
33.18414	0.3653171732086	0.00148686517902554	0.365320199016127	-0.233196343632544
28.30617	0.373637551609379	-0.0159210627868872	0.373976603830929	2.4399533756361
24.17237	0.371489687517184	-0.00608892681463914	0.371539584649293	0.939026260017857
20.61345	0.371725911517476	-0.0377028850773584	0.373633056402475	5.79150895938392
17.55618	0.338246297976516	0.0157847986558418	0.33861440897195	-2.67185976208869
14.98558	0.38742578439215	-0.0402685654513873	0.389512895518731	5.93394626725345
12.76553	0.373112239358099	0.00308638767739585	0.373125004452543	-0.473940374891905
10.8809	0.340989568406132	-0.0392531094369502	0.343241449073781	6.56671512661798
9.278505	0.361404250497866	-0.00931882387735728	0.361524373668473	1.47704680767499
7.923394	0.363755172956717	-0.00228859041066886	0.363762372296585	0.360475537369865
6.75822	0.368739834281129	-0.0132222939664415	0.368976821011035	2.05363543635356
5.761429	0.361637978153129	-0.00517843835354412	0.36167505231418	0.820385035295708
4.919708	0.364190099838985	-0.0121329957715008	0.364392149211699	1.90810358343253
4.191257	0.364572089883821	-0.00699914908948424	0.364639269429711	1.09984405395518
3.564097	0.364782536530318	-0.00429208346372738	0.364807786290195	0.674119223439121
3.051758	0.356312696416515	0.00523426079011908	0.356351140188475	-0.841618851183257
2.604164	0.355849026271011	-0.00926298039503106	0.355969566541615	1.49110948379868
2.214424	0.384500915793883	-0.0332099448298313	0.385932448340295	4.93647487438547
1.892567	0.406443360917378	-0.016866047709207	0.406793152842011	2.37622098825252
1.607507	0.398450450510702	-0.0467440908521829	0.401182965168984	6.69105269773932
1.376413	0.352687816492967	-0.0194623758923941	0.353224404561681	3.15855016679564
1.17375	0.388396140087852	-0.0330636506871113	0.389800932056225	4.86578276866444
1.001604	0.378247036083481	-0.0213525828154591	0.378849248512953	3.23099896111655
