EC-Lab ASCII FILE
freq/Hz	Re(Z)/Ohm	-Im(Z)/Ohm	|Z|/Ohm	Phase(Z)/deg
6999984	1.84459551226417	1.78471958017107	2.56666253794906	-44.0548280000121
5969734	5.38292940446069	1.64661685118068	5.62914523067221	-17.008664678071
5091109	7.90042069601448	-4.6200690081476	9.15214099618553	30.3185716617852
4341796	3.62972781444043	-5.16529547247318	6.3130976014057	54.9037322846127
3702781	2.5362636849765	-4.77546449442596	5.4071891604838	62.0270930979341
3157797	1.15287388804345	-6.48094038685683	6.5826823180011	79.9133457716511
2693047	0.911766009503336	-7.01988171466832	7.07884570703587	82.5996583941219
2296687	-0.118053217063501	-9.86551954115665	9.86622584269196	90.6855825736852
1958656	-3.67358858522842	-6.96337503820414	7.87298196468181	117.814274736437
1670375	-2.53404838560032	-9.54690921742849	9.87749344856197	104.865313974921
1424531	-4.50806762406689	-8.11629641437292	9.2842307806906	119.049285263841
1214875	14.1389844729147	-10.4723277821439	17.5949007130471	36.5262542452403
1036062	-0.234495872096802	-12.2503260542323	12.2525702099206	91.0966224959121
883578.1	8.3687712250433	-10.0522232411339	13.0798900571337	50.2216243152067
753531.2	8.5772959116127	9.00388924794669	12.4354343207086	-46.3899633306914
642624.9	5.30697335593562	-8.16015188608434	9.7340662112283	56.9619456537494
548046.8	4.1300583255673	13.0021608164967	13.6423446544437	-72.37786214587
467390.6	6.49045990382814	3.82775446948347	7.53510278907006	-30.5300160065003
398593.7	16.783243202755	-12.9051247833638	21.171195008242	37.5577329750805
339937.5	20.4011353179569	5.61627459571104	21.1600770933382	-15.3918178872575
289906.2	30.1809269578659	9.79175600714325	31.7295893093413	-17.9748892446237
247234.4	36.3277169497501	-21.7929001954666	42.3631150614627	30.959430685217
210843.7	8.02587480428868	-0.545748124630053	8.04440845492402	3.89004366496578
179812.5	16.0240028063089	9.74993888139256	18.7571312872594	-31.3187726255892
153343.8	22.2664709128314	-14.275670269529	26.4497729395978	32.6650916638537
130781.2	31.625550200391	-17.7197553564118	36.2514159084654	29.2618541410695
111531.3	-23.3662221399891	-87.6566814136107	90.7175514084378	104.925990205426
95109.37	-24.0320467156514	-229.393444175454	230.648848902439	95.9806866289457
81109.37	-27.3796767877519	-266.999318015711	268.399483087908	95.854979688694
69171.88	-31.1546572748341	-309.592085524451	311.155703931795	95.7464041865167
59000	-37.8618070218152	-358.657992731984	360.650900708002	96.0261221820996
50312.5	-46.4217875303135	-418.179178993908	420.747915148166	96.3344307716595
42906.25	-52.5974841042222	-483.145395039126	485.999967162146	96.2130210148713
36593.75	-161.241549424926	-565.709352635027	588.239669624289	105.908899302973
31203.13	-171.961947796409	-654.362074097773	676.580102801933	104.724022582642
26609.38	-184.55835553438	-756.455709117057	778.644351712221	103.711033200851
22703.13	-199.152979731264	-875.199560701668	897.572381698676	102.819453575848
19359.37	-216.197045277451	-1012.36142910058	1035.18927038357	102.054841398246
16500	-236.564270739891	-1174.15434579929	1197.74833832072	101.391241679925
14112.02	-259.069976617268	-1353.86168842064	1378.42617653527	100.83295160435
12011.13	-284.184008184222	-1572.43436401272	1597.90812615611	100.244409357191
10236.38	-313.549935799956	-1822.5137731475	1849.2890567871	99.7617497105731
8750.684	4.81485406963114	12.7880988081397	13.6644901419185	-69.3681148480478
7449.463	-428.484142485303	-2431.28056855101	2468.74945334172	99.9950581247503
6363.206	9.20745301291006	18.8389621725007	20.9686357859031	-63.9531480220459
5414.761	-617.178750831949	-2726.2559456329	2795.24258188394	102.755797964809
4620.567	6.21255057608032	8.65848831906133	10.6566976419375	-54.3401881860559
3941.215	153.099061065176	91.1736418201701	178.190783885675	-30.7746689850211
3361.769	4.61665221138279	6.54827551666056	8.01207775068127	-54.8154738658507
2867.244	21.6306322118297	-29.0203376921051	36.1948097059131	53.3005849146808
2442.658	3.22021327459105	7.44461330778793	8.11122930488009	-66.6088074024773
2083.003	5.71594922000805	-5.54035394537849	7.96037670752972	44.1062738804369
1777.843	9.5354435636983	4.66563076725695	10.6156862431427	-26.0722038251542
1513.548	9.71569275163221	7.19505668870016	12.0898108503701	-36.5221805153169
1292.065	11.2045096478346	18.1411215183615	21.3223199111255	-58.2992577954744
1101.762	146.075899855497	-85.0686000158432	169.040927669156	30.2147631684634
939.101	581.592743232447	2412.8768714324	2481.98003933836	-76.4480970266999
801.2801	6263.49246088309	-10993.3918444788	12652.5097136415	60.3276429817966
684.3433	-5439.30710838221	-15490.8875210856	16418.0893532171	109.347677397789
582.9476	-2299.78760013411	-14836.0285779954	15013.2197403764	98.8114992073486
497.0677	13337.9365054096	-10526.7216727324	16991.5396417603	38.2816193126047
423.5089	16166.3719081869	12532.3861273364	20455.1285187473	-37.7833179181794
361.5036	-3968.53861232003	-35482.944547995	35704.1825633015	96.3816424939783
308.1262	14.5022538538296	-17.8874622228606	23.0277370059496	50.9666012291697
262.7298	1857.90315598589	-1419.78269605118	2338.28720242589	37.3865389154734
224.2111	14184.8063745789	-31315.2544074785	34378.1019035286	65.630997629307
191.2854	-15045.4519113364	-69389.5705091404	71001.9585550941	102.233833413445
163.1722	-560.636508671042	775.977128456082	957.315934653655	-125.847773277746
139.1537	2807.23143215599	3614.48465957505	4576.57597642473	-52.1648851619063
118.6706	3057.28352575015	-6053.30883676657	6781.55811227033	63.2034900428967
101.1982	-194943.050706181	-344171.458934474	395546.187143444	119.527762318555
86.24196	-124026.149175198	-223901.57471692	255957.810664072	118.983452413181
73.61024	-142878.52014474	-288904.254278567	322304.110521423	116.31484418658
62.69291	-70893.9575785493	-145031.539212452	161431.411402745	116.050194981009
53.57697	38065.0504357696	-146057.18125305	150935.907789578	75.3926514722894
45.65746	194924.781327692	-253280.865470425	319604.235248997	52.41814396651
38.96512	-111907.769699497	-412986.298496396	427879.692980247	105.161475859224
33.18414	490436.599611984	21565.3836452031	490910.505093067	-2.51777708703313
28.30617	21464.1148090375	-522019.282436692	522460.371186423	87.6454685127211
24.17237	1037608.85941389	-1130907.2119497	1534790.95227136	47.4635773767855
20.61345	-292297.050232413	-992866.43462977	1034998.22347142	106.404278612643
17.55618	-313799.623689873	-1150246.87676828	1192282.7187136	105.259566233751
14.98558	1387860.1581696	-1809614.79783096	2280539.7464555	52.5140742901488
12.76553	534970.01525375	-2541055.8874809	2596759.12254525	78.1111070270671
10.8809	3536087.6280411	-4483655.6343791	5710261.251544	51.7385071595038
9.278505	3171460.95745567	1823212.88484739	3658178.48500305	-29.8937807524752
7.923394	2598964.15562124	319519.620649538	2618531.54844162	-7.00883800923067
6.75822	1008526.75628228	1225501.87447739	1587129.81903966	-50.5473279034268
5.761429	825871.955548047	217651.938978515	854070.75438857	-14.7641426226916
4.919708	1653150.53550282	197781.217489571	1664939.66948503	-6.82238035396125
4.191257	1062007.11426999	-324296.765072275	1110417.71536499	16.9806871489347
3.564097	2147731.59915408	-996306.186020032	2367567.74735312	24.8860035723169
3.051758	-571437.067386445	1138799.82656472	1274129.25834354	-116.646987820417
2.604164	14538942.6304243	693880.429979811	14555491.1583869	-2.73240478525796
2.214424	3941130.86028517	1251701.15660143	4135126.14599959	-17.6198215694032
1.892567	440510.099618518	1059380.34727099	1147316.81241491	-67.4215480348703
1.607507	624978.793765995	986627.594324479	1167918.02047049	-57.6478047824107
1.376413	825833.20489164	356549.824042364	899515.569251716	-23.3520580448808
1.17375	1725547.54312884	-2832158.84431132	3316419.4612577	58.6473296560164
1.001604	1900711.32709347	-4697109.26926415	5067103.61413191	67.9690092081178
