EC-Lab ASCII FILE
freq/Hz	Re(Z)/Ohm	-Im(Z)/Ohm	|Z|/Ohm	Phase(Z)/deg
6999984	18.4777806081914	-1.68305495061733	18.5542730973556	5.20444437037918
5969734	16.3115707596737	-4.77104348469426	16.9950050479747	16.3039036717483
5091109	11.0474237471271	-5.65213957189407	12.4093615141456	27.0954262331665
4341796	8.65207016270829	-6.29946300515545	10.7024087127034	36.0578898956106
3702781	6.26246721202602	-4.63447356778794	7.79081772551675	36.5029062150888
3157797	4.03557595458174	-4.93958260835264	6.37850684956426	50.7516160052807
2693047	2.49595714984258	-4.3258359702231	4.99426260173875	60.0155528707888
2296687	2.22443526793064	-3.62403503732858	4.25226318717443	58.4583681751823
1958656	1.6706927439401	-3.23526897549139	3.64117832417353	62.6881718019561
1670375	1.38971069245423	-2.70795485879562	3.04373378040795	62.8333020114627
1424531	1.1249150537211	-2.47302181149541	2.71684941765648	65.5404130018968
1214875	0.794559250095201	-1.89156224112501	2.05166569254392	67.2149394539462
1036062	0.846581616850264	-1.86619453867973	2.04923949068597	65.5990265843387
883578.1	0.702940170674361	-1.59843480690665	1.74617259040405	66.2616522744075
753531.2	0.672333640756787	-1.27383288054158	1.44037589956308	62.1747443217393
642624.9	0.759422748832716	-1.11843139148302	1.35189189246008	55.8232206838166
548046.8	20.6930130903309	-18.6850473945095	27.8806704885602	42.0809024521172
467390.6	31.2311759574275	24.547907971559	39.7238736462587	-38.1675777930618
398593.7	-6.17499886707134	-27.997406480058	28.6702874177767	102.437806388511
339937.5	0.680378280172745	-31.0663277552227	31.0737772856641	88.7453755920337
289906.2	3.35534590817582	-36.3565407506494	36.5110449250243	84.7271079832222
247234.4	39.0107460045589	-0.374480061084441	39.0125433565713	0.549988661969162
210843.7	154.342051711449	53.2340442860898	163.26460852724	-19.0298019482847
179812.5	-9.81076403441956	-3.36254261982633	10.3710068850237	161.08135452308
153343.8	0.357335926885301	-1.80492980469242	1.83996210953106	78.8015211701997
130781.2	0.818213611210646	0.0716129319063597	0.821341540156463	-5.00198171206058
111531.3	0.811324988051285	-0.237328291670049	0.845324171110375	16.3052214746771
95109.37	0.805108839569645	-0.210292755112945	0.832119754846725	14.6384872486415
81109.37	0.793950234907385	-0.184547584807122	0.815116425161236	13.0855940069205
69171.88	0.796362984624992	-0.154971326522194	0.811301494713817	11.01206547592
59000	0.791962712638104	-0.13018975168102	0.802592243702785	9.33528729973577
50312.5	0.779813959352571	-0.0938720149008249	0.785443674863242	6.86409168144678
42906.25	0.819173239264854	-0.108574408583158	0.826337218166322	7.5500596720892
36593.75	0.790100043643754	-0.0985040525788067	0.796216759017487	7.10656169076819
31203.13	0.77474891467973	-0.0808656451748092	0.778957722451583	5.95876106936056
26609.38	0.761839997641047	-0.0768218164514591	0.7657034500958	5.75808260161599
22703.13	0.749980795875202	-0.0679333708219719	0.753051218080707	5.17573574709636
19359.37	0.734003493711563	-0.0609630653745277	0.736530803239512	4.74783539583219
16500	0.725683579750015	-0.0541126707924985	0.727698315965548	4.26453117169446
14112.02	0.712705139943761	-0.049831748031155	0.71444511308714	3.99956397454724
12011.13	0.701472365748073	-0.0439088530241961	0.702845265532961	3.58177174470477
10236.38	0.692113493807065	-0.0402329415692635	0.693281889203186	3.32689146954082
8750.684	0.688419130077735	-0.0365816366868678	0.689390393608495	3.04175730392058
7449.463	0.680634412754295	-0.0363146165212201	0.681602490604654	3.05406730214897
6363.206	0.67306249644537	-0.0309400562965095	0.673773263943372	2.63198075363199
5414.761	0.662835336638129	-0.029372973298538	0.66348583636471	2.53735276306157
4620.567	0.65683405437762	-0.0268491061008639	0.657382574676693	2.34075031707156
3941.215	0.651515780057796	-0.0253734201009241	0.652009679461844	2.23026915726767
3361.769	0.643563321188643	-0.0242704290606031	0.644020808752436	2.15974779296958
2867.244	0.621582036665632	-0.027995960916829	0.622212184172772	2.57885037728951
2442.658	0.616633595539791	-0.0243218946041599	0.617113073678939	2.25874802447464
2083.003	0.616284984842592	-0.0218005783835433	0.61667045312735	2.02594667794606
1777.843	0.608651431832242	-0.0219036506644251	0.609045429655184	2.06102430007956
1513.548	0.605983942755825	-0.0206564980011837	0.606335905078669	1.9523158716938
1292.065	0.604338216123245	-0.0184500829034537	0.604619785506702	1.74866260707691
1101.762	0.598674290433994	-0.0214862752037943	0.599059734958693	2.05544942073294
939.101	0.595295198326407	-0.0204108366663952	0.595645007872893	1.96372632618383
801.2801	0.591829712499327	-0.0199129085417021	0.592164616068562	1.92706676757798
684.3433	0.587942617587303	-0.0183635295699365	0.58822932670318	1.78896846909098
582.9476	0.586013293988639	-0.0174036083299858	0.586271665965804	1.70108820247381
497.0677	0.581783705944139	-0.016964417356428	0.582030988829924	1.67023270633263
423.5089	0.579006247587704	-0.0165669462256094	0.579243211831469	1.63894118930936
361.5036	0.578340835460922	-0.0165271333472869	0.578576933603748	1.63688484378263
308.1262	0.5763335120601	-0.0148862864142982	0.576525731122851	1.47958042704506
262.7298	0.574527063737011	-0.015153457908229	0.574726869262999	1.51085647420786
224.2111	0.573603235168938	-0.0146858845198274	0.573791204708126	1.46661553805684
191.2854	0.570899467290101	-0.0131718396718522	0.571051397960343	1.32169846884999
163.1722	0.571264619494153	-0.0136333382484539	0.571427277435718	1.36711511439662
139.1537	0.570372867787016	-0.0129957014113951	0.570520899321628	1.30523395364911
118.6706	0.57094566143104	-0.0135189504958922	0.571105691032262	1.35640596024783
101.1982	0.566690341798346	-0.0114277203687173	0.566805554207395	1.15525422936448
86.24196	0.566067304397465	-0.00996351326696451	0.566154982937034	1.00837535266711
73.61024	0.580852961083402	-0.0264088626304521	0.581452999325647	2.6031976458358
62.69291	1.42316418543529	0.149491293723266	1.4309940410794	-5.99644450354632
53.57697	0.593568291701473	-0.0123167482808172	0.593696066351814	1.18873673699634
45.65746	0.63675617539226	0.0545018833138347	0.639084409280131	-4.89219497710438
38.96512	0.583325970225222	-0.0188961820531651	0.583631950149564	1.85538287191357
33.18414	0.586288541666068	0.00200868341021415	0.586291982631494	-0.196300325344638
28.30617	0.553940219742672	0.0227991030240559	0.554409204601855	-2.35685272294592
24.17237	0.572675178964696	-0.0643430517532136	0.576278482082373	6.41059558660073
20.61345	0.588009689718358	0.000278688565731646	0.588009755760903	-0.0271554664805183
17.55618	0.589854245085029	-0.0131217432981459	0.59000017846778	1.27437673863454
14.98558	0.553619159077689	-0.00972601850707982	0.553704586159341	1.00647255982948
12.76553	0.553878323901825	-0.00882213337737834	0.553948578593378	0.912525816077467
10.8809	0.560464001869205	-0.0122794494341614	0.56059850362773	1.25511733530902
9.278505	0.554167158934226	-0.0109177792810491	0.554274695386377	1.12865179893656
7.923394	0.554221610118491	-0.0154140877419001	0.55443591804937	1.59310743048787
6.75822	0.564285339848347	-0.0168132951608608	0.564535766503709	1.70666480069382
5.761429	0.524138616514183	0.0169918977582825	0.524413971887506	-1.85680495316108
4.919708	0.554402901720639	-0.00573037384718537	0.554432515840019	0.592194853102341
4.191257	0.552221488216458	-0.00264725246966519	0.552227833410847	0.27466376298468
3.564097	0.54313317330362	-0.0129517592469474	0.543287577633109	1.36603795374178
3.051758	0.554635442419468	0.0233446217256326	0.555126512924173	-2.41015842437371
2.604164	0.553730692669405	-0.0150134558685929	0.553934187301395	1.5530960687805
2.214424	0.55550374194513	0.000142905396131697	0.555503760326601	-0.0147395512741246
1.892567	0.548463300326243	-0.0284024887883332	0.549198227577371	2.96444696270799
1.607507	0.543642331139204	-0.0152398600582674	0.543855897771701	1.60574516057507
1.376413	0.509145781790443	0.00300518844827302	0.509154650644194	-0.338179400434364
1.17375	0.554305075422862	-0.0127038083948165	0.554450632055981	1.31290012894796
1.001604	0.470751347119621	-0.0296712162439925	0.471685501036799	3.60655274230197
