EC-Lab ASCII FILE
freq/Hz	Re(Z)/Ohm	-Im(Z)/Ohm	|Z|/Ohm	Phase(Z)/deg
6999984	-13.5249938018292	31.9012918257857	34.6499332970997	-112.975187790321
5969734	-9.90077729180646	37.3599235695646	38.6495702447732	-104.842796733573
5091109	-7.27327633936721	41.0617864298579	41.7009694553983	-100.044618974029
4341796	-4.69862954306852	44.7928383780805	45.0385999954243	-95.9882496718415
3702781	-2.56967851466487	49.122808367965	49.1899740762744	-92.9944878965034
3157797	-11.0249525921788	46.2320591980784	47.5284428248434	-103.412808668485
2693047	-8.88990345522733	53.2681378884877	54.0048599438069	-99.474755150992
2296687	-7.04246807968841	61.2180080228869	61.6217564091099	-96.5624106783421
1958656	-4.57573398549927	70.5419635590648	70.6902112337662	-93.7113153939916
1670375	-1.3237913838692	81.3383987840915	81.3491704960038	-90.9324127918276
1424531	2.83276901671931	93.476539729924	93.5194528436846	-88.2642056356828
1214875	8.51911085759341	107.348615268659	107.686120042941	-85.4625566090521
1036062	14.5538370044253	121.875980129646	122.741878363146	-83.1902632893428
883578.1	22.4826235650465	138.992411533306	140.799001509995	-80.8117435944162
753531.2	32.9848770728067	157.484900411087	160.902131660827	-78.1705227504222
642624.9	44.9388825089377	177.878266861132	183.467111446908	-75.8215676777243
548046.8	59.566498349553	200.389445086087	209.055249700976	-73.4452252224192
467390.6	76.9124589342052	224.230813488266	237.054812347093	-71.0677368515239
398593.7	97.2252531288708	249.432378429624	267.711152653437	-68.7048589044043
339937.5	121.050786000132	276.160252904992	301.525750269855	-66.3304645056027
289906.2	148.875971667391	304.390153660773	338.847193563026	-63.9369333164437
247234.4	181.434047482105	332.916816426599	379.146304538711	-61.4103613272553
210843.7	217.434879924203	362.121509579155	422.385978351009	-59.0174030958914
179812.5	260.431653651219	389.949197064677	468.918993553146	-56.2626048281686
153343.8	306.486895447099	417.442772694079	517.873233094086	-53.7138479131527
130781.2	110.960810249335	332.385138738126	350.417154068051	-71.539338412696
111531.3	155.794369289759	364.370721303426	396.280087874187	-66.8498507468888
95109.37	206.392327833253	392.087962904955	443.092274411759	-62.2379988623218
81109.37	262.546819142813	416.515989307304	492.358001448795	-57.7751160044888
69171.88	322.293408379209	434.789473043168	541.216155481193	-53.4518228542835
59000	386.801715002687	444.473086968675	589.212942634904	-48.9686515609249
50312.5	455.103406517162	445.15927366321	636.620679488093	-44.3671472941379
42906.25	488.720316038844	436.214167831047	655.080413022432	-41.7509532466352
36593.75	550.786961237954	439.224675773924	704.474692574863	-38.570584847001
31203.13	615.467282868792	424.156442436526	747.468169183346	-34.5731213357307
26609.38	673.823288003533	418.249112753058	793.076379533908	-31.828303992799
22703.13	714.844951951001	383.621590165008	811.276050287791	-28.2202340582555
19359.37	751.31990607528	382.103038383218	842.902327204436	-26.9567819059007
16500	788.245813445535	354.648223572194	864.35341434932	-24.223973758355
14112.02	822.256020876151	344.302164357773	891.430840979001	-22.7204580194184
12011.13	851.343301789939	326.457225964432	911.789305644121	-20.9798867223243
10236.38	878.780882667504	306.449107326598	930.68087716636	-19.2247221901882
8750.684	900.057468147716	297.808586766112	948.047150894989	-18.3082074419411
7449.463	920.535766325665	294.894341831189	966.617178581484	-17.7629005900032
6363.206	938.478417244293	292.864598496436	983.113123036119	-17.3312227279958
5414.761	967.418691018103	285.472907916697	1008.6593601834	-16.4406572382901
4620.567	972.558301527022	281.73846752504	1012.54442566857	-16.155668030992
3941.215	990.48434297814	298.007922551928	1034.34421523425	-16.7450124190636
3361.769	1013.05316302361	296.742771674352	1055.61971545302	-16.3263235102717
2867.244	1040.95095689358	323.352384688137	1090.01635737321	-17.2564517357312
2442.658	1074.07204586142	332.296610701003	1124.30058133238	-17.1910314146832
2083.003	1082.37702926597	367.596109879988	1143.095330006	-18.7584777844005
1777.843	1107.41814159381	401.363290345531	1177.90807415862	-19.9221149592656
1513.548	1110.09744935064	349.531558081862	1163.82501139558	-17.4774243685793
1292.065	1082.023687283	423.120711048463	1161.81168696122	-21.3577695769469
1101.762	1330.47134546593	451.828496838463	1405.09892593413	-18.7575037561488
939.101	1142.67691571125	504.833000166689	1249.22651739253	-23.8357719338421
801.2801	1256.59543301688	409.843907281538	1321.74283074079	-18.0639555338768
684.3433	1436.91836104366	683.156352517984	1591.04901819211	-25.4278898662177
582.9476	1509.26096858465	638.648338228389	1638.82286145115	-22.9357984771403
497.0677	1488.95739000479	518.996343003558	1576.81682934352	-19.2166950514784
423.5089	1651.51387947132	748.983420178747	1813.41508149378	-24.3949214461102
361.5036	1477.29600023557	614.173856033632	1599.87905722503	-22.574703285915
308.1262	1531.53904166523	921.081393334877	1787.17731892853	-31.023080566678
262.7298	1853.35217378943	719.401026469816	1988.07749269887	-21.214323863358
224.2111	1709.0112686736	1016.03179142054	1988.22536892339	-30.7320924912649
191.2854	1711.00107979973	997.076470936071	1980.32476729706	-30.2312586233852
163.1722	2167.14041099603	1031.89715940124	2400.27275711582	-25.4617402127541
139.1537	-569.254329451032	1401.52677185361	1512.72197836256	-112.105380561533
118.6706	1919.83694740649	679.830681224077	2036.65010734801	-19.4994898304212
101.1982	-267.316319284356	1323.82026926838	1350.53993642599	-101.416108048234
86.24196	-175.207930067048	1498.98157574481	1509.18639775899	-96.6667462928354
73.61024	-24.6371977262046	1550.19067977878	1550.38644704629	-90.9105258040536
62.69291	99.3043453077355	1489.1352317422	1492.44265933834	-86.184827205594
53.57697	301.497581566281	1677.17599101609	1704.05988642744	-79.8090674529373
45.65746	364.648313235617	1868.40940784741	1903.66018702874	-78.9566781411211
38.96512	522.120281846965	1968.0983718917	2036.1779858742	-75.1421543242582
33.18414	634.093030707245	1915.23794977251	2017.4762392257	-71.6814319458885
28.30617	843.629420872149	1980.39482814244	2152.59710003856	-66.9264552040978
24.17237	1111.53842471188	2380.58717940143	2627.30146506666	-64.9712940239934
20.61345	1186.73804300993	2569.62750474631	2830.4297722918	-65.2109622696966
17.55618	1429.31315173444	2545.0744148974	2918.96212087214	-60.6814444202899
14.98558	1760.66096879062	2742.59177682334	3259.10059699325	-57.3007642459
12.76553	2149.63373426881	2892.90280044508	3604.13815000611	-53.3850102457933
10.8809	2526.9754664741	2958.26134706058	3890.61887180879	-49.4957268958216
9.278505	2685.63993725291	3167.34918598574	4152.68139140632	-49.7049195164019
7.923394	3264.90109228822	3206.14584394988	4575.90978004395	-44.4797850670827
6.75822	3138.44659633032	3902.47026013277	5007.90586665106	-51.1930456089613
5.761429	4126.79954099532	3211.86243036992	5229.39142952418	-37.8934002993579
4.919708	4366.16911627678	4553.31063426404	6308.41267547005	-46.2019586893751
4.191257	4466.09930070858	4322.12421785579	6215.04631667095	-44.0614227442341
3.564097	5708.56524459265	4280.2323114181	7134.99164620945	-36.862242425883
3.051758	6024.04524106747	4515.45909700126	7528.5119328536	-36.8542210167512
2.604164	6356.92655097898	4746.86398033092	7933.67713121127	-36.7495473571587
2.214424	6963.31275507413	5006.45019501303	8576.26189432926	-35.7152038383429
1.892567	7709.89800535436	4974.48324436818	9175.40248716463	-32.8304071764828
1.607507	8610.15411699606	4682.72644229034	9801.15711800139	-28.5400419107637
1.376413	9859.16748492969	4132.74211367158	10690.3106069941	-22.7423392776144
1.17375	9362.86657501932	4386.97026503255	10339.6701401879	-25.1054349486961
1.001604	11141.3497375183	4574.61505958985	12043.9518812192	-22.3229513603125
