EC-Lab ASCII FILE
freq/Hz	Re(Z)/Ohm	-Im(Z)/Ohm	|Z|/Ohm	Phase(Z)/deg
6999984	26.6001914089522	84.3368828453436	88.4323469724857	-72.4945163529586
5969734	22.7113755769056	83.4445486983954	86.4800513880175	-74.7744300113432
5091109	19.7972160394703	87.7675711417539	89.9726419920872	-77.2888552952748
4341796	19.3640915410356	95.6187135969843	97.5597582569356	-78.5516542757432
3702781	23.0506499134077	105.863334233614	108.343795376054	-77.7161672188834
3157797	26.9034659260985	117.504036745637	120.544577357742	-77.1039618147861
2693047	31.6482046788798	131.395906214975	135.153590516311	-76.457608126099
2296687	38.0740394232408	148.916601019718	153.706820074024	-75.6582174103325
1958656	47.4260047969174	168.667939013459	175.208731466343	-74.2950935199368
1670375	59.7272776375856	191.576391611186	200.671028095138	-72.6842226789265
1424531	75.7235319204593	216.281148394226	229.154071395718	-70.7040232431748
1214875	95.7836151460211	242.786620128091	260.997785131719	-68.4698889126212
1036062	120.527960312052	271.048408839941	296.638212561443	-66.0265676910653
883578.1	150.662279063027	300.05745689521	335.758246020684	-63.3382497163115
753531.2	187.076867941044	329.035250156904	378.49960418004	-60.3790945917993
642624.9	229.197530045452	355.881538134283	423.300338960128	-57.2173473205069
548046.8	278.386894983218	379.809773195129	470.908406288242	-53.7599251790371
467390.6	332.080802413662	398.585820994296	518.795061685632	-50.2007113556845
398593.7	458.54556328572	410.260305774385	615.286560964166	-41.8189690664952
339937.5	516.030423402961	406.325569320607	656.801237941248	-38.2171157240288
289906.2	570.460020465095	396.855724460558	694.923809482846	-34.8254347599724
247234.4	623.120695028049	382.480393223118	731.143386602347	-31.5421975178004
210843.7	670.663279226304	363.967195895238	763.060517777209	-28.4885673824491
179812.5	713.424962433175	342.370271707661	791.323309382426	-25.6361944022155
153343.8	752.953991477266	320.557858684161	818.35020256961	-23.0610871582016
130781.2	786.659491996998	297.13801863583	840.906747783487	-20.6926171430016
111531.3	816.637547562791	273.607636223921	861.253750464642	-18.5229978601797
95109.37	849.985796907815	241.998884389609	883.76428700804	-15.8921475522775
81109.37	865.953652699697	232.114384095576	896.522624325798	-15.0051114825898
69171.88	883.223882486977	210.199864515216	907.892289667438	-13.3868781339121
59000	899.993826548244	192.732290980818	920.399165477493	-12.0872379672168
50312.5	916.726135064152	177.689417058718	933.788164223731	-10.9696379511905
42906.25	926.629099935102	157.972265088302	939.998258181187	-9.67480490039645
36593.75	936.3955788104	146.081555973122	947.721742396571	-8.86690576137223
31203.13	944.280559830167	139.175284768817	954.48181520847	-8.38432632884534
26609.38	952.812794390685	126.74242153427	961.205421630026	-7.57696004057059
22703.13	960.274841407002	120.838073467644	967.847927640812	-7.17222838366813
19359.37	965.956108920105	114.738351553631	972.746674976231	-6.7739768794286
16500	972.353362701026	112.471392873496	978.836491029476	-6.59803872927778
14112.02	977.525195301714	111.016978480625	983.809065297033	-6.47928749665896
12011.13	982.782597081006	110.841053518281	989.01333270605	-6.4347915942891
10236.38	988.625809167755	114.134314623078	995.192258976665	-6.58549668314236
8750.684	994.182466302349	118.673924425514	1001.24036906308	-6.80709383998716
7449.463	1000.32575719966	124.922774427423	1008.09588833986	-7.11836462134788
6363.206	1006.72696899898	132.50514777957	1015.4096731359	-7.4981554254283
5414.761	1013.88156402851	143.416769944753	1023.97470465743	-8.05125450337989
4620.567	1017.87573066419	155.960383554164	1029.75465248452	-8.71119302138952
3941.215	1029.66371887735	172.770185742913	1044.057905987	-9.52509102852876
3361.769	1039.41973963349	190.246188295088	1056.68680662748	-10.3721059962266
2867.244	1049.29623404295	212.535633583721	1070.60449388163	-11.450383918773
2442.658	1059.93660709762	238.210201148197	1086.37457214198	-12.6662060896186
2083.003	1071.32700383371	267.010668297974	1104.0997446464	-13.9949066756829
1777.843	1084.38748161285	300.1346558429	1125.1564433076	-15.4709204404532
1513.548	1097.7088597096	339.16535792419	1148.91160700064	-17.1698778128869
1292.065	1112.4253741038	383.805985890305	1176.77408526667	-19.0353195318518
1101.762	1128.0396017227	434.972870303927	1208.99741147578	-21.0866745961808
939.101	1146.92145253879	492.160900282191	1248.0589609711	-23.2248843326736
801.2801	1165.34260121188	562.032084648355	1293.79420402684	-25.7475086426535
684.3433	1187.74137656353	637.637096451668	1348.07664632704	-28.2290576083005
582.9476	1210.54889625972	727.958541298084	1412.56938522837	-31.0204220425086
497.0677	1235.4912134349	830.375231487146	1488.61061515165	-33.9050983832317
423.5089	1265.12203305072	950.901905986001	1582.63962837981	-36.9295706963888
361.5036	1297.97880435877	1084.93832641768	1691.69741641188	-39.8911551619523
308.1262	1334.60911658741	1242.07151821704	1823.16295224651	-42.9431924746332
262.7298	1376.4519025889	1421.33714788836	1978.59018700387	-45.9191238033867
224.2111	1423.24405272541	1629.09963314371	2163.2358281813	-48.8582884304268
191.2854	1479.41875804023	1868.21127352313	2383.0428498372	-51.6246317977215
163.1722	1543.30822875715	2139.55173501037	2638.08300016043	-54.1962153512954
139.1537	1615.06817006153	2455.58378127588	2939.10477880783	-56.6665801807815
118.6706	1700.48566961427	2817.23952911663	3290.66711731539	-58.8848206620981
101.1982	1800.75112121055	3234.11232403753	3701.64654242305	-60.8909750859692
86.24196	1917.82389087538	3712.2953510221	4178.41898923895	-62.6784888152184
73.61024	2054.25928972715	4256.67868629023	4726.4463043335	-64.2381945251235
62.69291	2213.84593475156	4887.83912699841	5365.82567311244	-65.6328310942514
53.57697	2405.35682580181	5590.32094937212	6085.83846124921	-66.7191590738195
45.65746	2631.11398340599	6410.66375207714	6929.60103727987	-67.6853950995281
38.96512	2892.84924990471	7330.66835241171	7880.81691677487	-68.4646749966855
33.18414	3201.53225203938	8396.08705898983	8985.77134490884	-69.1275298698724
28.30617	3561.49482875204	9603.57087726733	10242.6958858459	-69.6526456891098
24.17237	3997.05901619206	10943.2873354929	11650.4085115536	-69.9351711778888
20.61345	4510.27412650347	12519.8273697451	13307.4659520295	-70.1884185233366
17.55618	5118.1097001025	14278.6012990186	15168.1739823427	-70.2799771789985
14.98558	5809.86305761582	16258.9211384434	17265.7761289312	-70.3364708175984
12.76553	6634.84750046284	18530.9088306458	19682.8804661337	-70.3004890680642
10.8809	7598.87866857009	21063.6539144563	22392.4199953386	-70.1626927183352
9.278505	8735.84797075407	23921.6882594675	25466.8845552665	-69.93855162888
7.923394	10055.2252349831	27093.2201363017	28898.9642008211	-69.638379040011
6.75822	11609.6665628663	30688.0596975104	32810.6898083368	-69.2777594037557
5.761429	13441.2460892576	34687.7005169525	37200.8556835158	-68.8189920971944
4.919708	15486.2929935435	39095.9531085189	42051.3830943214	-68.3909926242317
4.191257	17921.9011337113	44170.4580836272	47667.8498315583	-67.9154376542731
3.564097	20810.2678046108	49700.5738262596	53881.4836911448	-67.2803139383706
3.051758	23803.775617955	55728.6647265986	60599.5363503681	-66.8708782979701
2.604164	27537.0179341645	62446.6220064912	68248.5747596834	-66.2040127202173
2.214424	31768.8830093836	70324.2130067375	77167.0711034239	-65.6889809581742
1.892567	36456.2384099162	78313.3081501123	86383.0513029905	-65.0371841704334
1.607507	42044.0882362293	87755.0249323139	97306.9871925283	-64.4005707642635
1.376413	48084.1518394487	97720.3776507539	108909.861198723	-63.8001109949664
1.17375	55067.56680508	108738.138545402	121886.91352295	-63.1412668263455
1.001604	62921.3893568665	121003.252791778	136385.074054272	-62.525680971257
