EC-Lab ASCII FILE
freq/Hz	Re(Z)/Ohm	-Im(Z)/Ohm	|Z|/Ohm	Phase(Z)/deg
6999984	-0.0722913852881505	-0.00261908019677998	0.0723388137029976	177.925110488556
5969734	-0.0445426842303611	0.0104410104468127	0.0457500318862852	-166.807781206515
5091109	-0.028679961642251	0.0143154336055176	0.0320542015828654	-153.474193877128
4341796	-0.0203452299563354	0.0145038179171772	0.0249857782778684	-144.515483088242
3702781	-0.0161071662569275	0.01400368774997	0.0213434785221848	-138.996066056187
3157797	-0.0123902263310451	0.0128365211860451	0.0178407955174176	-133.986466870241
2693047	-0.0104149404956597	0.0113970443212564	0.0154390286219313	-132.421948314856
2296687	-0.00887618463620428	0.0100237699365318	0.0133888990375052	-131.525326661256
1958656	-0.0075653665621463	0.00903640462699382	0.0117852186998119	-129.936400103799
1670375	-0.006582103036525	0.00881928383124757	0.0110047193366999	-126.735113015065
1424531	-0.00552327403606722	0.00745550219226197	0.00927852730859361	-126.532228659809
1214875	-0.00414128178846409	0.00851284682863295	0.00946671938842757	-115.94173407039
1036062	-0.00434856636804658	0.0063830966173901	0.00772359708194588	-124.265149256035
883578.1	-0.00360184920897091	0.00612513924896588	0.00710567720512174	-120.457386341155
753531.2	-0.00318876643176253	0.00546547438157221	0.00632768848569189	-120.260919113205
642624.9	-0.00112364965085598	0.00535690529088749	0.0054734836104082	-101.846456648157
548046.8	-0.00184561139633897	0.00458799253124073	0.00494529644136901	-111.913439700164
467390.6	-0.00147461534822184	0.00416325288728345	0.00441669163839693	-109.50403758008
398593.7	-0.00187425035338179	0.00377926997222012	0.00421849450753185	-116.378156022942
339937.5	-0.000883180768276839	0.00330769885877816	0.00342357707811821	-104.949653362365
289906.2	-0.00124045662192807	0.00316192840252823	0.00339654587096949	-111.420581404793
247234.4	-0.000881309295119091	0.00141049228750176	0.00166318807317911	-121.998127148041
210843.7	-0.000149299378175843	0.00223573444225847	0.00224071390423331	-93.820463853964
179812.5	-0.000261185059638912	0.00207134107595073	0.00208774315668842	-97.1867627876961
153343.8	0.000132853275869378	0.00196414629830847	0.00196863421540622	-86.1304535108361
130781.2	0.000144510239162214	0.00110101935431053	0.00111046243871151	-82.5225955706769
111531.3	-0.000155664500463047	0.000577127195242633	0.000597751818226459	-105.094783571871
95109.37	0.00155518857405392	0.000729182522532826	0.00171764916442072	-25.120509468286
81109.37	0.000420236334412753	0.0015811313371842	0.0016360241080701	-75.1159128572412
69171.88	0.00118341237258344	0.00152105570015456	0.00192719362975189	-52.1163556366587
59000	0.00524088256295179	-0.00169413456065432	0.00550789814250914	17.9136171380124
50312.5	9.08232599158057E-05	0.00060069922264174	0.000607526477302944	-81.402233898078
42906.25	0.000266615239193868	0.00050366612847826	0.000569880035399279	-62.1055310200875
36593.75	0.000350034266623621	0.000157270920565123	0.000383742270627224	-24.1944549727499
31203.13	0.000224050185186259	0.000969183261629148	0.000994743524786219	-76.9833541989111
26609.38	0.0006782832523928	0.000500189296590395	0.000842767763325193	-36.4063341787194
22703.13	0.000734866970915965	0.000375508000723431	0.000825248885822037	-27.0664746757785
19359.37	0.000744761426965143	0.000372278864549306	0.000832623045612645	-26.5587825030911
16500	0.00336712439805728	0.00363777220507701	0.0049569056202457	-47.2126333216741
14112.02	0.000534772665899015	-0.00024935588555807	0.000590050982420324	24.9988819875356
12011.13	0.00100363346854951	-0.000141749406595413	0.00101359411672665	8.03906769107746
10236.38	0.00023428598570531	-6.30926424655619E-05	0.000242632653678758	15.0720558713729
8750.684	0.000351911810006116	-3.60565291045162E-05	0.000353754145294222	5.85005378689039
7449.463	0.000510956091015357	1.58718317245603E-05	0.00051120254497409	-1.77920698713534
6363.206	0.000652407014195349	-0.000359212371578569	0.000744760659585608	28.8369830176682
5414.761	0.00132957097617498	0.000237161686288245	0.00135055716137081	-10.1137421376682
4620.567	0.000519476407574965	-9.95011443921908E-06	0.000519571691688784	1.09731616416306
3941.215	0.00101765966588781	0.000180479923430639	0.00103353964526593	-10.0567271074747
3361.769	0.000908471642109427	0.000891089743897764	0.0012725414162992	-44.4465993515887
2867.244	7.52304964781431E-05	0.000445380614165869	0.00045168962692884	-80.4125066027691
2442.658	0.00121739680898441	-0.00119389951760471	0.00170512493637921	44.4416891032845
2083.003	0.000819677373938822	-0.000138480974104953	0.000831292955302943	9.58932532694088
1777.843	0.00105780376336775	0.000303526098191003	0.00110048938844408	-16.0102971792114
1513.548	0.000946545476187594	-0.000184364170757103	0.000964333182022766	11.021834406327
1292.065	0.000554483783754561	-0.000367296729601437	0.000665100860037548	33.5209702886422
1101.762	0.000655666833892093	0.000156154328514616	0.000674005319993791	-13.396068376946
939.101	0.000723838544495745	-0.000348431985682466	0.000803334978165613	25.7046284812659
801.2801	0.00427229144896698	0.00125722085818972	0.00445343446243275	-16.3977426994348
684.3433	0.000765314286699152	-0.000472180622585377	0.000899255524181501	31.6735939289578
582.9476	0.0015334492793198	0.00155637289472038	0.00218489434061849	-45.4250737558013
497.0677	0.00135505862464638	-0.000617389224314685	0.00148907801358035	24.4948682038929
423.5089	0.000480684657484549	0.00190178574188138	0.00196159291086718	-75.8153224377574
361.5036	0.00065530315018939	0.00267742825154794	0.00275645501701646	-76.2471607279475
308.1262	0.00193842470484685	0.00100932926361916	0.00218546011145447	-27.505795794773
262.7298	0.00143789420465698	0.00201614824585607	0.0024763669948242	-54.5039624422161
224.2111	0.000360943650492344	0.00289252363594599	0.00291495682701081	-82.8871113199391
191.2854	0.00470457221989226	0.0037787292932877	0.00603421866061651	-38.771555523221
163.1722	0.00279603601358937	0.00186783207269371	0.00336253089815871	-33.7440571357543
139.1537	0.00331215293772036	-0.00537275458710704	0.00631164391708921	58.3473289544859
118.6706	0.00298879852088828	0.00340269728990699	0.00452893645850814	-48.705171189256
101.1982	0.00467059896180737	0.00179896983746266	0.00500507613709687	-21.0651371126618
86.24196	0.00462554776981246	0.00327823440490729	0.00566943674312845	-35.3260967405136
73.61024	0.00568637605550103	0.00369786339181191	0.00678299832736808	-33.0360417291553
62.69291	0.00951113060311782	0.0055233942438751	0.010998613063602	-30.1449998273282
53.57697	0.0111520762058997	0.010621676731086	0.0154009356950118	-43.6045748462865
45.65746	0.0119070124219996	0.00350252508792857	0.012411471581131	-16.3915891327151
38.96512	0.0123466918610014	0.0112061352960495	0.0166738798179633	-42.2275911068266
33.18414	8.81227870609571E-07	0.0242583435375508	0.0242583435535569	-89.9979186279692
28.30617	0.00233611492003215	0.00749978426885893	0.00785520190695444	-72.6986612153638
24.17237	0.0211295530766336	0.0150076025259581	0.0259169085115378	-35.3848822102941
20.61345	0.029503804773663	-0.00502896041557012	0.029929332417944	9.67317197068032
17.55618	0.0204322733442816	0.0344918660656279	0.0400894826445123	-59.3583702797738
14.98558	0.0562434742537652	0.0123074915968237	0.0575743236655007	-12.3432011326136
12.76553	0.00988703851588337	0.0453201789099929	0.0463861201982697	-77.6931916112987
10.8809	0.0409805447869786	-0.0275620946082433	0.0493869832064211	33.9234101143641
9.278505	0.0421383302919341	0.0190725859301913	0.0462536745984215	-24.3523850593997
7.923394	0.00692675626353065	-0.0302570348507763	0.0310397827037409	77.1054515050535
6.75822	0.131196959489648	0.0531700988216005	0.141561652957385	-22.0612013211849
5.761429	0.0682692529804879	-0.0650055194725979	0.0942677488031626	43.5971779611514
4.919708	0.158115022743478	0.0190952262614707	0.159263894474383	-6.88614482698136
4.191257	0.0625770927316741	-0.126281535572838	0.140935867547557	63.6399119954479
3.564097	0.189742978857353	-0.15485705065855	0.244914483369862	39.219299121804
3.051758	0.115893937130844	0.0530806881294043	0.127471424703653	-24.6082966585949
2.604164	0.133307871851413	0.0012776933599772	0.13331399475627	-0.549136329953126
2.214424	0.213942430342307	-0.0822607135705382	0.229212103733435	21.0317164844718
1.892567	0.145500163447575	0.0748141294293529	0.163607614509664	-27.2115876965513
1.607507	0.177745066761518	-0.0268603578430639	0.179763143000766	8.59336425082087
1.376413	0.23282834015018	-0.244561329105468	0.337667409844244	46.407896909679
1.17375	0.141748475546573	0.176208931840273	0.226146452503831	-51.1856143463584
1.001604	0.204590888659291	-0.17994411065244	0.272465254080031	41.3326424899881
