EC-Lab ASCII FILE
freq/Hz	Re(Z)/Ohm	-Im(Z)/Ohm	|Z|/Ohm	Phase(Z)/deg
6999984	14.4975113072615	-0.552754432906399	14.5080450635939	2.18348944512642
5969734	16.2070804716103	-6.43852088868193	17.4391516034251	21.6662385946894
5091109	11.2299665836747	-4.99756718988241	12.2917788496149	23.9900522793369
4341796	9.22151585430009	-8.45725950625347	12.512457512704	42.5246353461342
3702781	6.23316322041774	-5.53276317975623	8.33449411396005	41.5933268276167
3157797	4.00561352055649	-5.2777680995397	6.62569058956	52.8029653400317
2693047	2.8021605608267	-4.28739295024614	5.12189829247642	56.8321134173727
2296687	2.22460414384523	-4.01427811311134	4.5894762627361	61.005967715452
1958656	1.76477395763459	-3.27746908664391	3.72239583272007	61.6994758306783
1670375	1.34512750903699	-2.87167666374909	3.1711031009239	64.9010493983103
1424531	1.21431044540924	-2.46683278883684	2.74951156860823	63.7910582618034
1214875	0.761742766447142	-1.95754405837981	2.10053107159419	68.7374029071678
1036062	0.825463044544127	-1.87741481159042	2.05087191523195	66.2658348663119
883578.1	0.749547443562795	-1.60589161374052	1.77220462848782	64.9792581373457
753531.2	0.681667950314136	-1.38085695044038	1.53994711339869	63.7264859182921
642624.9	0.605456283070596	-1.19904931020334	1.34324106511406	63.2086466630529
548046.8	0.579574843870756	-1.03773317659544	1.18861143585895	60.8166051641612
467390.6	0.542959193236548	-0.904803133761654	1.05521248873627	59.0326437732419
398593.7	0.509402193911196	-0.784731861660115	0.935571851792309	57.0107158212709
339937.5	0.483654696807783	-0.682777405103523	0.836723879582822	54.6876297930232
289906.2	0.458382569765825	-0.593902154881805	0.750222866779181	52.3385028329868
247234.4	0.441397794972449	-0.513607917395598	0.67721865465888	49.3240343629327
210843.7	0.428778743947038	-0.445052353157513	0.61799903585025	46.0669125370628
179812.5	0.415637784905924	-0.389098069457053	0.569343548217338	43.1111034860742
153343.8	0.399883170414409	-0.324937503990906	0.515258121217433	39.0966575057562
130781.2	0.410822908732948	-0.279374562976755	0.496815467531208	34.21713119846
111531.3	0.381645260064472	-0.243368408310818	0.452638141006058	32.5249347280088
95109.37	0.392186957649231	-0.221681025052833	0.45050314828937	29.477011252297
81109.37	0.377592968224847	-0.192443789173781	0.42380545258929	27.0060906537497
69171.88	0.371022835953444	-0.167303431865801	0.406999242152871	24.2717985455146
59000	0.361287167300184	-0.141362565260746	0.387958492770669	21.3691542483362
50312.5	0.357103894504556	-0.107081310356821	0.372813087884606	16.6919049610329
42906.25	0.384107998592395	-0.114543848831651	0.400823212760717	16.6049700747777
36593.75	0.368937958198337	-0.103011292123324	0.383049009011216	15.6002828514379
31203.13	0.362831710800181	-0.0904316972786316	0.37393146729699	13.9951816954245
26609.38	0.404030214112154	-0.100210118152507	0.416272124571959	13.9297613743765
22703.13	0.356979830538069	-0.0925259840485091	0.36877589012181	14.5307941014687
19359.37	0.352928469593502	-0.0632895735382271	0.358558328265098	10.1666146830029
16500	0.404435286921372	-0.0423607212516172	0.406647675527759	5.97938182040732
14112.02	0.301750774094188	-0.000619589959709421	0.301751410200781	0.117646226215125
12011.13	0.343636272203093	-0.0274875036983783	0.344733883500312	4.57335828805895
10236.38	0.343971762703274	-0.0413935319043428	0.346453457221476	6.86197173760479
8750.684	0.342298160856665	-0.0385231839919434	0.344459092826322	6.42120676496655
7449.463	0.342444186700195	-0.0327412424063512	0.344005828379505	5.46147381023267
6363.206	0.334478669049905	-0.0259148504956436	0.335481086688367	4.43033083366045
5414.761	0.332061500566023	-0.037384572617832	0.334159312945153	6.42349859614707
4620.567	0.335884192338855	-0.0342211066197749	0.337622977300726	5.81742957003564
3941.215	0.327853090937481	0.264578806366086	0.42129513884611	-38.9036738612003
3361.769	0.33137596723879	-0.0313831794944315	0.332858732225285	5.41009840361667
2867.244	0.332198381035753	-0.0256983321684167	0.333190889189686	4.4234994578691
2442.658	0.33153553739289	-0.0208053150279174	0.332187708514032	3.59085369871539
2083.003	0.327978017387993	-0.0219654459403244	0.328712732800414	3.83150915069962
1777.843	0.326284248192912	-0.0188180062612116	0.326826449325114	3.30080069042395
1513.548	0.327882529093546	-0.0200144433134285	0.328492817008115	3.49308647238544
1292.065	0.325740346175113	-0.0198249380470949	0.326343072999648	3.48279213968033
1101.762	0.325027168838578	-0.0215347575116261	0.325739783054367	3.79060626666303
939.101	0.322483134864108	-0.0183777763297531	0.323006369805007	3.26166308935415
801.2801	0.320715798236982	-0.0173760961409368	0.321186164016888	3.1012022481232
684.3433	0.325647871686283	-0.0163651672053406	0.326058821428687	2.87693224316412
582.9476	0.320230761813677	-0.016660339610267	0.320663854725938	2.97818763655082
497.0677	0.320570772373211	-0.0149455526839596	0.320918976760468	2.6692934841243
423.5089	0.319401236908328	-0.0145796552982539	0.319733821306389	2.61355672277177
361.5036	0.278799455308715	-0.0145321368334745	0.279177934803922	2.98378371533586
308.1262	0.309801666139191	-0.0222961443352818	0.310602946532769	4.11642788418889
262.7298	0.293494205797149	-0.030394749875809	0.295063873858716	5.91256921191711
224.2111	0.308228793261986	-0.00310318588756481	0.308244413993819	0.576822968416776
191.2854	0.308873640255504	-0.0163502014743583	0.309306085832365	3.03011938518589
163.1722	0.339261864602734	0.00767507306490949	0.339348669542516	-1.29597323680641
139.1537	0.310709347354745	0.0167026101226871	0.311157959433022	-3.07705207705844
118.6706	0.316170745226172	-0.0769990903420326	0.325411739263311	13.6871653143401
101.1982	0.295234073015879	0.0130432049808604	0.295522051741859	-2.52963674043455
86.24196	0.302979532742616	-0.0304669861179792	0.304507527828208	5.74224031858062
73.61024	0.275511701132184	-0.0276868172033418	0.276899363140476	5.73852182249022
62.69291	0.229028907871757	-0.0458006938920709	0.233563576359682	11.308708644771
53.57697	0.299619710003242	-0.0541949996246367	0.304481639194782	10.2527646170788
45.65746	0.252830717712957	0.144841700521898	0.291380318534599	-29.8075391451521
38.96512	0.274728568722796	0.0669411894051183	0.282766527919144	-13.6940121599919
33.18414	0.33428796762529	0.0207156592855535	0.334929222133098	-3.54605642054529
28.30617	0.15106244455572	-0.0465735157540473	0.158078950290171	17.1348643620265
24.17237	0.247982463076449	-0.0185860444110559	0.248677990663251	4.2862491369189
20.61345	0.208548088600176	-0.0592616810406989	0.216804640399039	15.8631959948895
17.55618	0.112768512656184	0.00892418616401048	0.113121079138142	-4.52479839604823
14.98558	0.104843514820191	-0.0240281970413596	0.107561688592686	12.9082177327039
12.76553	0.099721408592058	0.050849189432762	0.111937479860649	-27.0176013758539
10.8809	0.154763631824423	0.142089751008731	0.210098260528755	-42.5552943177516
9.278505	0.217476980170031	0.0279157601848499	0.219261320279192	-7.31459693660224
7.923394	0.205930336919686	0.0186767009559213	0.206775537292138	-5.18222105637944
6.75822	0.241639667241485	0.051611470942132	0.24709000934353	-12.0565618068655
5.761429	0.216328844250902	0.0334727339807481	0.218903158440158	-8.79566991870361
4.919708	0.231295542204265	0.0888431426406676	0.247771531532246	-21.0123275926846
4.191257	0.243616042746859	0.0510155726380162	0.248900311239709	-11.8273844183911
3.564097	0.261076018980342	-0.0403632718281605	0.264177745844153	8.78854805331014
3.051758	0.250658490791863	-0.0337297859813733	0.25291772865579	7.66395222260531
2.604164	0.13599978600493	-0.119214989074701	0.180853961564208	41.237227828365
2.214424	0.125774844456531	0.109907371638885	0.167029763331666	-41.1483334264504
1.892567	0.288741789912237	-0.0543185760620921	0.293806618283414	10.6540585272104
1.607507	0.16691759107652	-0.0779123454720182	0.184205905952387	25.0218174880747
1.376413	0.309764026254944	0.11815819656458	0.331534479921874	-20.8791435532064
1.17375	0.18380497534538	-0.0356605628327539	0.187232328146783	10.9797220083848
1.001604	0.198051111875821	-0.0179869029698178	0.198866215314957	5.18933776515276
