EC-Lab ASCII FILE
freq/Hz	Re(Z)/Ohm	-Im(Z)/Ohm	|Z|/Ohm	Phase(Z)/deg
6999984	46.9308582578367	60.7385683635757	76.7572742069044	-52.3078209430576
5969734	47.6640897011078	54.0066972173736	72.0318595578674	-48.5697010481753
5091109	49.4088358522146	50.6428393913133	70.7525988348516	-45.7066309459066
4341796	52.7291208314706	47.9224817400553	71.2525398830509	-42.265904794587
3702781	57.2110312519848	43.8733986940041	72.0969986190731	-37.4835005631433
3157797	60.1038273698211	41.0896886682006	72.8068168467137	-34.3582736217125
2693047	63.9232995821687	38.8326550434828	74.7941396581164	-31.27819002496
2296687	67.6922661675406	36.0607462921616	76.6982419749293	-28.0449376208352
1958656	70.7467404347573	32.9437292660336	78.0409545052894	-24.9693803906643
1670375	73.4694972401242	30.0752323704618	79.3869424203621	-22.2620688650019
1424531	75.6952303057109	27.2718680781826	80.4582045506138	-19.81333892186
1214875	77.4294927994258	24.71045299699	81.2768899656771	-17.6996976156224
1036062	78.884033210765	22.5460718784854	82.042769655509	-15.9506178952706
883578.1	80.1765952533479	20.6640916425842	82.7966853795023	-14.4524421229846
753531.2	81.217638509747	19.1164126443403	83.437054343311	-13.2447846007196
642624.9	82.1257311501921	17.8302007255664	84.0389896111777	-12.2493048091475
548046.8	82.7760022003546	16.9499071816281	84.4935849265429	-11.5723895516682
467390.6	83.8735212273619	16.2686321472136	85.4367365658244	-10.9771379687288
398593.7	84.2375028684331	15.9085593878799	85.7265370308808	-10.6945609137482
339937.5	85.1071637902165	15.7702674017461	86.5559394977451	-10.4977785590106
289906.2	85.7886680108344	15.8679165711521	87.2438326495472	-10.4792892109617
247234.4	86.4943267529694	16.2793257474753	88.0129820381167	-10.6590948262296
210843.7	87.280981562522	16.9118325367255	88.9043296036112	-10.9659194551001
179812.5	87.7737728322221	18.022555170548	89.6049535019017	-11.6032490585139
153343.8	88.9653191301086	19.4460527646473	91.0657837831944	-12.3297996497855
130781.2	89.9802609116095	20.857436003543	92.3660110125105	-13.0506836884632
111531.3	91.3062474719057	22.6881288555921	94.0828465681648	-13.9544558553466
95109.37	92.7312757662612	24.6907103923864	95.9620794111876	-14.9097082801226
81109.37	94.4098787671242	26.9547622265214	98.1824037977855	-15.9344604854479
69171.88	96.0681226934316	29.4869242997181	100.491606129555	-17.0632217193233
59000	97.9454128644913	32.4608440297193	103.184351024356	-18.3361104865639
50312.5	100.184451364999	35.8725196389299	106.413166293233	-19.7006553122916
42906.25	102.667009075507	39.450281807447	109.985633094497	-21.0195067538576
36593.75	105.422151768181	43.4852338773998	114.038570881985	-22.415495503382
31203.13	108.478849466661	47.7699348368426	118.531124418554	-23.7668565702437
26609.38	111.802062343389	52.7882016719522	123.637758714698	-25.2746981405336
22703.13	115.377038228018	58.1014812875683	129.180660619456	-26.7288764837315
19359.37	119.302401260084	63.9112059509075	135.342917038615	-28.1782935476519
16500	123.463930636362	70.3782799272193	142.114195116795	-29.6844849994918
14112.02	127.788780633675	77.4031946872756	149.402901590424	-31.2037914552623
12011.13	132.503813180509	85.529415300453	157.71030844245	-32.8416944450469
10236.38	137.407334019136	94.4846326884254	166.75767225682	-34.5133618376985
8750.684	142.659299346831	104.586562635038	176.889866227383	-36.2459346439726
7449.463	148.07065807983	116.199251995616	188.221109200149	-38.1232423188746
6363.206	153.908071700683	129.267759140354	200.992159269438	-40.026980536866
5414.761	160.230300652887	144.479622947263	215.750111690116	-42.0409730233745
4620.567	166.602414248185	160.379920761112	231.253288445083	-43.9097894637527
3941.215	174.454395201187	181.432790982325	251.69861669991	-46.1233374207273
3361.769	182.257867788668	204.445176057471	273.890051633939	-48.2837779196712
2867.244	191.392977195479	230.603243183253	299.681710296747	-50.3084617986368
2442.658	201.618065380908	260.747412584825	329.604395385773	-52.2876814765587
2083.003	213.151681712866	294.898872852164	363.866712721155	-54.1407530367267
1777.843	226.218591620338	333.930978034026	403.341975605627	-55.8846704073444
1513.548	241.266316442604	379.363816492235	449.584631313545	-57.5446150835076
1292.065	258.629691317152	430.356772111102	502.091892518384	-58.9955734038969
1101.762	278.415895232051	488.385594903846	562.170703636759	-60.3136628115954
939.101	302.438607867343	555.635194934993	632.613295291195	-61.4400405410431
801.2801	328.579012538709	629.650465605648	710.228045291315	-62.442487499404
684.3433	359.566605821904	713.580548294115	799.052778560975	-63.2568897094029
582.9476	396.051688960839	811.022133102795	902.559605074003	-63.9720556292852
497.0677	438.10548640179	918.846873355279	1017.94695043019	-64.5082295339686
423.5089	487.058298209859	1041.29283308467	1149.57233356087	-64.9324474854835
361.5036	542.94908940035	1178.14318856306	1297.23362831766	-65.2573145553227
308.1262	608.207936576721	1332.85000255533	1465.06178143676	-65.4717726580401
262.7298	684.463192039151	1505.63982810682	1653.91691243483	-65.5534764396258
224.2111	771.612312232924	1697.06128037065	1864.24315734904	-65.5498668055165
191.2854	870.594574559068	1912.13052976017	2100.99454451757	-65.5201875917287
163.1722	990.902628141621	2149.63559299283	2367.02792571605	-65.2520433436075
139.1537	1122.42201353211	2420.26047529602	2667.86280470746	-65.1199765718298
118.6706	1273.99406102724	2716.15214729425	3000.09055776386	-64.8713701845226
101.1982	1444.09990883653	3042.02338104526	3367.39228447291	-64.6055177675819
86.24196	1637.70535975359	3406.26707099722	3779.51507528752	-64.3221328421102
73.61024	1857.8063228445	3807.14707478629	4236.24989610561	-63.9886141095645
62.69291	2105.85039198321	4253.32622851086	4746.09206395686	-63.6596790393799
53.57697	2374.15167638749	4737.96157898019	5299.51659176438	-63.3849457766147
45.65746	2678.81798133841	5283.96057823913	5924.21346421001	-63.1162858664778
38.96512	3014.92533559508	5880.63965519356	6608.45651672522	-62.8563922106065
33.18414	3397.96253620738	6554.4661601365	7382.89753700019	-62.5968996251917
28.30617	3784.45762052668	7264.11423268754	8190.81650796159	-62.4813913336934
24.17237	4260.41466220563	8103.54713076055	9155.25036219077	-62.2669905267554
20.61345	4778.49587280595	9028.57825336213	10215.1479716893	-62.1093698373149
17.55618	5331.19787986052	10062.6635770114	11387.6630218119	-62.0853629056989
14.98558	5943.81715452955	11193.0248088272	12673.3092259876	-62.0304162531459
12.76553	6634.38904233831	12478.580770065	14132.5898546634	-62.0021121380664
10.8809	7392.99290156495	13915.772676232	15757.6988554533	-62.0197592381564
9.278505	8232.19416022546	15515.5732017182	17564.2259285608	-62.050641663314
7.923394	9147.18386453357	17293.4388332443	19563.588610752	-62.1238656695317
6.75822	10203.3834253024	19341.6640432794	21867.9903348895	-62.1868337312166
5.761429	11398.2887677697	21598.8906706887	24421.9791384283	-62.1782393642896
4.919708	12669.0077292974	24076.5239903996	27206.3000848201	-62.2467651165873
4.191257	14120.3714852436	26973.9997278556	30446.3717411391	-62.3688051269501
3.564097	15830.0219970941	30166.1041091677	34067.3367546339	-62.3112228685395
3.051758	17583.7177382024	33632.3829075611	37951.6048348101	-62.3984843407379
2.604164	19686.8932419299	37525.343269748	42375.997369166	-62.3171816296089
2.214424	22034.6103092098	42014.3356127059	47441.8428020647	-62.3250311514022
1.892567	24544.3290812532	46796.4245122379	52842.4965078149	-62.3233695737963
1.607507	27556.6472863127	52395.8390178097	59200.4455730063	-62.258682638726
1.376413	30645.734383757	58321.6151358425	65883.0162331167	-62.2798247813663
1.17375	34253.3300238942	64996.5542696691	73470.0121454723	-62.210668775494
1.001604	38306.5090904689	72502.3600270688	81999.8832206051	-62.1503363196668
