EC-Lab ASCII FILE
freq/Hz	Re(Z)/Ohm	-Im(Z)/Ohm	|Z|/Ohm	Phase(Z)/deg
6999984	9.58163694408808	-1.2757803614126	9.6661979112203	7.58423660456876
5969734	5.67603357953564	-1.42737380998919	5.85275603365279	14.1156919084744
5091109	3.47226605977602	-1.1807358417417	3.66752896619045	18.7804793637335
4341796	2.31731763910321	0.499718252267942	2.37058629291334	-12.1692053093882
3702781	1.83865881053743	0.187292296900703	1.84817332142991	-5.81628938402333
3157797	1.61826175752025	0.0884403731755864	1.62067665358022	-3.12818626844268
2693047	1.46992801041149	0.053796494259862	1.47091210430363	-2.09597816332931
2296687	1.38571805883509	0.0578231238093669	1.38692395329692	-2.38944714599532
1958656	1.32825315918361	0.056500260735245	1.32945429945688	-2.43573755217953
1670375	1.30234044342565	0.049905672932781	1.30329628510673	-2.19449997507544
1424531	1.28037878404009	0.0422440416838119	1.28107548164726	-1.88969674130616
1214875	1.26250227173547	0.0306027973069031	1.26287312004818	-1.38856608128853
1036062	1.25239439258336	0.0179738949361002	1.25252336324454	-0.82223110531162
883578.1	1.24029860717504	0.0112248153462728	1.2403493989356	-0.518517866451791
753531.2	1.22604387616756	0.0115702865708162	1.22609846987071	-0.54068938506685
642624.9	1.21617635303021	0.0112947112600103	1.21622879926941	-0.532094445182093
548046.8	1.2090705633568	0.00841109309072931	1.2090998195612	-0.398580840380174
467390.6	1.20375007828972	0.00584017535095862	1.20376424545284	-0.277976948730804
398593.7	1.20009966869681	0.00459234540929723	1.20010845528334	-0.219249061208792
339937.5	1.19736545278705	0.00353609268513399	1.1973706742189	-0.169206984677845
289906.2	1.19645431726663	0.00192967191094652	1.19645587337755	-0.0924080082974075
247234.4	1.19517452486334	0.000135209616504797	1.19517453251144	-0.0064818486180032
210843.7	1.19372918066849	-0.00100215916032849	1.1937296013346	0.0481009241689331
179812.5	1.19151089787603	-0.00176623747315414	1.19151220696732	0.0849323987612176
153343.8	1.18963505554801	-0.00217380828081792	1.18963704163546	0.104695890354901
130781.2	1.18828588661723	-0.00224424573699173	1.18828800590287	0.108211043723808
111531.3	1.18742412144762	-0.00245951153780699	1.18742666863797	0.118676576218109
95109.37	1.18667743124636	-0.00223528758707027	1.18667953649672	0.107925195079818
81109.37	1.18576972707014	-0.00187481852042779	1.18577120920542	0.0905901851007959
69171.88	1.1852067033848	-0.00184168588224437	1.18520813427648	0.089031510714922
59000	1.184758591655	-0.00186290883626651	1.18476005626864	0.0900915399316936
50312.5	1.18456228756457	-0.00137087559440935	1.18456308081085	0.066307488898018
42906.25	1.18430400170895	-0.0011942869049744	1.18430460388578	0.0577787256385981
36593.75	1.18409647576188	-0.0010044825432219	1.1840969018188	0.0486046514736783
31203.13	1.18392497007329	-0.000747100915684836	1.18392520579757	0.0361557740053308
26609.38	1.18395203431876	-0.000385945644979499	1.18395209722419	0.0186773240422982
22703.13	1.18410704133806	-0.000347837965987029	1.18410709242772	0.0168309503587553
19359.37	1.18380931432538	-0.000362328409768798	1.18380936977429	0.0175365135059912
16500	1.18421756177417	-0.000154192587985014	1.1842175718126	0.00746027145601425
14112.02	1.18375869998496	0.000228288815129188	1.1837587219978	-0.0110495369157215
12011.13	1.18380684414567	0.000286489311762759	1.18380687881185	-0.0138659682534666
10236.38	1.18402409384119	2.98348851997924E-05	1.18402409421707	-0.00144373160371931
8750.684	1.18391530021272	2.30189125415486E-05	1.1839153004365	-0.00111400413290404
7449.463	1.18392334764334	2.25674377684711E-05	1.18392334785842	-0.00109214751189318
6363.206	1.18399191602415	0.000103881130354361	1.18399192058131	-0.00502701939475
5414.761	1.18388121135757	9.21153110910796E-05	1.18388121494122	-0.00445806428277596
4620.567	1.18400594338165	7.41961469412126E-05	1.18400594570641	-0.00359046007671013
3941.215	1.18392810872659	2.89327285732903E-05	1.18392810908012	-0.00140018910312055
3361.769	1.18381587197275	0.000135674533285904	1.18381587974743	-0.00656654323927944
2867.244	1.18395922434488	0.000101874091379164	1.18395922872778	-0.00493003081806364
2442.658	1.18398582196908	0.0001867619251064	1.18398583669899	-0.0090378362603936
2083.003	1.1838982959015	5.33336593088216E-05	1.18389829710281	-0.00258112845748295
1777.843	1.18382237306563	0.000123228333018024	1.18382237947927	-0.00596412395432299
1513.548	1.18385414442808	0.000246618367997254	1.18385417011563	-0.0119357536557622
1292.065	1.18380551267861	6.51694997734773E-05	1.18380551447243	-0.00315418136360777
1101.762	1.18364595044332	5.34210666050884E-05	1.18364595164884	-0.00258590979028332
939.101	1.18385819060098	0.000193210275468441	1.18385820636731	-0.00935089467007514
801.2801	1.18394012194425	4.63986844391565E-05	1.18394012285343	-0.00224542503686447
684.3433	1.18393196127565	0.000145913103340205	1.18393197026714	-0.00706138969820007
582.9476	1.18393000598243	9.41514656378257E-05	1.1839300097261	-0.00455641936380371
497.0677	1.18393248207608	0.000157426319136979	1.18393249254249	-0.00761856250607504
423.5089	1.18380499064639	-2.38493733526354E-05	1.18380499088663	0.00115430197350898
361.5036	1.18395702529816	-8.98206512655893E-05	1.18395702870527	0.00434673228064629
308.1262	1.18394901254522	0.000127447375896715	1.18394901940482	-0.00616766148146526
262.7298	1.18389052303931	-0.000172913368350148	1.18389053566676	0.00836834653593914
224.2111	1.18391619763198	7.8710324361457E-05	1.18391620024843	-0.00380919645528384
191.2854	1.18375884319796	0.000124350552410584	1.1837588497293	-0.00601876120966666
163.1722	1.18395149759534	0.00013250039326961	1.18395150500964	-0.00641218267969324
139.1537	1.18387329456961	0.000137350020568976	1.18387330253711	-0.00664731309965903
118.6706	1.18400382356158	5.54344078575552E-05	1.18400382485928	-0.00268255688412378
101.1982	1.18398963521966	0.000169575732674209	1.18398964736331	-0.0082061307249817
86.24196	1.18396095660607	-9.02514140405314E-05	1.18396096004593	0.00436756388016166
73.61024	1.18393064605537	-4.8268343349767E-06	1.18393064606521	0.000233592429356318
62.69291	1.18410292576513	7.57602314891069E-05	1.18410292818874	-0.00366584814452006
53.57697	1.18392821560179	-7.66717241172538E-05	1.18392821808444	0.00371050046436799
45.65746	1.18385856155129	8.71741119753532E-05	1.18385856476085	-0.00421900795599793
38.96512	1.18382098305271	1.49589868678488E-06	1.18382098305365	-7.24000356125416E-05
33.18414	1.18392012615818	-1.39440691761206E-05	1.18392012624029	0.000674822815611542
28.30617	1.18380867385259	3.47651579348446E-05	1.18380867436306	-0.00168261718907439
24.17237	1.18372871855638	1.52894307602016E-05	1.18372871865512	-0.000740051195798211
20.61345	1.18387095177488	8.51169829179966E-06	1.18387095180548	-0.000411940497289239
17.55618	1.18397453104709	4.25574672675128E-05	1.18397453181194	-0.00205947273037035
14.98558	1.18384334153647	3.63820629984873E-05	1.18384334209552	-0.00176082306332077
12.76553	1.18367165453253	7.77310310247092E-06	1.18367165455806	-0.0003762580609072
10.8809	1.18369385034037	-0.000136690599057202	1.18369385823275	0.00661640202661172
9.278505	1.1837270209681	0.000110433670195702	1.18372702611945	-0.0053453060443121
7.923394	1.18378276784808	0.000185779909654372	1.18378278242599	-0.00899185639733436
6.75822	1.18379236570377	0.000178035862286138	1.18379237909158	-0.00861697011198026
5.761429	1.18376894205419	1.71597370198782E-05	1.18376894217856	-0.000830551025454714
4.919708	1.18369956050862	0.000104884682756252	1.1836995651554	-0.00507683692912103
4.191257	1.18373154540466	0.000104676741617949	1.18373155003291	-0.00506663484262093
3.564097	1.18374980734754	0.000109335109916884	1.18374981239682	-0.00529203070964745
3.051758	1.18380074577631	4.20396648120165E-05	1.18380074652278	-0.00203471350516936
2.604164	1.18373070089463	2.43611778278508E-05	1.18373070114531	-0.00117914714237923
2.214424	1.18370113421011	-4.39693007081495E-05	1.18370113502675	0.00212828668043895
1.892567	1.18366906661276	7.67607732572444E-06	1.18366906663765	-0.000371562328001426
1.607507	1.18365154236759	3.22277540126233E-05	1.18365154280633	-0.0015600151071145
1.376413	1.18366798897125	5.16723632372902E-05	1.18366799009911	-0.00250121516900708
1.17375	1.18369263062408	3.01193194051087E-05	1.18369263100727	-0.00145790371478187
1.001604	1.18356862114995	-1.17036117894469E-05	1.18356862120782	0.000566564159094958
