EC-Lab ASCII FILE
freq/Hz	Re(Z)/Ohm	-Im(Z)/Ohm	|Z|/Ohm	Phase(Z)/deg
6999984	30.5635009589213	81.1341005555128	86.6998838743054	-69.3584318613101
5969734	25.5897033920225	80.0101634489082	84.0027331389443	-72.2641300235365
5091109	22.5729583082196	84.186198604763	87.159936222471	-74.990263212769
4341796	22.1069591397317	91.7732225502577	94.3983157670989	-76.4562330273907
3702781	26.1277116676943	101.287979074819	104.603594689911	-75.5356044421745
3157797	30.4629957542324	111.806753251394	115.882458478151	-74.7590747424337
2693047	35.6132203173714	124.425010243614	129.421345362723	-74.0276941169492
2296687	42.6026349009526	140.18867707971	146.519110295767	-73.096236629405
1958656	52.2697673007801	157.519514492182	165.965436219504	-71.6425854073786
1670375	64.8429316855015	177.144351433627	188.639145021417	-69.8950641322296
1424531	80.4019684265453	198.167285215511	213.856843370861	-67.9162397951863
1214875	99.3242668551996	220.361057512277	241.711202996989	-65.7372813003038
1036062	121.561952585218	243.453258357892	272.115411767517	-63.4659620088462
883578.1	148.100766304252	267.157641035402	305.462014239918	-60.9978890105406
753531.2	179.465637911277	290.454259017679	341.425821771597	-58.2889445551621
642624.9	214.864284075967	313.051640953897	379.694601588442	-55.5360828847868
548046.8	254.394779566649	333.766077559044	419.662362381848	-52.6855376399196
467390.6	299.017921262404	351.074908199085	461.156490145249	-49.5782614662102
398593.7	347.094802113554	364.283652863183	503.167349296028	-46.3841535386488
339937.5	457.403245869797	363.062088547781	583.979288565016	-38.4406552077991
289906.2	503.981592252775	360.143751192853	619.436007068448	-35.5494872552572
247234.4	550.445799064891	353.656968916506	654.265870553704	-32.7204164685515
210843.7	594.853475875922	343.8341682077	687.075391051628	-30.0285518850459
179812.5	637.482125625296	332.523154540362	718.995903185282	-27.5474269081672
153343.8	677.210406393758	315.871827757069	747.254271381965	-25.0057975881228
130781.2	713.917429401844	298.255909340712	773.714859273358	-22.6738880098301
111531.3	747.101633748936	279.110096762421	797.535765508392	-20.4852121507422
95109.37	776.616440441205	259.146964984519	818.712553356949	-18.4531944119989
81109.37	799.781985903822	241.592070288009	835.47468746953	-16.8081179906193
69171.88	824.982829926663	218.889293013303	853.527499422057	-14.8596718758738
59000	844.836832622336	199.333407430291	868.034032209055	-13.2757472399685
50312.5	863.61674298776	182.952610074487	882.782836433658	-11.9609695283259
42906.25	874.845880204222	161.187740768681	889.571133684323	-10.4394972920898
36593.75	885.305356187175	147.488858965911	897.506845217777	-9.45841592990939
31203.13	895.815400129463	135.556664359439	906.013708704988	-8.60483486587939
26609.38	901.997044517728	123.492540192946	910.411487077147	-7.79590440282394
22703.13	908.195062840631	114.115961281117	915.336399793656	-7.16176044475109
19359.37	914.222302586723	106.590022388388	920.415043021206	-6.65014351116697
16500	919.317757537978	100.677781838586	924.814119204824	-6.24976060392956
14112.02	923.413948277249	97.58489695712	928.55593907266	-6.03253511506161
12011.13	927.829915294571	95.015107605157	932.682273010884	-5.84703429931005
10236.38	932.097059628166	95.1379841082741	936.939787066202	-5.82792615684244
8750.684	936.27948568776	95.6578751621893	941.153390473774	-5.83355833196857
7449.463	940.556365520343	98.6278033186311	945.713339394288	-5.98622293648118
6363.206	945.283365320586	102.451041122908	950.819045128451	-6.18564662665442
5414.761	950.240605198685	109.497939989377	956.528623006275	-6.57330414126198
4620.567	955.989130469151	117.438883911519	963.175533861584	-7.00343501722259
3941.215	962.090006452285	126.808571683104	970.411044026019	-7.50860617561149
3361.769	967.893546915584	138.085965334726	977.694048249888	-8.1193963739548
2867.244	974.556210698914	152.765791314477	986.45688948264	-8.90885773113171
2442.658	981.65410278205	168.517022159003	996.013435785968	-9.74081536797347
2083.003	990.076977034005	187.390139244464	1007.6544470893	-10.7174964142873
1777.843	999.378743710151	209.652826814672	1021.13279311315	-11.847879118723
1513.548	1009.94835096279	234.369565231236	1036.78578535739	-13.0648643938926
1292.065	1021.16423240868	264.339829765921	1054.82317719677	-14.5130839760212
1101.762	1032.33335369967	298.625730709554	1074.65784331694	-16.1337065587047
939.101	1045.56149064131	336.926406965571	1098.50727554387	-17.8612487955375
801.2801	1060.26748494546	381.361600459891	1126.76697233186	-19.782863296737
684.3433	1074.37185268987	433.128339590361	1158.39329953543	-21.9566136052617
582.9476	1091.96689774231	491.492090442692	1197.47909406916	-24.2324134266773
497.0677	1108.46543539267	559.237603416084	1241.54835529464	-26.7716363239822
423.5089	1131.15526188544	638.803648687567	1299.06979337819	-29.4549638363404
361.5036	1152.05226541007	728.91937155655	1363.28568996629	-32.3221019389545
308.1262	1175.48022432346	834.754528279022	1441.72427331229	-35.3800521760811
262.7298	1204.39852066969	953.173139372411	1535.94102432756	-38.3584472233538
224.2111	1233.9806042756	1091.47923118561	1647.43286474378	-41.4933686106782
191.2854	1267.26209039499	1250.30835513601	1780.23149861898	-44.6141665883527
163.1722	1305.7812835919	1436.76098111282	1941.48058899057	-47.7342827462509
139.1537	1348.68997071048	1644.98347414935	2127.18952313129	-50.6523396081184
118.6706	1402.97716453838	1890.89683367179	2354.53514728623	-53.4259194323656
101.1982	1455.61099293901	2170.87321702141	2613.7126634628	-56.1574097769826
86.24196	1523.19532723986	2497.50039293603	2925.3430940047	-58.621489259456
73.61024	1600.36443513286	2868.52308290631	3284.75128471007	-60.8426174480602
62.69291	1688.55115835937	3303.1051280809	3709.67768162561	-62.9238293430934
53.57697	1791.03829653468	3793.03407360388	4194.63057529192	-64.7237189607173
45.65746	1917.37420013987	4359.96943584569	4762.94628406311	-66.2616522744075
38.96512	2062.17351774197	5008.18855857906	5416.13443846794	-67.6200779108832
33.18414	2234.15567288918	5761.79964729931	6179.78856809206	-68.8060432510245
28.30617	2438.96050366093	6610.86466496423	7046.42178391916	-69.7493609649278
24.17237	2663.84816301757	7588.34170542622	8042.32658339134	-70.6566396335175
20.61345	2942.66071808691	8701.34437778493	9185.4584035083	-71.3152546190204
17.55618	3266.58330239821	10000.6011705568	10520.5793682691	-71.9109588386179
14.98558	3648.95464710933	11452.3044177321	12019.5734738412	-72.3269834936624
12.76553	4117.61627353044	13124.1948031417	13754.9719376979	-72.5811475715824
10.8809	4646.14570141618	15048.5939897557	15749.5031968408	-72.8423017346031
9.278505	5272.4432368604	17227.6775453196	18016.4239318302	-72.9835358311028
7.923394	6005.80687611796	19669.6184794184	20566.0790467971	-73.0207780877863
6.75822	6864.81362180421	22473.6976578887	23498.7819360983	-73.0141890731423
5.761429	7894.24071945005	25692.1639734781	26877.617568838	-72.9197656285047
4.919708	9094.99982614449	29252.5640031988	30633.8297083275	-72.7288560911671
4.191257	10456.5326395162	33348.8335012807	34949.7320553021	-72.5911743329972
3.564097	12137.0256245642	38086.9884033079	39974.0675519147	-72.3246916624819
3.051758	13956.3858505074	43150.428415652	45351.2974286575	-72.0769447118673
2.604164	16200.4728181482	49011.6672182272	51619.7524504119	-71.7090485116138
2.214424	18771.5106715123	55730.8314120112	58807.2715126686	-71.3852127658059
1.892567	21796.5750850546	63038.2262620933	66700.1398477491	-70.9262735719061
1.607507	25309.6996332116	71663.8397232447	76001.8869463272	-70.5481787228992
1.376413	29175.9591249022	80771.5845192529	85879.4821631382	-70.1394879276324
1.17375	33815.5686211578	91216.1359325246	97282.4554358751	-69.6592919995333
1.001604	39026.3033350172	102856.789976014	110011.688452485	-69.2220679060689
