EC-Lab ASCII FILE
freq/Hz	Re(Z)/Ohm	-Im(Z)/Ohm	|Z|/Ohm	Phase(Z)/deg
6999984	45.8410394005979	62.2293877980429	77.2909930007784	-53.6229252406434
5969734	44.24809616816	57.6194204723826	72.6490993067358	-52.4780008673673
5091109	44.9675731649403	55.9220052538676	71.7589946136222	-51.1968099416753
4341796	48.591081903127	54.8917928363225	73.3089500763866	-48.4842386634536
3702781	54.6150812026339	52.4532845531449	75.7241979500838	-43.8433091707837
3157797	59.7210628153069	49.8539954855593	77.7947698091844	-39.854480133486
2693047	64.5863255656066	46.9589792565183	79.8532352687143	-36.0198913346376
2296687	69.5477204420147	44.1157262931485	82.3594725884802	-32.3879004121474
1958656	73.9732797801671	40.7058856463864	84.4334960053862	-28.8230314953568
1670375	78.1515555658627	37.2059371609284	86.5560361695652	-25.4579128546826
1424531	81.4900487982218	33.4810255383027	88.0999836789602	-22.3358142628132
1214875	84.2309554305594	29.4985238903797	89.24694260565	-19.300765148758
1036062	86.4311529732862	26.5865343847883	90.427805540581	-17.098086201157
883578.1	88.1247812600131	23.567822915137	91.2218139979929	-14.97261331645
753531.2	89.5429863256452	20.8178682475376	91.9311157252348	-13.0882009648883
642624.9	90.6468791943833	18.45456328303	92.5063652601727	-11.5074333264342
548046.8	91.4989883259295	16.3425271120935	92.9469905756937	-10.1267482796177
467390.6	92.1944339430082	14.5883063004076	93.3414823686994	-8.99159856632655
398593.7	92.7872818309103	13.0666657730205	93.7028143867227	-8.01590300742032
339937.5	93.2265631521657	11.8367290781559	93.9749979113296	-7.23597566795439
289906.2	93.6081915279739	10.7849904527559	94.2274351778922	-6.57230719469845
247234.4	93.9298335612141	10.0171623073672	94.4624643629919	-6.08730988027611
210843.7	94.2064572523445	9.4018740064416	94.6744517959878	-5.69928911042644
179812.5	94.4940258852698	9.02249163055671	94.9237919766667	-5.45418865186758
153343.8	94.7457737491957	8.79797858940595	95.1533818137507	-5.3052035823153
130781.2	94.9930098172665	8.77110428215715	95.3970868762341	-5.27540232851716
111531.3	95.2559860919141	8.90160304159229	95.6710061776974	-5.33874453164226
95109.37	95.5340952667069	9.20962560719449	95.9769793349057	-5.50638109629943
81109.37	95.9006858588709	9.52329108579953	96.3723747829569	-5.67108927366569
69171.88	96.1949615354842	10.3224754665499	96.747217658033	-6.12485007501309
59000	96.4979929473729	11.2015360036079	97.145957464587	-6.62128935660419
50312.5	96.9613299929159	12.2424934680748	97.7311524556576	-7.1961780195046
42906.25	97.3721237712474	13.4361373969177	98.29476219958	-7.85648896008107
36593.75	97.8533822744471	14.9441057551158	98.9879321905916	-8.68308371196041
31203.13	98.3956448555361	16.7399495159183	99.8094626592703	-9.65522693253683
26609.38	99.0295408408873	18.7491489592443	100.788791767006	-10.7208482173888
22703.13	99.6918395021273	21.1138002366663	101.903166897559	-11.9580073365251
19359.37	100.486482204938	23.8644566812457	103.281389410748	-13.3596339907536
16500	101.366650676654	27.0548761867107	104.915033216794	-14.9439596971155
14112.02	102.308784379269	30.6401301878664	106.798431351276	-16.6722639678158
12011.13	103.396602167837	34.8620975240921	109.115641333556	-18.6324958244072
10236.38	104.612812988068	39.6871438026998	111.887935115868	-20.7753293303067
8750.684	105.977411228326	45.1283416422893	115.185845094096	-23.0657510346539
7449.463	107.52383402206	51.5926983606274	119.260980236347	-25.6328884357376
6363.206	109.166496443444	58.8137364744954	124.001530409216	-28.3136834746414
5414.761	111.121484574087	67.3718496377205	129.949799759587	-31.2280161108404
4620.567	113.353767808664	77.04128823797	137.056326996554	-34.2021254338055
3941.215	115.84276992231	88.2477344090964	145.626954825031	-37.2997472686669
3361.769	118.690814380652	101.082152620684	155.900965349075	-40.4191300405874
2867.244	121.905125507291	115.851865255547	168.174059557762	-43.5415724071339
2442.658	125.734491198836	132.985446305117	183.014456276004	-46.6053668137708
2083.003	130.034890160818	152.576525345006	200.471116985693	-49.5603679942683
1777.843	135.022679532963	174.972195955403	221.01220180279	-52.3433214080439
1513.548	140.894909681071	200.961793673899	245.432308571361	-54.965588808175
1292.065	147.531735988105	230.52334583077	273.69074901552	-57.3813221118954
1101.762	155.577274440599	264.47092146023	306.837345543838	-59.5334661819658
939.101	164.738990515445	303.740614350327	345.539137872922	-61.5260415060922
801.2801	175.610499678007	348.382525487049	390.140271776567	-63.248524525594
684.3433	188.100141286557	399.105852208077	441.210997617645	-64.7653156966438
582.9476	203.233102075369	458.332433649455	501.370435420967	-66.086613667995
497.0677	220.430832367986	525.196663189938	569.579921419539	-67.231669821564
423.5089	241.230451436756	602.358147750066	648.866295057211	-68.1750448312469
361.5036	266.017424200698	689.154326653598	738.714394014187	-68.8931328358843
308.1262	293.502552668034	789.288750007384	842.09291607926	-69.6019962200202
262.7298	327.068485915994	902.65697359343	960.085103757074	-70.0825359227964
224.2111	366.934281125845	1030.56968496432	1093.94453343522	-70.4017307104638
191.2854	413.164924725687	1176.58499016756	1247.01944415922	-70.6509673513457
163.1722	467.831002639808	1341.9881078687	1421.19595013917	-70.7809141792814
139.1537	532.313338206889	1528.83634872683	1618.85702618278	-70.8028011670554
118.6706	607.952492263226	1741.00117391605	1844.09634250115	-70.750948486596
101.1982	696.923786822802	1978.45115096453	2097.61095568084	-70.5948174874229
86.24196	802.25989446709	2247.74415154097	2386.62412395773	-70.3576129602387
73.61024	921.966445025195	2547.85301414938	2709.53448168915	-70.10682933331
62.69291	1065.24423112899	2887.38055525205	3077.61461895431	-69.7494182607074
53.57697	1225.46656478673	3257.80304061592	3480.66788890531	-69.3855327650198
45.65746	1415.23785251456	3679.63496710315	3942.41191028008	-68.9625753206542
38.96512	1628.80435355001	4144.62605254128	4453.19309457241	-68.545576637358
33.18414	1877.46805490889	4667.21640600278	5030.68536858198	-68.0866947392377
28.30617	2169.70228155012	5233.94587608887	5665.84481118143	-67.4838285472011
24.17237	2467.06087642113	5877.53748984564	6374.31065390672	-67.2300655397376
20.61345	2819.86871163249	6587.59688232303	7165.75831540779	-66.8263021815089
17.55618	3212.43370200437	7382.70153902802	8051.33605708644	-66.4847047440519
14.98558	3650.90091513841	8265.11783227866	9035.5547850483	-66.1678017875651
12.76553	4140.45182110742	9248.08136623071	10132.6378717161	-65.8814947773382
10.8809	4692.69145030505	10357.8635679891	11371.3099834998	-65.6268150374026
9.278505	5287.30643045573	11580.2421459978	12730.1852873193	-65.4595113612243
7.923394	5932.01541096369	12954.7173307417	14248.2808771911	-65.3967724826575
6.75822	6697.45520647721	14515.0991909416	15985.7439853652	-65.2307866094081
5.761429	7552.11927719387	16267.5889536946	17935.1318908819	-65.0972301473631
4.919708	8453.45498170813	18183.9600593598	20052.862752439	-65.0669779757802
4.191257	9486.37727447974	20423.5282027665	22519.1442564535	-65.085942878799
3.564097	10713.2338205698	22918.2136921098	25298.5750138502	-64.9460265852281
3.051758	11946.0114909916	25627.2685100112	28274.7958759584	-65.0076768439842
2.604164	13449.4072552189	28717.4887753696	31710.8927196983	-64.9046590324197
2.214424	15105.2374358665	32299.2112160104	35656.7979937957	-64.9361144153723
1.892567	16944.87164188	36111.8639330002	39889.7905694591	-64.862489338698
1.607507	19121.6297905704	40649.8432106693	44922.6722145914	-64.807771869263
1.376413	21390.4979270617	45481.5150659753	50260.5373455573	-64.8118398696085
1.17375	24066.7332276535	50988.2385228551	56382.6934077702	-64.7324279192033
1.001604	27090.685558987	57208.8800087662	63298.9825819761	-64.6605790116939
