EC-Lab ASCII FILE
freq/Hz	Re(Z)/Ohm	-Im(Z)/Ohm	|Z|/Ohm	Phase(Z)/deg
6999984	2.48911599583441	1.84322418336979	3.09728491277086	-36.5204501827756
5969734	5.77152110876709	4.23876569926743	7.16083728080943	-36.294595949513
5091109	15.6909598997125	2.62190505414665	15.9085074311623	-9.48628459706455
4341796	3.70535621761935	-10.3930936579606	11.0338597273389	70.3777810746273
3702781	2.72101795705531	-7.3656110529101	7.85214396871127	69.7246664839577
3157797	2.1396773778436	-8.25469845921965	8.52750056780408	75.4683391970262
2693047	2.41122331806907	-11.3307745188341	11.5844917491559	77.9864887066261
2296687	-2.1324610693205	-10.6781231300648	10.8889716591142	101.293609671635
1958656	20.078013590819	-19.3128420407944	27.8587956926675	43.887163360423
1670375	-2.95078854186705	-19.3924177077857	19.6156319697341	98.6518731656251
1424531	-5.11507862046189	-7.20299652751939	8.83443197206038	125.379781350683
1214875	16.3525249273275	-2.50317584858154	16.5430033799123	8.70303983196481
1036062	2.64633789602344	-12.6646176988507	12.9381469197862	78.1975663583523
883578.1	13.7236042778233	-9.19423133932999	16.5188136467304	33.8204037619555
753531.2	0.0444401635536818	-10.3196740432866	10.319769730368	89.7532656494483
642624.9	14.4603864500961	-6.32610480463196	15.7836110660809	23.6283325641149
548046.8	6.34907918307102	-8.81573217528167	10.8640664697526	54.2386142281351
467390.6	11.0782933492713	-2.77789358706134	11.4212642169571	14.0767365079834
398593.7	6.75547722378145	1.16072190325695	6.85446918861923	-9.74932952080911
339937.5	9.63279947446439	9.73584622449896	13.6958945462621	-45.3048271033372
289906.2	14.4951861893892	-1.47848327466322	14.5703924263734	5.82392691143243
247234.4	11.3514172636683	8.84375261061149	14.3898100797614	-37.9217273327492
210843.7	17.5957351658538	11.0776447841806	20.7924051035792	-32.1930489251793
179812.5	47.4417324089585	-8.47931845362808	48.1935349959024	10.1335435590679
153343.8	76.3454252553947	-34.5202802438046	83.787073618416	24.3305381786714
130781.2	-10.4377542325763	-123.73766191261	124.177114191863	94.8217076009551
111531.3	-35.5362507157891	-144.299377467701	148.610684180181	103.834792084599
95109.37	-38.5978542454592	-226.150238620538	229.420410557736	99.6855463238207
81109.37	-43.2356697966479	-231.28770886672	235.294129581639	100.588355921608
69171.88	57.3626647586924	-300.565562408361	305.9904126179	79.1950858796751
59000	-60.6550269351712	-363.229041853556	368.258562885316	99.4802555458253
50312.5	-27.3756787982358	-418.487617914846	419.382062250767	93.7427134811647
42906.25	-49.1151957333941	-472.24215921016	474.789384240426	95.9376574985314
36593.75	-59.364524243246	-537.648466678648	540.915908862485	96.3007981490853
31203.13	-101.377337909517	-632.77111820354	640.840582886398	99.1021034010389
26609.38	-96.0072499235362	-732.797754671884	739.060174336322	97.4640743605394
22703.13	-50.2987817260193	-866.252605088992	867.711670583372	93.3231364877904
19359.37	-74.9894845216091	-1107.92290481708	1110.45782711777	93.8721446470848
16500	-47.7484418462947	-1153.22397782665	1154.21205015936	92.3709379280625
14112.02	-127.835982492225	-1384.92273057843	1390.81019844283	95.2737713013133
12011.13	-103.553583374607	-1650.65667064821	1653.90168661416	93.5897337498648
10236.38	14.661196467093	7.65077519190258	16.5373831933511	-27.5572817822435
8750.684	47.3695401863123	73.8503333457545	87.7367942925983	-57.3228231210125
7449.463	1.59004255513433	-0.86810418854205	1.81158499919335	28.6329011806205
6363.206	6.0301554813477	16.7587006273067	17.8105817379702	-70.2101336237721
5414.761	7.0590675392077	10.9892436227623	13.0611603590002	-57.284870396663
4620.567	2.39878062547716	1.6600330547101	2.91716613032147	-34.6844756832143
3941.215	1.88191700613143	-1.24727743701443	2.25772288442403	33.5352082898512
3361.769	2.0885101630955	0.0157570513561298	2.08856960286715	-0.432267664761772
2867.244	2.93523388938532	-0.482646311432235	2.97465047481804	9.33769945205327
2442.658	5.32785594460291	-1.41129436103134	5.5116060036907	14.8363238457222
2083.003	3.47764860069376	0.934205658915741	3.60094154396562	-15.0364637331394
1777.843	1.70325412226166	-1.85088934447049	2.51532621551872	47.3786363836573
1513.548	3.86639188761945	0.710635120569551	3.93115612806671	-10.4146137350473
1292.065	1.89594019009303	1.44129100402404	2.38157699071237	-37.2420446891193
1101.762	3.30817523877047	0.198794319940332	3.31414281407041	-3.43887320581017
939.101	5.57440605077421	-1.82571982951822	5.86576983138652	18.1345668525487
801.2801	8.03134964766882	-0.0640772660671484	8.03160526041568	0.457118563209982
684.3433	15.8839868950169	-3.36285854741791	16.2360665584683	11.9537903671529
582.9476	6.01479151629042	-1.02771276858351	6.10195956387363	9.69616476699892
497.0677	7.27216473981654	-4.35999718344928	8.47903033623047	30.9446254557908
423.5089	8.23230805607975	-8.72120195519619	11.9929253926435	46.6517993134882
361.5036	4.78296459740193	-4.75345250224891	6.74329748944362	44.8226888483126
308.1262	61.2727939470019	43.7879115938712	75.310932007408	-35.5510686187718
262.7298	87.5618195825679	-38.1826398396073	95.5247938167434	23.5603282034109
224.2111	-12875.132960715	-44843.0384590345	46654.765533593	106.019594748992
191.2854	40625.5095434496	-99935.1433037984	107877.082333625	67.8773359608969
163.1722	-18434.0508054288	-47743.0764569629	51178.2725252869	111.112043632115
139.1537	-35333.24859988	-81763.6637038849	89071.5171022864	113.371044330977
118.6706	124.707253452511	-137.571062704044	185.68170711513	47.8079020933473
101.1982	59318.2298355183	-95181.5057824951	112152.447293149	58.0683558040367
86.24196	138797.732534489	96605.1682970778	169107.566650408	-34.8384580906557
73.61024	295149.793326141	68057.2004936361	302894.673177814	-12.9846101955287
62.69291	342899.653062586	-91121.9162468205	354800.473070336	14.8817995059218
53.57697	182755.763802165	-58175.2667070867	191791.633966014	17.6574419782315
45.65746	333166.937941122	-824861.967607118	889605.235001318	68.0059076901243
38.96512	412413.95676675	-258045.101319354	486490.026671588	32.0339843820951
33.18414	209668.420504358	-23876.0191304447	211023.484110915	6.49657936291601
28.30617	357480.714491075	42675.0388210956	360018.91640778	-6.80759231326893
24.17237	-287909.932281643	-889865.613132351	935282.277465918	107.928632826588
20.61345	1413316.96894763	-902057.874489023	1676655.38010736	32.5482942173163
17.55618	868178.785166259	189907.104678668	888706.425891135	-12.3386461181423
14.98558	1224600.49426408	-1852116.0684219	2220355.89522455	56.5277238591315
12.76553	2105331.16109394	-1209662.74817746	2428106.9297297	29.8804365654266
10.8809	2265028.61166988	1790511.53664479	2887262.74774937	-38.3264704488075
9.278505	1076006.50672106	-488427.602374289	1181673.18885856	24.4145452505935
7.923394	4346168.35983727	-1319237.70818552	4541978.3732146	16.8851636253305
6.75822	1760922.83037512	1888106.23514701	2581819.97237168	-46.9961813258296
5.761429	2610585.72257911	-761250.569378335	2719312.45801447	16.2567607043649
4.919708	2615448.4549846	-332218.194344424	2636463.45495909	7.23902953300244
4.191257	4002597.99401437	292951.51150536	4013304.28572032	-4.18603366193036
3.564097	9895864.99014813	3885247.54980497	10631241.3398674	-21.4356288117272
3.051758	7968259.2625071	153623.163203674	7969740.00521993	-1.10449074167369
2.604164	16732659.8073644	-14560924.0478241	22181127.4139862	41.0301093150031
2.214424	4132796.53057789	-5293597.57050248	6715815.84035674	52.0202706144153
1.892567	8807180.52403876	19276447.7378608	21193108.9312891	-65.4449009374485
1.607507	1197258.16252947	-1456494.20867162	1885418.3853027	50.5793275962849
1.376413	18960727.3717136	-12658130.0853243	22797750.7601395	33.7269658047256
1.17375	4853912.84155295	-23497960.6722044	23994053.963969	78.3287163976578
1.001604	16874168.0081047	-3880817.2272926	17314684.1818554	12.9519859786739
