EC-Lab ASCII FILE
freq/Hz	Re(Z)/Ohm	-Im(Z)/Ohm	|Z|/Ohm	Phase(Z)/deg
6999984	21.0907623592939	6.63542293389978	22.1099320308302	-17.4642406097134
5969734	17.1151753647363	-3.27319360874191	17.4253557830532	10.8268053024424
5091109	12.4807299801366	-4.79865280195135	13.3714505402651	21.0310002872279
4341796	7.07506553658117	-6.15503959370705	9.37768973399206	41.0220363396697
3702781	7.09366360292581	-4.25001174357606	8.26938106099899	30.9270012740126
3157797	4.1436239805943	-5.22670251046754	6.66993544387679	51.5933311133735
2693047	2.42005361159793	-4.04638221426285	4.71485614912173	59.1172696395827
2296687	2.41566683196266	-3.77841339039298	4.48462417508374	57.4078500578099
1958656	1.63994950458087	-3.25609698317419	3.64576493227568	63.2676613159514
1670375	1.36619515038243	-2.77439438110741	3.09253187062782	63.782979556892
1424531	1.09934354754902	-2.38804298464524	2.62893619779009	65.2808631207026
1214875	0.529149040388317	-1.85826936500177	1.93213967917642	74.105501785528
1036062	0.777349463628083	-1.84485396339127	2.00193864412557	67.1513411386866
883578.1	0.680558065388202	-1.58001802434889	1.72035352112067	66.6971001987069
753531.2	0.630077719618569	-1.35192595712696	1.49154340409972	65.0116875485501
642624.9	0.578871742820952	-1.17842386414151	1.31292623487186	63.8385564630197
548046.8	0.534852713974227	-1.02079923879423	1.15243156480915	62.3474910969713
467390.6	0.497995757573934	-0.883606850742857	1.01427848308112	60.5946413143276
398593.7	0.470553015783236	-0.766866050645026	0.899724224579176	58.4665041758731
339937.5	0.442724464868174	-0.667443714118286	0.800928251036772	56.4431438294143
289906.2	0.422076051983104	-0.577667922796451	0.715435827091159	53.846075113113
247234.4	0.40425411509492	-0.500419993397277	0.643305183690375	51.0676939025426
210843.7	0.389785248317852	-0.432906694432093	0.582529609453744	48.0004159125113
179812.5	0.378174224013736	-0.371508794051638	0.530126897795324	44.4905967806768
153343.8	0.371641612205166	-0.322919546548259	0.492335781215816	40.9873895817982
130781.2	0.365412656649215	-0.280286697889397	0.460529089909833	37.4897056960646
111531.3	0.358735732544976	-0.245177983295304	0.434515326884257	34.3506590126152
95109.37	0.350457530698642	-0.213445845851058	0.410340846046873	31.3434671065593
81109.37	0.3442699321237	-0.186225747191758	0.391410034467163	28.4102612405886
69171.88	0.337004266356687	-0.162055273819591	0.373943561671212	25.6815096342324
59000	0.327568789820021	-0.136937731805714	0.355039792778565	22.6870087433386
50312.5	0.321367160387541	-0.106492143947734	0.338551958343378	18.3337613596039
42906.25	0.351492829021177	-0.107202925314078	0.367477449715226	16.9613498233491
36593.75	0.335321788759836	-0.0973978631614866	0.349180534631471	16.1965141922069
31203.13	0.329886363567807	-0.0856451374740325	0.340822684751085	14.553827004833
26609.38	0.324537498291658	-0.0735694650918996	0.332771774631377	12.772524138083
22703.13	0.325170270955804	-0.0658263157100803	0.331766196218714	11.4440985717604
19359.37	0.3204964102732	-0.0588994446832816	0.325863611932977	10.4133761462098
16500	0.318412636880751	-0.052820325028695	0.322763991271471	9.41881881668789
14112.02	0.316352248203207	-0.0474630758833529	0.319892932894012	8.53257915833544
12011.13	0.313860028513177	-0.0425425620887555	0.316730148687124	7.71918535405592
10236.38	0.311040664563733	-0.0384237220145321	0.31340497351781	7.0422299895309
8750.684	0.309087685784206	-0.0348382643841313	0.311044855557417	6.4308496446586
7449.463	0.30714899682884	-0.0320242948641889	0.308813959714439	5.95232675332124
6363.206	0.305619637059101	-0.0295141997148809	0.307041447594533	5.51604402951431
5414.761	0.302680232399988	-0.0270339653017052	0.303885107179744	5.10384501366791
4620.567	0.301388590621108	-0.0255363592656649	0.302468491253425	4.84304780335365
3941.215	0.300052579434563	-0.0238490120170516	0.300998880063571	4.54447376673302
3361.769	0.297184886274404	-0.0230994732028617	0.298081267932388	4.44452815486599
2867.244	0.297031152331357	-0.0249152201834143	0.298074275394711	4.79479329784773
2442.658	0.292643883201877	-0.0231587689978908	0.293558803235351	4.52474912167785
2083.003	0.29007899370373	-0.0218022814939026	0.290897167512006	4.29825833230484
1777.843	0.287282652822618	-0.0192025905770397	0.287923708814801	3.82408476359032
1513.548	0.284121048585328	-0.0170116215878463	0.284629874606083	3.42646866954558
1292.065	0.287365368503175	-0.0164151835147114	0.287833829257068	3.26935619366938
1101.762	0.284965950606583	-0.0179026800608159	0.285527755145579	3.59482143144667
939.101	0.283384923910786	-0.0142137083741396	0.283741157757677	2.87137226072017
801.2801	0.280057084728029	-0.0144281537530982	0.28042849770857	2.94919196141263
684.3433	0.279552297226534	-0.0137370531100759	0.279889609512003	2.81322162817675
582.9476	0.279637780808081	-0.015271667098902	0.280054480898357	3.12595001416829
497.0677	0.275174298488556	-0.0140955591068002	0.275535078229982	2.93236247209625
423.5089	0.276366679136709	-0.0156357622668876	0.276808631366002	3.23812254538341
361.5036	0.272560267509114	-0.0148573731387866	0.272964907929985	3.12012876296976
308.1262	0.275728812089605	-0.00789664877108868	0.27584186570961	1.64045608971968
262.7298	0.265083133302527	-0.0159604960417206	0.265563184563266	3.44558483342233
224.2111	0.266049612936141	-0.0189820136870188	0.266725914352326	4.08100362258934
191.2854	0.269099846520553	-0.0185989784065797	0.269741819885522	3.95374052896606
163.1722	0.27262483167169	-0.0150567397854125	0.273040297862756	3.16116514617262
139.1537	0.261576621270754	-0.00915339329484001	0.261736725363931	2.00414276905236
118.6706	0.265716616118987	-0.0118049481268233	0.26597871509202	2.5437973923412
101.1982	0.25615578528035	-0.0103620915935147	0.256365284847198	2.31648326261659
86.24196	0.263868546721165	-0.00632414998363242	0.263944321442525	1.37294782475105
73.61024	0.269788237923708	-0.0195946567679032	0.270498879657258	4.15408496231607
62.69291	0.188852665297136	0.0971978249554736	0.21239761384231	-27.2337668928008
53.57697	0.252303602920767	0.0074506943588523	0.252413590943969	-1.69149115940537
45.65746	0.235494473267717	-0.00539606359525795	0.235556287205338	1.31263198469984
38.96512	0.255072710627767	-0.0148080621874596	0.255502184751411	3.32253584438224
33.18414	0.246783572262099	-0.00901521049208446	0.246948183954973	2.0921324706084
28.30617	0.260705526934239	-0.0198338026552099	0.261458890653627	4.35053442857478
24.17237	0.250163685785008	-0.0113737991637393	0.250422109632831	2.60318446780651
20.61345	0.239376969205152	-0.00249194202324162	0.239389939556556	0.596434167828514
17.55618	0.246308376623913	-0.0110487165693323	0.246556059615125	2.56840936738884
14.98558	0.251615016059124	0.000764121171861656	0.251616176323381	-0.173999089084761
12.76553	0.256573870834656	-0.00441800745614677	0.256611905384301	0.986492375597675
10.8809	0.254197494525507	-0.0108973762436106	0.254430971055098	2.45475115661095
9.278505	0.250316772563663	-0.0138745853699393	0.250700998693416	3.17255039051966
7.923394	0.244437517610614	-0.0147248717099416	0.244880627781198	3.44732146849937
6.75822	0.243283621198232	-0.0164192240421766	0.243837058835346	3.86103996841846
5.761429	0.250826738087789	-0.0119459169839676	0.251111046097833	2.72671817914129
4.919708	0.242509694496632	-0.0116597998322493	0.24278983268864	2.75264566528655
4.191257	0.253291051690907	-0.0615877765899085	0.260671078357332	13.6662752731297
3.564097	0.0654182272058442	-0.0694425523221527	0.095403419874606	46.7092326028721
3.051758	0.183458261243328	0.0184141919829222	0.184380085922556	-5.73173227261792
2.604164	0.304978007601295	-0.0399515423446111	0.307583664807104	7.46314197456786
2.214424	0.241241431946871	0.0295534457988437	0.24304492310345	-6.98425811981956
1.892567	0.242484151175334	-0.00330655634435557	0.24250669451807	0.781246861268117
1.607507	0.250744928898916	0.0159392924071046	0.251251030666466	-3.63727015561453
1.376413	0.229774618942465	0.00605065139361726	0.229854270990213	-1.50842025766297
1.17375	0.258475991393048	0.0358770166629231	0.260954015970727	-7.90228547664588
1.001604	0.239675599881034	0.0123212276296072	0.239992095346147	-2.94286708031218
