EC-Lab ASCII FILE
freq/Hz	Re(Z)/Ohm	-Im(Z)/Ohm	|Z|/Ohm	Phase(Z)/deg
6999984	21.6669319133218	2.77239520151923	21.8435828949815	-7.2916671656411
5969734	16.3356326218285	-9.36639361204229	18.8303537526795	29.8287500427278
5091109	11.1225004298805	-5.59003155421606	12.4482315446742	26.6835383334028
4341796	7.22298125228712	-7.1455275811502	10.1602176445128	44.6911491977065
3702781	6.75972486902378	-5.5159030403023	8.72462415551035	39.2142800115186
3157797	4.17520341730211	-4.95774657663279	6.48163364391766	49.8973416623186
2693047	3.05919089104041	-4.45464958021724	5.40393854427993	55.5210140947748
2296687	2.18894829108239	-3.59993386719337	4.21319575491079	58.698208308224
1958656	1.82215898017714	-3.22140520737131	3.70104240169161	60.5057182645233
1670375	1.44481012499958	-2.62527278261969	2.99658697195076	61.1739589409843
1424531	1.17590139522304	-2.4503513560213	2.71789732316048	64.3640733527137
1214875	1.22657342269073	-2.07621775518304	2.41146480965172	59.4265522573943
1036062	0.830455110249324	-1.80518225708063	1.98704269491572	65.2957027275964
883578.1	0.729057547459872	-1.55963960609959	1.72162731403248	64.9461411767871
753531.2	0.674931434160056	-1.34679509488927	1.50644929169061	63.3827685369932
642624.9	0.602444078081204	-1.16886993103616	1.3149888907879	62.7330916930943
548046.8	0.577403736095463	-1.00937320115837	1.16285396059595	60.228635874798
467390.6	0.539170708464433	-0.876094803602004	1.02871140645201	58.3908164511364
398593.7	0.508942557965574	-0.761392769637599	0.915828301028613	56.2397953783444
339937.5	0.482511252793969	-0.660963118801561	0.818345497628411	53.8700935038849
289906.2	0.461294116385541	-0.572404350192089	0.735145565130298	51.1350565505161
247234.4	0.443755803693877	-0.495609024761553	0.665242451093657	48.159537751375
210843.7	0.429581224784147	-0.427404080300696	0.605982076091968	44.8544421693187
179812.5	0.41790145378298	-0.367393829828622	0.556434947922999	41.3199915818716
153343.8	0.410536401866455	-0.31908675875865	0.519958168387184	37.8559059412445
130781.2	0.403321209202971	-0.277093280615878	0.489334940460434	34.4901856948855
111531.3	0.397984401699108	-0.241117885944804	0.465327217040104	31.20947519659
95109.37	0.391075100856021	-0.210097199137874	0.443937571731799	28.2460171590364
81109.37	0.384101714013578	-0.182230286777872	0.425137629629881	25.3811766171807
69171.88	0.378457478863665	-0.15838848761244	0.410264519933174	22.7098296523187
59000	0.369364124863746	-0.133679989927452	0.392810636876554	19.8961657007241
50312.5	0.363497854921183	-0.102821984467466	0.377760573673497	15.7945212735652
42906.25	0.39308880941026	-0.103801004725646	0.406562984869047	14.7921602588735
36593.75	0.377450633546964	-0.0941072104129074	0.389005331347404	13.9997424394738
31203.13	0.372122627134616	-0.0816347210200529	0.38097175394193	12.3733043351697
26609.38	0.367578261432265	-0.0699345352022696	0.374171909009113	10.7722081541444
22703.13	0.36800730833267	-0.0621667448066398	0.373221225476406	9.58833983953325
19359.37	0.36519706653566	-0.0559357616249702	0.36945596061617	8.70808759013991
16500	0.362956371237117	-0.0490540191762411	0.366256227549729	7.69696032118279
14112.02	0.360771144874371	-0.0439827508146959	0.363442294378615	6.95080884373983
12011.13	0.359547807307545	-0.0391129008793447	0.361668971235937	6.20842742858882
10236.38	0.35789890583613	-0.0348077223484204	0.359587547523248	5.55487337929033
8750.684	0.356448585368245	-0.0315153232482845	0.357839083402676	5.05265524537754
7449.463	0.355332223785384	-0.028506763371669	0.356473876768263	4.58676836525399
6363.206	0.354325535967463	-0.0257744466263556	0.355261745108483	4.16049750595918
5414.761	0.352734721416191	-0.0239456383841122	0.353546570185853	3.8836047652641
4620.567	0.350889195271685	-0.0212562213782411	0.351532437060496	3.46663644873103
3941.215	0.350371588226518	-0.0204508432381126	0.35096792848567	3.34050781154211
3361.769	0.349021570826132	-0.0193356070282164	0.349556751617088	3.17091402305677
2867.244	0.348219670872881	-0.0183663476645174	0.348703687834459	3.0191862045392
2442.658	0.346893051271053	-0.0178247844808221	0.347350704565183	2.94150458667536
2083.003	0.34832294221528	-0.0171204568027038	0.348743433077445	2.8138862592191
1777.843	0.342161615879056	-0.0164761377644345	0.342558074633484	2.75683914338911
1513.548	0.336035806296118	-0.0165736872998625	0.336444275064677	2.82360820708688
1292.065	0.339179002543451	-0.0150930947876163	0.339514649575888	2.54791867776158
1101.762	0.350062232975213	-0.0146065496421437	0.350366833829975	2.38931364682906
939.101	0.36206409816352	-0.0139091636295536	0.362331168976445	2.20001011019122
801.2801	0.373867063973684	-0.0140426332588266	0.374130695176358	2.15104685589272
684.3433	0.37578369451831	-0.0135521400810533	0.376027985084365	2.06540112467657
582.9476	0.374924516341585	-0.0133060069330164	0.375160555994994	2.03256434047982
497.0677	0.375005726531351	-0.0131310506180269	0.375235551915912	2.00542676747125
423.5089	0.376791488320592	-0.0127129124987345	0.377005893607841	1.93242163113127
361.5036	0.378155691368851	-0.0132373086607283	0.378387305885428	2.00481542150384
308.1262	0.377291075266608	-0.0124474332336495	0.377496349743861	1.88959360890304
262.7298	0.375187719841295	-0.012346565324064	0.375390813413184	1.88479222257984
224.2111	0.37367595132672	-0.0124273047997013	0.373882541053355	1.90477813638959
191.2854	0.371591875497249	-0.0105189587862163	0.371740730119137	1.6214860300807
163.1722	0.370127345366202	-0.0118479305275741	0.370316925410678	1.83343572357108
139.1537	0.368922364182105	-0.0111484809880711	0.369090773959544	1.73089690472329
118.6706	0.366068518998025	-0.0122271325560704	0.366272662605267	1.9130373230064
101.1982	0.364039424552689	-0.0148295429353115	0.364341348150773	2.33271630286824
86.24196	0.36248659106299	-0.00799265980483738	0.362574697560687	1.26314046331423
73.61024	0.38412262176997	-0.00944518494368363	0.38423872797267	1.408561162423
62.69291	0.262913355397298	0.0281548819483977	0.26441658386681	-6.11239970212489
53.57697	0.347175907323421	-0.0340694806192297	0.348843575453963	5.60467257901192
45.65746	0.387167415918594	-0.0250045137306338	0.387974011572923	3.69521337743611
38.96512	0.349890685807123	0.00174807330884695	0.349895052515568	-0.286250516588272
33.18414	0.363596453514984	-0.0117816862834335	0.363787285567205	1.85591686857863
28.30617	0.347907749909795	0.0102010826290561	0.348057271916708	-1.67950144458446
24.17237	0.339322081118998	-0.00640072296407642	0.339382445022413	1.08065741626963
20.61345	0.355561809962582	-0.0280837957634224	0.356669174850237	4.51609058347783
17.55618	0.346268439984597	-0.0269241067722069	0.347313604764984	4.44608831894213
14.98558	0.350075910685256	-0.00810968088687353	0.350169830462589	1.32704760282533
12.76553	0.348176117345215	-0.0092382557974533	0.348298656413958	1.51988858089031
10.8809	0.347020419345947	-0.00799167896997614	0.347112429013707	1.31925537681155
9.278505	0.346323731720318	-0.00865089093762331	0.346431761053604	1.43090537051751
7.923394	0.346385131666693	-0.00918832599478589	0.346506976516114	1.51949037522269
6.75822	0.344571631275677	-0.00219556572014962	0.344578626134606	0.365076331168986
5.761429	0.356421236198821	-0.00590487890717777	0.356470146307379	0.949140111017507
4.919708	0.343017476580667	-0.00452670079203707	0.343047344050102	0.756071668707864
4.191257	0.341441725627878	0.000127954029334395	0.341441749603028	-0.0214713813781434
3.564097	0.339109797920861	-0.0112144416396704	0.339295179375153	1.89409476534158
3.051758	0.335065480282793	0.00374053824344544	0.335086358575651	-0.63960080811367
2.604164	0.340828379514278	-0.00160960636726854	0.340832180280833	0.270584761849585
2.214424	0.337079054632689	-0.00398754806287315	0.33710263957973	0.677760943184973
1.892567	0.337317951228452	0.00260488812440412	0.337328009010668	-0.442449411260145
1.607507	0.33409832515811	-0.000400596445480421	0.334098565323118	0.0686997595800277
1.376413	0.33717649848366	0.00187320701767513	0.337181701808139	-0.318307333338503
1.17375	0.336081017336168	0.00383485082656437	0.33610289539749	-0.653744844244269
