EC-Lab ASCII FILE
freq/Hz	Re(Z)/Ohm	-Im(Z)/Ohm	|Z|/Ohm	Phase(Z)/deg
6999984	49.8951545556695	44.4126262747441	66.7982621087872	-41.6728877470486
5969734	48.0599297381289	37.6631323709707	61.0595478727705	-38.0847395550418
5091109	47.4091448628909	32.8594421822751	57.6833594475985	-34.7259635571598
4341796	47.9524839185381	28.9608796689774	56.0194007925705	-31.1298569813786
3702781	48.7730224704142	24.5103126191992	54.5853748323707	-26.68128087969
3157797	48.8706426210582	21.9136449614422	53.5588232291499	-24.1515117860048
2693047	49.6814900836656	19.9824442776884	53.5494961343642	-21.9105363393773
2296687	50.6041961991939	17.8553699602251	53.6618943886909	-19.4350664559367
1958656	51.1592954890312	15.9614370374831	53.591426434044	-17.3276532009321
1670375	51.7300059556417	14.4052173193681	53.6982662866219	-15.5608862734447
1424531	52.1815764568788	13.0881453575426	53.7979225474855	-14.0804148970282
1214875	52.5624999247798	12.0564510303997	53.9274921518784	-12.918674212465
1036062	52.8863814182353	11.2141705530589	54.0622507921022	-11.9718270785436
883578.1	53.2550621859363	10.5858027635232	54.2969692393246	-11.24245753492
753531.2	53.5967253258743	10.1900780427233	54.556820436807	-10.7648800239446
642624.9	53.9507665888436	9.93587762629095	54.8580612100766	-10.4349881142422
548046.8	54.32132954792	9.87227320652808	55.211127701923	-10.3004232464777
467390.6	54.7143204681831	9.96719251227587	55.614762346627	-10.3242411020213
398593.7	55.1440498369619	10.2431242302063	56.0873232238514	-10.5228798400152
339937.5	55.6247633851964	10.6883435621642	56.6423427284036	-10.876858895425
289906.2	56.1438338941316	11.3011902100794	57.2699483542306	-11.3809815410488
247234.4	56.7327175123656	12.0489138278675	57.9980823887243	-11.9903393449043
210843.7	57.4182597121168	12.9894452813084	58.8691959948851	-12.7471707556485
179812.5	58.1326645435204	14.0700805027726	59.8111515712913	-13.605874062367
153343.8	58.9573388155914	15.3530957632955	60.923602566931	-14.5962316112506
130781.2	59.9186684322165	16.7513251962731	62.2161853742351	-15.6192764023464
111531.3	61.035670432452	18.4078563187728	63.7510959858063	-16.7828791997438
95109.37	62.3632247652177	20.3582114552096	65.6020470471165	-18.0790529717785
81109.37	63.7492184727232	22.403732136077	67.57137019114	-19.3632805737847
69171.88	65.2899731517321	24.5986360866998	69.770147566705	-20.6443912853854
59000	67.0168943305463	27.0563057545076	72.272455380961	-21.9850953372577
50312.5	68.8855715289313	29.7998766242263	75.0550105701586	-23.3932938173964
42906.25	71.0062752670375	32.8129387446258	78.2213530716317	-24.8022829792923
36593.75	73.2213087269213	36.0843403509369	81.6298944642548	-26.2346316304958
31203.13	75.7793147240789	39.6649314180471	85.5325161821478	-27.628769726342
26609.38	78.330541761756	43.6184738561271	89.6562604296423	-29.1113094803989
22703.13	81.1382449684742	47.9822041810445	94.2640266201034	-30.598524570064
19359.37	84.086369319925	52.8520589996844	99.3169554804866	-32.1512058174009
16500	87.2626201698849	58.3209517905088	104.957602376695	-33.7563241621481
14112.02	90.4844013083041	64.326409458957	111.019429984141	-35.4094620997052
12011.13	94.0811764486928	71.398127979759	118.105717223952	-37.1948329668005
10236.38	97.7854047479356	79.331708740915	125.918645932487	-39.0518579357549
8750.684	101.659349707251	88.2514537493007	134.621478493464	-40.9615606443937
7449.463	106.038300667974	98.7644670776695	144.908733917897	-42.965921710366
6363.206	110.647303293591	110.444305014315	156.335441395222	-44.9473931124228
5414.761	115.802841103394	124.325781480257	169.903495986088	-47.0327589514707
4620.567	121.837508184639	140.045117298372	185.626003781143	-48.9771370658708
3941.215	127.768483892495	157.690276797421	202.95568204077	-50.9838930954267
3361.769	135.148181618292	178.164872760269	223.62413304564	-52.8176158708532
2867.244	143.316358289146	201.595394191737	247.346480695773	-54.5905650129501
2442.658	152.879021825221	228.462369183693	274.894615165998	-56.2109469533596
2083.003	163.614176350514	258.9048989205	306.270053037987	-57.7092831538282
1777.843	175.822351452062	293.058623760438	341.755550401884	-59.0380868722956
1513.548	190.474083518662	332.12179065556	382.864545656202	-60.165438629995
1292.065	207.106921234389	376.248690514425	429.483822672062	-61.1693179828438
1101.762	226.301641310704	426.234272620021	482.584798782386	-62.0347134366094
939.101	248.806700505328	483.147280015595	543.448312540223	-62.7528587370263
801.2801	274.865160425621	546.401794507702	611.641870261544	-63.2955070647947
684.3433	304.616960809001	617.706142573597	688.7324381686	-63.750149075231
582.9476	339.98872451568	698.191408139157	776.571680656163	-64.0359404234423
497.0677	380.210606871637	787.945944284827	874.882230184501	-64.2411166098786
423.5089	427.058978714227	889.231242240065	986.464177492648	-64.3470565061983
361.5036	480.651825164049	999.911084255993	1109.43605198836	-64.3266592086917
308.1262	542.679761352548	1125.17772508602	1249.21024507943	-64.2517163290886
262.7298	613.391855065634	1263.73219271861	1404.73080082066	-64.108935246542
224.2111	693.750863304133	1415.83717406791	1576.66900895776	-63.8954511720762
191.2854	784.565763173067	1585.63649778128	1769.12027285863	-63.6740029842582
163.1722	890.239967469262	1770.90351721413	1982.07630200279	-63.3111488126018
139.1537	1007.73751531124	1977.69635436878	2219.64361325174	-62.998829518476
118.6706	1140.95675740549	2206.02302134639	2483.61025384007	-62.6519608693038
101.1982	1290.04208396323	2458.48732406472	2776.39487483015	-62.3126552630273
86.24196	1454.89771100967	2736.68624883648	3099.38364422216	-62.0036591241133
73.61024	1638.62698933654	3038.13362993681	3451.86244852473	-61.6596552639167
62.69291	1846.55633726323	3378.5782188703	3850.26766442436	-61.3412626171625
53.57697	2069.29206747148	3743.79690943341	4277.61440052555	-61.0694514391525
45.65746	2322.22624501094	4154.82060462427	4759.75513967136	-60.798155923158
38.96512	2597.3851298496	4605.07612555766	5287.07250138912	-60.5758482986473
33.18414	2901.74545749794	5110.07932624436	5876.48172128698	-60.4100343127364
28.30617	3222.57654800232	5671.09846368292	6522.75688589735	-60.392788283103
24.17237	3604.09954991594	6279.42959154622	7240.21888901783	-60.1461872480787
20.61345	4012.14289462478	6969.26623560023	8041.63928994365	-60.0713589600346
17.55618	4467.50621428674	7733.13310741535	8930.84315345947	-59.9845558540723
14.98558	4951.8335429053	8587.20482194184	9912.65565278161	-60.0299914072261
12.76553	5508.59558123797	9538.70993814553	11015.062984918	-59.9936085872353
10.8809	6118.31335662751	10600.545241084	12239.498263334	-60.0077606447751
9.278505	6798.25280076968	11780.1270500502	13601.0159347932	-60.0109692084278
7.923394	7529.92909171901	13088.7720904207	15100.191620019	-60.0883185107704
6.75822	8365.82204874413	14560.4049705348	16792.6284856548	-60.1200603726207
5.761429	9317.82466958623	16224.127961258	18709.4677817522	-60.1304309087126
4.919708	10361.1478491131	17999.7197208856	20768.8058101957	-60.0740518616717
4.191257	11478.3419540932	20036.915214411	23091.7800380263	-60.1933416746179
3.564097	12813.1039507289	22350.7424348259	25762.9835275364	-60.1754653914098
3.051758	14173.4898689244	24754.4378769148	28524.9015715486	-60.2061186334493
2.604164	15776.6395620512	27555.4107857022	31752.2128274499	-60.2070353659215
2.214424	17502.2444062697	30688.9408420713	35329.0199307163	-60.3034068670625
1.892567	19467.3257697596	34078.0076790012	39246.4951300879	-60.2624976804902
1.607507	21616.0122642934	38058.0748470813	43768.3566892353	-60.4045339179031
1.376413	23898.1614474634	42168.8688808784	48469.945566936	-60.458678429543
1.17375	26556.4837763833	46909.5048004681	53904.9948630963	-60.4848626007805
1.001604	29390.6662889558	52225.5202795343	59927.591586654	-60.6307376554208
