EC-Lab ASCII FILE
freq/Hz	Re(Z)/Ohm	-Im(Z)/Ohm	|Z|/Ohm	Phase(Z)/deg
6999984	-9.5860897357004	30.9023268185164	32.3550138188704	-107.23420797889
5969734	-4.55675967125009	35.151070299533	35.4451943414653	-97.3862666919607
5091109	-0.331000584916078	37.4523881623703	37.4538508093904	-90.5063613753683
4341796	3.90123359311649	39.3506595093569	39.5435712520935	-84.3381842318874
3702781	7.92976751379102	41.2672702788855	42.0222418380239	-79.1228359017091
3157797	12.5677275159694	43.3562934519038	45.1410672980075	-73.8346646357696
2693047	17.836705297938	45.8000384744974	49.1507027432054	-68.7217038635812
2296687	9.61751253721164	37.1912938118761	38.4146961826424	-75.5011696786871
1958656	14.2863551445283	39.2225763399452	41.7433879561593	-69.986450900553
1670375	19.4974780070183	41.0056280407322	45.4049906909917	-64.5697079053862
1424531	24.9313456396397	41.9900088698063	48.8337264632712	-59.3005015424656
1214875	30.4571424998165	42.6088179382291	52.3750789531365	-54.4424955299544
1036062	36.485982254457	41.9742766840876	55.6153468408216	-49.0013216144033
883578.1	40.1659969455861	42.4681632605653	58.4538467627141	-46.5958327960599
753531.2	45.4730539854129	39.9333633914788	60.5183620937991	-41.2888398665504
642624.9	50.703668917384	39.3182780141356	64.1622087188444	-37.7918721780607
548046.8	54.0414229922966	38.4182426855162	66.3056315110228	-35.4091584320738
467390.6	57.5646113143408	37.5784681932315	68.7446415913331	-33.1367046841818
398593.7	60.6252342480133	36.7856499408556	70.9126439303856	-31.2481727660731
339937.5	63.3721956111375	36.32091145583	73.042753135123	-29.8185915010202
289906.2	66.8557011411546	36.124631151527	75.9912741761135	-28.3840083144157
247234.4	68.0038965841148	38.9176829494957	78.3525111070504	-29.7819050133979
210843.7	67.2755221992848	35.7196061426159	76.1701132345887	-27.9658465267954
179812.5	73.180843761012	41.6391125382759	84.1976934752304	-29.6394104097489
153343.8	71.2023652776469	40.2634180001226	81.7980418481033	-29.4872328193622
130781.2	81.6287033798496	40.4349821289621	91.0946375767803	-26.3516296122615
111531.3	76.9047156950293	47.8949624258502	90.5994631435909	-31.9139554535931
95109.37	80.3793451884953	45.4813340607366	92.354701455181	-29.5026396544732
81109.37	85.701626073222	48.4442886621629	98.4460147267391	-29.4780368467503
69171.88	93.8699774765494	56.3080976051724	109.463119484882	-30.9575227357592
59000	97.8042493118583	61.6892830463417	115.634072946635	-32.2413664560427
50312.5	100.941617556602	64.7885480185282	119.944846113922	-32.6940432212417
42906.25	97.1968245180346	80.1171403988949	125.960227381844	-39.4979857933556
36593.75	100.278223846909	86.8746467064025	132.676020509559	-40.9035658563705
31203.13	110.685155094777	85.4185462054577	139.812487261363	-37.658281338548
26609.38	114.301028129763	96.3132196391748	149.468930914705	-40.118418871391
22703.13	123.729181876906	122.079519333327	173.816913701125	-44.6154843912815
19359.37	141.665495204186	127.142590436544	190.353226487922	-41.9074853162649
16500	145.865897603289	147.31773623817	207.314677468703	-45.2837250677426
14112.02	146.761890140113	153.042063360071	212.039915004243	-46.2000335511835
12011.13	173.390122798611	168.239877906839	241.596339380847	-44.1363025984797
10236.38	182.45179458944	183.057493964513	258.454451394197	-45.0949469334029
8750.684	181.813103919113	226.461151089202	290.414630673712	-51.2409506102122
7449.463	198.325731101761	210.789152469964	289.422118049146	-46.7449393326647
6363.206	235.00110625192	241.994233256292	337.322885184102	-45.8399410360997
5414.761	239.748798903013	294.619537269167	379.842280843162	-50.862775547114
4620.567	-62.8462445747997	357.233930711681	362.719908068021	-99.9776402077784
3941.215	1.51411479598005	372.902613942401	372.905687847063	-89.7673604112085
3361.769	33.872929268859	385.858899905471	387.342827445551	-84.9831055260867
2867.244	82.9453938894299	391.04488373097	399.744968022914	-78.0243612168843
2442.658	124.032498770211	406.390534814911	424.896843408294	-73.0275389897688
2083.003	177.498943022247	418.173397802081	454.285004598822	-67.0005959427877
1777.843	199.590204337185	442.229212243997	485.183394016433	-65.7090344810038
1513.548	264.359570255757	421.620392693982	497.644188071393	-57.911938325966
1292.065	327.294748738745	477.801963255689	579.151593836147	-55.5888236498286
1101.762	408.54972453758	55.9463780505659	412.362552418026	-7.79752587338416
939.101	377.163495072759	484.052557038039	613.644180279226	-52.0750339204739
801.2801	450.52159603763	431.317862052748	623.702498489501	-43.7524724419436
684.3433	548.753439621332	462.141203041475	717.429319894904	-40.1029260926106
582.9476	534.070238911351	464.145145184685	707.574544404573	-40.9929701907228
497.0677	580.257796281321	465.520793081052	743.914456732806	-38.7388682810088
423.5089	639.263642858958	476.2236587357	797.149282268335	-36.6845109178334
361.5036	679.591860469166	476.498306818153	829.997429644519	-35.0363577130939
308.1262	748.883446048315	491.457918284774	895.743993119687	-33.275056802972
262.7298	797.106175441295	558.502694571442	973.295183780445	-35.0175016720562
224.2111	871.321011646942	541.541709586607	1025.89849817584	-31.8616959730992
191.2854	874.143531346337	553.882093207066	1034.84891968349	-32.3595046238207
163.1722	951.630528055897	522.601299463307	1085.68539647942	-28.7740092264054
139.1537	987.12306809419	548.790075970498	1129.41688452378	-29.0718269587364
118.6706	1145.73765684142	650.56309259288	1317.55345840254	-29.5884114364043
101.1982	1120.58849359269	602.817799307084	1272.44169655579	-28.2779194490693
86.24196	1179.54932896752	656.98872858542	1350.17436242732	-29.117056247084
73.61024	1130.53386731161	669.580547238123	1313.9425156293	-30.6369585789614
62.69291	1385.09180313195	827.09145432935	1613.24504553027	-30.843045768292
53.57697	1249.082037189	802.944627797293	1484.89932686925	-32.7340356753418
45.65746	1390.95560195409	788.564695669266	1598.93457210213	-29.5498972134156
38.96512	1576.63272115714	1002.11661165155	1868.15642834623	-32.4402687546223
33.18414	1633.107451763	671.18230500452	1765.65161783264	-22.3419162633313
28.30617	1749.09298239003	667.900006100698	1872.27580211767	-20.8996096056485
24.17237	2064.84116955241	915.386946835732	2258.65055241305	-23.9087037315843
20.61345	1871.31595241752	695.181840284614	1996.27182137949	-20.3797077023468
17.55618	1954.9866350502	682.614990946461	2070.73319601771	-19.2474686146549
14.98558	2267.11861325147	826.314483883393	2413.0110718409	-20.0256770807355
12.76553	1939.28046384293	615.784262869451	2034.6987432641	-17.6163265268529
10.8809	2351.77797350808	352.186831026732	2378.00235505065	-8.51694886968427
9.278505	1486.00999547449	984.673137043474	1782.64042741803	-33.5296047626148
7.923394	2311.21845570804	687.78714400492	2411.38588895761	-16.5722885621434
6.75822	2276.71351862291	529.456886588333	2337.46637208669	-13.0916215229253
5.761429	2512.3339829323	586.879586003672	2579.97087004182	-13.1484761249361
4.919708	2468.54318477648	678.180010582137	2560.00655894855	-15.3618063579485
4.191257	2384.73654068877	635.882255187834	2468.05887509983	-14.9303519494811
3.564097	2573.16989096918	497.840250197416	2620.88691143036	-10.949928203038
3.051758	2598.02932964019	492.296083086482	2644.26016705863	-10.7296660378559
2.604164	2616.73721482377	510.134526354111	2665.99904096423	-11.031483015597
2.214424	2747.5437829339	424.332653024755	2780.11781037455	-8.77943802436756
1.892567	2783.16465828704	476.740434133091	2823.70093258394	-9.72010867325744
1.607507	2743.18816395493	330.244430478164	2762.9952382739	-6.86463599135215
1.376413	2816.8075460275	571.006008134251	2874.10031360823	-11.4593678970007
1.17375	2922.62920081028	433.290178248545	2954.57303582016	-8.43287877240473
1.001604	2627.60271447987	545.079325111253	2683.54383154174	-11.7194219810546
