EC-Lab ASCII FILE
freq/Hz	Re(Z)/Ohm	-Im(Z)/Ohm	|Z|/Ohm	Phase(Z)/deg
6999984	2.23840907408417	1.22939807122125	2.55380007057422	-28.7768453674913
5969734	4.54228439461377	0.802101850940369	4.61256055795842	-10.0143683376807
5091109	6.09423706105711	-3.09829857727819	6.83660584137524	26.9486974714114
4341796	3.78889321083334	-4.97807740074476	6.25595447321228	52.7246649277491
3702781	1.9955589932582	-5.32457315105395	5.68624084404612	69.4548606582306
3157797	1.42020443855423	-6.13840256658036	6.30055288976209	76.9730409585987
2693047	1.56505722333024	-6.9264727234318	7.10108643101482	77.267655856855
2296687	-1.25670825140749	-8.08592483564775	8.18300043241479	98.8341883360358
1958656	0.870043450087904	-10.0520886876181	10.0896710842713	85.0531782644312
1670375	-0.601855722262537	-12.2049108208895	12.2197413416278	92.8231162199798
1424531	-9.05085873240891	-7.42512573701019	11.7068585027937	140.635298308057
1214875	13.5017137081746	3.47653672552011	13.9421153582015	-14.4393500373658
1036062	16.9482344141974	-16.9765832401629	23.988476989354	45.0478784505329
883578.1	15.284467781355	9.01471234404061	17.744858241335	-30.5319182263801
753531.2	11.8584781154314	-2.06581734925437	12.0370720914451	9.88209530109683
642624.9	-5.18782732543659	19.1755499152733	19.8649255450829	-105.138614843199
548046.8	22.0425104269753	10.3454542999291	24.3495521641618	-25.1425912617103
467390.6	15.1940889030192	-15.9344858006904	22.0174516083323	46.3625301114605
398593.7	-0.514913704449719	-44.871962434769	44.874916700428	90.6574503459443
339937.5	-2.82959846069489	-52.5365055195776	52.6126509468719	93.0829525800716
289906.2	-11.4902411263081	-63.8007376003112	64.8271529490881	100.20928704435
247234.4	-13.5014405340277	-72.9457265518852	74.1846878990287	100.486140250957
210843.7	-14.7099229049613	-85.5308266988092	86.7865435862706	99.7584838511408
179812.5	-17.3074057973268	-99.4369639972332	100.931937980108	99.8736483679621
153343.8	-20.1352961146846	-115.065606895539	116.814057543879	99.92567293576
130781.2	-23.6148237779259	-133.248521848087	135.324899692417	100.049832889965
111531.3	-27.4799345512218	-154.178222629386	156.608017470677	100.105982753888
95109.37	-32.7183531289652	-178.385399205377	181.36107984111	100.393321088146
81109.37	-38.7651982291535	-205.298049774162	208.925895558257	100.69292071922
69171.88	-45.9871881687991	-237.047432201131	241.466988610912	100.978998546328
59000	-55.0305866044436	-274.892603143152	280.346765140687	101.320366800667
50312.5	-67.1931925907866	-315.913808347506	322.980586777545	102.007572380147
42906.25	-80.1055697676555	-361.051764248787	369.831419399383	102.509426112902
36593.75	-96.0791181488538	-415.673419327396	426.632849742716	103.014832183987
31203.13	-219.603947585803	-481.798989157956	529.486694590994	114.503495413053
26609.38	-243.802909243456	-550.581283943295	602.145836807181	113.884242628076
22703.13	-277.251898659485	-627.450960840667	685.97618294673	113.839208145378
19359.37	-312.027989104482	-716.344897742335	781.352339540916	113.537144795785
16500	-360.618481416821	-814.963129158412	891.184936490201	113.869231133843
14112.02	-415.601580826304	-922.743399072443	1012.01781333981	114.246695729275
12011.13	-487.471423578234	-1045.79984784086	1153.83088472677	114.991311679827
10236.38	32.0237245984201	-7.40186445932059	32.8680168952983	13.0146159952597
8750.684	12.986560046284	-2.19798820391235	13.1712525592776	9.60633071430036
7449.463	0.856725469934072	2.50295107639539	2.64551367822255	-71.1046353335303
6363.206	1.42695775493055	-4.18785214941363	4.42428684193337	71.1841045797149
5414.761	2.95315659091966	2.32903093198721	3.76105290213332	-38.2613652545468
4620.567	7.74794196711102	2.75079422406293	8.22176827628085	-19.5466671752722
3941.215	10.081312368702	3.40421331209181	10.6405604809882	-18.6585711336636
3361.769	7.06383286046591	1.24064222387999	7.17195425307997	-9.96143276698859
2867.244	12.1584395450013	3.84556282397934	12.7520980863003	-17.5515135410677
2442.658	28.9635728103178	3.59732206915288	29.1861144383386	-7.07997071949617
2083.003	10.1701851235458	-13.4998357393587	16.9020185314317	53.0072305235738
1777.843	17.8491426394073	8.10765646126774	19.6042338859708	-24.4290811898559
1513.548	50.7508773193958	14.8149556849362	52.8690312057539	-16.2733306438001
1292.065	31.2153634795825	-2.45705804687378	31.3119154860919	4.50064879794126
1101.762	6.98330076036569	1.18967565969651	7.0839125972162	-9.66809556461546
939.101	7.82185616481686	6.68056733454403	10.286467507092	-40.5003009714236
801.2801	7.35973411679779	-1.23145427480249	7.46204837165283	9.49891831644718
684.3433	5.32120664123927	4.08775246536156	6.71006410825101	-37.5314800489076
582.9476	1014.43718288514	-838.255950135919	1315.96194320284	39.5678121598482
497.0677	-348.823896504368	-8603.40434027154	8610.47294595226	92.3217781492403
423.5089	-6882.76623552512	-3891.11598604593	7906.53240490082	150.518705682504
361.5036	-6400.29499289793	-3864.67907489232	7476.5981801903	148.875233542951
308.1262	-6628.39730576673	-3986.27641672575	7734.73015131359	148.977563805161
262.7298	-6496.50923348934	-4107.43464437984	7686.06866861492	147.696773949926
224.2111	-7513.59325162919	-4154.30183066546	8585.58718150355	151.061583193391
191.2854	-7880.63060601936	-4430.65767109687	9040.74477833428	150.654382088391
163.1722	4393.27524168231	-1625.4862709102	4684.34338686825	20.3041804057926
139.1537	-8435.93953661522	-2448.44584747033	8784.07439252551	163.815165346767
118.6706	-9389.94374317472	-4447.68909161871	10390.0424328147	154.654716118215
101.1982	5064.91676799214	4894.81526464824	7043.62111003434	-44.021544881693
86.24196	-8792.25535271981	-1711.92879741245	8957.36872049154	168.981869560139
73.61024	-8521.81518308733	-1255.84092425248	8613.85340261401	171.616787868386
62.69291	-9902.9856959322	-2090.38739654896	10121.2076928343	168.080606948398
53.57697	-9881.77818565038	-1820.4741059869	10048.0677784818	169.561702848811
45.65746	-85.2661341923781	-5956.56403128272	5957.1742774919	90.8201130639819
38.96512	-8907.46592990128	-926.972455286616	8955.56962036542	174.058791287013
33.18414	-9784.36639172941	-1268.09389790755	9866.1992591633	172.61539600952
28.30617	7090.58838005866	2615.32390673245	7557.53681516333	-20.2462142656593
24.17237	-8229.64146300866	-440.530192244224	8241.42375199516	176.935898855263
20.61345	-9447.07125869224	-839.280453503299	9484.27894183009	174.923155416748
17.55618	11602.0172527605	2081.1587063165	11787.1975420041	-10.1695081198683
14.98558	-9863.64578837353	-732.848318222882	9890.83287170606	175.750850247594
12.76553	-10986.3460243378	-1078.79811768859	11039.1849493163	174.391851653323
10.8809	1252.11257654425	2256.99772183718	2581.05106898691	-60.979840839994
9.278505	-4683.01031502473	13121.3044007911	13931.9494252903	-109.641547450911
7.923394	39086.6082338209	-30944.2168638329	49852.8584991885	38.368072914312
6.75822	113342.489161493	7420.53412835383	113585.140648208	-3.74580956145072
5.761429	38881.7545503466	88509.3787514972	96673.1656867064	-66.2843414030947
4.919708	84348.095915414	234922.405920033	249605.965649487	-70.2494958242975
4.191257	176868.208831467	-156844.473847962	236394.907457617	41.5662030055952
3.564097	275176.975793239	-25309.4558107846	276338.445678756	5.2550056039683
3.051758	207718.151507971	398590.87676361	449468.038357647	-62.4745731359313
2.604164	235027.44613212	388526.466167732	454082.278170126	-58.829415643309
2.214424	413041.717127397	-125083.768785291	431566.228174866	16.8481849292328
1.892567	527142.236158451	17689.5322774212	527438.960159682	-1.92197718348383
1.607507	241275.341102458	311452.706494155	393975.352790807	-52.235868903145
1.376413	13918.6932859549	-14391.2567514695	20020.9463731164	45.9563202234466
1.17375	-12314.5464968715	-20187.342519008	23646.9205902874	121.383744504322
1.001604	18852.0871636946	16936.1182357449	25342.3221375364	-41.9355201411807
