EC-Lab ASCII FILE
freq/Hz	Re(Z)/Ohm	-Im(Z)/Ohm	|Z|/Ohm	Phase(Z)/deg
6999984	18.2671580164835	-1.11634563790699	18.3012373784521	3.49712009526317
5969734	17.4693521113637	-12.3248631431269	21.3794414026095	35.2034837723556
5091109	12.393609387511	-4.40493743659514	13.1531375523302	19.566233683976
4341796	9.82336986218752	-5.73359570769473	11.3742127283003	30.2707812520933
3702781	6.30317290316316	-5.74674917269873	8.52966087843379	42.356157106476
3157797	4.3086349418948	-4.95544919578326	6.56664387602265	48.9938846222225
2693047	2.79131161970931	-4.4060480219705	5.21581055352228	57.6449972892146
2296687	2.56147367662249	-3.57062081703241	4.39436917145739	54.3452932400105
1958656	1.89491115067076	-3.20203973265385	3.72071857554832	59.3836950143186
1670375	1.54184670053153	-2.72622759171452	3.13202939477993	60.5092133070735
1424531	1.22171366429713	-2.40830372262262	2.70046497809698	63.101675442702
1214875	1.30107516251285	-1.92686232676	2.32499354940929	55.9715995640216
1036062	0.935601192522931	-1.84409410208923	2.06785701846395	63.0990398368444
883578.1	0.834668618771346	-1.5977782400004	1.80265554318634	62.4177357226543
753531.2	0.789725105839409	-1.3852095981797	1.59451289542676	60.3120012339895
642624.9	0.745515091488067	-1.17136567240693	1.38848489013377	57.5253064058117
548046.8	0.693940109427696	-1.03008525355706	1.24202596795246	56.0329346959904
467390.6	0.6593437787693	-0.896292045551905	1.11268757947656	53.6604998128481
398593.7	0.630118432154092	-0.778115679674888	1.00125583618586	50.9994317108307
339937.5	0.606293561797497	-0.678052092020643	0.909585907196602	48.1978858166031
289906.2	0.587122142462332	-0.589602843150584	0.832072065881802	45.1207873299633
247234.4	0.567692399926448	-0.511504209864977	0.764140836262429	42.0195959680382
210843.7	0.55215895214919	-0.443775537941836	0.708389890183406	38.7891797049993
179812.5	0.539433462667698	-0.382132454040772	0.661070096946523	35.3136005310018
153343.8	0.529054909139185	-0.332300403900582	0.624758077432186	32.1330086778275
130781.2	0.520447430057582	-0.290069065387137	0.595823455520264	29.1329157188533
111531.3	0.511545395480633	-0.252695280751289	0.570555515748827	26.2886386322648
95109.37	0.504244598098369	-0.220159626156078	0.55021166445339	23.5866957211428
81109.37	0.495546770856283	-0.195656530789823	0.532773948449807	21.5455736830349
69171.88	0.488765955340485	-0.166539832849266	0.516360024619798	18.8157907526475
59000	0.477542300895598	-0.140637652341194	0.497820849704695	16.4098607568018
50312.5	0.472237543841406	-0.105156102215849	0.483803786308658	12.5535969645636
42906.25	0.499807195617464	-0.114258438280829	0.512700910384766	12.8768311046866
36593.75	0.483936568653308	-0.102869957547303	0.494749260379156	12.0006869626844
31203.13	0.477541614494366	-0.0915346267142903	0.486235109244088	10.8507778565907
26609.38	0.472275380754157	-0.0795642541536582	0.478930585581577	9.56282602891608
22703.13	0.468853814755845	-0.0710405536656299	0.474205292965218	8.61589868090337
19359.37	0.465373567402762	-0.0630608453255156	0.469626689457	7.71691071160925
16500	0.461950356586256	-0.0562786826250503	0.465365901273589	6.94602464615048
14112.02	0.458644461677436	-0.0504990158291922	0.461416181800229	6.28323852789905
12011.13	0.456007273632171	-0.0454754276694595	0.458269187407539	5.69500510499224
10236.38	0.453612701505126	-0.0423708126791995	0.455587278942109	5.33636962158144
8750.684	0.447771284485851	-0.0373916947076916	0.449329792071728	4.77347984082666
7449.463	0.446151355189199	-0.03691650295987	0.447676065842194	4.73012641630029
6363.206	0.449400362217734	-0.0296275843022625	0.450375931098696	3.7718762763402
5414.761	0.440410146154385	-0.0263237091252466	0.441196140619836	3.42055058847968
4620.567	0.437946925747285	-0.0247901836842397	0.438647994385699	3.23979615510299
3941.215	0.43892476150243	-0.0236552080602163	0.439561730736807	3.08488784786465
3361.769	0.435988511539862	-0.0224161235370535	0.43656438790764	2.9432412217524
2867.244	0.434105430679303	-0.0210598024366436	0.434615968671117	2.77741864147462
2442.658	0.432010795489023	-0.0192859343197216	0.432441064980701	2.55611541197872
2083.003	0.429839922817736	-0.0182209113262317	0.430225941637084	2.42731449963331
1777.843	0.427877400387536	-0.0172642989082869	0.428225554794655	2.31055716014155
1513.548	0.425899135484902	-0.0167321730960779	0.426227684721797	2.24980529920824
1292.065	0.424054676572898	-0.0159423725328499	0.424354248199922	2.1530258521171
1101.762	0.427233629630282	-0.0176389147801195	0.427597597750134	2.36419059342816
939.101	0.419170715236893	-0.0136650581778627	0.41939339804915	1.8671938239024
801.2801	0.415340531393356	-0.0174177027868995	0.415705584985923	2.4013463334846
684.3433	0.420545127352531	-0.0142859085637396	0.42078770338907	1.94558820126338
582.9476	0.415944613772026	-0.0172758762435621	0.416303227979249	2.37836041265954
497.0677	0.417342145852148	-0.0104769370219412	0.417473631399442	1.43804843534941
423.5089	0.413652437405799	-0.0172696089836441	0.414012775607476	2.39065780581643
361.5036	0.413561861497271	-0.011415315163747	0.41371937675842	1.5811016728487
308.1262	0.407984002962486	-0.00895548731170033	0.408082280215992	1.25747391072039
262.7298	0.406258044606384	-0.0157267566018575	0.406562331851608	2.21688429021562
224.2111	0.408134575738353	-0.0141335423180038	0.408379221963582	1.98333809855336
191.2854	0.400033308927863	-0.00962817205790785	0.400149159625447	1.37875303313132
163.1722	0.401065307408813	-0.0138045567432104	0.401302811594688	1.97132661133624
139.1537	0.403082322244929	-0.0105328857701401	0.403219915417147	1.49684708315912
118.6706	0.398871482864266	-0.0145612918522637	0.399137183262529	2.09072414034796
101.1982	0.397963820433127	-0.0155959808864306	0.39826930209789	2.24424130605973
86.24196	0.4079450534565	-0.0115308010629476	0.40810798327499	1.61906700226966
73.61024	0.409455485745753	-0.0225371809406024	0.410075260570593	3.15048578582917
62.69291	0.27491927208841	0.0918545947271337	0.289858366686399	-18.4752360983776
53.57697	0.372036884573297	-0.0320203402968052	0.373412299845262	4.91919045657976
45.65746	0.410925278791879	-0.0336189989048119	0.412298219542051	4.67711865292597
38.96512	0.389779024674565	0.00555650484573127	0.389818628111018	-0.816726126816003
33.18414	0.409996300143337	-0.0204809673723394	0.410507534834297	2.8597778867779
28.30617	0.403113403165107	0.0246490612130754	0.403866304648011	-3.49909221599401
24.17237	0.371199384042711	-0.0152151741225949	0.371511082253637	2.34719551930899
20.61345	0.37628792456395	-0.0322079908785027	0.377663814587888	4.8922511269683
17.55618	0.376432219152878	-0.014000419507854	0.376692483815056	2.1299860732593
14.98558	0.390112550504778	0.00351851347251092	0.390128417317169	-0.516749604104458
12.76553	0.380688626721416	-0.00672245298495735	0.380747976868128	1.01166183857998
10.8809	0.378208190152614	-0.00234242758114868	0.378215443980661	0.35485613920256
9.278505	0.36706206887141	0.00201708767109302	0.367067611002159	-0.314849876819566
7.923394	0.380999640175103	0.00388268456310963	0.381019423458929	-0.5838686304235
6.75822	0.462290379585452	-0.0110813359135111	0.462423173146512	1.37314606814817
5.761429	0.38756279803997	-0.0172711293276565	0.387947437590227	2.55160852596222
4.919708	0.370437821898187	-0.021876268024471	0.371083213033615	3.37968666557315
4.191257	0.376986646765767	-0.0108103733775034	0.377141612676536	1.6425491045453
3.564097	0.346927422750442	0.00360665557788091	0.346946169629701	-0.595625151421789
3.051758	0.369608649189654	-0.0200334634545423	0.370151176161558	3.10249999752917
2.604164	0.425274294520124	-0.0269244796350029	0.426125748087586	3.62260988451051
2.214424	0.456358254300156	-0.094592530236768	0.466058583275193	11.7102661154884
1.892567	0.375521263284806	0.00651638723891022	0.375577798174578	-0.994148810614009
1.607507	0.348407293207683	0.0226653642162356	0.349143753625006	-3.72208738985892
1.376413	0.380903348064362	-0.000779906408584113	0.380904146499676	0.117313967989729
1.17375	0.381211219447267	0.0159766659842749	0.381545865772971	-2.39987726969788
1.001604	0.396475789937417	-0.00243974456755756	0.396483296445201	0.352569579233752
