EC-Lab ASCII FILE
freq/Hz	Re(Z)/Ohm	-Im(Z)/Ohm	|Z|/Ohm	Phase(Z)/deg
6999984	17.9347630942721	-4.05732743793382	18.3879752334583	12.7472796176296
5969734	9.46908968711083	-3.2238918899408	10.0028565130454	18.8019022556935
5091109	11.5837810839838	-5.86138478994705	12.9822885446859	26.8393771241005
4341796	8.96935023838555	-5.10166750335836	10.3187332077949	29.6307415583086
3702781	4.99711350552018	-5.65853946039274	7.54918619533748	48.5519508156821
3157797	3.66184454488579	-5.39955026361094	6.52412818085074	55.8558277119375
2693047	3.19219882326155	-3.97578081188363	5.09872203511571	51.2386301311419
2296687	2.7336307164301	-3.6969330764393	4.59783112624649	53.5195923022916
1958656	1.63970194632233	-3.2131822752239	3.60737616649363	62.9645666423272
1670375	1.45951682339751	-2.9005790205538	3.24708300051866	63.2893191206073
1424531	1.11954179153095	-2.44585785189971	2.6899060308278	65.4050230749074
1214875	0.655115005595589	-1.74204563731642	1.86115519853925	69.3906893851759
1036062	0.740238719696527	-1.81474390603459	1.95991040780634	67.8093258706149
883578.1	0.680820607329798	-1.57255749611354	1.71360840857759	66.590358161474
753531.2	0.628863834641774	-1.35172123079322	1.49084540053538	65.050648678619
642624.9	0.575289499432369	-1.13375590657365	1.27136165737676	63.0958885689712
548046.8	0.527358864487578	-1.0142283879833	1.14313892197966	62.5273425488628
467390.6	0.496186891674102	-0.880897715205937	1.01103027458343	60.6085641887492
398593.7	0.466457293181332	-0.76011958122104	0.891831925935433	58.4640977531336
339937.5	0.440621777473415	-0.664559931280934	0.797362811427741	56.4545113120697
289906.2	0.419638824312699	-0.574952771609045	0.711805754719268	53.8755423325166
247234.4	0.402798790527698	-0.4977367807375	0.640303653393846	51.0181158645299
210843.7	0.389674037964299	-0.43066391256346	0.580790204331882	47.8605225372521
179812.5	0.37905227964398	-0.370326076178073	0.529926441499899	44.3328443109435
153343.8	0.370896491203382	-0.321524560679854	0.490858686698477	40.9215223536699
130781.2	0.364559593959088	-0.279888447870885	0.459609878918185	37.5150361601873
111531.3	0.358202105311518	-0.243626225670975	0.433200284030711	34.2210387706228
95109.37	0.351923232085912	-0.212610536970369	0.411160797879155	31.137809635575
81109.37	0.344039113491289	-0.184801465744327	0.390531040191588	28.2425794122656
69171.88	0.339889444778655	-0.16163684623529	0.376365918665377	25.4337569540399
59000	0.328778499244769	-0.137176205497049	0.356247965496241	22.6473543343376
50312.5	0.322223260937741	-0.106488178876146	0.339363466109288	18.2876611754077
42906.25	0.352628582298698	-0.105798531947018	0.368157909620497	16.7007285110779
36593.75	0.336832530689648	-0.0971957309188668	0.350575475239848	16.0959199921158
31203.13	0.329224829966973	-0.0854359653309263	0.340129817626755	14.5477250043148
26609.38	0.324203282974768	-0.0733891661638555	0.332405984305102	12.7549515225064
22703.13	0.323663593934077	-0.0657779192556449	0.330279967148971	11.4877293078596
19359.37	0.321060552083025	-0.0593365793536845	0.326497638204709	10.4709297567307
16500	0.31924022325167	-0.0528816426376089	0.323590463811633	9.40554911415266
14112.02	0.318159030247943	-0.0473682274895795	0.321665847586927	8.46812140638322
12011.13	0.316145266743537	-0.0427754697774165	0.319025971511758	7.70550885148615
10236.38	0.313218790963274	-0.0388879944304185	0.315623647915228	7.07739813899603
8750.684	0.311291143596589	-0.0355247262122155	0.313311637597656	6.51046213029203
7449.463	0.309506848927301	-0.0324779240795353	0.311206209908195	5.99037688049588
6363.206	0.307051196994515	-0.0301911180060134	0.308531912745209	5.61561435402553
5414.761	0.306099159057614	-0.0280742293985814	0.3073838927662	5.24028631821139
4620.567	0.304832704664704	-0.0272693789811558	0.306049990791074	5.11189392477391
3941.215	0.303236595953168	-0.0240928434485748	0.304192206065018	4.54273827757157
3361.769	0.300653769668657	-0.0242320881289543	0.3016287176498	4.60796379296927
2867.244	0.29876427273631	-0.0235194940641541	0.299688600491728	4.50118852418427
2442.658	0.296455138405933	-0.020692612128473	0.297176434604058	3.99277786242171
2083.003	0.300113413119702	-0.022446759024158	0.300951686695797	4.27743074349404
1777.843	0.292673848127702	-0.0200342440602763	0.293358743372247	3.9159281792764
1513.548	0.294782312743701	-0.0217064540070118	0.295580415542173	4.21140480605655
1292.065	0.298162676920389	-0.0165246882440981	0.298620239149822	3.17218541640416
1101.762	0.282201330440726	-0.0176041903948469	0.282749886687818	3.56958092169777
939.101	0.299779459769809	-0.0126733320185482	0.30004722602339	2.42076731090835
801.2801	0.290939442835776	-0.023423522278524	0.291880833206848	4.60295270409305
684.3433	0.278352775527805	-0.011167735041183	0.278576714658606	2.29752007847115
582.9476	0.27950344962844	-0.0101944385258881	0.27968930070894	2.08884541173773
497.0677	0.279942934776751	-0.0219609362249994	0.280803008266113	4.485547349335
423.5089	0.274226696623567	-0.0103499588196591	0.274421942979497	2.1614511964945
361.5036	0.284021225418639	-0.0156382169453674	0.284451419960484	3.15152513126954
308.1262	0.279607558588561	-0.00913870763810925	0.279756863717676	1.87199177247882
262.7298	0.274596818048131	-0.0209073476113648	0.275391593310872	4.35400540689768
224.2111	0.284074579063792	-0.00678453309971607	0.28415558477646	1.36813096856739
191.2854	0.285038592843033	-0.012173584624529	0.285298432474746	2.44553341160288
163.1722	0.269967177973049	-0.0130741371160516	0.270283573759231	2.77258918021946
139.1537	0.317994200997845	0.0828788705072331	0.328617131392769	-14.6080288122523
118.6706	0.299399673248649	-0.017293816289716	0.29989871694167	3.30582495732945
101.1982	0.244817639058253	0.0460054577981735	0.249102746956505	-10.6427483403346
86.24196	0.289343293584029	-0.0284391789423422	0.290737559391573	5.61349784793032
73.61024	0.297858028474913	-0.034951456153129	0.299901666241097	6.69263406125388
62.69291	0.22885770184703	-0.0352044193534083	0.231549560217062	8.74507201581561
53.57697	0.281601933764432	-0.00141996782078661	0.281605513810507	0.288909499123916
45.65746	0.268068433877508	-0.0132791959110561	0.268397135390048	2.83591935123086
38.96512	0.287838806695793	-0.0183633106523427	0.288423975803282	3.65036338714886
33.18414	0.276627073806025	-0.0138871186705418	0.276975432173061	2.87392650657086
28.30617	0.293755986295493	-0.0255416698611832	0.294864301643545	4.969289886186
24.17237	0.288428304755753	-0.00524781955359882	0.288476041629708	1.04235518766514
20.61345	0.28120578704505	0.00113973245199625	0.281208096714316	-0.232219622479184
17.55618	0.279703718905062	-0.00131859575268283	0.27970682698869	0.270105138879281
14.98558	0.278670475172997	-0.011726532049882	0.278917093931263	2.40960093643905
12.76553	0.276900915932021	-0.0119246528101965	0.277157562748404	2.46590148826199
10.8809	0.277063752533836	-0.00826789352845398	0.277187086696925	1.70926316429474
9.278505	0.272671606342041	-0.00862269552531203	0.272807910045275	1.81126111098393
7.923394	0.272701743934741	-0.00905323927163734	0.272851978710727	1.90142518737249
6.75822	0.278802640280316	-0.0120772158465349	0.279064099034396	2.480396747521
5.761429	0.26611051163433	-0.0112334128312104	0.26634750602572	2.41721096187398
4.919708	0.269179821420517	-0.0105230970508882	0.269385433591951	2.23873460869072
4.191257	0.276362023298926	-0.00876666869609869	0.276501035082878	1.81690932892833
3.564097	0.265960002480453	-0.00272580513662293	0.265973970405085	0.58719980704439
3.051758	0.275828206142832	-0.00810965468350741	0.275947396804279	1.6840742207474
2.604164	0.27324544514284	-0.00336262434851662	0.273266134992644	0.705060090291776
2.214424	0.258406284760734	-0.00499274890590298	0.258454513494121	1.10689200779308
1.892567	0.271522567430058	0.00128435938245111	0.271525605059327	-0.271019178449853
1.607507	0.283424244939707	-0.00768331888458913	0.283528368966362	1.55284511326623
1.376413	0.258482177762675	0.00681850552394095	0.25857209485657	-1.51105586352057
1.17375	0.289843744280528	-0.00773461412460827	0.289946926788702	1.52860155008086
1.001604	0.259163350794144	0.000453806375913891	0.259163748111257	-0.100327316350147
