EC-Lab ASCII FILE
freq/Hz	Re(Z)/Ohm	-Im(Z)/Ohm	|Z|/Ohm	Phase(Z)/deg
6999984	24.3367601195739	-0.307802442485333	24.3387065281062	0.724617431670772
5969734	16.2493697268842	-2.52468622234552	16.44433206434	8.83150842878904
5091109	11.8045841220182	-5.63064329286624	13.0786983368111	25.500575292108
4341796	9.6095211533561	-6.04549195142791	11.3530114829317	32.174605413754
3702781	5.23247491822797	-5.19036471392791	7.37012073398209	44.768515688783
3157797	4.45032705221234	-4.76973857422142	6.52348196426332	46.9841091050862
2693047	3.23091120112997	-4.8248084734781	5.80668270145125	56.1919362137171
2296687	2.23359246085496	-3.45249318172855	4.11201221436297	57.0991289386375
1958656	1.88308884970457	-3.13782827222819	3.65950678123108	59.030982195636
1670375	1.32076503773349	-2.8164318075676	3.11074081395054	64.8757819595451
1424531	1.1639494369537	-2.35316045981027	2.62528902054599	63.6815087313744
1214875	0.989884667658539	-2.31121461478099	2.51427616837186	66.8147284340473
1036062	0.861811892372554	-1.86207610313667	2.05183994300419	65.1642089136139
883578.1	0.705651915729583	-1.5497271946318	1.70282089602935	65.5183541267843
753531.2	0.653341916505538	-1.36991716182485	1.51773801761878	64.5025572517968
642624.9	0.671932306131096	-1.20107620670289	1.37625472872229	60.7755240902504
548046.8	0.581693507511003	-0.977099284815781	1.13714130567312	59.2335227762148
467390.6	0.591022071079527	-0.849860637984018	1.03516674622871	55.1839315647435
398593.7	0.544303553082506	-0.78652112787829	0.956494559575316	55.3152420322316
339937.5	0.515873719461044	-0.686060061962613	0.858372939374673	53.0591519589685
289906.2	0.470421212115131	-0.548519670640216	0.722613275471134	49.3829630721619
247234.4	0.488861899996333	-0.518113947974356	0.712339820839463	46.6639402891671
210843.7	0.466637539569702	-0.398804956482716	0.613837101070672	40.518372060282
179812.5	0.420004297192314	-0.355124311767928	0.550015351120907	40.2153690599051
153343.8	0.447515369303827	-0.299157574881776	0.538298486318034	33.7621568725025
130781.2	0.440026071438831	-0.259019445562938	0.510601622329604	30.4830105489877
111531.3	0.406010760407249	-0.252148807063828	0.477936981693386	31.8419231995893
95109.37	0.400590699287967	-0.199100206405832	0.447340810285477	26.4281366666453
81109.37	0.414493749675429	-0.19878328626107	0.459695402866667	25.6214865756145
69171.88	0.416592590392185	-0.170975868868805	0.450313373224817	22.3139845708187
59000	0.380086847104545	-0.134008410034382	0.403018939135393	19.4212810913858
50312.5	0.397492768637407	-0.115409163439126	0.413907931942298	16.1902746818179
42906.25	0.418589840324633	-0.085502059974867	0.427233023867476	11.5445495324028
36593.75	0.421086481829314	-0.0882814606609202	0.430241143401947	11.8406598505043
31203.13	0.386387736671895	-0.0914375022177035	0.397059567146092	13.3139463361699
26609.38	0.398478275537016	-0.0874452909191108	0.407960310543663	12.3772520143782
22703.13	0.403725986826695	-0.0523437698632439	0.407105075726998	7.38728809207049
19359.37	0.406275541076925	-0.0653016431767498	0.411490121240998	9.13118827395427
16500	0.381591669029051	-0.0644991242110734	0.38700431379556	9.59382877521061
14112.02	0.377265110632536	-0.0401882087000276	0.379399599128803	6.08050887124791
12011.13	0.384154383623461	-0.0310407848627871	0.385406435833678	4.61962806776254
10236.38	0.372083829025326	-0.0456348794349729	0.374871868834129	6.99222223317188
8750.684	0.37431559614141	-0.0487616329727889	0.377478293898963	7.42205517107903
7449.463	0.387403630954152	-0.0270760613094913	0.388348665985215	3.99796313046764
6363.206	0.381696906604822	-0.043234277536918	0.38413764624914	6.46227065014358
5414.761	0.38714626339004	-0.0357351261478653	0.388792011874825	5.27368288217397
4620.567	0.370648082000574	-0.0425376945474913	0.373081031611257	6.54694808268596
3941.215	0.375591768203462	-0.0427422561531429	0.378015974269956	6.49231655692024
3361.769	0.382959574219456	-0.0260024785068703	0.383841327080407	3.88435018335556
2867.244	0.351999345774487	-0.0199508039638856	0.35256428350653	3.24396957968272
2442.658	0.364125037172544	-0.0224211649520315	0.364814680808918	3.52356496229743
2083.003	0.357955751260479	-0.0228577989644835	0.358684818237341	3.6537467029291
1777.843	0.35943336174949	-0.0283711348983206	0.360551331760068	4.51316735280707
1513.548	0.359468655953417	-0.0225893207555165	0.360177722832981	3.59578801124705
1292.065	0.357390549856709	-0.0209996941446574	0.35800697239167	3.36274143878216
1101.762	0.353544481637578	-0.0181798870431258	0.354011594145283	2.94365833502726
939.101	0.352120967014404	-0.0178274945319485	0.352571971336982	2.89834711371493
801.2801	0.349950760174142	-0.0184616415011591	0.350437393486165	3.01983765755226
684.3433	0.348213239482204	-0.0186345158526816	0.348711492973424	3.06324264828019
582.9476	0.347032793917882	-0.0187536148534919	0.347539146175685	3.09324902096899
497.0677	0.346019506893	-0.017767072103336	0.346475349774844	2.93938636170676
423.5089	0.343282779440835	-0.0183062868452437	0.343770543820562	3.05252833751125
361.5036	0.34151731153398	-0.0197324287678245	0.342086893672463	3.30679955853897
308.1262	0.330482939470733	-0.0148037202582586	0.33081433375037	2.56480431694188
262.7298	0.339356531910143	-0.0180143503654575	0.339834331063195	3.03862838140137
224.2111	0.334537994298074	-0.0177670079101869	0.335009456880039	3.04007051617172
191.2854	0.332973354751076	-0.0150261371349761	0.333312225655443	2.58384198560069
163.1722	0.331244154330942	-0.0156719310341553	0.331614684838835	2.70877657874456
139.1537	0.33100890255298	-0.016197762858125	0.331404980486016	2.80150693309751
118.6706	0.328499013306771	-0.0179013523471734	0.328986413335535	3.11921317641314
101.1982	0.327879691992413	-0.019357601093571	0.32845061902992	3.37874816070473
86.24196	0.320927141600799	-0.0182306145096267	0.32144452946264	3.25125473804781
73.61024	0.333012506848708	-0.00336415682754416	0.333029499097034	0.578793370274231
62.69291	0.256414723032354	0.0203962400438608	0.257224642668011	-4.54795677716962
53.57697	0.31702410880358	-0.0122375762691922	0.317260214706554	2.21060008911862
45.65746	0.317885630778855	0.00628442246214339	0.317947744482255	-1.13255822518376
38.96512	0.301666438466284	-0.0180078709796473	0.302203447224137	3.41619725515227
33.18414	0.309811510065666	-0.0072391986407962	0.309896075751419	1.33855603309833
28.30617	0.297093965743101	-0.0303709007513688	0.298642287851892	5.83687575760238
24.17237	0.301319726400991	-0.00904487420283169	0.30145544823027	1.71936154543392
20.61345	0.303306452020893	0.000732373068365169	0.303307336224848	-0.138347878902556
17.55618	0.323280248304498	-0.0118007410151157	0.323495558597523	2.09054709638927
14.98558	0.303661685159628	-0.0153831301395147	0.304051080785572	2.90005510090221
12.76553	0.302073927528657	-0.00577981439775491	0.302129217301241	1.09615076800776
10.8809	0.299535610095579	-0.0224094343786643	0.300372709253857	4.27855144894131
9.278505	0.298000178156915	-0.013583435031337	0.298309597379641	2.60984796696389
7.923394	0.304455440147359	-0.0134264957072019	0.304751350812917	2.52510980089522
6.75822	0.308692797769296	-0.00480553418558805	0.308730200261401	0.891872406436386
5.761429	0.300315920144683	0.00041119701924847	0.300316201653085	-0.0784501834502255
4.919708	0.31277024333252	-0.00524100592472944	0.31281415130615	0.959999953066417
4.191257	0.30395253068075	0.00594512113412225	0.304010666544007	-1.12052668444381
3.564097	0.29491391139898	0.00427459574426633	0.294944888590093	-0.830408931921522
3.051758	0.293531687901409	0.00993754336991022	0.293699857968095	-1.93901351056425
2.604164	0.307089860290481	0.00211068395596775	0.307097113760435	-0.39379801788954
2.214424	0.297809104125677	-0.00255136442212274	0.297820032839553	0.490847442693743
1.892567	0.317621952957177	0.0188479554684648	0.318180688329246	-3.39599762808494
1.607507	0.286939513083106	0.0116169091639789	0.28717457538385	-2.31838605545422
1.376413	0.336319273306266	-0.000861571146305591	0.336320376876119	0.146778036125434
1.17375	0.273936087853821	0.0139452526958844	0.274290813374069	-2.91423809816288
1.001604	0.270366939305083	0.0496437139382663	0.274886849817853	-10.404529677853
