EC-Lab ASCII FILE
freq/Hz	Re(Z)/Ohm	-Im(Z)/Ohm	|Z|/Ohm	Phase(Z)/deg
6999984	-0.0724146465487598	-0.00266850291698399	0.0724637974619034	177.889587105258
5969734	-0.0445566866991389	0.0104151069060664	0.0457577619805647	-166.843361885592
5091109	-0.028637740135813	0.0143044840901341	0.0320115358140039	-153.457979171525
4341796	-0.020252109015078	0.014572528867414	0.0249500805038825	-144.262865996368
3702781	-0.0160753521082563	0.0139387278995633	0.0212768672708762	-139.071868372483
3157797	-0.0126690954851881	0.0129431179542134	0.0181116063006431	-134.387021664817
2693047	-0.0100126423938189	0.011278425891902	0.0150816411012073	-131.597691230781
2296687	-0.00865248410408222	0.00971439817370351	0.013009035823175	-131.691026055608
1958656	-0.00757126841881937	0.00893580973091771	0.0117120792781203	-130.274445202927
1670375	-0.00611992802310106	0.00861571440966516	0.0105680676472499	-125.387000618902
1424531	-0.00579693941380385	0.00740406474863642	0.00940343986896885	-128.058817409156
1214875	-0.00524403647375839	0.00721513923638531	0.00891953769757912	-126.010034925327
1036062	-0.00423302059725799	0.00641477446644357	0.00768555754855474	-123.420265691336
883578.1	-0.00392369272613681	0.00687751317505743	0.00791805229095057	-119.705207347707
753531.2	-0.00313544874237764	0.00571917521904079	0.00652226985045604	-118.733069856709
642624.9	-0.00212209956607112	0.00518256300960358	0.00560020231034831	-112.267584913335
548046.8	-0.00158581496661551	0.0041178229684848	0.00441262678096876	-111.062196303938
467390.6	-0.0011677209665466	0.00424500507637391	0.00440268558429429	-105.380574920082
398593.7	-0.00147346700466469	0.00379753080146952	0.0040733702510262	-111.206581668311
339937.5	-0.00124788064192844	0.00343199587176671	0.00365182170434476	-109.981368719204
289906.2	-0.000867775746511712	0.00315617204517417	0.00327329447574961	-105.373355651864
247234.4	-0.00042519432822062	0.00239760208393134	0.00243501251939757	-100.056364608829
210843.7	-0.000416119368156848	0.0022819374859286	0.00231956763605664	-100.334535618365
179812.5	-0.000303514320733105	0.00210117265214455	0.00212298079525234	-98.2195192134194
153343.8	-0.000341327459896045	0.00166950854624045	0.00170404319805836	-101.554763834655
130781.2	-6.50799246032247E-05	0.00132092414765272	0.00132252637041324	-92.8205952056812
111531.3	6.76483349981712E-06	0.00123753415668708	0.00123755264612843	-89.6868025452132
95109.37	0.00141880566160145	-3.45453494958812E-05	0.00141922615765217	1.39477293308318
81109.37	-0.000372956830301541	0.000890833902740432	0.000965754544146867	-112.717127599394
69171.88	-0.000286456515544552	0.000680933448417244	0.000738733846842911	-112.815619044377
59000	0.00712287354996756	-0.000740954815578058	0.00716130865467728	5.93881640851206
50312.5	5.75881068207532E-05	0.000605100690548633	0.000607834875397612	-84.5634712369328
42906.25	2.76816461110223E-05	0.000406849527139066	0.000407790155919313	-86.1076497905899
36593.75	0.000166983229833553	0.000346376126243582	0.000384525447632735	-64.2619149778419
31203.13	0.000647935363001162	-0.0010930787312217	0.00127068538485209	59.3421555741716
26609.38	-0.000438083129062166	0.00101373062968324	0.0011043399012654	-113.371559992993
22703.13	0.000527826245677733	-0.000727200909709843	0.000898566474285055	54.0266255735146
19359.37	0.00102415980848427	-0.000275799006231233	0.00106064527772138	15.071809499521
16500	0.00434499757738898	-0.00212372429822304	0.00483623912171214	26.0482083526941
14112.02	0.000118441993620428	5.80135841150615E-05	0.000131886624775436	-26.0958841708269
12011.13	0.000938399968936247	0.000458170762018784	0.00104427723755161	-26.0237946210436
10236.38	4.42514691454759E-05	-7.41998802779785E-06	4.48692405091246E-05	9.51867963080125
8750.684	0.000100954726584619	0.000125035986496111	0.000160704246175485	-51.0824074587215
7449.463	0.000108681059100584	7.98066499485356E-05	0.000134835729623986	-36.2905737857912
6363.206	0.00119910980304827	6.16636083015909E-05	0.00120069426597916	-2.94381303363194
5414.761	0.000492162622836654	-0.000823622530891659	0.000959467623586036	59.1392139231362
4620.567	0.000765528333627448	0.000258470996363402	0.000807985696375565	-18.6566058884263
3941.215	0.000789522092961599	0.00070404251039704	0.00105783788536837	-41.7244253007206
3361.769	0.000106616147270534	0.000935800135706687	0.0009418539678992	-83.5002907522881
2867.244	1.14393673333213E-05	-4.53150947496763E-05	4.67366765737445E-05	75.8322246927138
2442.658	0.000843717428084188	0.000551397461329392	0.00100791778375694	-33.1659541796232
2083.003	0.000615581363634103	0.00049906908919305	0.000792471053756289	-39.0326523904622
1777.843	0.000450576937240442	-3.92047468173145E-05	0.000452279325799872	4.97278779352527
1513.548	0.000207086254803237	-0.00065723434013098	0.00068908758135366	72.5110175374584
1292.065	0.000143172066587103	-0.000215059902819862	0.000258358283110316	56.3470588071709
1101.762	0.00045373465074995	-0.000661608027460863	0.000802247041310738	55.5574427513893
939.101	0.000991271709007472	-0.000601213871743485	0.00115934365942778	31.237131869361
801.2801	0.00573387084148263	0.00344172942588744	0.00668750897328925	-30.9740926751944
684.3433	0.000138223949688705	-0.000222767919145074	0.000262166752407265	58.181056602339
582.9476	0.000232659482844272	3.99175403517486E-05	0.000236058986240935	-9.73548686047875
497.0677	0.000496261676039345	-0.000602155765073299	0.000780299440289682	50.5066421703946
423.5089	-0.000623483988660142	-0.0010614266134555	0.00123099908199282	120.430056254327
361.5036	0.000316839682291269	-0.000469813613350183	0.00056666764118272	56.0044930710401
308.1262	0.00105356540747902	0.00161556868022976	0.00192874628408605	-56.8903087406241
262.7298	0.00127899661067246	-0.00237344281677984	0.0026961200148798	61.6807401107775
224.2111	0.00235794001490347	0.00283903096998397	0.00369052543175238	-50.2888781011992
191.2854	0.000891848667332771	-0.00561272106866518	0.00568313574007002	80.9713123403601
163.1722	0.00287905023571225	-0.000935811972389165	0.00302732130891678	18.0063331684205
139.1537	0.00452202012012119	0.000337773989681314	0.00453461765035224	-4.27179684949452
118.6706	0.00681869054804708	-0.00359888853384709	0.00771015820000359	27.8249848528625
101.1982	0.00812837126384357	-0.00594434155424927	0.0100700355469309	36.1782969762574
86.24196	0.00976821116410548	0.00225159412212065	0.010024351621792	-12.9800895585251
73.61024	0.0072214759909179	0.00598381947170585	0.00937847594001124	-39.6456370171608
62.69291	0.0108886075153577	0.00868366641948641	0.0139272336129046	-38.5723667457438
53.57697	0.0127345044516046	0.00617473313167416	0.014152559234122	-25.8679157233003
45.65746	0.0142734316588526	0.0161754122922033	0.0215725476970778	-48.574324817582
38.96512	0.0023795788602411	0.0148152817046365	0.0150051646955255	-80.8752846138962
33.18414	0.015456746114699	0.0175759394009118	0.0234056541519092	-48.6707478849246
28.30617	0.00555680676326256	0.0137084900423926	0.0147919167333587	-67.9345744446305
24.17237	0.0288267835426506	0.0175946110198335	0.0337720859046947	-31.3980699844353
20.61345	0.0487226137522023	0.017187411272873	0.051665270705854	-19.4308265682527
17.55618	0.0445844256777662	-0.00270949589393678	0.0446666808820122	3.47771630657327
14.98558	0.0585698350857402	0.0289880859411949	0.0653508585139087	-26.3322808275199
12.76553	0.0424247531456856	-0.0225743239983882	0.0480568390913985	28.0175616973839
10.8809	0.0789588326209866	-0.0681891139902094	0.104327621058082	40.8140010938357
9.278505	0.0302642161242902	-0.0632147844725263	0.0700858884050542	64.4171292445428
7.923394	0.0251707252624515	-0.0483416798759007	0.0545021414575783	62.4947412503199
6.75822	0.300229612850651	-0.0472646827179032	0.303927245677113	8.94655835405131
5.761429	0.0569600543597375	0.128945932762996	0.140966312886389	-66.1672288297699
4.919708	0.152527057355305	-0.0720453804402039	0.168686217777986	25.2834701243771
4.191257	-0.0142620917745582	0.171858523043004	0.172449294589188	-94.7439572281559
3.564097	0.234437787542273	0.0381981006673349	0.237529305817846	-9.2541622055232
3.051758	0.0232431404015238	-0.249999278176375	0.251077443559618	84.6883187404919
2.604164	0.0476575892107043	0.384798358902588	0.387738343246449	-82.9398234370911
2.214424	0.223272248153264	-0.347774112570286	0.41327633632893	57.2993891471916
1.892567	0.280014000347611	0.159850093939944	0.322428120552908	-29.7205183152276
1.607507	0.210322876658706	0.0137660455661988	0.210772902567014	-3.74477995629287
1.376413	0.178378531775612	-0.227662668650345	0.289221699212593	51.9205473101727
1.17375	0.192122904921584	-0.196765652419357	0.275005331889262	45.683993383421
1.001604	0.333695780727281	-0.13738032183862	0.360868711450123	22.3766375057163
