EC-Lab ASCII FILE
freq/Hz	Re(Z)/Ohm	-Im(Z)/Ohm	|Z|/Ohm	Phase(Z)/deg
6999984	5.01893548843356	6.41605991094424	8.14589087932583	-51.9658568126117
5969734	4.24575868074006	3.4984763834415	5.50143651972623	-39.488291347462
5091109	3.03901859277555	1.65693474404906	3.46136775758838	-28.6001165355832
4341796	2.14164214072677	0.75216045027799	2.26988466709195	-19.3516495305436
3702781	1.4238792115015	0.30075745266877	1.45529620843385	-11.9269301057172
3157797	1.10790421663236	0.202254201620961	1.12621424041126	-10.3457442080726
2693047	0.917516832411617	0.171336276356734	0.933377339211981	-10.5775342840928
2296687	0.800344208365749	0.173996518306409	0.81903946195977	-12.265364816145
1958656	0.73659418890017	0.17336116036008	0.756719955494034	-13.2438277612018
1670375	0.697949512179315	0.167347652829502	0.717731675808507	-13.4832954716767
1424531	0.671201238782873	0.155175858934497	0.68890539999315	-13.0175724574825
1214875	0.654217557229037	0.13616113569495	0.668236834558277	-11.7570252011491
1036062	0.643060652699895	0.115603380353205	0.653369072270722	-10.1912404090376
883578.1	0.630724299824535	0.0984760835286441	0.638365633016292	-8.87404481549956
753531.2	0.620805945500717	0.0842800780489569	0.626500721088953	-7.73116017197415
642624.9	0.611691590207292	0.0724739422651476	0.615970026736511	-6.75697149206912
548046.8	0.604884440129265	0.0612301753583959	0.607975591849635	-5.78014720630648
467390.6	0.598790613842628	0.0518828482933005	0.601034133118126	-4.95208568247161
398593.7	0.593740965773577	0.0435945679391764	0.595339248489081	-4.19932399094621
339937.5	0.590174385967394	0.0372866279579874	0.591351078866411	-3.61508522978706
289906.2	0.587930920907695	0.0323056053706492	0.588817815540371	-3.14512347382454
247234.4	0.58670060654744	0.0280650499908344	0.587371474242767	-2.73867810015685
210843.7	0.585812097649502	0.0248028813039709	0.586336931016194	-2.42441590614775
179812.5	0.586100424183342	0.0222472141886949	0.586522502353534	-2.17379098852824
153343.8	0.586180856374416	0.0194579417105883	0.586503715142076	-1.90120287974798
130781.2	0.5864406222534	0.0183854620415352	0.586728752187445	-1.79568811811227
111531.3	0.587226247194103	0.0164016752500022	0.587455258164123	-1.59989869923355
95109.37	0.587868726370852	0.0145146289353592	0.588047884017975	-1.41436006826752
81109.37	0.588367622800908	0.0128742491647407	0.588508458606967	-1.25350617798911
69171.88	0.58861026253125	0.0112354090263918	0.588717483665211	-1.09353063201063
59000	0.589133630083545	0.00987287725234828	0.589216350588352	-0.960089907440252
50312.5	0.58927689434111	0.00868585735517542	0.589340905013642	-0.844470462129623
42906.25	0.589702959933779	0.00768710730438435	0.589753060673168	-0.746840172712716
36593.75	0.589948020235527	0.00656789126256884	0.5899845792692	-0.63784755726057
31203.13	0.59016881364466	0.00588735051040639	0.59019817815271	-0.571546886560314
26609.38	0.59029186138846	0.00518859425115486	0.590314664506783	-0.503610020284503
22703.13	0.590634792539558	0.00454854955449377	0.590652306743397	-0.441232964565303
19359.37	0.590828282038329	0.00386397397384611	0.590840916957546	-0.374704886916159
16500	0.59086754093113	0.00352608526818933	0.590878062042685	-0.341916574948885
14112.02	0.5909656717187	0.00295443102237238	0.590973056756905	-0.286437988378839
12011.13	0.591061636969665	0.00267067048418696	0.591067670557353	-0.258885192856132
10236.38	0.591150307416747	0.00224204819541673	0.591154559095187	-0.217303926790102
8750.684	0.591191514790603	0.00195166448061416	0.591194736237268	-0.189146374314634
7449.463	0.591299764402841	0.00161819991382866	0.591301978648656	-0.156799984694744
6363.206	0.591283796732146	0.00139935021927489	0.591285452602225	-0.135597681485928
5414.761	0.591249539237495	0.00120432080828945	0.591250765781457	-0.116706059769095
4620.567	0.591296367349485	0.00094553868789929	0.591297123351795	-0.0916212799489134
3941.215	0.59127420574907	0.000950418524515667	0.591274969603453	-0.0920975797640056
3361.769	0.591238719714486	0.000817603853310242	0.591239285032452	-0.0792323281363586
2867.244	0.591174284409236	0.000735535285982204	0.591174741983222	-0.0712870077997204
2442.658	0.591269468131194	0.000583184520284887	0.591269755736186	-0.0565123055648645
2083.003	0.591218339947324	0.000485464623227984	0.59121853926105	-0.0470470313301474
1777.843	0.591272558727687	0.000386738191309589	0.591272685206086	-0.0374758859540461
1513.548	0.591260023591777	0.000354672216024273	0.591260129968299	-0.0343693431663144
1292.065	0.591220447116005	0.000319771956362296	0.591220533593137	-0.0309894250257921
1101.762	0.591324298519645	0.000270433021255458	0.591324360358821	-0.0262033366757257
939.101	0.591179463360261	0.000232183913516539	0.591179508955018	-0.0225027397868466
801.2801	0.591135104428562	0.000140007396426314	0.591135121008588	-0.013570218898776
684.3433	0.591164272150516	0.000109711222706604	0.591164282330894	-0.0106332372409354
582.9476	0.591132974848371	0.000143151542312577	0.591132992181496	-0.0138750152570517
497.0677	0.591164089960152	2.90239990914354E-05	0.591164090672639	-0.00281301364449712
423.5089	0.591133196675019	6.30130256046377E-05	0.591133200033519	-0.00610755820875604
361.5036	0.591222246928992	2.82832978135153E-05	0.59122224760551	-0.0027409550344347
308.1262	0.591169011852454	5.2854630248455E-05	0.59116901421524	-0.00512264204005277
262.7298	0.591201179295634	1.77319324480018E-05	0.591201179561551	-0.00171847575268265
224.2111	0.591202152205123	9.36847907131465E-05	0.591202159627999	-0.00907936997096264
191.2854	0.591090233295933	9.75671871736495E-05	0.591090241348304	-0.00945741898334586
163.1722	0.591111670725195	8.31428125941467E-05	0.591111676572421	-0.00805893786741259
139.1537	0.591128315661253	-4.8910944133717E-05	0.59112831768474	0.00474074848086422
118.6706	0.591159108442531	-2.85551131327733E-05	0.591159109132188	0.00276759241528812
101.1982	0.591077728652056	4.87244464642173E-05	0.591077730660313	-0.0047230761706312
86.24196	0.591189341248476	4.20913569038892E-05	0.591189342746882	-0.00407933115878535
73.61024	0.591159502308817	1.40485331445272E-05	0.591159502475744	-0.00136159810378731
62.69291	0.591146514744742	5.87932571311901E-05	0.591146517668422	-0.00569842738190256
53.57697	0.591142802519907	1.93214729501034E-05	0.591142802835668	-0.00187270968859612
45.65746	0.591128167697196	2.2990174443516E-05	0.591128168144264	-0.00222834917569618
38.96512	0.591166979455215	0.000107329795067862	0.591166989198389	-0.0104023810861213
33.18414	0.591176261577581	4.91272203911929E-05	0.591176263618837	-0.00476132511416075
28.30617	0.591182574240697	4.68831310449156E-06	0.591182574259287	-0.000454378335258989
24.17237	0.591185296773394	2.0923963101909E-05	0.591185297143678	-0.00202788327529361
20.61345	0.591113964368618	-1.16463105728264E-05	0.591113964483347	0.0011288592096584
17.55618	0.591185243304601	3.97548192837755E-05	0.591185244641276	-0.00385290969730555
14.98558	0.591242252000042	5.66953785528744E-05	0.591242254718358	-0.00549420459723731
12.76553	0.591206869147597	-9.75759150893857E-06	0.591206869228119	0.000945639911847053
10.8809	0.591257316588927	3.7384378330067E-05	0.591257317770808	-0.00362273249747867
9.278505	0.591183945009404	-6.93196876185289E-05	0.591183949073468	0.00671825673385213
7.923394	0.591203415753488	4.78679375077436E-05	0.591203417691348	-0.00463906451504676
6.75822	0.59124609757256	3.83395838368091E-05	0.591246098815633	-0.00371536716787983
5.761429	0.591131023403883	2.9413473841564E-05	0.59113102413566	-0.00285092110518077
4.919708	0.591207024616686	-2.55691894805025E-05	0.591207025169608	0.00247799261661263
4.191257	0.591145804372303	-2.4535914515167E-05	0.591145804881493	0.00237810086277835
3.564097	0.591224413380732	-1.31514619043962E-05	0.591224413527006	0.00127451310258978
3.051758	0.591256887315912	6.93555562734234E-06	0.59125688735659	-0.000672090379886563
2.604164	0.591281637741066	-5.13139985123985E-06	0.591281637763332	0.000497237755574396
2.214424	0.591313880660829	-7.33097349061601E-06	0.591313880706273	0.000710339896373907
1.892567	0.591353577293183	3.85430542282161E-06	0.591353577305743	-0.000373440598245424
1.607507	0.591412694759484	1.05470824897773E-05	0.591412694853531	-0.00102179631606025
1.376413	0.59144771191275	-8.17870456621016E-06	0.591447711969299	0.000792302081925166
1.17375	0.591482631418288	9.10992085260379E-06	0.591482631488443	-0.000882460428735772
1.001604	0.591457672020911	-5.20343463110065E-06	0.5914576720438	0.000504067928154371
