EC-Lab ASCII FILE
freq/Hz	Re(Z)/Ohm	-Im(Z)/Ohm	|Z|/Ohm	Phase(Z)/deg
6999984	27.2033099663625	83.230116207038	87.5629620157007	-71.9003018236285
5969734	23.4942503292466	81.8657005404584	85.1702572704422	-73.9873005923925
5091109	20.8710233694726	85.8685245344492	88.3685641063177	-76.3387193836094
4341796	20.3816212865889	93.2241990315727	95.4262111337771	-77.6674658062973
3702781	24.0610007587233	102.752885033119	105.53239853306	-76.820863368212
3157797	27.9778337246826	113.478616256125	116.876668019459	-76.1501016774523
2693047	32.4335098462088	126.173025070294	130.274958515953	-75.583904784304
2296687	38.4155160349981	142.630182173948	147.712967403708	-74.9258627565963
1958656	46.9405641753239	160.822870328882	167.533316644535	-73.7286674436704
1670375	57.7489376351236	181.813415702024	190.764404245714	-72.3787215825627
1424531	71.570246950794	204.754629359251	216.902647500306	-70.7333586822855
1214875	88.3284874326255	229.979022882906	246.358017239772	-68.9896189285844
1036062	108.683491206995	256.836238492281	278.885199793401	-67.0637358918111
883578.1	133.146539951499	285.314634393355	314.8530477859	-64.9831542503526
753531.2	162.399648969672	315.143332103071	354.526396414286	-62.7370451018807
642624.9	196.865478978947	346.143732387229	398.210371894771	-60.3714169573446
548046.8	237.294961126297	376.698272582834	445.208363738623	-57.7917890763271
467390.6	282.408368869309	405.761423216753	494.36506690735	-55.1622336530419
398593.7	401.429698733792	437.658187335193	593.877505860451	-47.4722691465376
339937.5	458.200960881316	452.043912947031	643.655047199215	-44.6124477149673
289906.2	516.602818738594	462.021154716622	693.067110555926	-41.8076989866649
247234.4	577.800319247394	467.900831564017	743.494718946066	-39.0004407032199
210843.7	639.180538178924	468.214562760653	792.323568479348	-36.223640856164
179812.5	701.543348157328	463.392845401168	840.771073784526	-33.4460961639745
153343.8	762.37703413379	453.158272577084	886.888472232941	-30.7273254824095
130781.2	820.584793140707	437.676183292111	930.010668839302	-28.0741699275428
111531.3	875.549157213797	416.900126161299	969.738130575001	-25.4618490747351
95109.37	925.62539389883	392.970621275447	1005.58852370936	-23.0034590631673
81109.37	970.668943757491	365.876960445022	1037.33511873443	-20.6530715959817
69171.88	1009.58326953903	338.301010367739	1064.75628748975	-18.5254730378547
59000	1042.21620396578	309.656016358459	1087.24489618293	-16.5473706276332
50312.5	1074.8320310646	283.367288623328	1111.55787760431	-14.7693221611596
42906.25	1095.7040559167	249.613117958445	1123.77670682803	-12.8335727911542
36593.75	1113.42624092325	226.513865175562	1136.23348176915	-11.4992457595418
31203.13	1128.48598077922	204.32625674426	1146.83469951444	-10.2629174292085
26609.38	1140.48953667646	184.481891437992	1155.31378920925	-9.18839238022013
22703.13	1150.71547570975	168.011052256888	1162.91608455571	-8.30681659832004
19359.37	1159.2106908742	154.199315738826	1169.42158985174	-7.57705744339577
16500	1165.08602551011	143.468820163959	1173.88617386789	-7.02006798201524
14112.02	1171.35600110222	134.917408861325	1179.10033013821	-6.57040497481862
12011.13	1176.87657897249	128.608978387931	1183.88291289974	-6.23653100843999
10236.38	1181.35421363017	124.597895165515	1187.90673604514	-6.02074937321577
8750.684	1186.25829712156	122.970429079332	1192.61497303937	-5.91828160113457
7449.463	1189.6347484821	123.633798983942	1196.04186843407	-5.93321288127568
6363.206	1193.56000186804	126.675536138192	1200.26337506196	-6.05826664964093
5414.761	1197.67252663572	132.816936895636	1205.01444795668	-6.32800945001057
4620.567	1203.13878573132	141.1628068007	1211.39171028817	-6.69184910907455
3941.215	1208.03794240802	150.757778007755	1217.40855012902	-7.11348302093337
3361.769	1210.40972676933	162.142541471698	1221.22148294759	-7.62973518308009
2867.244	1218.15480875194	179.475995922058	1231.30531193433	-8.38133548915476
2442.658	1224.82277924418	199.184181591284	1240.91304238115	-9.23674428855122
2083.003	1231.75117629411	221.952081302206	1251.58846538961	-10.2146457349687
1777.843	1239.49914777823	247.974262036817	1264.06066783824	-11.3132407409305
1513.548	1249.49705363395	278.85492608356	1280.23550835031	-12.5807494344748
1292.065	1259.1216428602	315.044022932163	1297.93684280255	-14.0475328491656
1101.762	1269.76719405109	354.985775630964	1318.45501553474	-15.6192706727685
939.101	1282.54267797295	403.755475621238	1344.5944388239	-17.4744507176226
801.2801	1296.36893154621	457.577818295602	1374.75447497886	-19.4414434761965
684.3433	1310.04333937282	520.40009228823	1409.62044788258	-21.6648978734488
582.9476	1328.92642896271	594.888736940469	1456.00070842503	-24.1154899294249
497.0677	1345.7821810916	677.221153385687	1506.57166093642	-26.7123409217641
423.5089	1369.0431530651	774.624586702953	1572.99790377456	-29.5018145952482
361.5036	1391.67995218575	886.167721389533	1649.86857650798	-32.4874002628498
308.1262	1419.70070677191	1013.68587190973	1744.45095767065	-35.5273596252093
262.7298	1449.43344610983	1161.16941787177	1857.19458638627	-38.6988987452205
224.2111	1484.71037410885	1330.63335771579	1993.72767138655	-41.867464214275
191.2854	1525.99195614116	1527.15195732255	2158.89892096912	-45.0217687638088
163.1722	1570.88377557833	1753.24435574794	2354.04791950742	-48.1400801046524
139.1537	1624.68602964512	2013.21884032111	2587.01658169171	-51.0961527162267
118.6706	1688.32509618936	2312.59408476902	2863.30805735804	-53.868431926279
101.1982	1758.68041578576	2658.53494630686	3187.59546768457	-56.5144713453301
86.24196	1843.02930969194	3058.34280843856	3570.74470808422	-58.9258444402295
73.61024	1940.41008153393	3511.1107948402	4011.61941093144	-61.0728318901437
62.69291	2056.75688516564	4041.01295998961	4534.31743788194	-63.0252428728315
53.57697	2192.33685980762	4635.38047653862	5127.67911136671	-64.6878518027422
45.65746	2352.65954000876	5327.23794361698	5823.61322712169	-66.1723854499261
38.96512	2539.63933307359	6114.89410502395	6621.30635582972	-67.4458987411634
33.18414	2763.8023487796	7030.44952165282	7554.1924717092	-68.5392741016116
28.30617	3010.36578541531	8079.29006261624	8621.90408656281	-69.5644674844391
24.17237	3327.53635202767	9242.11988995297	9822.89561353117	-70.199075538326
20.61345	3685.56629413807	10588.4101424923	11211.5042815012	-70.8082442661091
17.55618	4117.40382295863	12147.4330205268	12826.267704578	-71.2757778269359
14.98558	4634.52671376397	13898.587015049	14650.9234820021	-71.55887627351
12.76553	5226.98509683314	15918.0059379084	16754.2318905345	-71.821405535239
10.8809	5941.23698404941	18199.3146283973	19144.5383815863	-71.9205272337966
9.278505	6760.06406550259	20784.1154406351	21855.8440884662	-71.9828077461273
7.923394	7756.03708864857	23677.9186070449	24915.8572174898	-71.863059566945
6.75822	8868.72165513019	27017.7613260369	28436.1328395207	-71.8273070005288
5.761429	10229.5277006967	30730.8042553663	32388.664176853	-71.5886700788568
4.919708	11718.4245505901	35005.063973243	36914.4413166271	-71.4913245494641
4.191257	13731.2870834633	39771.4465456281	42075.1257312469	-70.9525150389231
3.564097	15846.1872430287	45205.4349267935	47902.3276789519	-70.6825373258574
3.051758	18385.1599593353	51040.7793747167	54251.0393071769	-70.1907103545171
2.604164	21283.0361761615	57755.0764517942	61551.7382762534	-69.7709041780248
2.214424	24788.581996441	65319.98220999	69865.398254842	-69.2185155677391
1.892567	28747.8646475614	73585.4402104443	79001.6248741719	-68.6607411541793
1.607507	33392.5144946969	83056.1160565496	89517.4756049207	-68.0975236415657
1.376413	38543.4226366023	92973.3519227015	100646.110686336	-67.4828545189493
1.17375	44553.3688023922	104354.056623593	113467.051629281	-66.8802175100307
1.001604	51318.425457792	116709.567866583	127493.937201232	-66.2644024718241
