EC-Lab ASCII FILE
freq/Hz	Re(Z)/Ohm	-Im(Z)/Ohm	|Z|/Ohm	Phase(Z)/deg
6999984	41.4629837630951	69.0200225578625	80.5167220919141	-59.0051417990756
5969734	40.0663747996767	65.566559124985	76.8393653349526	-58.5717565228387
5091109	41.0169464604455	65.7110053868767	77.4617720291318	-58.0275039132439
4341796	45.2668764887599	67.0865494649528	80.9301873602317	-55.9903582022342
3702781	52.9448343785533	67.2389713970029	85.5817431576351	-51.7826478280407
3157797	60.2370883645101	66.8505826894367	89.9861501596274	-47.978918536038
2693047	67.815337965098	66.0701273218207	94.6793630504666	-44.2531859886864
2296687	76.0861260775181	64.8069155265777	99.9451593702914	-40.4229402099251
1958656	84.2293616439627	62.2364792726381	104.728051233674	-36.4604328537357
1670375	92.1687726137216	58.8947102057428	109.378560675017	-32.5780765635072
1424531	99.1489277801388	54.6092771923292	113.19312273906	-28.8451075592031
1214875	105.09793801225	49.9162089694017	116.349492875147	-25.4053554361352
1036062	110.135541635895	45.2552257727729	119.070873815457	-22.3379972320126
883578.1	114.230481257907	40.6022108790986	121.231771317109	-19.5673051150528
753531.2	117.549812674881	36.2157817195782	123.002200409016	-17.1234796906372
642624.9	120.211845366812	32.2129361003402	124.453047446412	-15.0010091047767
548046.8	122.330910373058	28.4258601620825	125.590131613337	-13.0815890319325
467390.6	123.937909663615	25.1946135500174	126.47281922896	-11.49074879544
398593.7	125.236977168502	22.4145169059371	127.227005853437	-10.1471799545921
339937.5	126.259913948478	19.9140518934738	127.820715586688	-8.96300797234952
289906.2	127.027769565494	17.8923530733744	128.281684348494	-8.017587503338
247234.4	127.742651756967	16.1250993007039	128.756374231955	-7.19445914611921
210843.7	128.251373519496	14.7960643933071	129.102046192801	-6.58098750529468
179812.5	128.820459279809	13.683752070664	129.545188254109	-6.06341754021916
153343.8	129.129280650744	12.883941107313	129.770439853748	-5.69785843481199
130781.2	129.458422983756	12.3537832403972	130.046527219268	-5.45103795695215
111531.3	129.843657898978	12.0490887255781	130.401518532967	-5.30168734032658
95109.37	130.179567275167	12.0248625867042	130.733764025131	-5.27751253207663
81109.37	129.929215009864	12.6071363984692	130.539422402771	-5.54210616074143
69171.88	130.877190254277	12.6279991728827	131.485000254647	-5.51125983192497
59000	131.278811767111	13.2821890872596	131.949016540231	-5.77726522859697
50312.5	131.737307627204	14.2289339241445	132.503512336399	-6.16461334599516
42906.25	132.140212512109	15.3379119298607	133.027393062908	-6.62086536783579
36593.75	132.649417515933	16.8330595532734	133.713200026177	-7.23211393241521
31203.13	133.268367288137	18.6282300860718	134.563994722903	-7.95723785877687
26609.38	133.869716674566	20.6694947021603	135.456004125956	-8.77716338192089
22703.13	134.586365941056	23.1612519665858	136.564759326407	-9.76450717280213
19359.37	135.41088157011	26.0201957033691	137.888206283337	-10.8772198588359
16500	136.294107484292	29.333684092149	139.415023427741	-12.1461151102445
14112.02	137.259358414449	33.1483235015639	141.205321512011	-13.577042826116
12011.13	138.479126644926	37.6575328025722	143.508042607786	-15.2129404636176
10236.38	139.682168583769	42.7149958352458	146.067378594502	-17.0037028635651
8750.684	141.057677348648	48.55860535903	149.181790086489	-18.9958427397673
7449.463	142.679572191105	55.3926004762003	153.054893773942	-21.2177444213949
6363.206	144.459521581688	63.0990159818404	157.638952018486	-23.5954046796288
5414.761	146.460306238511	72.2009723622662	163.289931451805	-26.2420514339427
4620.567	148.635456232663	82.503648450544	169.998090745581	-29.0335075413981
3941.215	151.230165777424	94.5224466285195	178.339720639314	-32.0063620867918
3361.769	154.094713498186	108.197681212566	188.286799717516	-35.0746312938087
2867.244	157.381627426521	123.930616640153	200.319181288834	-38.2187658424788
2442.658	161.125452875139	142.218254664127	214.912641610328	-41.4334085774178
2083.003	165.406963703782	163.242622594586	232.395390387294	-44.6226807411883
1777.843	170.378756273237	187.289760844458	253.192367788583	-47.7069984960468
1513.548	176.073329371801	215.533036892457	278.309732686724	-50.7539135660392
1292.065	182.918888522409	247.185465575699	307.506055501592	-53.4983126497804
1101.762	190.885726863151	283.859887178699	342.072793816137	-56.0805646774996
939.101	199.68251274147	326.244183660102	382.502775502079	-58.5306754489278
801.2801	210.155155542501	374.760868347553	429.663703197867	-60.7175407613831
684.3433	222.436597347528	430.100006836954	484.214885893334	-62.6531640806736
582.9476	236.84266213889	494.746372210718	548.514739478077	-64.4188481179282
497.0677	253.701523147605	568.118377354804	622.19205518527	-65.9361549509937
423.5089	274.146125466606	652.905639337517	708.125604668468	-67.2231327504165
361.5036	297.82614075396	748.794430430095	805.849557398606	-68.3102628708978
308.1262	324.682340007923	860.169808950261	919.407810572952	-69.3203301679339
262.7298	357.362363911	986.595918782521	1049.32328960068	-70.0887238669838
224.2111	395.15536567941	1129.89398398053	1196.99965666688	-70.7238475828864
191.2854	439.816694544171	1295.26204502038	1367.89710507411	-71.2446662186603
163.1722	493.354464690007	1482.0749271913	1562.03223962845	-71.5883835999592
139.1537	555.434848249587	1696.16245638547	1784.78988934317	-71.8681588913216
118.6706	630.249998694922	1938.13997497913	2038.03867074868	-71.9863600844571
101.1982	717.018600283744	2213.80434304558	2327.02499824139	-72.0536253296055
86.24196	820.99059598174	2527.91846583324	2657.89340053192	-72.007788705995
73.61024	940.026364947692	2879.55615555172	3029.10766064407	-71.9208137126942
62.69291	1085.46179012387	3286.23265896528	3460.86006458929	-71.7213098084296
53.57697	1246.47009774581	3727.20872742658	3930.11101654639	-71.5087997622156
45.65746	1441.96738496063	4231.79169367194	4470.71927970444	-71.1836462134788
38.96512	1664.33399333517	4797.37993599871	5077.87966494815	-70.8670297358895
33.18414	1925.20425560886	5436.4514902395	5767.27112519792	-70.4994773103131
28.30617	2226.39314047291	6141.55682883622	6532.6523478423	-70.0737696685309
24.17237	2558.48153290336	6928.93974799409	7386.20564197477	-69.7335473297822
20.61345	2943.6893431204	7811.35631843563	8347.61010603423	-69.3512125930914
17.55618	3383.86341071055	8805.57380140665	9433.38017649903	-68.9789046178154
14.98558	3872.10026921279	9901.41825431585	10631.6153025651	-68.6412605891448
12.76553	4418.78217088076	11148.5096135557	11992.2851232464	-68.3787886231954
10.8809	5031.02640626938	12526.5723286384	13499.1200085483	-68.1182074179699
9.278505	5707.62044883459	14074.3576854193	15187.642195057	-67.925808190365
7.923394	6453.17509388171	15811.7467688461	17077.903989495	-67.7983823767279
6.75822	7274.92893217239	17802.3279740848	19231.4188833024	-67.772599275947
5.761429	8220.06085126011	20037.619163432	21658.1527868181	-67.6950207904863
4.919708	9288.38725489481	22527.031264623	24366.806836231	-67.5925759367169
4.191257	10458.2382032248	25343.1136320268	27416.2024153823	-67.57573097754
3.564097	11818.7498544249	28643.8970037102	30986.3790024041	-67.5784811749567
3.051758	13293.5481345002	32127.1492655794	34768.8386624732	-67.5212426912231
2.604164	14977.6408352125	36228.4485558127	39202.4260696936	-67.5387179039746
2.214424	16910.1377639332	40869.0370670418	44229.2996777298	-67.5219875363568
1.892567	19119.1693206681	45995.5437444123	49810.9694731645	-67.4285954157505
1.607507	21594.834107135	52017.2064246069	56321.6354905897	-67.4543212207518
1.376413	24342.9205310364	58312.0781955391	63189.2098657913	-67.341448535111
1.17375	27537.0035790788	65826.8138392587	71354.4391495205	-67.2992215456099
1.001604	31077.0860618027	74149.9566699687	80399.0133785914	-67.2608906691157
