EC-Lab ASCII FILE
freq/Hz	Re(Z)/Ohm	-Im(Z)/Ohm	|Z|/Ohm	Phase(Z)/deg
6999984	-13.2288481769368	32.4788069620878	35.0695783517425	-112.161415833897
5969734	-10.3947331444929	37.8377336640679	39.239579074936	-105.361266242387
5091109	-8.38237514094012	41.8911563866233	42.7215776442301	-101.31538206785
4341796	-6.46368791841057	46.1326674347338	46.5832831190585	-97.9758402631503
3702781	-5.04605121324211	51.0988363397585	51.3473826803674	-95.6397194450634
3157797	-13.9766563206726	49.9503003179288	51.8688675773578	-105.632217983704
2693047	-12.9449170266328	57.9908968546751	59.4181369182506	-102.583452260033
2296687	-12.3832212782517	67.286509916706	68.4165081394624	-100.427870443192
1958656	-11.5530717762754	78.4201007930974	79.2665482777402	-98.3806922411897
1670375	-10.2723463950251	91.6979059514818	92.2714856082104	-96.3918411427316
1424531	-8.35164552293315	106.90789234844	107.233611471993	-94.4668748384306
1214875	-5.92623377988118	124.224560007465	124.365837575526	-92.7312710854203
1036062	-2.24090025824652	144.808629213842	144.825967038924	-90.8865761682171
883578.1	2.24342130279124	168.158415661076	168.17337986966	-89.2356555773271
753531.2	8.04796959462587	195.2127490867	195.378574108275	-87.6392232727541
642624.9	15.3171403545869	226.010526114573	226.52896658756	-86.1228904679404
548046.8	24.4617036759406	261.173423531029	262.316473187728	-84.6492430188639
467390.6	36.2227424790722	301.745481995034	303.911867121243	-83.1547399060447
398593.7	50.6264437637057	347.788830938083	351.454275451926	-81.7178190516361
339937.5	68.704576736252	399.603106366548	405.466350616549	-80.2444007856777
289906.2	91.3380642783132	457.71423708182	466.738647225084	-78.7147180642374
247234.4	-41.6270776149229	404.819168957505	406.953772738629	-95.8710225069577
210843.7	-22.7896587280852	483.512663229705	484.049443805511	-92.6985551953183
179812.5	5.86970953715972	570.612098077024	570.642287218459	-89.4106368879601
153343.8	44.3570359409329	666.458437902328	667.932927836828	-86.1922183611512
130781.2	94.5646469098769	770.369265413931	776.151581548082	-83.0018174705243
111531.3	157.95236792953	881.967085990084	895.999381308037	-79.8464815969593
95109.37	234.943617532291	1000.89092963993	1028.09588874514	-76.7898663514954
81109.37	328.834391011039	1125.91482699605	1172.95194034587	-73.7190417527122
69171.88	437.305155149398	1258.55219726466	1332.36235009848	-70.8393558743847
59000	564.505760869924	1395.37696786566	1505.23873073519	-67.9739939409355
50312.5	719.724657397178	1539.04026395607	1699.0139836221	-64.9370884436241
42906.25	881.980578365683	1653.85696892649	1874.33524596881	-61.9295756812029
36593.75	1067.8253934997	1802.37346355794	2094.94658002075	-59.355161716121
31203.13	1275.03697785653	1939.96151638788	2321.45858889782	-56.6851382837657
26609.38	1508.89536340418	2064.93144802517	2557.48061629916	-53.8434968030349
22703.13	1762.00400018142	2182.67913447443	2805.12857115773	-51.0872203042006
19359.37	2033.94176924491	2287.1254147457	3060.6962906265	-48.3532891593764
16500	2322.11441575773	2372.29266858901	3319.63670682667	-45.6124080364973
14112.02	2615.79225796183	2439.71776461031	3576.95288028347	-43.0052953700474
12011.13	2927.25743138643	2491.76172370478	3844.17904855214	-40.4053389464586
10236.38	3244.73992312483	2514.25554519579	4104.8529955734	-37.7710738100975
8750.684	1770.33309748218	2194.98692547293	2819.9373892053	-51.1126195232588
7449.463	2062.74659794982	2227.22678121196	3035.69805189866	-47.1956795005162
6363.206	2343.12156857134	2240.32708756403	3241.80260725068	-43.7152244556822
5414.761	2624.01498728192	2237.2743172518	3448.31132934871	-40.4514047531872
4620.567	2873.41700139145	2217.19916124326	3629.39352847046	-37.6546602452828
3941.215	3114.11306421185	2203.04618526036	3814.59207138655	-35.2770916602961
3361.769	3361.43496281731	2202.28354998392	4018.61889755428	-33.231282827424
2867.244	3561.11303367111	2172.82324354103	4171.65277632912	-31.3895730203335
2442.658	3790.41032558576	2180.7451060158	4372.96920338104	-29.9132040217301
2083.003	3990.64469683954	2156.6495523843	4536.11975020644	-28.3879559936242
1777.843	4124.74198949402	2141.8574011016	4647.69293376282	-27.4415271188932
1513.548	4260.07412398229	2220.79047153942	4804.17962406733	-27.5331774478023
1292.065	4485.18551775882	2318.27747211244	5048.89092439295	-27.3332839322371
1101.762	4610.64528411445	2344.27426661066	5172.3951679101	-26.9509778434361
939.101	4778.89288362918	2559.8531847474	5421.3158477129	-28.1760933897186
801.2801	4952.5043825458	2655.87907911818	5619.69690837798	-28.2033203441433
684.3433	5036.64089808004	2849.21780494654	5786.69107834839	-29.4967553779172
582.9476	5266.80532231506	3149.23416287817	6136.52296629005	-30.8768961148284
497.0677	5371.15294905316	3431.98861384836	6373.99637964341	-32.5772285859704
423.5089	5645.06891928603	3722.1960670419	6761.7709710542	-33.3997095008807
361.5036	5814.44357440155	4074.87238091382	7100.16471644382	-35.0235005401712
308.1262	5969.05923355775	4603.24591672264	7537.87377869547	-37.6388523397151
262.7298	6311.71922707025	5092.38727173457	8109.88333619495	-38.8970963057122
224.2111	6469.79071319248	5731.02981487049	8643.08362862735	-41.5349653466047
191.2854	6873.71319930408	6490.07043268674	9453.51507998595	-43.3556246843022
163.1722	7264.17226006249	7241.25854289969	10256.9012820139	-44.9094919542749
139.1537	7544.51886305971	7994.6054429628	10992.4283515388	-46.6590930662203
118.6706	8117.89634024677	9003.72856707281	12123.0099026815	-47.9617068838722
101.1982	8626.57773407988	10239.8776425583	13389.2844295985	-49.8875612727557
86.24196	9060.34759789142	11525.41235698	14660.3215719521	-51.8284328854496
73.61024	9995.00534479406	12996.1555991119	16395.1270869972	-52.4370515737493
62.69291	10285.3701564198	13471.4696304903	16949.0216018446	-52.6385264528291
53.57697	-12536.6643303237	23649.1055736566	26766.5490298089	-117.928579816566
45.65746	-17723.4206649756	34569.9213206114	38848.411810278	-117.143455749898
38.96512	-20414.7212730023	24742.9175518579	32077.6061081935	-129.525130998454
33.18414	-22677.8638785773	23071.7083512294	32351.0314571185	-134.506769843999
28.30617	-15593.558641728	22944.6784373408	27741.9779342783	-124.200634208304
24.17237	5398.81463548427	22397.0964949509	23038.6008879111	-76.4474094773457
20.61345	-880.086307149014	22809.7347307306	22826.7069546689	-92.2095930129537
17.55618	-1455.81530398249	18592.5244405124	18649.4333230359	-94.4771880787429
14.98558	162.140485388291	24457.7036476089	24458.2410907094	-89.6201675536394
12.76553	3468.81472867216	24873.7249787987	25114.4354892315	-82.0609061793604
10.8809	11789.0821795167	4850.61743478906	12747.9781978978	-22.3647142539996
9.278505	7595.05360243128	21891.1122154321	23171.2242501868	-70.8659411160788
7.923394	6365.77652715076	14377.314100277	15723.5578522053	-66.1178971636092
6.75822	3677.76551888041	27823.8855097853	28065.896815771	-82.4702845239814
5.761429	11623.3700710289	18970.7835489392	22248.4462439244	-58.5042620945723
4.919708	11409.1223557555	23503.095284589	26125.9174170989	-64.1066434153614
4.191257	4451.95076316605	27485.4264224967	27843.6443596045	-80.7994250018209
3.564097	24142.7051412848	23359.1731027612	33593.4692996091	-44.0550056169286
3.051758	22117.3918162543	26632.4512089161	34618.874593912	-50.2914621408552
2.604164	21427.4659225554	22641.1688718036	31173.0464302705	-46.5775955494408
2.214424	30000.3686104085	29566.0110086696	42120.910765618	-44.5822070025403
1.892567	23422.626401997	14417.4155807024	27504.2051256569	-31.6136969210548
1.607507	30014.1438630581	22143.0968413499	37298.3319943098	-36.4182517008582
1.376413	26280.0540722122	19317.8803195594	32616.2803225508	-36.3187747684675
1.17375	29847.6775675712	31276.0028068217	43232.7677549102	-46.3386320418256
1.001604	38644.1412508474	25974.8302995072	46562.4469084653	-33.9071954087619
