EC-Lab ASCII FILE
freq/Hz	Re(Z)/Ohm	-Im(Z)/Ohm	|Z|/Ohm	Phase(Z)/deg
6999984	23.5112136083613	86.3188733278132	89.4635403833374	-74.7636011090152
5969734	19.3227033268921	85.5120998898079	87.6680448705432	-77.2670256032804
5091109	15.6352423871024	90.0923555496564	91.4390142826854	-80.1545610034012
4341796	13.867763834026	98.4043650770125	99.3767273558868	-81.9783429610821
3702781	15.9527356159324	109.526843501447	110.68251542598	-81.7130635019365
3157797	17.9406076695154	122.32918686265	123.637758642045	-81.6565698633366
2693047	19.8915063669293	137.571326861111	139.001949626155	-81.7725938168506
2296687	22.8287497120586	157.228290367926	158.876955866597	-81.7386747153789
1958656	27.6737155735432	180.056463174111	182.170701443496	-81.2623176045071
1670375	33.9331859896437	207.014196635882	209.776878421354	-80.6910213869821
1424531	42.5464175840693	237.849689051555	241.625065403322	-79.8582272317595
1214875	53.3995248829115	273.161612478021	278.332132153859	-78.9389164494721
1036062	66.6004131127644	312.629533345838	319.6448656663	-77.9738836351332
883578.1	82.5646738855529	357.962449721141	367.360913522639	-77.0117729055496
753531.2	103.377684502752	409.671806644979	422.513827954674	-75.8374959044289
642624.9	128.397726037671	466.865914583953	484.200122110637	-74.6226534914131
548046.8	226.462313182899	578.998733747864	621.711116977796	-68.6381666170511
467390.6	272.935144857523	644.261664714493	699.690421485879	-67.0405311011083
398593.7	326.827921000836	714.50841326105	785.709082654994	-65.4198626818013
339937.5	388.64939809945	790.452228204924	880.830903021229	-63.8175862077179
289906.2	457.734642030537	873.138849348681	985.846059360569	-62.3346568423603
247234.4	538.667251734173	961.053468315948	1101.71964539667	-60.7295155793013
210843.7	630.904942347236	1055.20533576601	1229.43049698112	-59.124889978258
179812.5	735.810967311854	1151.03987443334	1366.12977866377	-57.4109440299036
153343.8	861.894497252624	1256.70104912407	1523.86339652342	-55.5561535963502
130781.2	1003.24680892777	1358.75836431492	1689.00220610262	-53.5594873535665
111531.3	1162.37010474621	1460.23136771572	1866.38150110545	-51.4795875318842
95109.37	1344.0094293292	1552.76113067834	2053.63786366323	-49.1218146387193
81109.37	1544.85790781407	1634.19086164395	2248.81429371486	-46.6096181606107
69171.88	1759.13118986508	1704.9548302722	2449.77825862355	-44.1039992379903
59000	1987.78708634809	1755.51265104036	2652.0034254531	-41.4493081562327
50312.5	2235.49457948365	1799.8859593153	2870.02186079499	-38.8389296303505
42906.25	2491.42740325886	1775.21356449602	3059.18186861779	-35.4709633894345
36593.75	2729.22622201622	1751.71023618059	3243.0178110027	-32.6937280944544
31203.13	2965.13869692836	1702.91680216688	3419.35273511293	-29.8692982658892
26609.38	3185.10319618929	1632.56314198906	3579.12625971149	-27.137956890299
22703.13	3390.50073492388	1542.01147036228	3724.68718260315	-24.4562050118774
19359.37	3570.09820406546	1437.19813359084	3848.52434861317	-21.9280115521288
16500	3728.13849161021	1331.55394965357	3958.79432826002	-19.6548587957268
14112.02	3864.09059581331	1216.30458527628	4050.99900972797	-17.4725026611191
12011.13	3977.07862938221	1103.77102395461	4127.40413548401	-15.5110962410478
10236.38	4066.41124024268	999.260278574143	4187.38838407761	-13.806031138518
8750.684	4172.20983320118	811.650486223711	4250.42484982946	-11.0086678361949
7449.463	4226.84037699825	730.458329090005	4289.49285384178	-9.80468870297465
6363.206	4272.0871860245	664.912356693116	4323.52140819008	-8.84660013711279
5414.761	4308.05863051391	610.626498837672	4351.11869351184	-8.06739472446873
4620.567	4328.41570975384	567.67645198202	4365.48268930009	-7.47175925980662
3941.215	4364.35161797559	533.206261441758	4396.80269770737	-6.96548229287313
3361.769	4385.09905590183	504.129431988782	4413.98235318951	-6.55817232589258
2867.244	4411.79207639457	491.618005533961	4439.09873608406	-6.35839340188636
2442.658	4427.62020250513	484.095514087291	4454.0059636681	-6.2396708171573
2083.003	4451.57974393454	486.080874162651	4478.03939607894	-6.23160357140186
1777.843	4467.03183828368	492.994705515052	4494.15367159446	-6.29784322209693
1513.548	4484.68239039797	515.05313110572	4514.16170186752	-6.55155466335881
1292.065	4507.82598410115	539.774358153887	4540.02769382059	-6.82817868684798
1101.762	4531.50847525479	581.616880114156	4568.68112878758	-7.31389792809218
939.101	4552.67669831448	627.147380716952	4595.66958739592	-7.84333384910487
801.2801	4573.00495273105	684.539398266447	4623.95593463884	-8.51347101586783
684.3433	4600.02568640579	754.630169265455	4661.5129526752	-9.3163395854508
582.9476	4619.94552990522	830.058095848972	4693.92087084727	-10.1855681268658
497.0677	4660.1909143179	933.943725272663	4752.85495674623	-11.3324577453792
423.5089	4691.53893529511	1042.15831611408	4805.89549795205	-12.5240839085364
361.5036	4730.26855995782	1170.70712462153	4872.98633498649	-13.9009587860153
308.1262	4774.54600894813	1323.33818611152	4954.54473654073	-15.4915240027661
262.7298	4826.78947724308	1494.57979174897	5052.88683937498	-17.2047537538766
224.2111	4875.16214083165	1693.42433973679	5160.9002987668	-19.1550562518783
191.2854	4937.17337482703	1927.46042964791	5300.07402221511	-21.3255521601267
163.1722	4998.41328425167	2193.20618249198	5458.41448766073	-23.690928203233
139.1537	5077.77903005446	2489.34571109367	5655.14650096718	-26.1160809331053
118.6706	5156.73350837	2853.69437611032	5893.68068939857	-28.9597850618986
101.1982	5254.08511184329	3254.73138884326	6180.50861790637	-31.7768409236403
86.24196	5360.08855187418	3719.88193611303	6524.42111627941	-34.7605071826282
73.61024	5475.6052526262	4258.87026956727	6936.87457401326	-37.8754151541687
62.69291	5620.20653706287	4881.25188307312	7444.01380071592	-40.9749105610202
53.57697	5774.20969430607	5592.368002805	8038.41262144557	-44.0834644306128
45.65746	5947.53484627856	6409.81557696593	8744.07836643822	-47.142400155147
38.96512	6166.69398104195	7358.63404311201	9600.9171247473	-50.036266738904
33.18414	6380.05060279095	8455.39258107594	10592.3892202981	-52.9634737367596
28.30617	6647.69155389507	9751.55168190524	11801.8881201525	-55.717509970615
24.17237	6986.16838509468	11139.563280495	13149.0082814275	-57.9061514522352
20.61345	7347.83818978232	12815.0318033046	14772.1280180932	-60.1710536163873
17.55618	7778.95489647747	14717.7719451502	16647.0703221582	-62.1416846569603
14.98558	8293.79927627316	16865.9506982534	18794.8769453547	-63.8144349398447
12.76553	8879.71917422746	19394.6131794635	21330.7391572388	-65.3995799758537
10.8809	9591.71861299565	22266.9642690368	24244.9739886322	-66.6955532126601
9.278505	10374.9090911205	25580.5080673613	27604.3679810524	-67.923573654964
7.923394	11331.4741535454	29303.2907061543	31417.9113357629	-68.858698072397
6.75822	12492.8691724392	33572.0517101604	35821.1450988011	-69.5887035991732
5.761429	13784.1665997723	38490.5935225936	40884.3373258244	-70.2966502508368
4.919708	15352.1836080472	44065.585725414	46663.3195010707	-70.7919722647274
4.191257	17178.9826352196	50480.2329074313	53323.2722061361	-71.2059915674889
3.564097	19388.5321746887	57844.8092556468	61007.6809730636	-71.4697813363672
3.051758	21976.1621313764	65893.610925961	69461.641665645	-71.5559541887549
2.604164	24866.7797572096	75183.3678245739	79188.9861845619	-71.6984487924039
2.214424	28538.7727846561	85936.80841396	90551.6239083093	-71.6291781949726
1.892567	32658.7963734951	97772.727674792	103082.992086641	-71.5292543555017
1.607507	37671.5871783918	111738.449440516	117917.893315264	-71.3689407644241
1.376413	43357.2834831819	126735.466716757	133946.752685368	-71.1137453624729
1.17375	49918.7495652347	143801.136653409	152219.080476033	-70.8562008335616
1.001604	57803.6109016553	162799.121996627	172756.509446512	-70.4520364048763
