EC-Lab ASCII FILE
freq/Hz	Re(Z)/Ohm	-Im(Z)/Ohm	|Z|/Ohm	Phase(Z)/deg
6999984	4.512127522962	1.81196967252224	4.86235836581504	-21.8792929508088
5969734	6.71733897503113	2.98309332429586	7.34993120287059	-23.9454589741419
5091109	9.58790509571299	-0.383232551910047	9.59556102128701	2.28891769013505
4341796	5.46205630742056	-7.61414109102735	9.37065652233097	54.3459750597867
3702781	3.69696180869927	-8.3036394121824	9.08944190269842	66.0003262240483
3157797	1.25600990948779	-8.75945222845393	8.84904312540616	81.8400309493375
2693047	1.98001633462258	-8.59994995450344	8.82494214742148	77.0344047384572
2296687	-0.147759890814699	-18.258078806649	18.2586766961666	90.463676019631
1958656	6.37851994337043	-11.9913001460396	13.5822235241651	61.9901946159277
1670375	4.058724303794	-9.95472678458126	10.7503408471484	67.8183786037779
1424531	-2.41921897863572	-8.72082639590584	9.0501620700471	105.50439109961
1214875	8.83555946680153	15.0297608167662	17.4344722117013	-59.5499673664655
1036062	4.43754291954788	-7.76322710131595	8.94200660866653	60.2472570031397
883578.1	6.28955196454869	8.30397960040073	10.4170313006456	-52.8591954180458
753531.2	3.04314656578688	5.24897473376839	6.06732863594839	-59.8965495367402
642624.9	7.16737306694032	2.31209522346759	7.53107037565598	-17.8789818392968
548046.8	6.49272537194513	-3.60755648747181	7.42764744490474	29.0578868955809
467390.6	6.43414868679573	-1.28921503198388	6.56203815308082	11.3303549902711
398593.7	4.23954006888215	-0.545178455112908	4.2744496187903	7.32766610390917
339937.5	-1.15727341783369	2.92487389716884	3.14549981369641	-111.587025644278
289906.2	0.109131982439649	1.86451498799076	1.86770606092966	-86.6502408225788
247234.4	2.53435484367744	0.314235146765493	2.55376157875672	-7.06804173820154
210843.7	2.74976214226026	1.19578077129229	2.9985135470763	-23.5026313534412
179812.5	1.24997833008985	-0.273439832986841	1.27953709127875	12.3393966928539
153343.8	1.25076074222639	-0.195873767956716	1.26600512134362	8.90044098112124
130781.2	1.9784134460202	-0.15568662620333	1.98452968961719	4.49948512065935
111531.3	-0.0610398310163148	-2.03515885059989	2.03607401833666	91.7179379289519
95109.37	2.21842246252006	-0.157573688330174	2.22401162080317	4.06287351907802
81109.37	10.9960034517701	4.28997717177199	11.8032197321606	-21.3127293646717
69171.88	1.37912874324168	0.227292155774114	1.39773309845328	-9.35870408482277
59000	1.42783601173283	-0.328575794083899	1.46515450682138	12.9593771342311
50312.5	4.58339716895022	0.947446077189661	4.68029739199583	-11.6792633691939
42906.25	4.95328783182332	2.23206308281819	5.43297026961945	-24.2574001161229
36593.75	9.34264829575836	3.49097120981757	9.97356291232033	-20.4886900045586
31203.13	21.9878554888668	0.541506728647277	21.9945224666611	-1.41076876880764
26609.38	6.49542307837823	13.0392275941008	14.5674972873822	-63.5200492247065
22703.13	17.1908844266878	12.8597365352413	21.468566117176	-36.7985295190644
19359.37	-4.33177196685352	12.629875553947	13.3520786726639	-108.930850601831
16500	14.659623832964	-2.73756909752644	14.9130431330342	10.5777004418534
14112.02	9.17109058535526	16.9410090914995	19.2641296601498	-61.570904101451
12011.13	13.8709253856745	11.3574535608771	17.9274739559825	-39.3104681661652
10236.38	16.8862637700251	-0.951064610724327	16.9130253947848	3.22359520048787
8750.684	13.1781229908488	5.6337027106719	14.3318363022388	-23.1469105063342
7449.463	5.06618514604294	17.042307140293	17.7793831332267	-73.444308489947
6363.206	11.6647085355041	-3.29761117442211	12.1218672107863	15.7855888615391
5414.761	15.2525893657139	-6.72366895627783	16.6688093933761	23.7889154453563
4620.567	28.4652956424611	4.9487115533495	28.8922619753278	-9.86233971632072
3941.215	7.17590749800967	14.3959216308713	16.0852792335781	-63.5052096178126
3361.769	11.1928141922979	2.41750751178427	11.4509140295803	-12.187946758867
2867.244	16.488829563279	-1.82702751809395	16.5897417074147	6.32280699323078
2442.658	11.3561103908059	-5.48080099576346	12.6095369765639	25.7633566552668
2083.003	9.22280322391459	-9.31533593874245	13.1086072089553	45.2859882510333
1777.843	8.56576952237408	-9.34569233310663	12.6773172515135	47.4932680497292
1513.548	4.30517623020917	12.028004203577	12.7752662396689	-70.3062186460155
1292.065	9.85320528312589	6.29753112289969	11.6937826470014	-32.5840811612002
1101.762	16.8098448222475	-3.80054704720891	17.234124312134	12.7398426254488
939.101	8.69037366809241	2.6984966274973	9.09969661800262	-17.2503841126808
801.2801	28.4324326503534	-13.3202453250918	31.3979642960736	25.1025128639409
684.3433	16.8758322309628	-3.89175232427947	17.3187600491819	12.9860082125488
582.9476	46.5673578889898	13.6231442712061	48.5191599329106	-16.3066825170547
497.0677	22.0735337419598	-28.788381708372	36.2768771153798	52.5207607076179
423.5089	10.4755588133407	-27.7535473928414	29.6647387539222	69.321017717288
361.5036	26.719768261229	3.42734248958592	26.9386839410299	-7.30941166855631
308.1262	36.1420689111681	4.48902387532702	36.4197814454299	-7.08015979556856
262.7298	42.8499710245604	12.4591076859534	44.6245378814823	-16.2123793935541
224.2111	16.1999158498738	26.6510083107224	31.1883554795886	-58.7065161962534
191.2854	62.1239691980439	12.2041582790986	63.3113657112276	-11.1141379071225
163.1722	18.3209982727379	-6.75335013223127	19.5260522307551	20.2345201970606
139.1537	4.08762828263049	5.56077862585322	6.90151895619412	-53.6810632681153
118.6706	14.8046251220107	2.32135628307451	14.9855136714174	-8.91138447500823
101.1982	16.0448671978245	-9.58213980755063	18.6883698242322	30.8460308784047
86.24196	17772.5198520587	14804.1440925103	23130.6105454142	-39.7936033677534
73.61024	435837.190431935	-83417.9642517071	443748.367122068	10.835204863719
62.69291	329974.603259935	-68719.7171923915	337054.355152925	11.7641298778087
53.57697	313211.749526024	-51257.9344094616	317378.285144207	9.29421768498079
45.65746	235811.491168212	-72237.0448693074	246627.755977355	17.0316001786101
38.96512	406469.47018734	-103085.624941111	419337.663779294	14.2308678844516
33.18414	388470.984657967	-121425.979311811	407006.110977418	17.3578939133591
28.30617	53465.5771197393	-273737.913687009	278910.403761608	78.9483129573122
24.17237	386040.84979841	49983.9364824043	389263.319129039	-7.37751916166351
20.61345	14167.4587615347	1586.95787704794	14256.0626774475	-6.39130409763867
17.55618	8976.18681722679	10949.4390993087	14158.4655371699	-50.6556111971286
14.98558	22.9429466780616	0.953534447588791	22.9627531061743	-2.3799068257486
12.76553	12.1998128295494	-11.5010382273271	16.7663148420419	43.3112319143354
10.8809	10.7782242964604	-1.43755695430981	10.8736695269671	7.59704794086788
9.278505	16.6908608354562	-9.65056355134048	19.2799951319243	30.0362638969683
7.923394	20.126742632292	-21.5482929616746	29.4858389493784	46.9536220208073
6.75822	585722.886308896	198980.799380844	618598.947677947	-18.7635656496213
5.761429	649176.771289446	-37175.5722668952	650240.342915726	3.27750422647393
4.919708	1129762.45732251	225004.386938098	1151950.59968594	-11.2636913508076
4.191257	759897.646077506	933873.702501519	1203978.62304031	-50.8645803641687
3.564097	3002208.89526124	101375.693126104	3003919.98594212	-1.93397377379828
3.051758	1538030.59161277	198483.193368924	1550784.85896228	-7.35339190891055
2.604164	7352784.62322562	-6394219.16838517	9744202.40393679	41.0112761922772
2.214424	2137310.43254877	-1033045.25036133	2373874.12774476	25.796284539753
1.892567	1841456.81481889	223241.699758627	1854939.36756813	-6.91229462075113
1.607507	1840549.18699402	-2795725.48018296	3347193.19285406	56.64132993075
1.376413	3550900.75442361	645175.93416555	3609037.01197322	-10.2979366096469
1.17375	7691148.28192054	200372.192382744	7693757.91859671	-1.49234993742514
1.001604	14562794.7345302	7315825.2708108	16297125.2027189	-26.6733110367598
