EC-Lab ASCII FILE
freq/Hz	Re(Z)/Ohm	-Im(Z)/Ohm	|Z|/Ohm	Phase(Z)/deg
6999984	11.8820218013418	-0.362788455080422	11.8875589399465	1.74884308878238
5969734	8.13012488777517	-0.681578965510128	8.15864453062192	4.79211529311329
5091109	5.74887242605789	-0.640716692934983	5.78446644485853	6.35941899633964
4341796	4.6457358608696	-0.588097446373294	4.68281115307894	7.21462153092986
3702781	3.91036595950816	-0.374488236576145	3.9282570405479	5.47042341099261
3157797	3.66528014902153	-0.21398684737266	3.67152133885393	3.34125666738034
2693047	3.47573822599918	-0.167174380991546	3.47975623993001	2.7536626653729
2296687	3.32633203553147	-0.086524929704092	3.32745719342311	1.4900483659621
1958656	3.19050531119568	0.67896816491165	3.26195062956682	-12.0138363440826
1670375	3.14839009246573	0.553979399111864	3.19675669217673	-9.97940645302184
1424531	3.14267844393639	0.45211689560783	3.17503346270185	-8.18660432332364
1214875	3.14195959922483	0.35094832727237	3.16149882991855	-6.37336478907313
1036062	3.16653978132002	0.256762153251265	3.17693263857207	-4.63574537053957
883578.1	3.13634172301183	0.195790063116452	3.14244700071775	-3.57212542726595
753531.2	3.11819936620745	0.167563352901286	3.12269831470349	-3.07595715471194
642624.9	3.09956886737467	0.142361789831455	3.102836451185	-2.629721008088
548046.8	3.08633084940297	0.132821168354322	3.08918752663859	-2.46422043009107
467390.6	3.08085976172664	0.106301438837731	3.08269311922633	-1.97613945681534
398593.7	3.07838955650696	0.0913308626843775	3.07974407834316	-1.69937505866637
339937.5	3.07434123654955	0.0796330336567478	3.07537240977388	-1.48377046740085
289906.2	3.070979339077	0.068227346745834	3.0717371423808	-1.27271974469102
247234.4	3.06826602861176	0.0584544700988292	3.06882279504821	-1.09142730394471
210843.7	3.06653293904101	0.0521936579824315	3.06697708569156	-0.97510369350386
179812.5	3.06534977438668	0.0465232891807733	3.06570279964785	-0.869520176932742
153343.8	3.0641763279297	0.042025821442385	3.06446451085873	-0.785774373765241
130781.2	3.06414906436292	0.0386298738673857	3.06439255902228	-0.722292368938131
111531.3	3.06451625840305	0.0351760623782469	3.0647181360414	-0.657640957251159
95109.37	3.0647715441397	0.0345173149038701	3.06496591543798	-0.64527251732767
81109.37	3.06519703190988	0.0337953198409236	3.06538333134248	-0.631688833920708
69171.88	3.06769292724745	0.0318812568280301	3.06785858709638	-0.595429772813649
59000	3.06942936672124	0.0309487544924978	3.06958538938004	-0.577688134687423
50312.5	3.07239728689826	0.0319086381791726	3.07256297734159	-0.595028702357058
42906.25	3.07497943607593	0.0317842115817526	3.07514369882055	-0.592210895920604
36593.75	3.07749001567944	0.0326487776079647	3.07766319458221	-0.607822276964534
31203.13	3.0806579638253	0.0322931016240665	3.08082721594262	-0.600582955223056
26609.38	3.08375862209988	0.0336570462091808	3.08394228806812	-0.625318116196649
22703.13	3.08776127879088	0.0331379837258828	3.08793909278756	-0.61487710629598
19359.37	3.09005766433933	0.033824967601308	3.09024278938977	-0.627156737761223
16500	3.09510048174071	0.0344293059221746	3.09529196832509	-0.637321009046844
14112.02	3.09768534039937	0.0349133523113017	3.09788208463375	-0.645741196804087
12011.13	3.10215430452641	0.0346579342260528	3.1023479014283	-0.640094124775277
10236.38	3.10653468762503	0.033631384651363	3.10671672919356	-0.620260617739029
8750.684	3.11025956569604	0.0339748097620849	3.11044512147411	-0.625843518494784
7449.463	3.11509566774344	0.0331911050414896	3.11527248706238	-0.610459028737726
6363.206	3.11908063785909	0.0322702862833655	3.11924756902114	-0.592766092024086
5414.761	3.1222606082355	0.0309539661051381	3.12241404265301	-0.568009445133176
4620.567	3.12670207808132	0.0309682920721539	3.12685543640762	-0.567465135227802
3941.215	3.12972204828281	0.0283841241410776	3.12985075650754	-0.51961353364342
3361.769	3.13367361571697	0.026977368929702	3.1337897358111	-0.493239369601076
2867.244	3.1368338153863	0.0256690707460415	3.13693884010255	-0.468847467642546
2442.658	3.13970278853546	0.0240624468302035	3.13979499357598	-0.439101962637872
2083.003	3.14261755620771	0.0222010076447089	3.14269597468883	-0.404759044285069
1777.843	3.14508601559056	0.02050648099983	3.14515286770394	-0.373572665017201
1513.548	3.14757413049043	0.0189510772171453	3.14763118078664	-0.344965226080996
1292.065	3.14972662477016	0.0168360601982475	3.14977162088127	-0.306257056878651
1101.762	3.15188295346549	0.0157326062811547	3.15192221782942	-0.285989190537913
939.101	3.1538224542987	0.0136935573800055	3.15385218213416	-0.248770539715569
801.2801	3.15699819445393	0.0115460683644833	3.15701930806259	-0.209546536610267
684.3433	3.15770607472155	0.0106320965280773	3.15772397397397	-0.192915978240359
582.9476	3.15876127429961	0.00976361688971556	3.15877636375696	-0.17709861886908
497.0677	3.16029526864173	0.0083931445487569	3.16030641392171	-0.152166360413962
423.5089	3.16201178557736	0.00761678887769274	3.16202095938704	-0.138016250930734
361.5036	3.16322376849393	0.00651957474284917	3.16323048708433	-0.118089523661218
308.1262	3.16380558144621	0.00610618399196903	3.16381147394612	-0.110581427418044
262.7298	3.16439772958072	0.00539468946208612	3.16440232803132	-0.0976781886885798
224.2111	3.16480293551033	0.00483450608789994	3.16480662806812	-0.0875241160517123
191.2854	3.16553543854197	0.00411170996238954	3.16553810888827	-0.0744213734179836
163.1722	3.16651622045649	0.00376572419313978	3.16651845961661	-0.0681379744619019
139.1537	3.16715815212916	0.00332093439897151	3.16715989321718	-0.060077661495781
118.6706	3.16735525983213	0.00307348753381637	3.16735675103262	-0.0555977446026988
101.1982	3.16876686995787	0.00272821800554141	3.16876804441664	-0.0493300217718919
86.24196	3.16920156503616	0.00241792822486429	3.16920248740981	-0.0437135514189204
73.61024	3.17014037334815	0.00208991914806631	3.17014106223903	-0.0377723113989349
62.69291	3.17087254832997	0.00187035080468896	3.17087309994656	-0.0337961218105979
53.57697	3.17113016035878	0.00160106538333369	3.17113056453806	-0.0289279457972232
45.65746	3.17113709056306	0.00148682610461978	3.17113743912127	-0.0268638195036408
38.96512	3.17081409393473	0.00116594961547348	3.17081430830215	-0.021068402972094
33.18414	3.17084156452008	0.00111126396105988	3.17084175924876	-0.0200800736938052
28.30617	3.17115330069024	0.000586477220615427	3.17115335492217	-0.0105963559476628
24.17237	3.17171699130978	0.00070322485637221	3.17171706926837	-0.0127034712646139
20.61345	3.17171272205632	0.000488785673697536	3.17171275971916	-0.00882972653004619
17.55618	3.17189167371759	0.000789372837676011	3.17189177194123	-0.0142589141685232
14.98558	3.17220514031206	0.000510548974613226	3.17220518139708	-0.00922144058584328
12.76553	3.17254712005455	0.000651936234517888	3.17254718703872	-0.0117738816194818
10.8809	3.17262149898638	0.000423727715632457	3.17262152728241	-0.00765228680189644
9.278505	3.17296227514667	0.000642035915993078	3.17296234010334	-0.0115935660717762
7.923394	3.17363444098617	7.4303382826398E-05	3.173634441856	-0.00134144946996374
6.75822	3.17346454054597	0.000451206047533351	3.17346457262241	-0.00814636549737161
5.761429	3.17334389430076	5.59872428660796E-05	3.17334389479465	-0.00101086829203372
4.919708	3.17323420591559	0.000289629337187122	3.1732342191332	-0.00522953476518576
4.191257	3.17344998445699	0.000351293933124341	3.17345000390072	-0.00634251674138328
3.564097	3.17351335940889	0.000211098269028067	3.17351336642989	-0.00381124592531703
3.051758	3.17408313325925	0.00022256324991828	3.1740831410622	-0.00401751760705766
2.604164	3.17438837342543	0.000204762398605382	3.17438838002948	-0.00369583675551721
2.214424	3.17497268920224	0.000256689367042994	3.17497269957861	-0.00463223428517101
1.892567	3.17475259275592	6.19160569134352E-05	3.17475259335968	-0.00111741896136302
1.607507	3.1750111330195	0.000149428184322865	3.17501113653583	-0.00269655882672119
1.376413	3.17583816891853	0.000204968309881159	3.17583817553285	-0.00369786445315418
1.17375	3.17685238570488	6.02906858054317E-05	3.17685238627698	-0.00108736617909282
1.001604	3.17739379911726	3.01090535439999E-05	3.17739379925991	-0.000542936067173117
