EC-Lab ASCII FILE
freq/Hz	Re(Z)/Ohm	-Im(Z)/Ohm	|Z|/Ohm	Phase(Z)/deg
6999984	38.546131087438	77.9729832998597	86.9804020828264	-63.6944002817648
5969734	37.1947249792974	76.3541198091027	84.9317324567701	-64.0276898311924
5091109	38.5139411230503	77.958294302113	86.9529718372216	-63.7091252970997
4341796	43.7123460578965	83.2635688383589	94.0403694887755	-62.3010815155657
3702781	51.9898214548203	85.1735860975424	99.787180056456	-58.6001752294772
3157797	60.2107119133353	89.6467286316493	107.990118915886	-56.1129425225024
2693047	70.8519273527346	93.1765846132643	117.054993613216	-52.7504652172638
2296687	83.2131636853578	96.4887880294495	127.414743361662	-49.2250960108695
1958656	96.8222656362382	97.762689711169	137.593948349833	-45.2769068699805
1670375	110.22192530497	97.7617317166448	147.330339734121	-41.5715372426679
1424531	124.393091178472	95.1644231237545	156.620268680055	-37.4170661067979
1214875	137.237286131665	90.8851212587226	164.603092227932	-33.5144385697777
1036062	148.737161796182	85.9067259272411	171.763525984773	-30.0096156299168
883578.1	159.685265220522	79.9026615395943	178.560407844683	-26.5822795022694
753531.2	168.42223216199	72.8056268525813	183.484897437976	-23.3778812527074
642624.9	176.374505720541	67.260591842063	188.764280209763	-20.8743994626627
548046.8	179.525769043717	58.5527103559183	188.833052299543	-18.0638466718957
467390.6	184.161309862033	52.5465593511312	191.511171866661	-15.9249837635164
398593.7	191.353940987426	49.0267983055542	197.534699947915	-14.3706294794178
339937.5	194.291697229558	41.4207851846954	198.657859289933	-12.0346461712018
289906.2	196.763687900487	37.5591606281468	200.316348367504	-10.8068778303277
247234.4	197.457102909967	35.6056119331129	200.641638476984	-10.2217733299401
210843.7	198.126443751288	31.9139175937431	200.680307578278	-9.15051986996198
179812.5	199.834549639037	29.335649898692	201.976304512226	-8.35135260773556
153343.8	200.733789941965	26.5705176810894	202.484682962209	-7.54023344590271
130781.2	202.00084012236	25.2789722464054	203.576437359469	-7.13307817752684
111531.3	203.791675522205	23.4099376032301	205.131840996796	-6.55295268037893
95109.37	204.23440056685	23.6414617900159	205.598173850036	-6.60297189589385
81109.37	205.080069984827	22.4721284193892	206.307614160697	-6.25337023803888
69171.88	206.478782656622	22.8855630878079	207.743198890377	-6.32469775395472
59000	207.118200443564	23.6838689508383	208.467922240955	-6.52341097646199
50312.5	208.290388344915	24.5760582174748	209.7352343179	-6.72918303900527
42906.25	209.420028490868	25.6887924767665	210.989721057757	-6.99332804171648
36593.75	210.552211487447	27.4795769374029	212.337846157752	-7.4357545919606
31203.13	212.098744707063	29.7309905686312	214.172382221668	-7.97945716207205
26609.38	213.520023159407	32.1527105737449	215.927295836429	-8.56349023138275
22703.13	215.022940779878	34.9964264123963	217.852277755513	-9.24421565819973
19359.37	216.869523365919	38.4584271450702	220.253128884548	-10.0559708031852
16500	218.863488576652	42.4792910394133	222.947789401809	-10.9839905439586
14112.02	220.926213511705	46.9808580803886	225.866316308097	-12.0053451095588
12011.13	223.225150063053	52.3188214194437	229.274348097192	-13.1907145735931
10236.38	225.833682042952	58.1271694531742	233.194381951443	-14.4340158002932
8750.684	228.459830633619	65.0383714656658	237.537121259074	-15.8906922394779
7449.463	231.460070005345	72.8104217619456	242.641961589564	-17.4620175334682
6363.206	234.732590001448	81.8476943954175	248.592907957234	-19.2228887252438
5414.761	238.444252373798	92.2362312072353	255.662245623819	-21.147723249252
4620.567	242.342935224799	104.243054163541	263.811888653097	-23.2748061453633
3941.215	246.921552234709	117.136415348767	273.2968948941	-25.3790624029167
3361.769	251.744415364973	132.559456969497	284.512320119006	-27.7696600481646
2867.244	257.313287200972	149.797895704369	297.74072164826	-30.2063177705632
2442.658	263.16644540136	170.389687384082	313.511121895272	-32.9214329813952
2083.003	270.129040143815	193.308337753045	332.171359051114	-35.5880702331813
1777.843	277.761180418495	219.120429527502	353.786709733128	-38.269226235496
1513.548	286.60110139289	249.536572440113	380.011437071015	-41.0452926965741
1292.065	296.633022158774	283.874794969987	410.580137189198	-43.7409731789954
1101.762	308.009712490354	323.484568225485	446.667940273778	-46.4037601543982
939.101	321.17955856038	368.113429648221	488.532297729041	-48.8952499377907
801.2801	336.146579643676	419.457174719213	537.530319544457	-51.2918464511536
684.3433	352.873159970988	477.637016003671	593.848958982671	-53.5434044282572
582.9476	373.680060766925	544.037939849901	660.010657346453	-55.5162298971855
497.0677	397.628335003304	620.995878119104	737.390109398286	-57.3682586741664
423.5089	423.941053508694	708.103838468761	825.310282805355	-59.0910854683452
361.5036	455.300101230309	805.485793133327	925.259717657672	-60.5227351110386
308.1262	491.389176262426	917.998133398747	1041.24151639831	-61.840595335619
262.7298	533.307491782848	1045.25992182933	1173.45012036063	-62.9686346426726
224.2111	582.047521069555	1187.97933798088	1322.90370936539	-63.8975711159182
191.2854	637.682787569735	1349.85968905601	1492.90338525341	-64.713634903523
163.1722	703.691104984414	1534.71802893239	1688.35440579409	-65.3678381140034
139.1537	780.497011377942	1741.4953840994	1908.39769377596	-65.8592067191076
118.6706	868.064528300297	1975.79188792276	2158.07544114533	-66.2817057972371
101.1982	974.719450421319	2245.13279294727	2447.59050190117	-66.5320310579297
86.24196	1093.34570748444	2542.64854196541	2767.75476587675	-66.7321652157689
73.61024	1230.36267768459	2876.50474970503	3128.58944153987	-66.8422304082136
62.69291	1389.54552956192	3254.63861239727	3538.8570578695	-66.8802748058102
53.57697	1572.69217253787	3668.52540591718	3991.42071491113	-66.7952478690128
45.65746	1782.49660452215	4139.32542124262	4506.80697257808	-66.7020849315246
38.96512	2023.20876570916	4660.64366993406	5080.84374171641	-66.5340937059922
33.18414	2299.78373184518	5250.94369716688	5732.48767325987	-66.3477678310157
28.30617	2603.83214262422	5919.30240156833	6466.69024680908	-66.2558654006767
24.17237	2965.13689643815	6616.60788389216	7250.62319416771	-65.8611547756111
20.61345	3368.591745944	7423.92763463019	8152.42981417613	-65.593927259962
17.55618	3839.05416001599	8326.29653679081	9168.72678522546	-65.2467148361128
14.98558	4341.34953351503	9309.95655716903	10272.4197182809	-64.9997700264114
12.76553	4932.77610037707	10422.2549386261	11530.6408348438	-64.6721527591556
10.8809	5581.8764440536	11654.6999652604	12922.4369186667	-64.4084775818364
9.278505	6314.80921652629	13019.0458854209	14469.7052909802	-64.124576994349
7.923394	7114.84241901643	14526.2375262124	16175.059793255	-63.9047330883573
6.75822	8003.58727124908	16185.5625767586	18056.2965509173	-63.6880977460184
5.761429	9002.58069312027	18078.4680907996	20195.9765212331	-63.5279560422793
4.919708	10127.6466587135	20175.7020339619	22574.9458339763	-63.3446095478375
4.191257	11368.9646463242	22487.4946686308	25198.0311453309	-63.1802852521939
3.564097	12750.1378691086	25155.4721015733	28202.194814133	-63.121671669752
3.051758	14272.7785230634	27963.6746714186	31395.5300623728	-62.9600402757456
2.604164	15931.2396726534	31221.3877212055	35051.0976824602	-62.9662855157126
2.214424	17897.6121416008	34880.5841163659	39204.3322691517	-62.8371408286901
1.892567	20007.4771972112	38925.9577400986	43766.760558452	-62.797377557708
1.607507	22419.7676352165	43587.1796039887	49015.1834297034	-62.7802461196336
1.376413	25073.032146758	48517.6866489866	54613.3944998991	-62.6709257723226
1.17375	28074.5300203062	54291.6672110282	61120.899571375	-62.6562580527673
1.001604	31389.6035917666	60635.8961222392	68278.9800172441	-62.6305895435454
