EC-Lab ASCII FILE
freq/Hz	Re(Z)/Ohm	-Im(Z)/Ohm	|Z|/Ohm	Phase(Z)/deg
6999984	-10.8223126198366	33.0221981771847	34.750367233955	-108.145440056266
5969734	-7.33814352176791	37.8487733434174	38.5535730373651	-100.972409531684
5091109	-4.83600089021561	41.1752238423686	41.4582436082297	-96.6986600420242
4341796	-2.3906523628083	44.6093059139186	44.6733185787823	-93.0675973111621
3702781	-0.261473387347482	48.6034848122248	48.6041881346089	-90.308232569812
3157797	-9.1889904932208	45.6904118665429	46.6052709767771	-101.371302748655
2693047	-6.99113415486103	52.5698798041678	53.0327089577359	-97.5751708770153
2296687	-4.85743737535467	60.3998252823541	60.5948313966991	-94.597910286177
1958656	-2.09106815931399	69.6031876530359	69.6345912425041	-91.7208027179276
1670375	1.60950817343518	80.3588704871553	80.3749872941312	-88.8525759955027
1424531	6.62631409922885	92.3333136068143	92.5707774632792	-85.8951970401554
1214875	13.6060005157712	105.969047512963	106.838954884629	-82.6834821195496
1036062	21.4273982138013	120.707227147868	122.594323196223	-79.9339722522758
883578.1	32.142071632019	136.867960690004	140.591434419876	-76.7841367735441
753531.2	45.5616580028664	154.111207391673	160.705099246071	-73.5301375676576
642624.9	62.1698814858795	172.079540189423	182.965740825357	-70.1359355893026
548046.8	82.3603872809054	190.26240075391	207.323453891986	-66.5932802462292
467390.6	106.517104967508	207.491642289155	233.235235911107	-62.8260254474645
398593.7	134.211836820625	223.347662146546	260.570518917804	-58.997922530857
339937.5	165.38450748436	236.498664340174	288.589073858542	-55.0347448140473
289906.2	198.899188286226	247.714565868388	317.684423987522	-51.2377305874035
247234.4	237.501972596477	253.70781803377	347.526752810016	-46.8895997167793
210843.7	264.75381455903	248.508982689656	363.11333878144	-43.1871865516896
179812.5	300.27894187429	254.359352992388	393.530333504102	-40.2671644445849
153343.8	340.124459271808	246.726215236972	420.188616076281	-35.957123808181
130781.2	368.777702022446	232.657126483206	436.034783030412	-32.2473022988002
111531.3	395.521720257066	220.592475623968	452.877987428203	-29.1495143061782
95109.37	418.991619037444	208.694258554566	468.088955624098	-26.4772964454676
81109.37	440.080210097469	197.536361126967	482.380767948636	-24.173616497741
69171.88	458.573521232621	186.818968195196	495.167649643232	-22.165565583568
59000	471.665626536689	177.746760022072	504.046003807779	-20.6488718153433
50312.5	486.237300266568	166.798751785196	514.051102292	-18.9340091345168
42906.25	487.506275522858	158.129888932275	512.510907637977	-17.9712395034687
36593.75	499.349502843492	158.416651461787	523.87571183479	-17.6014238946015
31203.13	507.738391763322	158.554411387022	531.918956083246	-17.3423209204875
26609.38	516.402657397406	158.509297270373	540.182285796424	-17.0638175954303
22703.13	524.585981280661	161.616657509396	548.917476257318	-17.1232390483633
19359.37	532.058265854726	168.559105186548	558.120211249895	-17.5784998532183
16500	228.655611568702	165.983949706193	282.549217415171	-35.9763637309415
14112.02	237.186144436877	180.027360318371	297.770242932419	-37.1989697220814
12011.13	246.599618937962	196.974886244675	315.61127652771	-38.6165990875279
10236.38	256.778038144014	216.213217417223	335.683059237424	-40.098176272489
8750.684	266.429838879006	238.594813098959	357.648352271921	-41.8452678292917
7449.463	406.450312713019	5.35821561728515	406.485629732605	-0.755283851739559
6363.206	288.750593210658	294.731161891262	412.605577845574	-45.5872494597131
5414.761	607.039687307819	6.74839217102607	607.07719670868	-0.636924522252614
4620.567	315.248553931405	369.670528585797	485.837370383079	-49.5430360209656
3941.215	329.480446195256	415.931776151265	530.619078847878	-51.6154873913112
3361.769	346.022860225362	469.471995826297	583.211603677145	-53.6080455267039
2867.244	364.285435035607	530.199263219998	643.284646869572	-55.5081053556505
2442.658	384.112809612359	601.980337431807	714.088914045592	-57.458786005797
2083.003	407.354226204312	683.139713947021	795.372450100034	-59.1924989980834
1777.843	433.311087236328	774.241920134429	887.248020124799	-60.7660702866307
1513.548	463.982195541344	883.440023262615	997.870609087979	-62.2915704161665
1292.065	494.565633135976	1005.8642416972	1120.87378335131	-63.8174716161589
1101.762	529.661956056473	1144.46652249666	1261.08897735615	-65.1651829418657
939.101	578.79149834086	1311.77383395472	1433.78875361746	-66.191579536063
801.2801	627.515317672028	1490.04939518535	1616.79394914914	-67.1622273367941
684.3433	679.730439671139	1705.62474273069	1836.07985491663	-68.2715882197264
582.9476	745.27753942503	1944.71540019165	2082.63213230614	-69.0315594391879
497.0677	817.751555492067	2217.21921072462	2363.21362447749	-69.7550905428792
423.5089	901.673926985862	2535.71823449676	2691.26045476194	-70.4251646842847
361.5036	1533.18618282795	5690.68812003832	5893.60595482594	-74.9213936857943
308.1262	1511.88527342303	5847.99066556148	6040.26422472458	-75.5046647212374
262.7298	2651.53909994702	5396.7551693988	6012.95484408294	-63.8341446879972
224.2111	3281.00302055237	5671.22049111832	6551.92511249588	-59.9490897665536
191.2854	3723.73901144249	6161.2481160465	7199.11179054925	-58.8520474762167
163.1722	4883.78833617689	5718.02421822649	7519.78653106603	-49.4992219383719
139.1537	5942.50799712458	4487.42174820394	7446.49952945297	-37.0578903241863
118.6706	4649.30554891482	6070.44438703744	7646.32834393636	-52.5517806426463
101.1982	4619.64144212855	5397.13625843945	7104.23583828643	-49.4383566317952
86.24196	6143.63997458994	4255.12653131927	7473.31345086747	-34.7067350935552
73.61024	6282.80035617329	3964.42337794253	7429.0129246831	-32.2517713696022
62.69291	7112.53763244662	3721.398520225	8027.26594297848	-27.6193159227223
53.57697	6549.51563112989	4406.84002285527	7894.07334583698	-33.9346286279928
45.65746	8567.07908703411	2390.37238649061	8894.30853015534	-15.5900784731066
38.96512	7789.8159109452	2941.37866782146	8326.64040258316	-20.6861770973843
33.18414	6201.72158522251	3459.29212997174	7101.27120036259	-29.1525796303821
28.30617	6629.71496972344	4486.69803791714	8005.22203709707	-34.0884047706279
24.17237	6460.86403550715	2819.61882150853	7049.32722916981	-23.5771846217436
20.61345	6654.09457975906	2464.32471755631	7095.76429920962	-20.3219650157535
17.55618	6220.49902834485	3283.6202234736	7033.97255707215	-27.8282679010286
14.98558	8388.27907260507	2570.61408277237	8773.3279069263	-17.037845418577
12.76553	6175.292389365	3841.3992663865	7272.59131382645	-31.8840699749991
10.8809	5454.98094510548	2956.40957852273	6204.60915025634	-28.4561494304006
9.278505	5537.49170090405	4383.5940648815	7062.55699185823	-38.3658727563787
7.923394	8164.07170043911	1800.7482203921	8360.30865956252	-12.4385584984572
6.75822	8189.21354467628	2094.0976591188	8452.71929536503	-14.3439640236325
5.761429	7932.88693557885	1545.33216649065	8082.00140048665	-11.0232095050353
4.919708	7005.88069791195	-841.860370740403	7056.28041089627	6.85208248606083
4.191257	7048.39348451746	4629.91056027367	8433.0257030749	-33.2998945233909
3.564097	5494.73511480036	3139.09052907258	6328.19115794817	-29.7389217196072
3.051758	7461.60903296687	3428.78299976493	8211.70884897473	-24.6798820055185
2.604164	5391.66489464853	2365.83447001326	5887.88782804906	-23.6916157525871
2.214424	4735.76773464317	3414.27744429645	5838.21775057412	-35.7899232644059
1.892567	7352.9443087276	6807.84512278	10020.6060307253	-42.7955698987177
1.607507	10010.4139432052	4037.37727602477	10793.9243365552	-21.9650933806297
1.376413	7939.8284223338	2444.78747657341	8307.69891015014	-17.1143524729608
1.17375	6698.85646253117	7583.02253680962	10118.1474934574	-48.54256003742
1.001604	6140.25571360014	9019.70194932398	10911.3593783285	-55.7545173146025
