EC-Lab ASCII FILE
freq/Hz	Re(Z)/Ohm	-Im(Z)/Ohm	|Z|/Ohm	Phase(Z)/deg
6999984	-0.0723572911960335	-0.00262914790405252	0.0724050413157051	177.919037135928
5969734	-0.0445968018241729	0.0104346905916356	0.0458012827406365	-166.830928701438
5091109	-0.0284697012900134	0.0143564834881635	0.0318846751541944	-153.239453068463
4341796	-0.0203718680905927	0.0144260878039777	0.0249624722098711	-144.696251272605
3702781	-0.0160757596730454	0.0139353080032886	0.0212749349755065	-139.079546006938
3157797	-0.0124832435443004	0.0129613915361602	0.0179952504828347	-133.923441512776
2693047	-0.00999013395601369	0.01118703706253	0.0149984190732729	-131.765166794298
2296687	-0.00866919591959467	0.00976451351394125	0.0130575909744584	-131.599524695726
1958656	-0.00754368088320681	0.00897029768976101	0.0117206382893847	-130.062565410287
1670375	-0.00660833081576016	0.00766147144067551	0.0101177161853262	-130.779106428878
1424531	-0.00569061955079306	0.00732018819296626	0.00927190951489017	-127.861032378276
1214875	-0.00503506728896128	0.00628060383379906	0.00804971348070845	-128.718635606028
1036062	-0.00427789468843323	0.00641920520338986	0.00771405071337704	-123.680331234545
883578.1	-0.0042297685768393	0.00637022330139608	0.00764661278758554	-123.583787846066
753531.2	-0.00285373223180141	0.00524116500681858	0.00596771298568571	-118.567599645475
642624.9	-0.0029022643676526	0.00496012726478808	0.00574682529251064	-120.332710724935
548046.8	-0.00251075680218505	0.00424203064472237	0.00492937356166909	-120.620278242311
467390.6	-0.00187299840216694	0.00455199886961822	0.00492227759513068	-112.365560696302
398593.7	-0.0015232400646528	0.0038247244687469	0.00411688930582239	-111.715482781946
339937.5	-0.00103861634660815	0.00337777732952628	0.00353385110089592	-107.091885262579
289906.2	-0.000666407089668332	0.00331131424312798	0.00337770638538971	-101.37886579155
247234.4	-0.000618913460780967	0.00231920872176903	0.00240037142273137	-104.94197572791
210843.7	-0.000489663049172395	0.00237655295721063	0.00242647354408644	-101.642254489972
179812.5	-0.000325371350596414	0.00202499774351445	0.00205097108147033	-99.1281156849379
153343.8	-0.000190776770981358	0.00182650576349959	0.00183644196217667	-95.9628676415172
130781.2	0.000905439103347262	0.00068992402104947	0.00113833875656211	-37.3065769255849
111531.3	2.58726127918896E-05	0.00136902444293528	0.00136926889888251	-88.9173202263525
95109.37	0.000715813317685468	0.00134500886310963	0.00152362644621946	-61.9781052064504
81109.37	0.000388776943242793	0.000548785484212679	0.000672542206318498	-54.6850400237892
69171.88	0.0001879873455652	0.000324129904608461	0.000374699128840914	-59.8873249162385
59000	0.00380818616353823	-0.00108814686167937	0.0039605991274991	15.9466988639519
50312.5	0.000237180170994735	0.000629387503085698	0.000672594277818018	-69.3514417762095
42906.25	-6.82719704528043E-05	0.000663572887196522	0.000667075736758455	-95.8742310706104
36593.75	0.000541202119865929	0.000215872325865415	0.000582666796395607	-21.7458510803229
31203.13	0.000757580727924289	0.000466486120719146	0.000889684135042259	-31.6230017556477
26609.38	0.000991359441416323	-0.000122288564521635	0.000998873382915996	7.03216312107045
22703.13	0.000919380820729694	0.000723188769648914	0.00116972778460286	-38.188737124436
19359.37	0.000727527597000156	8.06083360884346E-06	0.000727572251694146	-0.634797702917088
16500	0.00402018994722089	-0.00520439788332705	0.00657629717544113	52.3153438789076
14112.02	4.96335571662707E-05	0.000216147395109657	0.000221772826129956	-77.0674644032363
12011.13	0.000635943009614811	0.000222888610472024	0.000673871533866874	-19.3148083443166
10236.38	9.14309397718034E-05	4.32934163492079E-05	0.00010116292130391	-25.3379985177397
8750.684	0.000233960514529087	2.43262272007697E-05	0.000235221784043355	-5.93604329278362
7449.463	8.37980260928974E-05	1.10799040383463E-05	8.45273532684235E-05	-7.53204587901029
6363.206	0.00111441746238591	9.51806898470843E-05	0.00111847469537331	-4.88169781733979
5414.761	0.000431759382728278	0.00072957132940404	0.000847756149645806	-59.3830074649644
4620.567	0.000528494233513261	-8.40750855330158E-05	0.000535139958201734	9.0391082266988
3941.215	0.00118958628332019	0.000714620990190867	0.00138773148882805	-30.9945300797467
3361.769	0.000660246984317383	0.000261290664432187	0.00071006963857048	-21.5910264249226
2867.244	3.41496985919859E-05	-3.00073924203338E-05	4.54603730054142E-05	41.305822335598
2442.658	0.000586029259751739	-5.33997640336719E-05	0.000588457159089787	5.20648925675001
2083.003	0.000665003054726393	0.00048490569036562	0.000823020407611131	-36.0987131385137
1777.843	0.000484342643709656	-3.18654251597831E-05	0.000485389742203389	3.76412644920326
1513.548	0.00043563827713735	-0.000145614163396713	0.000459330156955673	18.4824496370183
1292.065	0.000293474784016936	0.000189931118945909	0.000349572994949313	-32.9101514424091
1101.762	0.000720462504954201	-0.000989961402575672	0.00122437322726139	53.9540604687613
939.101	0.000821872908965942	0.00019261979803016	0.000844143035915904	-13.1901702636878
801.2801	-0.00423576176643063	-0.00433076406501214	0.00605782098850371	134.364619015027
684.3433	0.000202945718128806	-0.000188751657907586	0.00027715366291947	42.9246630195386
582.9476	0.000270413719910062	-0.000346974625446138	0.000439903365091795	52.0690293227809
497.0677	0.00109966707647195	0.000143597856824028	0.00110900316661443	-7.43975956694857
423.5089	0.000736501481535795	-0.000948908999662464	0.00120119220857648	52.1829562507647
361.5036	0.0015804523971809	-0.000828874420477791	0.00178461833025363	27.6749386654736
308.1262	0.00238293233530652	0.000140050844968832	0.002387044355228	-3.36354587152652
262.7298	0.000691814925560033	0.0012421610899104	0.00142181998316068	-60.8846152544433
224.2111	0.00241308723042295	-0.000423222533065623	0.00244991985463296	9.94772188695111
191.2854	0.00332576082342645	0.000694713525128015	0.0033975449866976	-11.7987766356803
163.1722	0.00215289785116993	0.00409055159422691	0.00462250813980942	-62.2417230879901
139.1537	0.00448273173147065	-0.00176475377139363	0.0048175968749971	21.4884784387501
118.6706	0.00408993389072103	-0.000751964390500951	0.00415848646445433	10.4179025127914
101.1982	0.0127783297544495	0.00732017487655597	0.0147265295143429	-29.806605223946
86.24196	0.00620458770611206	-0.00710892565747545	0.00943576878724514	48.885922184886
73.61024	0.00964491053596745	-0.00139092599581767	0.00974468954726918	8.20624531654073
62.69291	0.00956431918867998	0.000281558632540472	0.00956846261457452	-1.68621135332324
53.57697	0.00915233810096121	0.016106008067582	0.0185248154805203	-60.3923299168668
45.65746	-0.0101006591520874	0.00789953088366468	0.0128228664302729	-141.971722365199
38.96512	0.0173728042522308	0.00448376431362373	0.0179420865566537	-14.4717164232128
33.18414	0.0121083538887078	0.0157473075904342	0.0198642878110929	-52.4427467742329
28.30617	0.0118327262763937	-0.0109845472727035	0.0161453922194017	42.8711430318955
24.17237	0.0229361133883669	-0.0252471243154491	0.0341098605034345	47.7459710852716
20.61345	0.0348727919728304	0.00948776268581147	0.0361404103568648	-15.2199420078741
17.55618	0.00691256670711658	0.045176943293366	0.0457027327827597	-81.3005911852218
14.98558	0.0717105691261197	-0.00131825541601575	0.0717226848475003	1.0531497125254
12.76553	-0.00571179986319031	-0.0988717078546348	0.0990365552297201	93.3062915286136
10.8809	0.0810401561504927	-0.00762606506148341	0.0813981804294066	5.37583380859446
9.278505	-0.010533284467962	0.0721160283954735	0.0728812159148004	-98.3098746577116
7.923394	0.049433142029526	0.00598872251184179	0.0497945813139856	-6.90760209640901
6.75822	0.162534883153042	0.0786833995125193	0.180578696419095	-25.83169906107
5.761429	-0.0230621776541913	-0.226395319940631	0.227566924066689	95.8164769248612
4.919708	0.088422309555713	-0.173705811854307	0.194915914945728	63.0223207880764
4.191257	0.152957705346342	0.0563792129881725	0.163017407910886	-20.2335576279648
3.564097	0.409481223454338	-0.181090494099355	0.447737243720924	23.8571088821327
3.051758	0.097886034183884	0.249202005555784	0.267737399817944	-68.5552023283162
2.604164	0.262799132982071	-0.127358598948456	0.292033554617003	25.8559122574923
2.214424	0.0821058633963917	0.173005758923364	0.191500301369779	-64.6117057117693
1.892567	0.302479915826207	-0.0528543176855214	0.307062987636464	9.91160262754606
1.607507	0.386577699734453	0.103262808904394	0.400131885301342	-14.9556881431818
1.376413	0.173544104660134	0.308160813468614	0.353667418940345	-60.6134916257874
1.17375	0.312350689611935	0.278920458202294	0.418759567418858	-41.7639651181626
1.001604	0.276187864864931	-0.00927031933411144	0.276343401439596	1.92242638239521
