EC-Lab ASCII FILE
freq/Hz	Re(Z)/Ohm	-Im(Z)/Ohm	|Z|/Ohm	Phase(Z)/deg
6999984	16.6086346084483	3.26926847759481	16.927340604346	-11.1358186300903
5969734	12.8767322269083	1.40612713902814	12.9532785955761	-6.23195307565689
5091109	12.5293203768288	-4.08839549853499	13.1794858343434	18.0718279739819
4341796	9.94280892686823	-3.96238903792881	10.7032694184585	21.7281753323431
3702781	4.83290155158244	-5.70719753251908	7.4785721285871	49.7418008096744
3157797	4.09396326178558	-4.7376738918836	6.26147659060429	49.1687398821405
2693047	3.02956432039036	-4.51907054218438	5.4406119634303	56.1622799182412
2296687	2.42481586862012	-3.88689697652575	4.58123346958403	58.0422862243583
1958656	1.69562598846961	-3.09431137743087	3.52844305512667	61.2780653723596
1670375	1.58581945940692	-2.87709031024641	3.2851897983446	61.1369458674189
1424531	1.22576317801087	-2.41084621519495	2.70456555510994	63.0495362833451
1214875	0.983977487026	-1.97439857344711	2.20600576196074	63.5097932801737
1036062	0.814671975233288	-1.84769927508651	2.01932737276196	66.206762917634
883578.1	0.668246012518098	-1.53091645520337	1.67040651521083	66.4187000060529
753531.2	0.698695052397387	-1.32814764215388	1.50071680726362	62.2526092860976
642624.9	0.632434566983751	-1.1821112483615	1.34065673646117	61.8530285197734
548046.8	0.593430353237772	-1.03351108907277	1.19176539443814	60.1360458951048
467390.6	0.53087522207751	-0.840356862171184	0.993996054928813	57.7183358869913
398593.7	0.503045051888898	-0.78931366789898	0.935986319644708	57.4898403182931
339937.5	0.494452269002121	-0.63450011409805	0.804408752508192	52.0714815821441
289906.2	0.475963520405262	-0.588910466889308	0.757203282328037	51.0544986845207
247234.4	0.473681523589459	-0.504346521897627	0.691910109725436	46.795858091918
210843.7	0.454786559324957	-0.430172543702392	0.626002581382872	43.4068012745633
179812.5	0.40494248768671	-0.357300500079964	0.540038948309558	41.4235307850297
153343.8	0.410976102531145	-0.325445578918204	0.524229130904698	38.3751546726598
130781.2	0.396660375754623	-0.272261372154662	0.48110883224208	34.4650844138808
111531.3	0.460803761973425	0.0868202280247041	0.468911355208127	-10.6700383201166
95109.37	0.398921110634657	-0.221034755948877	0.456064047966256	28.9900200447476
81109.37	0.440456828598919	-0.117867918965616	0.455955112023873	14.9815342693202
69171.88	0.471010983909755	-0.164574462628122	0.498934966416436	19.2597642889384
59000	0.510016910066734	-0.128454115220727	0.525944586692514	14.1366335158864
50312.5	0.534679381142139	-0.0983053952868826	0.543641417996321	10.4179712677268
42906.25	0.613093400226758	-0.109381480077114	0.622774297466962	10.1156615462819
36593.75	0.668872408217098	-0.099195184460054	0.676187831223103	8.4356003219316
31203.13	0.71489842072693	-0.0874523531711062	0.720227509911293	6.97424854713863
26609.38	0.767587717388708	-0.0763780332670567	0.771378316944255	5.68245331857431
22703.13	0.775713909925402	-0.0673359224694991	0.778630975820107	4.96112982126775
19359.37	0.769587482503204	-0.0604848256930095	0.771960690297591	4.49385695623778
16500	0.762189347738053	-0.0551721076561322	0.764183592645497	4.14021136226477
14112.02	0.762021975383507	-0.0490564546740975	0.763599388889602	3.68342992742145
12011.13	0.750991420786694	-0.044875657865877	0.752331003457994	3.41965562840368
10236.38	0.737688406860349	-0.0402915417373471	0.738787922175053	3.12631155053701
8750.684	0.733570321450181	-0.037277302511421	0.734516857393382	2.90905512194813
7449.463	0.737316159867564	-0.0322742117980612	0.738022184184891	2.50638267536137
6363.206	0.741448908090332	-0.0323215012778933	0.742153058845143	2.49607745645814
5414.761	0.739872942088223	-0.0293109882634405	0.740453310119728	2.26865732954143
4620.567	0.750081380807795	-0.0370879960699061	0.750997734541862	2.8307014245906
3941.215	0.709395900698193	-0.0270280615421298	0.709910600032234	2.18192011372555
3361.769	0.67857359444312	-0.0234268754845096	0.678977865302266	1.97727735099647
2867.244	0.675733396230227	-0.0263301357734603	0.67624618211912	2.23141679173131
2442.658	0.665694851672674	-0.0244916701829205	0.666145237505945	2.10702650849282
2083.003	0.656843638258697	-0.0232266659263349	0.657254169352295	2.02519381140326
1777.843	0.649089777908469	-0.0218301431668589	0.649456769104727	1.92624170835299
1513.548	0.635154621175172	-0.0206292399170635	0.63548954227409	1.86026046162352
1292.065	0.642094452458248	-0.0124321614744551	0.642214796245449	1.10921592461013
1101.762	0.634427694695931	-0.0186248679621153	0.634701020563068	1.68154690391308
939.101	0.62374025456782	-0.0101641357080218	0.623823063715201	0.933578577301754
801.2801	0.621668765442723	-0.0222892382852099	0.622068214965541	2.05339651295299
684.3433	0.651812675623164	0.00316886964754819	0.651820378507662	-0.278548474131447
582.9476	0.630775179701135	-0.0174884568450492	0.63101756984241	1.5881381675307
497.0677	0.63851874324289	0.00102266462547486	0.638519562202612	-0.0917660090879634
423.5089	0.595776131937427	-0.0266509502720346	0.596371924671781	2.56131385805394
361.5036	0.612085685414514	-0.0207837618568641	0.612438446740795	1.94476772570075
308.1262	0.60938072187449	-0.0156219401666277	0.609580929169249	1.46849942328723
262.7298	0.618390317684197	-0.0216599887880311	0.618769537162148	2.00604498893219
224.2111	0.669765357090506	-0.0252476626918308	0.670241059641958	2.1588155906369
191.2854	0.621044868968069	-0.00662839029436453	0.621080240250373	0.611492644600142
163.1722	0.603719115471663	-0.00909163452158447	0.603787568772463	0.862773598895077
139.1537	0.648301110019471	-0.0309537863125338	0.649039649127509	2.73356846253987
118.6706	0.56482490299313	0.00287169678356474	0.564832203121968	-0.291302113580602
101.1982	0.590058427876579	-0.0212507943681242	0.590440974670166	2.06260050697397
86.24196	0.597667907465015	-0.00983746206937914	0.597748863046661	0.942988836128982
73.61024	0.506627945131208	-0.0491231853967321	0.509003892059178	5.53814759533487
62.69291	12453.0505805778	-39.0423966177671	12453.1117826494	0.179631264210897
53.57697	14313.0215434554	-3383.97494842631	14707.6127279377	13.3019715182516
45.65746	0.57275855055353	-0.050591377761422	0.574988560526189	5.04779713623262
38.96512	0.576002119692923	-0.0133626849935945	0.576157099445089	1.32896758439681
33.18414	0.581290270021556	-0.0217743576825489	0.581697946252366	2.14522044807404
28.30617	0.588635551268377	0.0397186586091738	0.58997405371655	-3.86022751426496
24.17237	0.592590336934055	-0.0309850452717647	0.593399848717633	2.99312521922767
20.61345	0.599935146570647	-0.0127725927351625	0.600071095134503	1.21964036159231
17.55618	0.561363500779414	-0.0147076970044636	0.561556138207476	1.5008033567345
14.98558	0.572387475461351	0.00248897050368871	0.57239288695719	-0.24914347794442
12.76553	0.572484065285627	-0.016101780234324	0.57271046116923	1.61108570018348
10.8809	0.537515907127108	-0.00691737841166866	0.537560415710428	0.737307873875124
9.278505	0.570688113855431	-0.0155000178879081	0.570898567041812	1.55578381379746
7.923394	0.564134808577278	-0.0155924069210926	0.56435025064415	1.58322390852186
6.75822	0.559600463109016	-0.000854936987877604	0.559601116179265	0.0875343147004657
5.761429	0.57353106611294	0.029987932260244	0.574314513030874	-2.99307021527934
4.919708	0.550451870535119	-0.00675297955530082	0.550493291974103	0.702873110387762
4.191257	0.554206241273915	0.00965395769940161	0.554290318124196	-0.997958979951629
3.564097	0.580356198750269	0.0114476465347785	0.580469091372699	-1.13002460581369
3.051758	0.576045957352616	-0.0290313936191904	0.576777051205892	2.88513470695921
2.604164	0.558984686903848	-0.0138114753703445	0.559155288846397	1.41538451680521
2.214424	0.562173121457285	-0.0095747620174389	0.562254652765736	0.975749989896768
1.892567	0.552444702178323	-0.0173966288416127	0.552718546513457	1.8036631176627
1.607507	0.556720077884387	-0.0106040048439062	0.556821057466694	1.09119697491106
1.376413	0.566315824309378	0.00358600956286999	0.566327177811374	-0.362801917905434
1.17375	0.554791318783165	-0.0176148033127083	0.555070886187439	1.8185485611802
1.001604	0.543126353473855	0.0236091747000047	0.543639245242488	-2.48902491895788
