EC-Lab ASCII FILE
freq/Hz	Re(Z)/Ohm	-Im(Z)/Ohm	|Z|/Ohm	Phase(Z)/deg
6999984	-5.51843251259549	28.4386919409189	28.969161132255	-100.981576856407
5969734	0.227081219542351	33.0375159419175	33.0382963467053	-89.6061873834382
5091109	5.61526738946624	34.357885868421	34.813726448093	-80.7179504033533
4341796	10.5466939674334	35.8540064994043	37.3730188197585	-73.6084036024725
3702781	15.5445815598234	36.2687329016331	39.4595362638742	-66.80028989761
3157797	20.5892001906952	36.2423765203349	41.6824305953269	-60.3992054104084
2693047	25.8844763934683	35.7018594897523	44.0979465416479	-54.0572272493526
2296687	30.793849604485	34.3937342642988	46.1648148496974	-48.1608612838818
1958656	35.0782391171603	32.5394979994848	47.8466486769883	-42.8498118131827
1670375	37.5811065330426	28.5111514567384	47.1722940467916	-37.1860094167555
1424531	37.7578953292693	23.0187181203046	44.2212623474059	-31.3681501283735
1214875	39.7813135263882	20.9892548445507	44.9789031081716	-27.8168431225937
1036062	41.4120151441518	19.1020983336372	45.6053194161317	-24.762433764641
883578.1	42.8682552239329	17.4038392260857	46.2664125014215	-22.096380929806
753531.2	44.0483043814206	15.8407140204945	46.810055966185	-19.7796719218181
642624.9	45.0674262683008	14.5686791686368	47.3636920348002	-17.9141557183398
548046.8	33.1854290983993	9.61160045410635	34.549320799898	-16.1527688645487
467390.6	33.7211660968465	9.17731087075617	34.9476762854072	-15.2244798336115
398593.7	34.1775207727714	8.85572892925589	35.3061872912055	-14.5264281630698
339937.5	34.5480583498632	9.09571274542249	35.7253457099129	-14.7499504581062
289906.2	36.0514943598659	8.33678803237283	37.0028685411842	-13.0205862154849
247234.4	34.9030051592295	9.76570527678305	36.2434651861296	-15.6313830005576
210843.7	36.8160896151586	9.03885334947859	37.9094358230873	-13.7940620501777
179812.5	36.7434915997572	8.66744879998208	37.7519382766202	-13.2729053693046
153343.8	37.1455629549603	9.32288803020123	38.2976381577844	-14.0892155287614
130781.2	37.7507371158648	9.73545105860911	38.9858584631108	-14.4607958476376
111531.3	38.5470788792408	10.22223982196	39.8794618456678	-14.8523150977843
95109.37	39.249171008228	10.8147302928934	40.7118633341825	-15.4050302940132
81109.37	40.0519093877209	11.3821076892199	41.637817198446	-15.8642960738562
69171.88	40.7938846555846	12.1948957077129	42.5776526668056	-16.6434728386105
59000	41.6836772809242	13.0062913268125	43.6656909453882	-17.3291543503554
50312.5	42.8372537508823	13.8116861680443	45.0088100678304	-17.870479145617
42906.25	43.0848621450741	14.6527462138786	45.5083323982364	-18.7826737920889
36593.75	44.4124487302064	16.0517935975878	47.2242065037918	-19.8711503633887
31203.13	45.9979284672416	16.4636199934025	48.8555033395894	-19.6933501004037
26609.38	24.3765209546499	18.154806864607	30.3942722588265	-36.6774921848431
22703.13	25.8912938619036	19.4801821176213	32.4011819719457	-36.95719872127
19359.37	27.5071208173097	20.8799393612982	34.5342375533261	-37.2011870687485
16500	29.2053473929739	22.3677272936703	36.7867848639737	-37.4477021601036
14112.02	30.940049342109	23.9009615117731	39.0965805983003	-37.6858234197599
12011.13	32.7707653963872	25.5809582577792	41.5729297746898	-37.9757056866284
10236.38	34.6584532938448	27.1918239014738	44.0522833892908	-38.1165043352039
8750.684	36.4295779184794	28.762817665663	46.4156635995515	-38.2927060459405
7449.463	38.2575900934069	30.5429762066705	48.9542295957804	-38.6021433623568
6363.206	40.0828231982237	32.3279077162894	51.49491560196	-38.8871382992328
5414.761	41.9143939464772	34.2681177847568	54.1398219096669	-39.2685391147175
4620.567	43.6360566377187	36.1413898087913	56.6595578539155	-39.6331178893372
3941.215	45.8535578887001	38.3264716533042	59.7617536593757	-39.8903988576628
3361.769	48.0968124543593	40.8513518218248	63.1041703371522	-40.3431329186413
2867.244	50.7849797779957	43.4660053109456	66.8461501415196	-40.5596593989992
2442.658	53.7012969253521	46.5827043897739	71.0899264293465	-40.9397080340874
2083.003	57.0087141841506	49.7698598990459	75.6771593501026	-41.121673700243
1777.843	60.5440887257305	53.6337816200483	80.8836770337264	-41.5365524396972
1513.548	64.4529962221679	57.8477664489369	86.6057319416304	-41.9085682064977
1292.065	68.8774767984967	62.5817841873105	93.062272281492	-42.2581526756188
1101.762	72.534012492185	67.2831638650208	98.9353683366251	-42.8492617736994
939.101	77.6143868020952	72.7394029908635	106.37205359554	-43.1429255620158
801.2801	83.2911795867221	77.8549235351252	114.012322648071	-43.0678623612757
684.3433	89.1050401801466	84.7115911613596	122.946174656208	-43.5520804530966
582.9476	96.0785586524674	91.576421995774	132.730292315973	-43.6256482339914
497.0677	103.34018039495	99.3614745592353	143.359323068457	-43.8755208580259
423.5089	111.317578200079	106.95495969438	154.372816970985	-43.8549803210705
361.5036	118.745568614691	114.576829017721	165.010180938578	-43.9764129961705
308.1262	127.380502662695	123.735037505207	177.584210911376	-44.1682908321819
262.7298	137.186549257937	133.654483554329	191.529815620114	-44.2528422140093
224.2111	147.463016508238	142.65506925483	205.172634680674	-44.0505594644384
191.2854	155.506313730416	148.904864506055	215.301816721525	-43.7576806283014
163.1722	165.410583659724	155.917506264248	227.312406054558	-43.3077884379867
139.1537	-41.7021250232479	340.228260307549	342.774468628217	-96.9879464327857
118.6706	-160.187257510724	526.403572364265	550.236929391937	-106.925269135755
101.1982	-433.626981374983	60.59977503825	437.840943392765	-172.044386270892
86.24196	-69.2984023599672	537.416410988389	541.865912721297	-97.3475920407893
73.61024	-100.442309719698	427.881490841503	439.51248877202	-103.210611862584
62.69291	-486.189590533175	113.727631916025	499.313821362921	-166.834309152429
53.57697	79.6310931614858	538.684161868123	544.538095311664	-81.5911380831327
45.65746	-150.98690523854	497.35866595652	519.771765446682	-106.887110146599
38.96512	-478.387460113275	247.75917401574	538.738498997976	-152.620142987706
33.18414	-466.479199799073	326.055173850298	569.135151119425	-145.04758899258
28.30617	-388.155971603241	331.674510812048	510.561494252815	-139.486517928819
24.17237	-400.134602160905	311.469856714376	507.071170042372	-142.102356742489
20.61345	-373.524830028067	307.777509893678	483.991522904946	-140.512112382104
17.55618	-388.057636612079	305.558467862143	493.917712392675	-141.782932771704
14.98558	-619.00291512535	395.97556972766	734.820563644503	-147.392991726948
12.76553	-629.007697286563	329.434018838688	710.054544393565	-152.357327247079
10.8809	-428.189418643132	316.079781868086	532.214812593299	-143.56609202171
9.278505	-390.693094373855	327.284839362491	509.663084858958	-140.046985244016
7.923394	-311.753140645461	324.516181475679	450.000858601253	-133.850847760133
6.75822	-410.447009032149	235.650731348892	473.284284979656	-150.138490889656
5.761429	-289.27171100646	217.59336568006	361.973749844628	-143.049112203163
4.919708	-453.509975006664	270.243099155293	527.922939520156	-149.209611712189
4.191257	-456.864895686265	177.826627409562	490.252835102746	-158.732399450382
3.564097	-425.283437169044	234.184286305555	485.497973098507	-151.160418413051
3.051758	-221.779818717461	133.65829901165	258.941748053568	-148.924221434435
2.604164	-585.027523328221	140.780167327761	601.72772793381	-166.469678811608
2.214424	-447.095503310817	277.037644250986	525.969814165118	-148.216045599653
1.892567	537.452265990871	-294.003615455388	612.611674814936	28.6800727958937
1.607507	636.007650061676	120.473033218637	647.317142264806	-10.7259303530316
1.376413	381.144214473193	120.751521488665	399.814759817862	-17.578889464519
1.17375	548.031308316042	722.2409963858	906.625816836773	-52.8090329630821
1.001604	284.868661185846	-376.400420489898	472.046004824517	52.880709983253
