EC-Lab ASCII FILE
freq/Hz	Re(Z)/Ohm	-Im(Z)/Ohm	|Z|/Ohm	Phase(Z)/deg
6999984	45.0007725712996	64.7505488863902	78.8524134893958	-55.2012119718446
5969734	42.1339990978469	61.5096756843945	74.5567842840392	-55.5889382413876
5091109	42.508943745331	61.6869642112595	74.9152311078656	-55.4289856137209
4341796	46.3612144422467	62.9926948236235	78.2140767745944	-53.6477629610623
3702781	53.5494811791205	62.6259056820546	82.3987317684598	-49.4672680821375
3157797	60.2197288301778	61.8249452000334	86.3060808365626	-45.7535504597498
2693047	67.0544326042261	60.6197591725825	90.3938722149715	-42.1147814465432
2296687	74.4903543013903	59.0541389540398	95.0589512436872	-38.4065241119432
1958656	81.6839965040399	56.2635430660246	99.1859947936925	-34.5588833345217
1670375	88.5717845596074	52.8541473239238	103.143210680163	-30.8261320541798
1424531	94.6117109047473	48.6513911905317	106.387657672766	-27.2132091671115
1214875	99.701076272795	44.2994081734609	109.09968915846	-23.9566431103029
1036062	103.909006057327	39.9788711988469	111.334593375804	-21.044172586938
883578.1	107.292010298648	35.7841689831767	113.102087618848	-18.4446401521176
753531.2	110.090610650152	31.8277394463248	114.599073083452	-16.124842901614
642624.9	112.318047794839	28.2656965857254	115.820090933828	-14.1255983487522
548046.8	114.116037360118	25.0241372465436	116.827554231482	-12.3684341939111
467390.6	115.358996628736	22.1491723146743	117.466096970206	-10.8686426806428
398593.7	116.540642595896	19.6079246129016	118.178644789529	-9.55054754336642
339937.5	117.38647210629	17.4813799007323	118.681011441572	-8.47032729389448
289906.2	118.070711226302	15.6612538363849	119.104860191398	-7.55577779088461
247234.4	118.617026780398	14.1914828956738	119.462953374675	-6.82250640467618
210843.7	119.118570087165	12.9361496043858	119.818937176883	-6.19797094882768
179812.5	119.506316387123	11.8499373477392	120.092383903245	-5.66279055296101
153343.8	119.836598392103	11.2567908831549	120.364137745332	-5.36630380158805
130781.2	120.199499659518	10.7989790190424	120.683626338672	-5.13379179874601
111531.3	120.533803118312	10.5097819335427	120.99112864361	-4.98322479272138
95109.37	120.809140414381	10.459353465004	121.261067464242	-4.94818670467574
81109.37	121.096188181787	10.7034611478338	121.568297153089	-5.05113805313603
69171.88	121.513009104498	10.9201809259747	122.0027119907	-5.13528549971792
59000	121.909838047739	11.4396912933692	122.445396604827	-5.36078392618976
50312.5	122.345718483912	12.1771936184524	122.950229262763	-5.68398712659188
42906.25	122.746491084949	13.0643245528637	123.439773370215	-6.07531214404607
36593.75	123.219750178596	14.2475302024176	124.040714892105	-6.59564949527208
31203.13	123.72118918314	15.648663416406	124.706909670676	-7.20867995859435
26609.38	124.350017307389	17.3339199544082	125.552345996934	-7.9356774569461
22703.13	125.061407524414	19.3547438766115	126.550234146433	-8.79741171040081
19359.37	125.705446257755	21.5650884805463	127.541805930585	-9.73447845475932
16500	126.50637645398	24.2889026477667	128.816978987045	-10.868384849635
14112.02	127.404833899742	27.2945286299219	130.295752018823	-12.0919591394487
12011.13	128.413090865948	30.8874513674229	132.075571388963	-13.5245484329261
10236.38	129.510933287705	35.0265500505273	134.163858954245	-15.1337347780187
8750.684	130.692633361286	39.687637988796	136.585771674934	-16.8920448484501
7449.463	132.088526239408	45.1780574037945	139.600987227453	-18.8821564540575
6363.206	133.554030528297	51.3550790814519	143.087467018658	-21.0330801240242
5414.761	135.183466917201	58.6851975847368	147.372053467791	-23.4663975024771
4620.567	137.068749680321	67.0707247192975	152.598572251834	-26.0735101689271
3941.215	139.266845772571	76.6546565202495	158.969150144544	-28.8290762000954
3361.769	141.413830403998	87.7550745316123	166.429638392865	-31.8218811359156
2867.244	144.150935878002	100.359128596969	175.645799856549	-34.8459695673499
2442.658	147.075121473271	115.190999801887	186.815571598664	-38.0684732832381
2083.003	150.439857016746	132.115984680564	200.21684241675	-41.2895388750604
1777.843	154.270051064549	151.644213279469	216.322019398414	-44.5082095032991
1513.548	158.704542283269	174.420863658158	235.817237327129	-47.7011199490688
1292.065	163.575266999819	200.345320663695	258.640900643925	-50.7695094772226
1101.762	169.402266463046	230.516835566292	286.068417275158	-53.6885690152315
939.101	175.756284913963	265.745537333603	318.607850341895	-56.5205217796467
801.2801	183.749192317264	305.134160134976	356.189024758658	-58.9440072023352
684.3433	192.474547041943	350.902032233935	400.223297029179	-61.2546313985387
582.9476	202.981241854542	404.382420563618	452.467155278372	-63.3454689845302
497.0677	215.187148630492	465.916058235646	513.208809606347	-65.2097590583268
423.5089	229.111468002384	536.3664243732	583.250380167127	-66.8700188612774
361.5036	245.913811925479	616.380290180301	663.625093722707	-68.2497585277319
308.1262	265.345695574497	710.089290229696	758.046923520455	-69.5103229727993
262.7298	287.969843777188	817.115349197952	866.374125202242	-70.5863950078345
224.2111	314.807894637563	938.744680244994	990.124025167762	-71.4611296736607
191.2854	345.852683610989	1079.34531764985	1133.40213229621	-72.2330757110404
163.1722	383.389676598825	1240.17503395673	1298.08387979056	-72.8214460708603
139.1537	426.6466182724	1424.76645266429	1487.27495155431	-73.3296596351413
118.6706	477.860280322538	1636.75086171601	1705.08176661356	-73.724484851766
101.1982	538.943804560497	1877.72272929314	1953.53604332713	-73.9854671274481
86.24196	609.700090020577	2152.76657919818	2237.44008730596	-74.1869763839956
73.61024	692.754246784075	2466.17394919612	2561.62495188717	-74.3098185352716
62.69291	790.507044670743	2828.49361845665	2936.8822818295	-74.3853916684494
53.57697	907.16834768131	3233.73826329857	3358.57373993129	-74.3294709876446
45.65746	1039.17422706855	3697.96470865294	3841.20112212914	-74.3039743657613
38.96512	1195.22896256503	4223.47391406595	4389.33983370505	-74.1986647230163
33.18414	1379.05397684489	4829.54705771714	5022.58047757883	-74.0635612749244
28.30617	1583.76786309142	5500.19209662315	5723.67309897385	-73.9363646444054
24.17237	1836.93758273748	6272.18083544766	6535.64014580288	-73.676241805416
20.61345	2124.40813888685	7145.84328535724	7454.94374220582	-73.4431625743567
17.55618	2455.4031482691	8140.07079488736	8502.33833520567	-73.214380526761
14.98558	2841.95371457412	9249.76126984767	9676.50683175264	-72.9206250651974
12.76553	3279.33679071231	10518.6468739693	11017.9844729508	-72.684394566265
10.8809	3790.79288612621	11950.4507690375	12537.2797802671	-72.4004939787777
9.278505	4377.98854164351	13569.5256585122	14258.2891774498	-72.1185414477938
7.923394	5023.21752722803	15378.9302432075	16178.5107395981	-71.911417204854
6.75822	5781.48903215364	17425.9375646542	18359.9813571838	-71.6454501963543
5.761429	6641.78252858011	19773.255000561	20858.9282676307	-71.4329401501403
4.919708	7645.954647888	22387.578324522	23657.2248100695	-71.1435964635992
4.191257	8803.93943734222	25347.0603168435	26832.4955291544	-70.8460594805878
3.564097	10112.8638631535	28768.2189544965	30493.9409937208	-70.6319451525474
3.051758	11612.0893771866	32432.3845663298	34448.5150385626	-70.3006036596232
2.604164	13310.7567707351	36655.2102280969	38997.1881380651	-70.0423142855782
2.214424	15362.705419806	41526.0048432252	44276.6506869625	-69.6978520591456
1.892567	17623.3334282714	46836.6935764835	50042.5593500317	-69.380089665966
1.607507	20295.5850513832	52992.7542585948	56746.3018750098	-69.0437634402242
1.376413	23324.2848920796	59595.3353050718	63997.0800572248	-68.6257334328968
1.17375	26699.8225962996	67255.7597320653	72361.7146273578	-68.3474478318017
1.001604	30600.0957412383	75700.2104709422	81651.0117801237	-67.9900940549786
