EC-Lab ASCII FILE
freq/Hz	Re(Z)/Ohm	-Im(Z)/Ohm	|Z|/Ohm	Phase(Z)/deg
6999984	2.52646458609158	1.77038712418395	3.08501116274337	-35.020349272298
5969734	4.03385011144169	1.34063712347047	4.25079458671027	-18.3840613244384
5091109	6.08320384738158	0.902412414363434	6.14977375310632	-8.4380010150932
4341796	3.01902599060269	-3.77625997398745	4.83473446251956	51.3585330089289
3702781	-0.297481655959395	-4.29046909830238	4.30076974728013	93.9662816128248
3157797	-0.228766069000519	-3.77478682948723	3.78171251186499	93.4680948099585
2693047	1.00011786564973	-4.61047722183697	4.7177045221452	77.7608579269036
2296687	-2.85319006383974	-6.14262305758819	6.77292489017912	114.914420743721
1958656	0.0194132372504948	-2.6130066175006	2.61307873147413	89.574330930029
1670375	-2.17496393893135	-4.06226972245913	4.60787406877184	118.164867611278
1424531	1.33803388647864	0.104486856102656	1.34210736696561	-4.46515692732188
1214875	0.531880464817656	1.09459547750475	1.21697826119799	-64.0841834697923
1036062	0.234427957879693	0.340178872740782	0.413132101021976	-55.4280516925149
883578.1	0.0417116841927402	0.276052084792871	0.279185633793513	-81.4075624055728
753531.2	1.10906059097138	1.01305727755023	1.50209867919631	-42.4097401194766
642624.9	0.463232450106926	-0.0101762176294984	0.463344211399375	1.25846226291699
548046.8	0.473911083747923	-0.0338211714113751	0.475116393039399	4.08205385422781
467390.6	0.482397529986605	-0.0278467840069461	0.483200600492908	3.30377835208525
398593.7	0.48403448333634	-0.0228601827979527	0.48457400778027	2.70397977608372
339937.5	0.486541211018476	-0.0186127046764666	0.486897096720343	2.19079007335197
289906.2	0.48883948472261	-0.0166879202283378	0.489124246491026	1.95519441165654
247234.4	0.489136798977616	-0.0147646738442834	0.489359585282435	1.72895744258677
210843.7	0.490350324394727	-0.0135857667994584	0.490538493589996	1.58704496405759
179812.5	0.491203228257776	-0.0124449328473942	0.491360852942557	1.45131298126448
153343.8	0.489309727729439	-0.012656429713473	0.489473385245562	1.48167573370185
130781.2	0.487604651229773	-0.0109784252192013	0.487728225266082	1.28979732473269
111531.3	0.483271435591178	-0.00814791640998282	0.483340117308901	0.965910585680986
95109.37	0.481259502668303	-0.00669990676006414	0.481306137150915	0.79759793082556
81109.37	0.477377322948615	-0.00600207580112061	0.477415053574465	0.720343166519096
69171.88	0.473492799826852	-0.0052087918882692	0.473521449356633	0.63027305520894
59000	0.469637601289809	-0.00435534531048707	0.469657796249588	0.531336823089591
50312.5	0.465901487974259	-0.00338382093782655	0.465913776079617	0.416129277137882
42906.25	0.461541527025272	-0.00254332401952057	0.461548534464024	0.315725127147408
36593.75	0.458662440623243	-0.00177703826764231	0.458665883082091	0.221985221159439
31203.13	0.456686333053471	-0.00106440715742445	0.456687573468364	0.133540075452054
26609.38	0.454180970641673	-0.000406318579991374	0.454181152391643	0.0512578356764347
22703.13	0.452441773231718	0.000106430459198544	0.452441785749839	-0.0134780128008056
19359.37	0.450318268286064	0.000510258099764339	0.450318557374097	-0.0649221342451711
16500	0.448796959376017	0.000959794601379096	0.448797985680456	-0.122532238404662
14112.02	0.447228621650511	0.00129495319845695	0.447230496419019	-0.165899814988571
12011.13	0.446018557345589	0.00154545111975403	0.446021234826106	-0.19852867280146
10236.38	0.44388480360254	0.00154860140145243	0.443887504932912	-0.199889619452235
8750.684	0.441849075998306	0.00162080379435149	0.441852048728413	-0.210173123255022
7449.463	0.439812472866206	0.00169370113609999	0.439815734043503	-0.220642781045448
6363.206	0.438184318617976	0.00168499965511004	0.43818755836575	-0.22032484676493
5414.761	0.43622004818934	0.00156816111980283	0.436222866860058	-0.205970878898194
4620.567	0.43137084863136	0.0014910742177656	0.431373425643332	-0.19804750284511
3941.215	0.426916154769119	0.00134685321477981	0.426918279318692	-0.180758558672817
3361.769	0.423110061715761	0.00124488520862796	0.423111893078294	-0.168576616511643
2867.244	0.420861453567286	0.00116091054479753	0.420863054700768	-0.158045136575122
2442.658	0.418640180017981	0.0010511955607149	0.418641499779459	-0.143868040779744
2083.003	0.415083426408908	0.000958846495929961	0.4150845338795	-0.132353537154118
1777.843	0.411750451496834	0.00093101629703566	0.411751504064274	-0.129552289197944
1513.548	0.409687343135898	0.000762482694982766	0.409688052676193	-0.106634951420962
1292.065	0.408146415975069	0.000654627414218704	0.408146940954291	-0.0918968153525918
1101.762	0.405615105372125	0.000604269200798842	0.405615555479948	-0.08535690319163
939.101	0.405092139257804	0.000552129990217116	0.405092515526997	-0.0780926004902844
801.2801	0.405021437144666	0.000508900793107515	0.405021756856033	-0.0719908864510386
684.3433	0.403789037902831	0.000414345036362303	0.403789250491272	-0.0587936057811133
582.9476	0.401385573063291	0.000354139291643971	0.401385729290397	-0.0505515964390005
497.0677	0.399977538787369	0.000258734026574623	0.39997762247118	-0.0370629953781409
423.5089	0.397657968291026	0.000254000602164843	0.397658049411366	-0.0365971806906996
361.5036	0.395442251336079	0.000196098167654446	0.395442299958209	-0.0284127364182636
308.1262	0.392418310508295	0.000194978704444791	0.392418358947285	-0.0284682331102999
262.7298	0.389383631285161	0.000125779250089537	0.389383651599856	-0.0185077629124072
224.2111	0.38684465177315	0.000124057563790121	0.386844671665216	-0.0183742350982519
191.2854	0.384990629238773	0.000126987700695376	0.384990650181979	-0.0188987951484281
163.1722	0.384176278557706	0.000111262447672671	0.384176294669232	-0.0165936025921223
139.1537	0.383535967815394	0.000118289514933118	0.383535986056719	-0.0176710669145997
118.6706	0.381974384979267	7.03468481691699E-05	0.38197439145703	-0.0105519574481181
101.1982	0.381652837980687	8.52514751101391E-05	0.381652847502185	-0.0127984103712671
86.24196	0.381642129072647	2.97448212237064E-05	0.381642130231788	-0.0044655780513013
73.61024	0.379970312270066	9.00167165242415E-05	0.379970322932753	-0.013573633727235
62.69291	0.377763882726921	-1.63919983968883E-06	0.377763882730477	0.000248618877787198
53.57697	0.374907388313802	-1.96959583641016E-05	0.374907388831171	0.00301006414348292
45.65746	0.371522423634448	4.98472010303863E-05	0.37152242697845	-0.00768738046684821
38.96512	0.369574252767325	5.63881616277889E-05	0.369574257069065	-0.00874196085498805
33.18414	0.367320617706706	-6.62074843533445E-06	0.367320617766374	0.00103272434008678
28.30617	0.362357480656593	3.28152094923626E-05	0.362357482142471	-0.00518872412735418
24.17237	0.35874379683375	2.9743473375705E-05	0.358743798066767	-0.00475039709013422
20.61345	0.355715268492728	2.36907685312927E-05	0.355715269281635	-0.0038159201150097
17.55618	0.352476398460663	-8.25242417574784E-06	0.352476398557269	0.00134144889700594
14.98558	0.350073289497919	-4.50121087457374E-05	0.350073292391727	0.00736703976359056
12.76553	0.348322273177648	3.97221843837185E-06	0.348322273200298	-0.000653393048158059
10.8809	0.346734948276651	-2.73713921004443E-05	0.346734949357005	0.00452295118011673
9.278505	0.344601252152958	-4.43152043692808E-05	0.344601255002392	0.00736815130171312
7.923394	0.34154006796296	-3.66432874276513E-07	0.341540067963157	6.14717251071138E-05
6.75822	0.340214642648619	-3.70891458230912E-05	0.340214644670291	0.00624620826559974
5.761429	0.338956963755568	5.5195718087139E-06	0.338956963800508	-0.000933003900633238
4.919708	0.336970356033218	-3.23770183575629E-05	0.336970357588653	0.00550513262126384
4.191257	0.33443262692034	-7.89455653984607E-05	0.334432636238214	0.0135251385794551
3.564097	0.331986010929043	-8.57607842713383E-06	0.331986011039815	0.00148010181863863
3.051758	0.328795839554488	-8.23576384832058E-05	0.328795849869066	0.0143515958214636
2.604164	0.326290785357231	-1.66167530705323E-05	0.326290785780345	0.00291785689959693
2.214424	0.323488178764798	-0.000105484678860118	0.323488195963289	0.0186832999921014
1.892567	0.3196847464062	-2.60782576711517E-05	0.319684747469866	0.00467389863011733
1.607507	0.312760834002807	-3.13055142993086E-05	0.312760835569556	0.00573496948416041
1.376413	0.306626207922134	-0.000168149689826451	0.306626254027645	0.0314202319919509
1.17375	0.302610507166623	-4.90173345563673E-05	0.302610511136576	0.0092808620387763
1.001604	0.299849907492223	-8.07834631467475E-06	0.299849907601044	0.0015436227845958
