EC-Lab ASCII FILE
freq/Hz	Re(Z)/Ohm	-Im(Z)/Ohm	|Z|/Ohm	Phase(Z)/deg
6999984	-11.2823251815393	32.2414339621647	34.1584678438396	-109.286600096828
5969734	-7.07343095198601	37.0906791267927	37.7591300683585	-100.797027150595
5091109	-3.87134508005788	40.1774236582364	40.3635068414812	-95.5038138560583
4341796	-0.650899980118607	43.3418936677111	43.3467809356969	-90.8603919969796
3702781	2.30774788193173	46.9312928953449	46.9879979687921	-87.1848677412154
3157797	5.77605238159709	51.3448303071044	51.6686982648131	-83.5814788718581
2693047	-1.6457756697662	47.7350171360605	47.7633796808306	-91.9746230211705
2296687	2.13567337159205	53.8956945442759	53.937992094256	-87.730781928416
1958656	6.77824425200515	60.7373938668278	61.1144468098503	-83.6321856367272
1670375	12.8270192291022	68.1213749913891	69.3184979137691	-79.3362626803953
1424531	20.3039521743946	75.6159785568179	78.2944869515425	-74.9698086194828
1214875	29.1715921975739	82.7441305944773	87.7358133214565	-70.5798059931904
1036062	39.3458321408815	90.0449078184842	98.2658635076177	-66.3966984267198
883578.1	51.2489255394079	96.5500247331889	109.3085524784	-62.0405576061197
753531.2	64.9110724245203	101.451002021883	120.439832009786	-57.3877965349803
642624.9	79.4978172646669	104.160436438802	131.031673533418	-52.6482323578786
548046.8	93.4180772271088	105.465927714898	140.890024705705	-48.4665858337856
467390.6	107.48820418831	105.581908060093	150.669351061314	-44.48739967618
398593.7	121.123821936705	105.658560427815	160.731800314166	-41.0987954954834
339937.5	136.278593426156	99.799695100972	168.91368851712	-36.2161064611581
289906.2	139.40196148737	100.211539238062	171.683602778447	-35.7111301084195
247234.4	152.365801926092	92.1441490075938	178.061455101644	-31.1637073279149
210843.7	163.277993722138	94.3010178530446	188.553401459764	-30.008532739684
179812.5	171.418527233697	90.0466879218552	193.630363023638	-27.7130861954734
153343.8	178.513172399195	88.2672466473657	199.143314100001	-26.3104568651034
130781.2	184.883480081293	87.2831882594476	204.451109460683	-25.2719192952272
111531.3	190.858928320906	87.2461668074918	209.854769167645	-24.5662702043221
95109.37	196.663143800255	88.2958877783635	215.574942718232	-24.1786585263381
81109.37	202.578378086709	90.1241894774162	221.721376500334	-23.9835893154079
69171.88	207.893554907284	93.5205959697456	227.960154506274	-24.2205245524283
59000	214.025457238321	97.8432034653064	235.32995731616	-24.5678343791028
50312.5	221.845449906153	102.789108725818	244.501542974091	-24.8600142067297
42906.25	223.000445108167	108.044349830445	247.795843485568	-25.8503201894118
36593.75	231.325169676171	118.245195654453	259.794650485859	-27.0745018144883
31203.13	239.381093470421	128.18997410275	271.543693301019	-28.1693095694243
26609.38	248.124227054975	139.613270692115	284.705984139741	-29.3653646963378
22703.13	257.521512055339	152.413515467321	299.244396553011	-30.6190708365974
19359.37	264.938024833737	167.524563481581	313.459146257524	-32.3058242079949
16500	284.477824070315	188.74809021428	341.39928814706	-33.5638619091857
14112.02	281.515813815428	202.056248542203	346.522554825961	-35.6686624766444
12011.13	304.466431217973	236.124019649484	385.297755500909	-37.7947885332379
10236.38	329.414652268625	222.774528471712	397.671351325505	-34.0694627859209
8750.684	28.5038964743097	273.369504431063	274.851520037825	-84.047350855079
7449.463	60.9284586504767	298.214235700374	304.374781228473	-78.4527617603036
6363.206	83.550286554461	327.798302935672	338.278550592318	-75.7007308787312
5414.761	112.100846031132	359.039908421049	376.133294883464	-72.660387634649
4620.567	143.961397580058	404.470016200018	429.326074211719	-70.4080332462102
3941.215	177.585235207601	430.890063515345	466.050171762651	-67.6016859656595
3361.769	218.881185186153	472.000883766025	520.282430516738	-65.1214089663176
2867.244	255.370547212362	515.129326740556	574.954206569288	-63.6305154876077
2442.658	306.068818610386	566.459321031633	643.858900776542	-61.6167980208409
2083.003	358.807019102639	619.385335183312	715.807704902277	-59.9164884680107
1777.843	418.491920820881	668.674684477286	788.835421018319	-57.9594938229619
1513.548	483.635115692904	723.622630985673	870.363508659408	-56.2431070744003
1292.065	553.437088205684	779.000875078701	955.580961496705	-54.6083095158653
1101.762	630.48334588029	838.187520332084	1048.84105977639	-53.0495721046339
939.101	713.972459260826	899.165250981628	1148.15278650352	-51.5490472053879
801.2801	805.838925234453	959.542450159513	1253.03554900934	-49.9759285534987
684.3433	902.984622977209	1025.27123939747	1366.22192328659	-48.6287386193856
582.9476	1009.84264845323	1087.90333894424	1484.35704920382	-47.1310899682711
497.0677	1123.47932243801	1151.44670772335	1608.73717824656	-45.704344844304
423.5089	1246.39927609044	1213.79229217369	1739.77092859348	-44.2406554017069
361.5036	1370.83934842713	1278.84110415817	1874.73600511661	-43.011460395923
308.1262	1508.29203901626	1340.78816807308	2018.08270063558	-41.6353246339998
262.7298	1651.12326911004	1405.4215659226	2168.27531179898	-40.4041357350889
224.2111	1794.78324885085	1467.98564284842	2318.66960948831	-39.2803535044531
191.2854	-2379.66337820747	1094.7486996811	2619.40308258107	-155.29551211629
163.1722	-2603.13750760036	873.185727239708	2745.68355746451	-161.45669917467
139.1537	2109.40830912382	1298.8557710124	2477.22217988069	-31.6224402570085
118.6706	-2130.00731036238	1743.64070014322	2752.67397876921	-140.695974538561
101.1982	-1981.28050659853	1665.37361028333	2588.23138603477	-139.951129404891
86.24196	1121.15262097261	2431.27522152218	2677.32747386297	-65.2437927513576
73.61024	-1525.16254789054	1743.02295681073	2316.08502120652	-131.186250238098
62.69291	-1233.92087347483	1335.94808790184	1818.60331451515	-132.726475382968
53.57697	106.601569258094	2237.30390942205	2239.84210998978	-87.2720719176343
45.65746	-887.918674530087	1758.20643295104	1969.69272564268	-116.794409861104
38.96512	-455.306291108208	1758.24704759012	1816.24241198197	-104.518101551072
33.18414	-509.851255634969	1944.86933738173	2010.58823292095	-104.689645114934
28.30617	-443.105973293214	2261.92862879999	2304.92169614352	-101.083735231278
24.17237	109.597538711821	2276.71472530424	2279.35112716511	-87.2439969856729
20.61345	28.7841424357287	2213.98440849515	2214.17151275943	-89.2551361423616
17.55618	1117.10689406716	2349.05168027207	2601.14813291389	-64.5662701586154
14.98558	929.256451784644	2606.11857139668	2766.83421284364	-70.3754319476673
12.76553	869.707061981937	2755.00819614831	2889.02414917314	-72.4800205207418
10.8809	1970.18939691593	2518.96918935162	3197.94497085593	-51.9695753087021
9.278505	2004.4638574764	2670.0308814384	3338.70338062007	-53.103458785266
7.923394	1540.09676052075	3326.92451924963	3666.10485236728	-65.1596825470324
6.75822	1136.32749135877	4609.48117749108	4747.4790039833	-76.1515913677197
5.761429	2295.66993756063	3833.6915270567	4468.47750210807	-59.0862153270866
4.919708	3605.10679059179	2644.73172036139	4471.17443679586	-36.2640343807208
4.191257	3593.89343449966	3710.82891883088	5165.88049449184	-45.9171241806817
3.564097	3913.58532378972	3639.13134090174	5344.10207639371	-42.9188761458078
3.051758	4487.3395850965	4079.11802002567	6064.2741011	-42.2717203162075
2.604164	4778.07124548061	4105.01609537613	6299.29535505247	-40.6670832560082
2.214424	5544.53599175139	3715.78676274223	6674.50002846632	-33.8288434302778
1.892567	5770.22830521469	4086.42157168872	7070.67012070734	-35.3057681979424
1.607507	6550.2548345594	4088.00437153267	7721.24459781835	-31.9682260159479
1.376413	7369.61575865016	5151.22090633818	8991.45779370844	-34.9528147369859
1.17375	7153.93579457108	4513.42543212018	8458.71186908234	-32.2478695270174
1.001604	9882.389433093	3802.39799754008	10588.6661784667	-21.0449804574291
