EC-Lab ASCII FILE
freq/Hz	Re(Z)/Ohm	-Im(Z)/Ohm	|Z|/Ohm	Phase(Z)/deg
6999984	-13.1624904066978	32.9266302665367	35.4600357362429	-111.7891651544
5969734	-9.50130734687489	38.3928523214838	39.5510549881927	-103.900051977464
5091109	-6.7825372277411	41.9928135167984	42.5370332569433	-99.1749836325796
4341796	-4.06602405439453	45.618216243908	45.79906336255	-95.0934041874062
3702781	-1.72093189374239	49.7833356291707	49.8130717076307	-91.9798369371062
3157797	-10.5581480982661	46.9395178230875	48.1122939042493	-102.676615197522
2693047	-8.28947312274348	54.0126219921731	54.6450244681258	-98.7252690591814
2296687	-6.21542187045206	61.9408679186487	62.2519283841326	-95.730132185135
1958656	-3.51297712642402	71.2259237139203	71.3125039329848	-92.8236318819954
1670375	-0.0403441416058124	82.0547834132285	82.0547933312954	-90.0281707995521
1424531	4.55110257540099	94.1713314168179	94.2812398914438	-87.2331680833449
1214875	10.4651277955824	107.870128823735	108.376582305529	-84.4587345519829
1036062	17.6901624806946	123.063413843718	124.328378399557	-81.8198628349489
883578.1	26.9607296936221	139.897765563313	142.47198235169	-79.0918388849925
753531.2	38.4305206272418	158.260870247954	162.8600870911	-76.3510379762047
642624.9	52.6111389730575	178.189860714099	185.794398207676	-73.5505921609438
548046.8	69.8320268654258	199.326033849451	211.204592152458	-70.6925640872722
467390.6	90.6564219747467	221.33951666938	239.185636033392	-67.7269345396751
398593.7	115.175983109313	243.587936176947	269.444966061979	-64.693753268032
339937.5	144.16442563129	265.418150167587	302.043334731928	-61.4909764890302
289906.2	176.987657123748	286.217161946592	336.518787836452	-58.2686618492145
247234.4	213.680271226139	305.099976970201	372.485240323014	-54.9940819993269
210843.7	254.254073619237	321.156123609524	409.61736985127	-51.6319140912976
179812.5	300.449951776755	333.451692624258	448.843185128879	-47.980201961499
153343.8	343.687032703311	340.790195934581	484.002824468553	-44.7575148991165
130781.2	390.310129455068	344.455123805453	520.568275513464	-41.4289337770378
111531.3	433.506011920618	341.938384967281	552.131616089272	-38.2654676323599
95109.37	480.242843880682	336.486464054022	586.392641146002	-35.0173527030294
81109.37	238.888569646627	244.761891957694	342.017737058359	-45.695750477377
69171.88	272.21316378606	242.672333284163	364.677758959874	-41.7163351366534
59000	304.336027520676	237.756693082167	386.19769905119	-37.9980510406385
50312.5	339.512056297393	228.241399679062	409.09971021591	-33.9114811330695
42906.25	341.524697409028	212.113415384423	402.033854204311	-31.8434988335259
36593.75	369.768071012711	213.145163513967	426.801226649898	-29.960410014471
31203.13	391.843215051851	206.984831629196	443.152147356568	-27.8445284432544
26609.38	411.188883115419	201.239047003854	457.791930506344	-26.0774864960253
22703.13	428.568392428596	196.510846669873	471.473625824119	-24.6328077930706
19359.37	444.642253955947	193.027651373827	484.733337205025	-23.4665808489716
16500	460.10392999115	190.792637849791	498.093823542295	-22.522460994155
14112.02	474.804377405745	190.28410240444	511.514649283401	-21.8390942319025
12011.13	489.609918809769	191.189180195568	525.615044705498	-21.3302905210924
10236.38	504.70541806858	193.792552579504	540.632141537164	-21.0053718850517
8750.684	519.682630431745	197.589247030392	555.978009380312	-20.8173729733134
7449.463	535.533006550993	203.065927684574	572.740230900486	-20.7659614703563
6363.206	551.880255848311	209.627528059149	590.352028297851	-20.7989008139984
5414.761	569.454553916985	217.487535414577	609.573061279367	-20.9029843270618
4620.567	587.725057885265	226.115613099362	629.721378193197	-21.0432443953098
3941.215	607.026532016564	236.686726829875	651.538039740963	-21.301390529906
3361.769	627.91060116251	247.779652283975	675.03072458832	-21.5346760257715
2867.244	649.968649728695	259.901529210963	700.005750345196	-21.7948790788522
2442.658	673.680566964982	273.069499091553	726.919842651424	-22.0646677158455
2083.003	698.890806438775	286.67354760485	755.400610418731	-22.3026342768972
1777.843	724.990839864515	301.085246462119	785.024868093113	-22.5528793234985
1513.548	753.818101644682	316.430345343406	817.538924957913	-22.771210620911
1292.065	783.055079472679	332.233830236081	850.620112295318	-22.9904930282635
1101.762	813.753865604057	348.653136926871	885.299025004824	-23.1927299412108
939.101	846.39337996754	365.789047986342	922.053892828196	-23.3727360917071
801.2801	879.848957684006	383.869632780126	959.942750016052	-23.5711800240506
684.3433	914.118239382076	402.59148365571	998.845362547723	-23.769417691588
582.9476	951.268455969373	422.19804030087	1040.75110403797	-23.9329111984285
497.0677	989.599690240185	444.037756788329	1084.65527997474	-24.1659846999098
423.5089	1029.90023256752	466.749345788654	1130.72960553652	-24.3799672476573
361.5036	1068.20713568961	493.151401171736	1176.5478269989	-24.7810090563591
308.1262	1110.48881042785	520.694750049313	1226.50251561682	-25.1213116091991
262.7298	1157.74838256451	550.035153351109	1281.76440395758	-25.4119444507792
224.2111	1203.20429867984	581.953865060715	1336.55186409684	-25.8116627269743
191.2854	1246.00586975734	621.559002020902	1392.43176510125	-26.5119088258714
163.1722	1297.59836697405	659.037450125212	1455.36658015816	-26.925567165222
139.1537	1357.88357656183	694.533419608136	1525.19653764652	-27.0889403509256
118.6706	1415.68508119067	745.069518124306	1599.77899596908	-27.7576565823566
101.1982	1479.87132686261	792.012309816213	1678.48224386512	-28.1552434555538
86.24196	1540.56629212338	854.910565909071	1761.87870641817	-29.0273253267886
73.61024	1640.14023318653	919.057050442535	1880.08665930198	-29.2642089976075
62.69291	1591.09863682831	946.310085136169	1851.24219089436	-30.7421765484593
53.57697	1673.33066906687	801.676780784717	1855.45713744326	-25.5986370187447
45.65746	465.509021032941	1983.62046732078	2037.51044341788	-76.7930176193686
38.96512	-1881.93930784959	1418.55561253509	2356.69166084242	-142.991988310989
33.18414	-1807.3861397875	1354.61790764931	2258.67977677673	-143.148806859516
28.30617	-1548.70373230902	1300.6914565135	2022.44444064976	-139.974506082932
24.17237	-1575.07946084161	1425.13458505812	2124.11955725045	-137.861151255592
20.61345	-1504.81472591945	1914.82677927786	2435.37039359184	-128.162923840531
17.55618	-1716.22702713182	1739.11377775048	2443.34850985677	-134.620501966332
14.98558	-1411.65667397606	1083.91158203818	1779.78619020871	-142.481883985984
12.76553	-1734.84361721183	1408.10398543256	2234.37669383918	-140.935127122249
10.8809	859.914486985557	2730.33980335582	2862.55277099248	-72.5182941014566
9.278505	-678.489238078358	2621.2746057069	2707.66102101279	-104.511913606885
7.923394	-466.830328649561	2047.02325242971	2099.57966072616	-102.846783662675
6.75822	2385.81804532944	1247.08727021259	2692.09108407309	-27.5964491771186
5.761429	-1154.46863984023	2555.02732399584	2803.74079877936	-114.315450664691
4.919708	-420.831561266419	1692.91376291165	1744.43578603903	-103.959868771276
4.191257	1610.04627759291	3061.31293578468	3458.88506701125	-62.2586253429465
3.564097	-25.5547955401755	2538.72065603097	2538.84927022725	-90.5767205926103
3.051758	2840.48304566916	3908.69845631856	4831.79754906608	-53.9937893622757
2.604164	-1425.65657288355	3285.72628524158	3581.68869185102	-113.455727493097
2.214424	2987.54383668267	3730.26887183613	4779.15515884243	-51.3090294554296
1.892567	7630.78968892195	-932.330486177666	7687.53480720665	6.96587763375177
1.607507	635.070718968665	6396.52989959885	6427.97865386573	-84.3300482311966
1.376413	3450.99285253562	6052.54722819219	6967.25768274354	-60.3094229239114
1.17375	9668.0017185239	3384.04999673252	10243.1465678163	-19.2913629113399
1.001604	4690.43491526141	6780.96140519985	8245.09655935655	-55.3281393122
