EC-Lab ASCII FILE
freq/Hz	Re(Z)/Ohm	-Im(Z)/Ohm	|Z|/Ohm	Phase(Z)/deg
6999984	-7.00622455985371	22.1458202285227	23.2276674717273	-107.555694597738
5969734	-0.897424729544895	24.2924971562083	24.3090680452704	-92.1156852303317
5091109	3.61401123833357	22.9133604469345	23.1966196718821	-81.0368587121231
4341796	7.21105686857555	20.5815311117445	21.8082269812458	-70.6913035801229
3702781	9.74429714561263	18.3521548948526	20.7786649269547	-62.0333956336806
3157797	11.7857808234373	16.2553691114665	20.0783877482262	-54.0564136492835
2693047	13.4341537400401	14.3221743190726	19.6367299705663	-46.8324643654489
2296687	14.5286146517315	12.603932468584	19.2338180653539	-40.9424467723481
1958656	15.404030104164	11.1637323606361	19.024012817224	-35.9318964764614
1670375	16.1170996062247	9.91304109032039	18.9216617498397	-31.5941590602408
1424531	16.6204335285935	8.74768724296251	18.7819286224574	-27.758785309213
1214875	17.0406485772987	7.85902075080859	18.7656044692579	-24.7588012122199
1036062	17.3864840465532	7.03734158301885	18.7567055757971	-22.0361000401802
883578.1	17.6988843954484	6.33033056311943	18.7969038376486	-19.6805215753707
753531.2	17.9477989502406	5.75222533829491	18.8470576881586	-17.7705266582564
642624.9	18.1713792828827	5.28723278493295	18.9249532513148	-16.2231395409466
548046.8	18.3657182472562	4.93049976742807	19.0160309921447	-15.0274167295543
467390.6	18.5581203568955	4.62461302246151	19.1256601660842	-13.992889864244
398593.7	18.7273165312851	4.41416248141971	19.2405097353297	-13.2629416332473
339937.5	18.9052651329233	4.2765850872406	19.3829365616909	-12.7464259105148
289906.2	19.0818909630321	4.21310253039443	19.5414634983325	-12.4506192600447
247234.4	19.2558292037787	4.23028289894845	19.7150260392989	-12.3903899366205
210843.7	19.444249413649	4.2869335536853	19.9112188113611	-12.4332700980081
179812.5	19.6322482531836	4.41963530076212	20.1235769103401	-12.6869929984259
153343.8	19.8370373324518	4.60749918734082	20.3650951112543	-13.0760943666772
130781.2	20.0601602550957	4.86876951129357	20.6425518290309	-13.6423714739168
111531.3	20.3038963785878	5.1919175921834	20.9571996324999	-14.3437634884042
95109.37	20.5587920566518	5.58491324198756	21.3038772703275	-15.1979576172749
81109.37	20.7696107176483	6.07908997615524	21.6409811307353	-16.3143085853078
69171.88	21.1513463193331	6.60236082741913	22.1578568371538	-17.335674610064
59000	21.5046597293258	7.2156247665266	22.6829369977831	-18.5485460482646
50312.5	21.9949628009344	7.8729531566233	23.3615448979915	-19.6944960159939
42906.25	21.8511250697295	8.63602672106879	23.4958001425782	-21.564979763556
36593.75	22.4464760902261	9.75724395005104	24.4754591043743	-23.4940713639819
31203.13	22.9870462782916	10.8561613394922	25.4216548562324	-25.2801011325417
26609.38	23.5455651456325	12.1215254493896	26.4825417444667	-27.2399261890985
22703.13	24.1565411733493	13.5254538982785	27.6853099064139	-29.2448372945541
19359.37	24.8515660054291	15.1222981277615	29.0909648101794	-31.3207149525146
16500	25.6432494265893	16.9323609545678	30.7291569791631	-33.436974675876
14112.02	26.5401662073111	18.8364056590085	32.5452085638182	-35.3645422085669
12011.13	27.542122091661	21.0970594563775	34.6937228763056	-37.4518446449624
10236.38	28.7000880230945	23.5948503701961	37.1538963841656	-39.4242289363884
8750.684	29.993489532781	26.2900665392216	39.884546042167	-41.2354000929985
7449.463	9.18725198432855	29.7788387589374	31.163838609105	-72.8541619609623
6363.206	11.3824112841517	32.8844336292716	34.7986387917624	-70.9075378520053
5414.761	13.3433628565153	36.2194924510237	38.5991834852811	-69.7760607981809
4620.567	15.1408998153195	39.9035490513169	42.679504145531	-69.2213803567148
3941.215	17.9582857386494	45.0085859244142	48.4589809383808	-68.2481542459056
3361.769	20.2728379943919	49.9971691573204	53.9509488711049	-67.9284437962226
2867.244	23.3985149351169	54.503699980247	59.3139428187477	-66.7660843172407
2442.658	26.8042418316991	60.8833092057401	66.5225128810839	-66.2382183005866
2083.003	30.0829719371382	67.5710425358909	73.9650660106365	-66.0011283649615
1777.843	34.276528201192	73.6999221575202	81.2807413324438	-65.0576960594991
1513.548	38.9546365736353	81.9706312315866	90.7559810430627	-64.5816827233044
1292.065	47.1194081758074	94.0549334042128	105.197761974812	-63.3901596925504
1101.762	43.4965823747403	94.5955108846432	104.116585411784	-65.3062451510269
939.101	54.6828869557287	111.396174759686	124.094020310825	-63.8541982108268
801.2801	61.1544776596439	122.622181511142	137.02579879853	-63.493521278792
684.3433	66.7351785738942	133.659526134744	149.393617620881	-63.467394403334
582.9476	77.4816906933442	143.648782677509	163.212699130396	-61.6583374609879
497.0677	85.4579800582522	159.626564107967	181.062713788763	-61.8371002930687
423.5089	93.512248565958	178.488628766881	201.501194117909	-62.3494391534747
361.5036	103.963004924103	198.540499538873	224.112999065191	-62.3618150418496
308.1262	113.273433634025	218.709587115847	246.302160493217	-62.6195887538789
262.7298	-380.603710566811	-47.8749378311486	383.602912097342	172.830598957371
224.2111	295.49180618904	-199.48124348552	356.522333139722	34.0225833791233
191.2854	-324.924729403461	-16.5815212558285	325.347547439765	177.07862264203
163.1722	303.177807807036	-197.615287579753	361.895820688646	33.0968382807966
139.1537	-357.963668712655	-90.7478264808107	369.287362536568	165.774566414555
118.6706	-327.479390673507	-31.4862567960379	328.989567741771	174.508047494175
101.1982	-47.7364679373952	-381.777967760377	384.750811614974	97.127117881223
86.24196	-373.834431059238	-202.665767665596	425.235928901674	151.536679797113
73.61024	-400.171838120386	-121.103027087558	418.095016945213	163.162738305451
62.69291	379.570646163203	143.982741573687	405.961704228154	-20.7732666822442
53.57697	-455.440058741975	-107.310893338568	467.911610174417	166.741776468516
45.65746	496.621628914261	-343.485246391644	603.833716178703	34.6694298115142
38.96512	-306.4495234232	449.392890130009	543.934996213434	-124.290817765257
33.18414	154.539787205234	162.66490171804	224.371156970719	-46.4672954443002
28.30617	-54.6241365861008	575.40694092441	577.993896128467	-95.4229122153859
24.17237	-512.546950614412	238.265752566873	565.221147366578	-155.067875984284
20.61345	-447.736021102969	300.629635001759	539.30114225209	-146.120853534419
17.55618	-448.833551788973	308.683004917439	544.735490615733	-145.481948297068
14.98558	111.809024610307	508.222786294513	520.376458434916	-77.5925802224737
12.76553	-437.536828483994	320.464090519819	542.342797124223	-143.779919870853
10.8809	-443.3146329706	303.835274628455	537.44184607677	-145.574366389423
9.278505	-377.409281607581	305.308466473785	485.439002907806	-141.028576538634
7.923394	-416.737771424079	388.477213661188	569.72354319044	-137.010079746705
6.75822	-430.947500588186	282.824279462336	515.466120435276	-146.723719726455
5.761429	-296.085159311004	334.923784766872	447.035080465492	-131.477885755819
4.919708	-485.579927417854	131.172131716034	502.985083327585	-164.88321597267
4.191257	534.867736990292	-325.021080149811	625.877143387475	31.2856384762967
3.564097	-720.970829458036	379.209527929665	814.615739476011	-152.256945041372
3.051758	-318.389016951644	326.378410294667	455.954419675813	-134.29007720588
2.604164	-435.261833831109	330.569844568341	546.561328789329	-142.784291110254
2.214424	1147.29492586949	340.972041807913	1196.89079711582	-16.5517652139219
1.892567	168.17199865979	596.649259798929	619.896894936439	-74.258939883064
1.607507	347.68564529064	-280.207911505452	446.544266127577	38.8661451256192
1.376413	159.297788181182	556.392715306798	578.747474263075	-74.0233396377062
1.17375	644.659255212503	136.446457480718	658.940961763781	-11.9506620175915
1.001604	298.582634288478	-227.282676859567	375.245259395902	37.2785822077148
