EC-Lab ASCII FILE
freq/Hz	Re(Z)/Ohm	-Im(Z)/Ohm	|Z|/Ohm	Phase(Z)/deg
6999984	7.13520207848322	1.33026009939745	7.2581471900782	-10.5607638094293
5969734	9.51919506232954	-1.98771221790627	9.72450895911424	11.7945138296845
5091109	12.0942420656138	-4.55664748933486	12.9241528729632	20.6444886882106
4341796	9.39352245483784	-4.8970875929916	10.5933814716065	27.5342030422556
3702781	6.04971791867969	-4.79959506647376	7.72238303231026	38.427024541853
3157797	4.41424450859812	-4.97652166620336	6.65216675045658	48.4265246247501
2693047	3.27682893411446	-3.69122019335733	4.93586004454124	48.4033828594047
2296687	2.58999861538365	-3.82092429487431	4.61601075549548	55.8687708285295
1958656	1.90709952713961	-3.21082996729813	3.73449564001832	59.2914488093025
1670375	1.51770838230542	-2.73966676041574	3.13196626607743	61.0146193781584
1424531	1.3523172963946	-2.41222611033258	2.76542887767851	60.7245881422632
1214875	1.04382306371287	-2.19753363438972	2.43284209570062	64.5923970340734
1036062	1.06116045653234	-1.79486266809159	2.08508837026558	59.407530058596
883578.1	0.974967294617525	-1.55004202069161	1.83117216325597	57.8303491359394
753531.2	0.916806975134093	-1.32793675300029	1.61367625303946	55.3788174291793
642624.9	0.902917579901338	-1.15369007117931	1.46501226494273	51.9520428001711
548046.8	0.941188493444232	-1.01599015721559	1.384944684726	47.1887295224612
467390.6	0.834302075455161	-0.878887156269729	1.21181788506552	46.4907637955888
398593.7	0.730897744423477	-0.761684127609872	1.05563924853907	46.1816301468039
339937.5	0.652971902494724	-0.657839540058844	0.92689005060601	45.2127642448156
289906.2	0.613184939084749	-0.570954418506046	0.837845282574261	42.9574992307776
247234.4	0.576502338005089	-0.494727712191983	0.759677862607597	40.6346710335377
210843.7	0.553845894358499	-0.428980835145485	0.700549663921041	37.7595401696815
179812.5	0.54359092134847	-0.365347209488942	0.654957764480913	33.9050296282963
153343.8	0.514305839207856	-0.315280215008334	0.603251282815874	31.5091665009111
130781.2	0.511838537078606	-0.274617273180329	0.580855691861384	28.2149399282285
111531.3	0.531869462587352	-0.242841303376946	0.584685405888306	24.5405214810089
95109.37	0.506369819860849	-0.236327523676208	0.55880326852376	25.0189011328975
81109.37	0.490038145182242	-0.18741333254199	0.524653353127707	20.9291742278773
69171.88	0.479062635193128	-0.166928351135247	0.507312608606287	19.2107821270327
59000	0.467501440901998	-0.144065592811397	0.489195760690486	17.1272440233513
50312.5	0.462531162069107	-0.114328114254748	0.476451459850891	13.8840336127471
42906.25	0.493552582840071	-0.116795345056381	0.507183699121871	13.3136827755841
36593.75	0.473311894956392	-0.108530140541297	0.48559545025991	12.9146348600093
31203.13	0.45921839776418	-0.0979684703882808	0.469552295314718	12.0427993606265
26609.38	0.457376689175984	-0.0884784655559665	0.465856066471956	10.9485015381282
22703.13	0.452254801559101	-0.0804824902261061	0.459360247263797	10.0906232906347
19359.37	0.448621413821279	-0.075281174594857	0.454893864750213	9.52580149619472
16500	0.439856211917847	-0.0702937824201917	0.445437653336193	9.07970801606177
14112.02	0.434051417190166	-0.0656288696816327	0.438984944275405	8.59803385685119
12011.13	0.423508462910645	-0.0615983860307946	0.427964694009372	8.27551591397205
10236.38	0.413860637284328	-0.0586989897925229	0.418002629771696	8.07257426293671
8750.684	0.409429481977546	-0.0562245675402912	0.413271947641616	7.81918940761805
7449.463	0.400596979186639	-0.0513538400737462	0.403875174557413	7.30509156678102
6363.206	0.396835401328188	-0.0439771581681194	0.399264731960949	6.32369507781324
5414.761	0.388681774332287	-0.0399070135466501	0.390725084206667	5.86217184425741
4620.567	0.400443661622151	-0.0429091040567835	0.402736039291632	6.11612965737119
3941.215	0.394980078483818	-0.0524138523950787	0.398442560881711	7.55898635453734
3361.769	0.388505284091296	-0.0578405421896342	0.392787326791038	8.46797816693444
2867.244	0.388169991696348	-0.0602747105951954	0.392821821174534	8.82635180863287
2442.658	0.372491363951182	-0.0590989690642388	0.377150506247396	9.01532474862291
2083.003	0.371149558538405	-0.0466972089386216	0.374075693043413	7.17114549343533
1777.843	0.382518552229829	-0.0485460646705939	0.385586777775128	7.23283585923707
1513.548	0.432183797514132	-0.0791374007796848	0.4393695062654	10.3765063120932
1292.065	0.429105089904905	-0.0646195872822891	0.433943394053683	8.56390849057319
1101.762	0.419484264465151	-0.0548870469866392	0.423059849265778	7.45446739354958
939.101	0.424366049301322	-0.0406019729226914	0.426303957294355	5.46523928886227
801.2801	0.38925783790568	-0.036068270567809	0.390925292751387	5.29385787205612
684.3433	0.377579437377737	-0.0174038980245237	0.377980326468106	2.63908600324941
582.9476	0.431090087196076	-0.0358821280987167	0.432580848392082	4.75809191332283
497.0677	0.402070664221161	-0.0194820716544253	0.402542383039592	2.77405996287956
423.5089	0.388705496129648	-0.0393874847137213	0.390695964496012	5.78602575328452
361.5036	0.403519459763211	-0.0113409937536065	0.403678798733489	1.60988535360268
308.1262	0.397988137414528	-0.0310839845075138	0.3992001648491	4.46589432400422
262.7298	0.399716336887509	-0.0494688590660577	0.402765835184747	7.05504705540798
224.2111	0.371940682671387	-0.0356829171839882	0.373648420316233	5.48002045406105
191.2854	0.406069830099427	-0.00862862951551544	0.406161495176849	1.21730212083038
163.1722	0.366012116719383	-0.0185382151368182	0.36648128875273	2.89950678029227
139.1537	0.376092475447301	-0.0266821068809947	0.37703777651011	4.05808416486852
118.6706	0.413345159426564	-0.0293484925952854	0.414385756076372	4.06132137641101
101.1982	0.354357839290349	-0.0229980124519146	0.355103346708058	3.71331884376224
86.24196	0.349632078631552	-0.0385115378225192	0.351746682932014	6.28571943515197
73.61024	0.365800703388562	0.00513329262774449	0.365836719442935	-0.803980680663318
62.69291	0.214624805154775	0.150768237055245	0.262287758563894	-35.0870243709174
53.57697	0.274484115832381	-0.0691843512780184	0.283068903813267	14.1468608125295
45.65746	0.422792845798486	-0.0917040329011418	0.432623878338582	12.2379258673362
38.96512	0.360649386525827	-0.0543520852597156	0.364721988881305	8.57033134745661
33.18414	0.160770191542629	-0.164741842650952	0.23018889896927	45.6990449846991
28.30617	0.364621275873141	0.0529815446204298	0.368450429352069	-8.26754034146382
24.17237	0.339115669940502	-0.0337023312020738	0.340786274265338	5.67558928418865
20.61345	0.304773882070844	-0.0100199068740267	0.304938547458823	1.8830080320058
17.55618	0.325628636084888	0.0220754209497346	0.326376060471065	-3.8783324076333
14.98558	0.311768442931829	0.0487383025559862	0.315555041386089	-8.88505133474402
12.76553	0.29745088418564	-0.0598190353178538	0.303406238382103	11.3708287289191
10.8809	0.058839324574042	0.127682283090833	0.140587451543931	-65.2585177666924
9.278505	0.0934429992552966	-0.0720457144921471	0.117992284012597	37.6326701251057
7.923394	0.113584179494287	0.0213767436212756	0.11557824621978	-10.6584932205447
6.75822	0.125488532542905	0.0328767074537399	0.129723743750982	-14.6809491508386
5.761429	0.158528233261552	-0.0742990764797043	0.175075850724096	25.111565597104
4.919708	0.266473414777958	0.00582469055197786	0.266537066471912	-1.25219639646944
4.191257	0.403151587694049	-0.00238081397895817	0.40315861758796	0.338356616280398
3.564097	0.293179604424288	0.00900288795310995	0.293317801099556	-1.75887214202835
3.051758	0.321711211515694	0.021294946797758	0.322415226647277	-3.78704017734613
2.604164	0.307222790008701	0.0105648035675535	0.307404388021952	-1.96951606470363
2.214424	0.298286177262017	0.00119835953116761	0.298288584446594	-0.230183559658407
1.892567	0.295145412718151	0.000855327307284533	0.295146652078878	-0.166041908521763
1.607507	0.304639055299154	-0.00668980629285361	0.304712499779377	1.25800045893411
1.376413	0.28587803160903	-0.0067406375237809	0.285957488363009	1.35071075976423
1.17375	0.266603119021039	-0.0149424643583981	0.267021535297901	3.20793454507356
1.001604	0.304671368121562	-0.0184535530307651	0.305229710500999	3.46609729544581
