EC-Lab ASCII FILE
freq/Hz	Re(Z)/Ohm	-Im(Z)/Ohm	|Z|/Ohm	Phase(Z)/deg
6999984	1.96059997892346	1.80213851810768	2.6630162439989	-42.5885086811354
5969734	5.89792131003946	1.73852097175744	6.14881541019553	-16.4238523861589
5091109	7.72478749972862	-3.59479179290916	8.52026231699064	24.955291358482
4341796	3.03612390042249	-5.61813655035511	6.38603998086081	61.612558133157
3702781	2.38939149660957	-5.57263722198173	6.06328931619516	66.791695530683
3157797	2.00828328523635	-6.93559058648441	7.22049988138569	73.8509939329309
2693047	1.00462421439541	-9.61881712924117	9.67113813250193	84.0374386852232
2296687	-0.583548014841137	-8.47104979298368	8.49112553674917	93.940727695162
1958656	-2.14178889856813	-9.24740592380281	9.49219553136223	103.040328805871
1670375	1.01711850281529	-13.142204361864	13.1815046765445	85.5745125622207
1424531	-4.49853929591943	-9.35790352540022	10.3830252907151	115.674563850521
1214875	7.75594848250084	-7.09563056280481	10.5120269190588	42.4542417514244
1036062	-3.75510205570825	-10.1947050275079	10.8642902228668	110.22069319023
883578.1	5.44297712984821	12.1270415321314	13.292521820862	-65.8280378150525
753531.2	-5.55260875148232	-7.82361196388851	9.59376714896383	125.364254194435
642624.9	9.86991531653212	-2.11223261904011	10.0934015570794	12.0794973074046
548046.8	6.39867132292269	0.570617813900912	6.42406408656812	-5.09601669131304
467390.6	6.70519483858956	5.72360716332694	8.81585598700067	-40.4843326376733
398593.7	3.55724620636087	4.58622825422492	5.80409253652281	-52.2015372720608
339937.5	-1.1040986281993	3.45804134608169	3.63002530735008	-107.707471117668
289906.2	-1.65975105659807	3.5873749880455	3.95272474057236	-114.828305187113
247234.4	2.6970076416036	0.740479975761578	2.79681261677862	-15.3526046557587
210843.7	10.3029711873215	-4.38561455220662	11.1975367955325	23.0577582734119
179812.5	13.2371257416204	6.29261555474113	14.6566881804602	-25.4253058265617
153343.8	15.0497731167568	22.8979896208398	27.4009780763743	-56.6849606668493
130781.2	18.222538729925	-1.04481178567173	18.2524669409671	3.28153154681591
111531.3	6.97325971403624	5.2001906365237	8.69875472096953	-36.7131129709663
95109.37	3.88303746873863	1.42619094032062	4.13666539399559	-20.1676502927909
81109.37	3.96368944051388	1.21551917909379	4.14587998567084	-17.0488691265553
69171.88	2.81086300611272	-0.737460569189547	2.90599362185164	14.7008479750635
59000	6.98681735513062	1.97505138851686	7.26060911640592	-15.7846721290669
50312.5	3.91265036694936	1.20419167895605	4.09376483125936	-17.1067321342856
42906.25	4.59630522580784	1.59734271717846	4.86595576273681	-19.1637480216304
36593.75	3.31075572269489	0.516181187354134	3.35075312035	-8.86166319754678
31203.13	3.11680410278617	-1.41796664254275	3.42419292892627	24.4628054856773
26609.38	3.33280916063705	2.0208796458734	3.89763664857714	-31.2309152772838
22703.13	7.12417842986262	4.61043131824734	8.48587032901138	-32.9090341747086
19359.37	12.9565433142132	-1.61535069876892	13.0568515551452	7.10665336401541
16500	14.1993708071573	1.73605045769989	14.3051040720027	-6.97053005104823
14112.02	-257.118342860078	-1300.20887700114	1325.38785495706	101.186008197709
12011.13	-318.710852079086	-1572.47068372779	1604.44403405551	101.457590192601
10236.38	-311.49192911482	-1778.26765347818	1805.34292291256	99.9354705140567
8750.684	-363.977343763903	-2102.33531632615	2133.61038829623	99.8222540537389
7449.463	-365.042934312377	-2147.38265149329	2178.1892929279	99.647731109342
6363.206	-419.965729722081	-2831.05185126913	2862.03176060563	98.4378734291438
5414.761	-484.34729004031	-3171.20384322884	3207.97850876199	98.6838442105934
4620.567	-658.419594884624	-3657.55654716147	3716.34716605053	100.204875269327
3941.215	1.86125956610285	-13.4647698360272	13.5928037545459	82.1297757063352
3361.769	38.0583586686601	-11.5523951167389	39.7730624604849	16.8853641605588
2867.244	11.0824402802807	-3.16268313537801	11.5248881634831	15.9275735327504
2442.658	9.4969317629805	-8.7727436707197	12.9287564917458	42.7300521748445
2083.003	12.4550586453836	-2.16795633986964	12.6423305031756	9.8741082694327
1777.843	21.806331634041	23.5049605884514	32.0624277246504	-47.1468978738387
1513.548	20.2792580004924	9.30039097233957	22.3102123990093	-24.6369445483514
1292.065	-0.709043008706489	15.7558056454881	15.7717517583365	-92.576687072294
1101.762	10.4673037627644	1.91857861458588	10.6416818201978	-10.3865960988654
939.101	21.4046900026816	-8.96754259600584	23.2072741682878	22.7313556766817
801.2801	39.3354029769682	-6.00815099311648	39.7916047140168	8.68432703037584
684.3433	15.1304172700328	11.7582131589553	19.1620746125449	-37.8516431352488
582.9476	13.9209524840116	-1.94265948583414	14.0558473220226	7.94428328302897
497.0677	10988.7338201874	-33469.1844695463	35226.9581432665	71.823754662199
423.5089	24.8667347065489	0.51408255154349	24.8720480828517	-1.18433584817194
361.5036	5394.81342076897	-2775.23575134027	6066.79036397552	27.2224968129706
308.1262	8929.6057836877	-5545.23027389756	10511.3005019654	31.8400267092874
262.7298	-15103.8179678074	-52246.2984838752	54385.6692748269	106.123987659265
224.2111	23319.5960119393	-21841.7524627751	31950.9891678677	43.1257425577398
191.2854	-15984.7297581939	-117375.693523025	118459.128037706	97.7550796246864
163.1722	-39529.1731203987	-56470.8833250453	68931.2424891161	124.991717036041
139.1537	2548.13797278362	-92295.9564025094	92331.1246296841	88.4185604656911
118.6706	94723.1579402603	-22986.4857272719	97472.3303110455	13.6403030962764
101.1982	170.150059510154	-129.505364204011	213.828627898423	37.2756486638037
86.24196	-112060.077166037	-171588.447960742	204939.152843068	123.147537780853
73.61024	-80143.1339607847	-202846.480983649	218104.600521186	111.55860693764
62.69291	-73106.8569812684	-157991.119989253	174085.629886956	114.831284567647
53.57697	-94078.0531855686	-157924.289363373	183822.635336655	120.782940960348
45.65746	-128918.493260225	-251696.998668072	282792.073868773	117.121396874785
38.96512	-75407.8650648468	-144883.99871007	163333.154000826	117.495652906565
33.18414	-239815.839178772	-626447.680355485	670781.881794512	110.947776632251
28.30617	-255761.449958031	-734077.017050048	777356.408763529	109.208964315588
24.17237	-273476.832987166	-845868.338946594	888978.528994351	107.916486121332
20.61345	-187049.513244911	-675473.71591007	700893.901593184	105.478264224152
17.55618	-307926.216769122	-1134075.55602819	1175136.55451373	105.190811298335
14.98558	-334195.596174558	-1311125.71341653	1353047.42447723	104.299747335348
12.76553	-362162.772889588	-1517234.90236863	1559860.12931693	103.42524185264
10.8809	-1151518.63477723	-2980482.99801717	3195195.46627567	111.124190337371
9.278505	-491245.708962352	-1279052.4279241	1370145.05069809	111.010286327699
7.923394	579045.989430825	-520048.64533619	778296.120632712	41.9274185179575
6.75822	1173616.64356512	-1702783.77044622	2068054.30174067	55.4240639062608
5.761429	-420863.404151469	-2347882.00151936	2385304.15209728	100.162476392488
4.919708	1326894.53894076	-3571342.15376682	3809873.21268604	69.6179817425043
4.191257	-659729.774173061	-3058010.39911664	3128365.54386407	102.17430309853
3.564097	-1675041.88677324	-2999947.93959255	3435906.42519706	119.177112147935
3.051758	843037.391931886	-4377537.86808799	4457975.97915687	79.0992873363292
2.604164	-1349374.9486327	-5553370.11923482	5714956.90562997	103.657232463888
2.214424	-819800.607677846	-5739767.83932437	5798017.58238894	98.1284762197731
1.892567	-2081839.40247946	-5842746.66492788	6202559.46269296	109.611581758226
1.607507	-1143007.67600771	-9030409.5452953	9102459.1788798	97.2137490998468
1.376413	-1952605.52609664	-11404552.1866314	11570500.3745794	99.7155693122855
1.17375	-1375132.99248932	-9851813.31053237	9947322.06438574	97.946103753583
1.001604	-3102582.27870751	-7491364.28771203	8108424.98191585	112.497111806064
