EC-Lab ASCII FILE
freq/Hz	Re(Z)/Ohm	-Im(Z)/Ohm	|Z|/Ohm	Phase(Z)/deg
6999984	18.9021581576236	1.0736993875875	18.9326282747727	-3.2510788400047
5969734	18.1993625983585	2.98426812511072	18.4424145715544	-9.31228877383922
5091109	10.8506234642409	-5.76469213702181	12.2868915921553	27.9807033224231
4341796	8.67711399841778	-5.26539026293163	10.1497114226225	31.2499432056601
3702781	5.75893639825187	-5.53989730550992	7.99098308061695	43.8894036254019
3157797	3.89613496040271	-5.30922872824284	6.58542157484784	53.7272150185131
2693047	2.31752176301697	-4.76361485034875	5.29744594729578	64.0568533829646
2296687	2.53695760570217	-3.71248267347058	4.49651881948128	55.652908979214
1958656	1.80252484247789	-3.24866949553808	3.71523206529412	60.9762885016642
1670375	1.54087075897365	-2.70493032803561	3.11302598373141	60.3318828694806
1424531	1.27349428395093	-2.41974248235831	2.73439963651718	62.2424679331238
1214875	1.2579452454045	-2.0826021449343	2.43303471708086	58.8669443788901
1036062	0.884951403682681	-1.81216173177005	2.0166975799489	63.9718837419467
883578.1	0.795297381552083	-1.57590859590518	1.76521551878275	63.2217673965614
753531.2	0.728802129198669	-1.36756433175299	1.54964019856466	61.9459622741436
642624.9	0.678946204658095	-1.15805753787471	1.34241022412974	59.6177482736295
548046.8	0.635014885555252	-1.01646928004804	1.19852146503854	58.0059034043675
467390.6	0.605714102917702	-0.8765601865807	1.06547986145764	55.3550396806813
398593.7	0.568068390467474	-0.76363723595771	0.951758122838696	53.3545059727805
339937.5	0.54566027013278	-0.664661184299497	0.859953266355671	50.6153723711765
289906.2	0.52937707174722	-0.575918523346773	0.782254581083159	47.4111689272649
247234.4	0.512537055863844	-0.498011976730367	0.714639883158269	44.17651850612
210843.7	0.499430523190376	-0.430912186820825	0.659633352890012	40.7878570296439
179812.5	0.490434217895441	-0.369710636488177	0.614175607473307	37.0105754694644
153343.8	0.483203923929695	-0.321456991740837	0.580362498478427	33.6342956109411
130781.2	0.480154817651149	-0.279601726253201	0.555630969472885	30.2129182443631
111531.3	0.473081904020469	-0.24284339653089	0.531770066053263	27.1724317608321
95109.37	0.467292204231299	-0.212219004587882	0.513224034943432	24.4249960007767
81109.37	0.458819043313834	-0.183909987074265	0.494305369031207	21.842560626563
69171.88	0.453381285576048	-0.159670653483868	0.48067588632524	19.4011129769972
59000	0.44276680205424	-0.134264211266061	0.462676257688069	16.8693557197629
50312.5	0.438634988613057	-0.10241461442839	0.450432466063552	13.142253803281
42906.25	0.467931784639591	-0.106910455668522	0.479989583852862	12.869720698449
36593.75	0.452631529803066	-0.0967091993222122	0.462847675812904	12.0604693790283
31203.13	0.446672085963915	-0.0849408452015974	0.454676697844652	10.7670228860984
26609.38	0.443246481834623	-0.0730451930332269	0.44922493684571	9.35799934673476
22703.13	0.442296131127918	-0.0650045726629642	0.447047494208187	8.36094392122605
19359.37	0.439475840844998	-0.0585549880851328	0.443359562111914	7.58929009232181
16500	0.436764348642105	-0.0521796533189209	0.439870222298856	6.81276039258101
14112.02	0.433050022967952	-0.046982852040124	0.435591219813219	6.19196635113471
12011.13	0.431095738449002	-0.0423945645333134	0.43317529339848	5.6164886876209
10236.38	0.429579270380397	-0.0385512373597215	0.431305631127765	5.12809201460005
8750.684	0.428027594881694	-0.035117688680628	0.429465800778685	4.69034882137333
7449.463	0.426764362124629	-0.0307724117653031	0.427872366606556	4.12425047696581
6363.206	0.422428848336908	-0.031227655289443	0.423581513244054	4.22784640294562
5414.761	0.425700550369772	-0.0254442171643395	0.426460275725926	3.4205122003074
4620.567	0.419615794507195	-0.0239274253821174	0.420297438352081	3.26359854078611
3941.215	0.423182514096253	-0.0221565256319017	0.423762140669624	2.99709295195896
3361.769	0.419681555911757	-0.0233681359663042	0.420331628777865	3.18697460301208
2867.244	0.416571988937237	-0.0211114604244643	0.417106599957828	2.90121190269058
2442.658	0.414210262642562	-0.0196902754905859	0.414678005960426	2.72161541701785
2083.003	0.411886805262293	-0.0192182576900354	0.412334914575298	2.67143061670014
1777.843	0.409129739906658	-0.0182245604134913	0.409535442517927	2.55053709488533
1513.548	0.401813342971755	-0.0177405553146919	0.402204786014551	2.52803761522834
1292.065	0.40255843074579	-0.0186937977655383	0.402992243398569	2.6587613739342
1101.762	0.404303265785029	-0.0133301007043556	0.404522956467526	1.88838925161767
939.101	0.400659891742134	-0.0165426251052203	0.401001255978321	2.36431091456514
801.2801	0.401131668203216	-0.0109924624429453	0.401282256605067	1.56971929329063
684.3433	0.400470269306406	-0.0164008086299841	0.400805966924225	2.34517355124997
582.9476	0.401012838692027	-0.0114490021373013	0.401176241128232	1.63536249492097
497.0677	0.396365405136516	-0.00915105488976758	0.396471028190749	1.32257681314992
423.5089	0.397837123912765	-0.0124080413761115	0.398030572511676	1.78640448295777
361.5036	0.394453692805126	-0.0153218112068863	0.394751154103772	2.2244284255041
308.1262	0.388960399725226	-0.0104002291207716	0.389099418298424	1.53163994526844
262.7298	0.387024941341455	-0.0149489937554024	0.387313539183251	2.21197289599575
224.2111	0.385188893699786	-0.0119041909240203	0.385372798198343	1.77015196214109
191.2854	0.381308760070209	-0.0100927962700191	0.381442308931283	1.51619815973187
163.1722	0.383837724372723	-0.0133242561136347	0.384068918883854	1.98812458797389
139.1537	0.38290729905146	-0.0105453779205521	0.383052482908506	1.57754360494094
118.6706	0.382605351251358	-0.0117594299889257	0.382786022471876	1.76043975455583
101.1982	0.370078535705901	-0.0194057531821457	0.370586974739791	3.00166114445953
86.24196	0.383756546684538	-0.0114131130415792	0.383926225038798	1.70350321958029
73.61024	0.376582361615757	0.00450329237525764	0.376609286558786	-0.68512860747256
62.69291	0.298851814925211	0.00490363597885753	0.298892042265942	-0.940039249399649
53.57697	0.361460719315207	-0.0115383668520353	0.361644833389721	1.82834613947694
45.65746	0.381817384158492	0.0119230359715175	0.382003499502834	-1.78859776539753
38.96512	0.370482859165708	-0.0226746166605492	0.37117608648228	3.50229791485776
33.18414	0.36590819191599	-2.27629144672151E-05	0.365908192624023	0.00356433377420996
28.30617	0.349760858182028	-0.0167629380188085	0.350162325225389	2.74390691299521
24.17237	0.353606939594934	-0.0135388540797573	0.353866031570548	2.19266192646866
20.61345	0.385074117668964	-0.00508762183822096	0.385107725181539	0.756951158923389
17.55618	0.388766175222298	-0.00335469060431767	0.388780648883178	0.494397030826138
14.98558	0.360071284606228	-0.010170414335633	0.360214890483081	1.61792108667939
12.76553	0.362378977726953	-0.0110448337952445	0.362547254646889	1.74575942992898
10.8809	0.359900683711355	-0.0953214801412747	0.372309933673847	14.834461732888
9.278505	0.2723122732315	-0.0232614610614691	0.273303987755798	4.88246787261644
7.923394	0.34746326109876	-0.00738579045902227	0.347541749598649	1.21771407748508
6.75822	0.340741527192983	-0.020550272869191	0.34136066274368	3.45135337250371
5.761429	0.328803979119321	-0.00895152492838136	0.328925806958411	1.55946392171558
4.919708	0.256736016445908	-0.113671470563534	0.280774972817361	23.881665853232
4.191257	0.25599704192549	-0.0393589434273119	0.259005042233381	8.7406487816372
3.564097	0.236789442629862	0.0961908918380746	0.255581548265059	-22.1084474209714
3.051758	0.270550292179984	0.0446297319939915	0.274206625697721	-9.36710364609939
2.604164	0.308614234242519	-0.035261629516412	0.310622162913802	6.518231437994
2.214424	0.224145767199131	0.0176904134832453	0.22484277992076	-4.51264080459335
1.892567	0.257508512602685	-0.0235358805496454	0.258581847267156	5.22223642879138
1.607507	0.192678520848037	0.0222576351837043	0.19395982759365	-6.58942717361696
1.376413	0.154525089029744	-0.0378184079195372	0.159085621968859	13.7522246719772
1.17375	0.233941721117555	0.0196351328582014	0.234764280336262	-4.79768902654432
1.001604	0.190702792409124	-0.10562404129399	0.217999984247503	28.9806349960634
