EC-Lab ASCII FILE
freq/Hz	Re(Z)/Ohm	-Im(Z)/Ohm	|Z|/Ohm	Phase(Z)/deg
6999984	-7.48363049489182	23.7870339932378	24.9364735193155	-107.464078646296
5969734	-1.43871686283448	26.1694502522667	26.2089685550054	-93.1467800784492
5091109	3.41450571199864	25.3177263779294	25.5469395076	-82.3190809618464
4341796	7.32356881577565	23.2255537941574	24.3528439662537	-72.4986989448631
3702781	10.1798750765717	21.2232301369345	23.5383804459842	-64.3749595508212
3157797	12.7156799720608	19.3036796989211	23.1153751228573	-56.626387191453
2693047	14.8779842151216	17.385954937702	22.8828722716623	-49.4448310548802
2296687	16.486220328796	15.6817798853795	22.7533224190029	-43.5674758290518
1958656	17.7010609927757	14.1088138531757	22.635949032756	-38.5569599106327
1670375	18.7573605562738	12.7150244791718	22.6607683573173	-34.1321099912405
1424531	19.5364513389884	11.4310774373479	22.6349831521763	-30.3325575615643
1214875	20.1656383835834	10.4812523375525	22.7268480432483	-27.4635172390703
1036062	20.7333854993292	9.46294999815852	22.790802902299	-24.5324886127211
883578.1	21.1871810707459	8.65733400856323	22.8876838902585	-22.2255084280946
753531.2	21.5673299714992	7.99431528770253	23.0012782040199	-20.3381224255762
642624.9	21.8834395944521	7.49281050812399	23.1306536395902	-18.9010182246732
548046.8	22.1586661235248	7.12639210132129	23.2764247416914	-17.8281776716025
467390.6	22.3915410524984	6.84936646217828	23.4156984016906	-17.0083896583293
398593.7	22.6163685397067	6.72736914301164	23.5957119305644	-16.5654130686019
339937.5	22.8352823308189	6.72839014730395	23.8059100456704	-16.4175498504125
289906.2	23.0564009533059	6.84520868476171	24.0510811993462	-16.5356135336771
247234.4	23.2866634449108	7.1007877569947	24.3452229639909	-16.9580037498255
210843.7	23.535791641555	7.49151001670902	24.6993159930623	-17.6564221133561
179812.5	23.8217559651503	8.02805600188601	25.1381331930713	-18.6240848039746
153343.8	24.1214758383787	8.68167469155624	25.6362452802959	-19.7945516357576
130781.2	24.4723504935629	9.50845053408993	26.2546485453343	-21.2330653128367
111531.3	24.8647982342018	10.4969822609936	26.9897170754934	-22.8876413744596
95109.37	25.3082746133402	11.6789807810665	27.8730578872997	-24.771853190793
81109.37	25.8080653714256	13.0684328631552	28.9281899833808	-26.8562908382127
69171.88	26.423757329687	14.6589654414842	30.2175482002233	-29.0199628191212
59000	27.1308057247085	16.4725068110073	31.7399448630673	-31.2640895336219
50312.5	28.1328896574591	18.5003418952167	33.670790467684	-33.3291382892544
42906.25	28.3481910777123	20.6386282608296	35.0652664878966	-36.0561309151796
36593.75	29.5794471827216	23.6243604712827	37.855701067508	-38.6134821971224
31203.13	30.8901291378263	26.7141657600791	40.8392792591712	-40.8536555028367
26609.38	32.3303245907655	30.2452751578718	44.2721871779521	-43.0915828139941
22703.13	11.3793961259175	34.6488816744701	36.4696539259969	-71.8187699293813
19359.37	13.4422169788413	39.0186536031592	41.2692200836116	-70.9907886196378
16500	15.856710308466	43.9354433119031	46.7092971561344	-70.1550150838805
14112.02	18.5833710604994	49.2093501989967	52.6013481479296	-69.3115066178889
12011.13	21.8103901038706	55.1882797080308	59.3417166385913	-68.4360844027085
10236.38	25.5269784693282	61.6320672206332	66.7093572121797	-67.5014756472911
8750.684	29.6432419249173	68.4608624628138	74.6030259505034	-66.5876079640574
7449.463	34.4047545185063	75.4676111364789	82.9400232947006	-65.4923418428853
6363.206	40.2024027806667	84.5118736565206	93.586804509368	-64.5595092566329
5414.761	47.5805788104203	91.1094382966321	102.785413491713	-62.4248403993139
4620.567	54.5125198923838	99.5509958577105	113.49896740182	-61.2955978808906
3941.215	62.2710963462321	109.364238132684	125.850013994851	-60.3431701380446
3361.769	69.3292568094544	118.274453924675	137.096288428722	-59.6223319359905
2867.244	79.7083401318046	128.875983763148	151.533622267425	-58.2636771163968
2442.658	91.1983140092224	140.552549448039	167.547460841602	-57.0222494616869
2083.003	103.452289202387	153.127006715369	184.797879659976	-55.9571209205387
1777.843	118.184154697687	167.249042422687	204.791934931317	-54.7536058831325
1513.548	133.607155146693	182.317214561313	226.03194161841	-53.764995855524
1292.065	149.721438166054	198.470056232706	248.609879665964	-52.969902323221
1101.762	163.404707107263	218.461754679175	272.812456757961	-53.204299357209
939.101	183.416955266734	231.487070469118	295.343940641574	-51.6087322189067
801.2801	-386.667265917142	-21.0809350671315	387.241501333654	176.879347920883
684.3433	-117.493858846016	-366.780700916586	385.14009065714	107.762245882882
582.9476	-379.475261061098	-26.8102516634006	380.421165751386	175.958719335667
497.0677	303.80998319006	217.467704845089	373.621076140701	-35.5951519915291
423.5089	-343.617904351349	-14.1009330692505	343.907110284502	177.650090746893
361.5036	295.257568571604	208.669251266325	361.552054651697	-35.2502371284383
308.1262	280.277299422184	-197.51495036264	342.881204191989	35.1728362598941
262.7298	-91.2526066440834	303.818903073285	317.226991417808	-106.717743822359
224.2111	-67.7418619743918	373.645514509884	379.736659248371	-100.276093923262
191.2854	257.417238658275	-178.391361158114	313.188621272064	34.7221419286662
163.1722	146.832569291162	130.007260679459	196.116524632731	-41.5220508779025
139.1537	-290.057819231178	173.000478161036	337.731704080464	-149.186693400384
118.6706	187.120424315299	168.368725096958	251.718256760832	-41.9805030576764
101.1982	365.694614413296	78.8152564560342	374.091426874661	-12.1624673257175
86.24196	304.411004291698	433.02593352819	529.317974984641	-54.8933331006311
73.61024	166.926121122311	161.882244705088	232.529978849392	-44.1211593239544
62.69291	-402.643072540158	-117.539167356583	419.448327839625	163.726471480081
53.57697	-117.65754606329	194.172290673774	227.037830792879	-121.213518743389
45.65746	417.500626836634	307.628539488311	518.596270442329	-36.3840403909109
38.96512	-151.792288302152	-719.983120585191	735.810160785778	101.905184822157
33.18414	-110.260181316489	524.174114357707	535.645227502898	-101.87900065092
28.30617	-534.491035661821	694.71895591276	876.535849185509	-127.573350269341
24.17237	-355.718013378069	250.846098310711	435.268962917582	-144.809181254026
20.61345	-364.6152406646	281.882710894645	460.871062691311	-142.292521434693
17.55618	-349.841905003685	285.741201583272	451.704984230703	-140.758999896025
14.98558	-359.148945918304	278.963293884529	454.762008845435	-142.16228812786
12.76553	-386.477738344355	305.77153810434	492.809573517461	-141.649834675895
10.8809	-303.806490472299	235.40558007966	384.336012866003	-142.229553373008
9.278505	-363.97515846786	320.621719273004	485.052783572346	-138.623528897793
7.923394	-12.898440407855	426.128308474912	426.323474662896	-91.7337515640975
6.75822	-362.453856278597	312.313370706355	478.447948530653	-139.249714472092
5.761429	-133.327371299006	344.388106767876	369.295756840862	-111.163552537897
4.919708	-301.68260645206	335.333320151865	451.066326209108	-131.976129854465
4.191257	195.977250429416	391.789232377809	438.070639615424	-63.4252820053919
3.564097	-157.059185430855	639.352528277267	658.361027964701	-103.801617828261
3.051758	205.576648659824	359.887606110794	414.46453105949	-60.263930074978
2.604164	446.358992818335	191.243622238758	485.603205834557	-23.192833073614
2.214424	-68.1171557403536	452.010538190383	457.114289364613	-98.5698829051419
1.892567	-437.722752608428	475.553540991877	646.337666008265	-132.627983937985
1.607507	298.730119340806	418.419643766092	514.115436930963	-54.4751140172312
1.376413	225.931408450357	491.52080786004	540.959985473739	-65.3137508981431
1.17375	454.968816304365	123.570107736463	471.451159013738	-15.1950527212536
1.001604	367.409640915304	512.241338313052	630.381656549632	-54.3496820967212
