EC-Lab ASCII FILE
freq/Hz	Re(Z)/Ohm	-Im(Z)/Ohm	|Z|/Ohm	Phase(Z)/deg
6999984	23.1633315863857	87.3761226334953	90.3942848671555	-75.1524675645705
5969734	18.3767675332513	87.1693864649639	89.0853945473072	-78.0954079834805
5091109	14.0064215349044	92.0911235994984	93.1501738593735	-81.3519854994451
4341796	11.5268866663684	100.92796549645	101.584070284036	-83.484534412922
3702781	12.7810022881638	112.934504213322	113.655427769195	-83.5432052911434
3157797	13.7923446169942	126.561176286604	127.310487050686	-83.7805817056661
2693047	14.5837827864941	142.853915399084	143.59640617095	-84.1709378514887
2296687	15.7832135425355	164.060732695421	164.818184197884	-84.504857654491
1958656	18.4181739535733	188.893533505491	189.789346729405	-84.4309460989191
1670375	22.0240141998329	218.611256092265	219.717861112182	-84.2471412382411
1424531	27.3236340775624	252.931891471733	254.403464407765	-83.8343824426289
1214875	34.0148350410312	292.859141380464	294.827891646926	-83.3749275867135
1036062	42.706830815017	339.523860422488	342.199247799366	-82.8307322728982
883578.1	53.1216028465456	393.07650704768	396.649776354142	-82.3034965098188
753531.2	67.4863253224841	455.733982021236	460.703664489945	-81.5766995466954
642624.9	142.112501657018	590.874143624564	607.723799707793	-76.4765157333384
548046.8	177.229838317921	671.226661692624	694.230254999896	-75.209247682068
467390.6	218.029484991328	761.587389393556	792.18192860534	-74.0244855532965
398593.7	266.893373609246	862.533027423477	902.881662385959	-72.8063772808484
339937.5	325.383345137313	975.949075557188	1028.76183802359	-71.5615118793676
289906.2	393.157427712326	1101.7994357877	1169.843903975	-70.3619674394817
247234.4	477.541409258138	1241.98762780316	1330.63107778692	-68.968362194385
210843.7	577.641958671486	1397.03091713493	1511.74257591982	-67.535967706558
179812.5	702.486990546514	1565.73498014491	1716.10430916553	-65.8360019284048
153343.8	850.770700861077	1746.27609157441	1942.49606780761	-64.0250542253348
130781.2	1028.85751851203	1937.03119704265	2193.31658720651	-62.0249158583126
111531.3	1245.89022496739	2132.38142896208	2469.67467720986	-59.7034627597811
95109.37	1494.35894252692	2322.77149095947	2761.95149275367	-57.2447289735362
81109.37	1789.83370071842	2511.90127595193	3084.33991258362	-54.5285537907831
69171.88	2106.43867100371	2675.67582829138	3405.33772375115	-51.7882398961211
59000	2459.64217539213	2816.4946795928	3739.31570091939	-48.8693178679831
50312.5	2850.16727504224	2945.60701358293	4098.78691495309	-45.9434114843223
42906.25	3287.28894126802	2973.7034945997	4432.73967848073	-42.1327035663749
36593.75	3692.85934459794	2985.71573074831	4748.86392348973	-38.9559046938044
31203.13	4455.79607640787	2744.60619932267	5233.25729005294	-31.6315388267952
26609.38	4798.71397160813	2670.59799936156	5491.78927631979	-29.0969740763647
22703.13	5122.03948786373	2572.79840983169	5731.8915004445	-26.6703603041148
19359.37	5423.76140336308	2456.15976971168	5953.98258100922	-24.3634775223135
16500	5704.94101884125	2318.82163388363	6158.18851596995	-22.1197003120678
14112.02	5951.01291594671	2181.25974147767	6338.1739314692	-20.1296975684415
12011.13	6183.78418711921	2029.58467690923	6508.33318397348	-18.1703939034782
10236.38	6382.3089071467	1874.01683818158	6651.75210722951	-16.3636517106245
8750.684	6561.10147643268	1731.88713910293	6785.82976846879	-14.78668851193
7449.463	6713.16767072598	1593.15189887087	6899.61978286893	-13.3503176970048
6363.206	6847.56572121099	1460.24640057368	7001.53382172023	-12.038032351771
5414.761	6958.15513690654	1335.94232406307	7085.24274831018	-10.8683390130114
4620.567	7067.9414907225	1297.10230245065	7185.97740737468	-10.3991553337347
3941.215	7147.25145088815	1140.42998559673	7237.66425404432	-9.06580805995189
3361.769	7220.42266496612	1064.68797304045	7298.49737553515	-8.3881078502932
2867.244	7284.64677215386	1000.9504222229	7353.09324997309	-7.8237616108232
2442.658	7338.83073552081	954.480068078307	7400.63975376343	-7.41022932218752
2083.003	7384.99359019943	920.616215966733	7442.15456332288	-7.10585695268018
1777.843	7422.30881822349	896.755014546615	7476.28502327143	-6.88902107511292
1513.548	7456.3897431656	896.877689036447	7510.13565730183	-6.85876317395206
1292.065	7487.66316675474	904.285641775673	7542.07081779914	-6.88626514811834
1101.762	7514.28801715251	918.190870991046	7570.17825947931	-6.96658810141773
939.101	7538.03928946267	951.529857980379	7597.8579481398	-7.19441903907355
801.2801	7551.0971775974	1040.17198192744	7622.40292411168	-7.84319633923403
684.3433	7576.35850012276	1115.00123232758	7657.96551771255	-8.37203638413978
582.9476	7610.98321652894	1190.67852293333	7703.55637788547	-8.89140543669202
497.0677	7630.80376960961	1300.64941942114	7740.85622412203	-9.67294851714022
423.5089	7663.63948769822	1435.20742944587	7796.87056215146	-10.6071963091467
361.5036	7695.85477244423	1595.89622211311	7859.58430391248	-11.7154284652226
308.1262	7729.77341936152	1782.25481387301	7932.58024455103	-12.9837851363037
262.7298	7768.73666754884	1987.01693397253	8018.82196495292	-14.3470178886805
224.2111	7808.79880571168	2235.61867352111	8122.51990711506	-15.9761431650437
191.2854	7851.55722617994	2518.65689280388	8245.64026741689	-17.7854292905078
163.1722	7896.18046112235	2848.27337892552	8394.18412448203	-19.8351514251206
139.1537	7953.52965398787	3221.98798837286	8581.36589093387	-22.052950728935
118.6706	8025.46518899839	3657.16546487004	8819.46431124153	-24.4985236746258
101.1982	8092.17140277579	4148.76826216545	9093.70750052219	-27.1437208457181
86.24196	8183.21200733017	4731.67142655473	9452.70719137048	-30.0372264660641
73.61024	8298.35006014542	5376.02821864115	9887.58277479089	-32.9369028418638
62.69291	8437.83404387096	6141.94801050428	10436.5017470245	-36.0510888865824
53.57697	8603.85522333021	6999.49054038251	11091.4017386862	-39.1293733958582
45.65746	8804.70227443732	8004.51505112581	11899.3715525309	-42.2745449981375
38.96512	9048.48384584422	9139.20180234654	12860.7958343377	-45.2857819862271
33.18414	9345.72407922763	10467.4574720581	14032.4703632112	-48.2403706371121
28.30617	9751.22808268091	12008.5083968339	15469.0246310908	-50.9224834789446
24.17237	10093.5770199066	13707.1383451243	17022.5127013952	-53.6330436753054
20.61345	10579.5788409914	15706.1011580096	18936.9771093061	-56.035919806103
17.55618	11155.3189240058	17997.2477659641	21174.0895305036	-58.2079283229306
14.98558	11835.4499039313	20602.2644270087	23759.8647712662	-60.123784598289
12.76553	12633.8512397974	23620.7329684294	26787.183934023	-61.8593310555198
10.8809	13568.9690055266	27073.7618667174	30283.7497923996	-63.3806485931512
9.278505	14677.213297506	30977.0522917483	34278.2490636	-64.647973940201
7.923394	15944.0494409289	35414.4312868451	38838.0567992975	-65.7620903728329
6.75822	17530.3660950425	40443.5496332778	44079.4106399532	-66.5655490889449
5.761429	19341.1623718102	46183.3946681661	50069.8163065167	-67.2765324169227
4.919708	21435.9713634754	52681.6515301665	56875.805719494	-67.8587721283347
4.191257	24022.7487813547	60174.4660575125	64792.4287576782	-68.2372107520186
3.564097	26924.1074639653	68660.8158510615	73751.0352202905	-68.5882619930952
3.051758	30384.5919451353	78032.4521058204	83739.3993847552	-68.7248551314544
2.604164	34524.8071874869	88508.6078894936	95003.8735098168	-68.6905922553056
2.214424	39031.3939505223	100884.537848599	108171.806357508	-68.8489577898797
1.892567	44878.2521808369	114136.702635157	122642.751140184	-68.5353779886047
1.607507	51480.1992158919	130070.041711095	139887.192630469	-68.4069208509363
1.376413	58939.8030576275	146793.27333897	158183.960887447	-68.1237651085827
1.17375	67897.9873810195	166075.397277332	179418.990832121	-67.7633746554454
1.001604	78230.1400392578	187935.885354955	203567.806429977	-67.4000048217734
