EC-Lab ASCII FILE
freq/Hz	Re(Z)/Ohm	-Im(Z)/Ohm	|Z|/Ohm	Phase(Z)/deg
6999984	-8.77778163015928	18.6958553400516	20.6539211106002	-115.150250172197
5969734	-3.65752493853343	19.8203838091078	20.1550267431313	-100.455372417358
5091109	-0.151196179630416	18.1882161495945	18.1888445754288	-90.4762810911239
4341796	2.09516599970397	15.9254864475486	16.0627158088964	-82.5051776537049
3702781	3.55992481432651	14.1970534133188	14.6365771375785	-75.92326768636
3157797	4.80946157427902	12.7750549193099	13.6503827355078	-69.3700056087717
2693047	5.79313671461302	11.6242681549511	12.9878421276365	-63.5099078717327
2296687	6.40425833788217	10.8409423597908	12.5912888977515	-59.4276408772051
1958656	6.95107084236286	10.3419229679048	12.4608489489932	-56.0939432420159
1670375	7.42516808347937	10.0803824766905	12.519873479564	-53.6247930830555
1424531	7.81862089245819	9.99900775110292	12.6929503531133	-51.9767372811412
1214875	8.20639159767579	10.1236620955745	13.0320143216532	-50.9712593760441
1036062	8.61005059546791	10.4745554663492	13.5591033432946	-50.5799062836579
883578.1	9.02237597059787	10.992863614843	14.2213332219367	-50.622614557707
753531.2	9.45857380517984	11.7257484332714	15.065118477742	-51.1086202778488
642624.9	9.92856447745288	12.6849448385342	16.1085138401901	-51.9495504337623
548046.8	10.465289032131	13.9128031310685	17.4094332328744	-53.0493085440482
467390.6	11.0437799749644	15.3808416733059	18.9350301482392	-54.3208279421584
398593.7	11.7277685473481	17.1817636027703	20.8027295228691	-55.6836997311243
339937.5	12.4257818859889	19.2517798979173	22.9135567888537	-57.1603666677811
289906.2	13.2997155543572	22.2099765488367	25.8875547730312	-59.0861007355276
247234.4	14.4813256663071	23.6196777167052	27.7055584404044	-58.4873598396159
210843.7	16.5951640151184	27.0273327180673	31.7155511152146	-58.4494873293577
179812.5	16.7960337765266	30.7760636127495	35.0609874663881	-61.3764995215631
153343.8	20.6520335433275	35.4246547765449	41.0050320754918	-59.7584667081136
130781.2	22.9324695757389	39.9716717455261	46.08288948161	-60.1563286010525
111531.3	1.41784136153001	45.9948561279073	46.0167041882984	-88.2343545345565
95109.37	4.69400104329504	52.2110354806427	52.4216164550025	-84.8626697975502
81109.37	8.32224847595337	58.8689965586279	59.4543402580102	-81.9534765927734
69171.88	13.1504478808463	66.805663929465	68.0876715163874	-78.8639162740895
59000	18.7321517824184	75.1894183395654	77.4876902523345	-76.0105291585585
50312.5	25.6469305876332	84.4374588652843	88.2465268902604	-73.1044299258754
42906.25	30.8312473003005	93.1834818008828	98.1515516465621	-71.6923754397755
36593.75	39.5889305149352	105.264709737644	112.463071874579	-69.3892569906881
31203.13	49.4158219657898	117.22296465417	127.212998167905	-67.1419446308465
26609.38	61.0156315103626	128.880360198461	142.594019978025	-64.6657929276296
22703.13	75.9669137825848	143.510031433328	162.376417966543	-62.1055310200875
19359.37	85.0181192963527	155.863732307877	177.543188147646	-61.3891045930559
16500	100.292691261556	176.258902182019	202.795030804249	-60.3597859141034
14112.02	124.963470296474	182.871156248748	221.489793661676	-55.6535793398343
12011.13	143.352273854013	212.858096330007	256.628999905214	-56.0411509107726
10236.38	173.4135912706	223.402524670075	282.809055134962	-52.1800169772757
8750.684	180.334180426742	237.284487264318	298.034133156715	-52.7654767114963
7449.463	215.587214999377	258.273288467969	336.426721303832	-50.1473976328475
6363.206	235.098092354242	298.446778235414	379.923140210888	-51.7711256467806
5414.761	-86.4992677395594	458.029360272525	466.125539089137	-100.694410409487
4620.567	-15.5369295450608	442.873986210258	443.146436115029	-92.0092296719964
3941.215	21.5301817089392	446.381641765342	446.900569287556	-87.2386111823987
3361.769	8.15681249633667	398.356011419572	398.439512880199	-88.8269647820603
2867.244	-26.1008005905613	318.726128382836	319.793052934832	-94.6815621242661
2442.658	-431.246551867337	29.1944383263743	432.233621698567	-176.127111631656
2083.003	-422.108639350358	65.0051797142798	427.084741946954	-171.245167442464
1777.843	340.042957125235	226.22908181331	408.422342861611	-33.6356477913376
1513.548	-484.244638990627	169.12306053993	512.928338072245	-160.748179565211
1292.065	-45.9630656485052	478.254192569072	480.457777659706	-95.4896045027391
1101.762	-56.725411242145	423.368423931068	427.151723234809	-97.6313780367176
939.101	-428.029739077215	130.216053765643	447.398791005078	-163.079086467362
801.2801	-410.436201166726	146.83741915771	435.91180632448	-160.314851584754
684.3433	-388.523103082668	138.978957298501	412.632223900126	-160.317315303273
582.9476	-417.589917148338	89.2124985731496	427.013124863417	-167.940805246386
497.0677	-393.460088307925	187.339958167082	435.783318883736	-154.539265122496
423.5089	201.060078998042	152.404496284771	252.294046411154	-37.162300423193
361.5036	-135.868745993864	453.263244099579	473.189057977485	-106.686460326745
308.1262	359.100302368767	-246.541545178605	435.586685586686	34.4716791581028
262.7298	278.104283004172	193.571416601964	338.839026014648	-34.8394206597516
224.2111	-336.092952154179	508.605718482698	609.621398378545	-123.457221469121
191.2854	1.13051725781818	-300.32246920673	300.324597027445	89.7843199619444
163.1722	-379.559586953815	195.311945319948	426.863252146648	-152.770773592046
139.1537	-360.807244198435	271.480588755894	451.534691399583	-143.04126268137
118.6706	-436.790680769378	131.68585327419	456.209669734793	-163.222726986602
101.1982	-13.5855842568711	417.142865850094	417.364036099459	-91.8653599696391
86.24196	-67.0597169570133	487.575116993468	492.165114925417	-97.8311684198797
73.61024	-410.037539922827	-370.764104336433	552.808108850043	137.879485905036
62.69291	105.900927912479	362.174900076687	377.340250673424	-73.7009362863861
53.57697	-278.28986410516	228.971794691712	360.379426754652	-140.553078864455
45.65746	-296.71739295723	254.747629409191	391.072328314006	-139.352159325861
38.96512	-291.404750706152	246.863779782317	381.914197827898	-139.730368766427
33.18414	-276.933430619433	236.969413027435	364.48131324557	-139.446697362058
28.30617	-303.132022355757	219.897207792296	374.491395057803	-144.042219949464
24.17237	-421.641850630587	206.777607726043	469.61561862878	-153.876181066191
20.61345	-439.05989155958	171.641993363341	471.417609198099	-158.64794547138
17.55618	-158.446693465188	320.045177759742	357.119406469763	-116.338908413975
14.98558	-264.187323985007	256.519615392874	368.235325893195	-135.843652267378
12.76553	-66.197866291802	341.503848582033	347.860656151178	-100.970289587843
10.8809	18.4019799298901	325.252157999277	325.772311819969	-86.7617957052908
9.278505	-90.0491487887067	241.148621588557	257.413105516467	-110.476518845756
7.923394	-86.2479967846096	407.853858175228	416.873465907554	-101.940307134999
6.75822	187.959781188534	536.71893457687	568.679254129928	-70.6996687639318
5.761429	-60.8438159748146	320.215371950824	325.944557211777	-100.758467090983
4.919708	-280.522470422977	629.31224517548	689.004178753666	-114.025419428796
4.191257	225.776494461006	478.35667933577	528.961376771731	-64.7334592432346
3.564097	-277.353477023144	650.427044843395	707.092845304306	-113.094248420149
3.051758	271.238906384559	336.569580624297	432.261063407643	-51.1349190406453
2.604164	411.649672364782	467.923550365596	623.223797479507	-48.6607153939318
2.214424	678.239041357792	395.556315980583	785.157943559172	-30.2511975546557
1.892567	540.199238573519	557.239370059658	776.099821479102	-45.8895706403139
1.607507	618.224254452736	534.403707456557	817.183303388508	-40.8407009270888
1.376413	612.863593305235	442.711239841169	756.039037273016	-35.8430307224366
1.17375	596.293991710219	473.290830477453	761.295431986653	-38.4397556640608
1.001604	757.015887133791	686.670297664729	1022.05144247632	-42.2103909138167
