EC-Lab ASCII FILE
freq/Hz	Re(Z)/Ohm	-Im(Z)/Ohm	|Z|/Ohm	Phase(Z)/deg
6999984	-7.77876797658889	22.8713622000695	24.1579891572203	-108.783657744262
5969734	-1.57855546080043	25.030179700212	25.0799069609066	-93.6086413571041
5091109	3.20553267726695	24.0418998327063	24.2546570231555	-82.4054829973521
4341796	6.91205287186817	21.6601898390794	22.7363211353214	-72.3014295759995
3702781	9.63883920458044	19.5243944726074	21.7740487905612	-63.7252827069224
3157797	11.9295733338634	17.5043810076798	21.1829666097562	-55.7248151825029
2693047	13.8094753648189	15.5222226508414	20.7759718394552	-48.3418414626297
2296687	15.198743511235	13.727134037887	20.4801370409092	-42.0875774104304
1958656	16.1803413552738	12.1793340410913	20.2519042081892	-36.9696605533141
1670375	17.0096693310649	10.7981703218399	20.1476880324179	-32.408418030791
1424531	17.6560771894129	9.59170731871639	20.093230477114	-28.5131300831264
1214875	18.1522423727217	8.55915770928021	20.0689582153724	-25.2448470394073
1036062	18.5741130449809	7.6911475430781	20.1035177503124	-22.4934120339419
883578.1	18.9329511727415	6.91010761570335	20.1545584761863	-20.0509617082346
753531.2	19.1694073765254	6.29823421752125	20.1775601455167	-18.1882759162643
642624.9	19.3157137594091	5.83486641981976	20.1777715363359	-16.8084503061405
548046.8	19.8227750153858	5.02549839020988	20.4498910359103	-14.2259805544591
467390.6	19.8595799958525	5.20780060594532	20.5310522078862	-14.6938922674307
398593.7	19.9321747458416	4.884488427972	20.5219350282023	-13.7692988142721
339937.5	20.0995207821418	4.33441205296635	20.5615627693192	-12.1693370896811
289906.2	20.6279023554713	4.63811524353753	21.1429058693263	-12.6720216112391
247234.4	20.9939048712355	4.34499876556963	21.4388212366092	-11.6931174886802
210843.7	21.1238956009704	4.13664316750944	21.5251197919083	-11.0798864901296
179812.5	21.409984400649	4.50453398420738	21.8787170202211	-11.8814028793161
153343.8	21.3256862792164	4.25530941081388	21.7460928320772	-11.2845412849724
130781.2	21.85873705127	4.4550081890569	22.3081035375293	-11.5196258683146
111531.3	21.7494729735193	5.06973711049981	22.3325280475683	-13.1211804155761
95109.37	21.9896993617412	5.14203917376911	22.5829016046286	-13.1614708077297
81109.37	22.330857805996	5.3496014788987	22.9626968436777	-13.4719451777551
69171.88	23.2046895785064	5.88625983500756	23.9396255877168	-14.2338071579406
59000	23.4321362498602	5.95438150194332	24.1768415700376	-14.2577567937771
50312.5	24.0959288719557	6.51599120761811	24.9614088067982	-15.131935690542
42906.25	23.9270995516299	6.75739701459372	24.8629947384954	-15.770531530683
36593.75	24.5550686112807	7.62844744542882	25.7127323505763	-17.2582909302536
31203.13	25.2162032553496	8.18184412427586	26.5103655178319	-17.9765737405414
26609.38	25.8449559121703	8.81483470107534	27.3068316893284	-18.8327617625392
22703.13	26.5386121483633	9.48565190833764	28.1828942248202	-19.6683290334903
19359.37	27.2844752210477	10.2732002480951	29.1544375940512	-20.6324508449349
16500	28.1032963020219	11.0454141131424	30.1959672136867	-21.4562724810858
14112.02	28.9709150007355	11.8498063003284	31.3006681292132	-22.2457510269966
12011.13	29.9326568373141	12.6902870339765	32.5116491483456	-22.9750632748406
10236.38	30.9167451002179	13.5910268028148	33.7721947339328	-23.7303305108041
8750.684	31.9520351232016	14.4345098371718	35.0611982503981	-24.3113383629565
7449.463	33.0381377409182	15.352835476194	36.4311419330628	-24.9243115304993
6363.206	33.9669641260303	16.4635290565954	37.746555351931	-25.8591150915671
5414.761	35.260556906842	17.4103289085382	39.3246287469332	-26.2784170651997
4620.567	34.9352832427252	17.3875338396401	39.023074562034	-26.4598498806058
3941.215	34.603628992087	16.4911943198759	38.3323705178523	-25.4812608848342
3361.769	34.5196961286985	16.2234696099836	38.1419767055111	-25.1724538219925
2867.244	34.6143733024135	16.2898278816826	38.2558927687445	-25.2020871991567
2442.658	34.8860492821914	16.7303225345224	38.6903105005457	-25.6210052910666
2083.003	13.7637721820092	18.145348583058	22.7748787017392	-52.8186300061506
1777.843	14.6797441668204	19.928155705169	24.7512884232874	-53.6234007956134
1513.548	15.667706529012	21.8842862264379	26.914661646023	-54.399833092529
1292.065	16.6962361596729	23.8150532700885	29.0847221777469	-54.9665055406472
1101.762	17.8286787777233	26.1500922283911	31.6494725155508	-55.7145134013464
939.101	19.1688467686803	29.2406310653682	34.9636838954667	-56.7529478388195
801.2801	20.5472144143396	32.0683435051777	38.0863056144189	-57.3510126445329
684.3433	22.1355283708811	35.373541230556	41.7285158548435	-57.9631034570712
582.9476	23.9237447540048	39.6257843327497	46.2876694924292	-58.8788619010288
497.0677	25.9769398381324	43.9549398128025	51.057204558231	-59.4173276368927
423.5089	28.3186166899674	49.0817463499773	56.6653498709468	-60.0164123074815
361.5036	30.8545130435854	54.3351608199853	62.4844834858259	-60.4096905380593
308.1262	33.8995622541774	60.3205269516346	69.1935422763405	-60.6644275737745
262.7298	37.1604697525024	66.7370912603956	76.3854689199786	-60.8901156492765
224.2111	40.9170385529931	73.5797956655134	84.1913913302651	-60.9219721026858
191.2854	45.4129786369106	81.5488882253027	93.3410938411341	-60.8874227476394
163.1722	50.4788755969688	92.4859424202601	105.364920286108	-61.3742649861621
139.1537	56.2220713683905	102.895633130837	117.253710501409	-61.3478516318065
118.6706	62.3648525245315	113.250034277689	129.28629120794	-61.1591766298699
101.1982	69.4366277344208	126.140817354149	143.989413061869	-61.1685731377101
86.24196	79.1533421587991	144.523752954113	164.779752223535	-61.2911861058681
73.61024	90.3418617196695	157.921794946865	181.936651882504	-60.2275472549872
62.69291	-60.3602071156514	-400.102668073639	404.630077481505	98.579050229864
53.57697	108.091664591973	357.608404479511	373.587444795251	-73.1818938197771
45.65746	125.551218627826	157.429659753199	201.363368736571	-51.4274025359037
38.96512	193.580146504755	473.642395572262	511.674107224739	-67.7699063743099
33.18414	-514.943947507284	-161.470565337963	539.66657534532	162.590181580777
28.30617	-406.579338707934	126.3150531702	425.749047352511	-162.741155959794
24.17237	-421.820481871435	88.5415449847589	431.012904812069	-168.145523066586
20.61345	290.945408856319	544.596323899234	617.441808544846	-61.8870622128041
17.55618	-742.580019984664	-367.596561443542	828.584526807942	153.66338454108
14.98558	311.32326361629	229.43455044179	386.732966535211	-36.3889391800593
12.76553	-360.882701879002	181.418617712305	403.917119429386	-153.310958201295
10.8809	201.378806898124	308.747037078982	368.616544355733	-56.8857881036206
9.278505	391.908343995315	239.912857762738	459.510967674368	-31.4735399852099
7.923394	255.985863778321	275.325877164914	375.942949250232	-47.0846746572875
6.75822	258.028600672256	195.041578038483	323.450113508442	-37.0853178138392
5.761429	-392.049012211705	267.926711481328	474.854873304858	-145.651257325529
4.919708	-95.6199521096672	491.894550456582	501.102209145338	-101.000599055205
4.191257	82.6837128681026	446.66790137944	454.256326864434	-79.5125617939571
3.564097	-237.855817890876	446.153337503429	505.59686576361	-118.063224898421
3.051758	122.999726205807	372.483898153844	392.266729446415	-71.7260080623497
2.604164	-305.326227786298	243.415737687893	390.480891630246	-141.437038150783
2.214424	139.022861853515	473.780353467971	493.756194341071	-73.6465625916282
1.892567	489.758011805729	146.310825549056	511.145544635524	-16.6330450067391
1.607507	442.67581308762	195.475817583375	483.913908410034	-23.825189403366
1.376413	-295.914680499033	676.668957081007	738.543414845697	-113.620280971859
1.17375	572.533832504578	-159.815398462285	594.420685161645	15.596386738431
1.001604	294.615982852624	648.553099589436	712.333980896098	-65.5692900747714
