EC-Lab ASCII FILE
freq/Hz	Re(Z)/Ohm	-Im(Z)/Ohm	|Z|/Ohm	Phase(Z)/deg
6999984	-0.0723648433370714	-0.002592178370257	0.0724112556161134	177.948487166597
5969734	-0.0446489240359444	0.0104742980852121	0.0458610655997591	-166.797582557761
5091109	-0.0286542522069337	0.0143196067485968	0.0320330658378655	-153.446978381859
4341796	-0.0204491834706785	0.0144355971348836	0.0250310920508501	-144.780762547387
3702781	-0.016060901648213	0.0138988447123443	0.0212398315928219	-139.127617165949
3157797	-0.012385500699894	0.012897668441187	0.0178815681305042	-133.83950319579
2693047	-0.0102871652811029	0.0111029849164534	0.0151361171895477	-132.815799503229
2296687	-0.00864636139132429	0.00981685977559477	0.0130816780713743	-131.372518817295
1958656	-0.00774180192228488	0.00906086434648363	0.0119178336835715	-130.511305955434
1670375	-0.00670333869820046	0.00837742613079017	0.0107292133113121	-128.665637009979
1424531	-0.00561628935130712	0.0075774131684394	0.00943185540616715	-126.545406689097
1214875	-0.00573048796937052	0.00655589034393863	0.0087073641573583	-131.156628320089
1036062	-0.00419997009623569	0.00627775910392891	0.0075531455815598	-123.783463637669
883578.1	-0.00284648723466739	0.00456402758018816	0.00537892529506059	-121.950915425723
753531.2	-0.00204907677148701	0.00578478781129052	0.00613697691352208	-109.505068904111
642624.9	-0.0019578438262903	0.00493877866356773	0.00531269113875962	-111.62449708408
548046.8	-0.00202207882265024	0.00464443762691794	0.00506553093321339	-113.52717533015
467390.6	-0.00174770254918955	0.00371467692239523	0.00410527573230098	-115.196315978925
398593.7	-0.00123664713111207	0.00343854977187815	0.00365416483762993	-109.780718899349
339937.5	-0.00110768275234851	0.00302016915110304	0.00321689023454716	-110.141109352486
289906.2	0.00159715500049885	0.00339736864347806	0.00375406683415552	-64.8210644901101
247234.4	-0.000798918478342427	0.00346128773044144	0.0035522927086519	-102.997127788118
210843.7	0.000719381163094399	0.0022507612186416	0.00236292939402685	-72.2752454047621
179812.5	-0.000433498254082207	0.00205515630126711	0.00210037809904079	-101.910914400109
153343.8	-1.71706724034719E-05	0.0015682252976036	0.00156831929658303	-90.6273127659204
130781.2	0.0013788862738933	0.001044185963713	0.00172963917715418	-37.135468809647
111531.3	-0.000343210386241731	0.00133344813225914	0.00137690859923583	-104.433819459408
95109.37	-7.47297614329712E-05	0.00173482364094586	0.00173643243531917	-92.4665645840698
81109.37	0.000268317466667222	0.000846371269846412	0.000887884333311577	-72.4102915570744
69171.88	0.000953498542620505	0.000932339376691275	0.00133357271421865	-44.3571663693468
59000	0.00325049196953524	0.00228288253550729	0.00397205875018702	-35.0810999873157
50312.5	-8.97190638926175E-05	0.000458240209705356	0.000466940681689416	-101.077833765989
42906.25	0.0002796147554589	0.000840983261404385	0.00088624898162576	-71.6087808974659
36593.75	-0.000145286692292202	0.000384529011238223	0.000411060559335305	-110.698081625133
31203.13	0.000592702588164882	0.000620653719054055	0.000858200091466425	-46.319644220495
26609.38	0.0014205700581026	0.000355517517431766	0.00146438109629238	-14.0504778522326
22703.13	0.000994084340842338	-4.39292049986478E-05	0.000995054496879321	2.530289912321
19359.37	0.00073114476140631	0.000436140839626511	0.000851346870624429	-30.8168272195868
16500	0.00232967280264101	0.00291728268791556	0.00373335153027103	-51.3899654735698
14112.02	0.000577553114838097	0.000121290559677754	0.000590151675695436	-11.8601977113183
12011.13	0.000766575894318473	0.00153066090713244	0.00171188825989714	-63.3976654396666
10236.38	0.000493491327052918	-0.000104394191142589	0.00050441236802914	11.9443766705789
8750.684	0.000488543732729586	0.000430458711449192	0.000651129542450545	-41.3834638464162
7449.463	0.000119866632032241	-0.00034802326751602	0.000368087223640376	70.9952003946603
6363.206	0.000276538789678775	-0.000583573150367449	0.000645779624970307	64.6450518554459
5414.761	0.000928970631423366	0.000786830579677872	0.00121741069289018	-40.264328303499
4620.567	0.000958330951286119	-0.000215097298659644	0.00098217364049522	12.6503809953171
3941.215	0.000681791982925684	-0.00076870193159952	0.00102749353653761	48.4289195883337
3361.769	0.000984831591990949	0.00019919512411247	0.00100477458270679	-11.4345588244715
2867.244	0.000279943661995352	-0.000249191859532016	0.000374786654976391	41.6738789640342
2442.658	0.00140884950582431	-9.00393888519203E-05	0.00141172377666674	3.65679254656802
2083.003	0.000839740103471019	0.00115892826066937	0.00143118068557245	-54.0735393577799
1777.843	0.00105212350221882	0.000139406079489316	0.0010613189524925	-7.54771054512917
1513.548	-0.000173453555746771	0.00116395920550425	0.00117681229092803	-98.475860530961
1292.065	0.000242417127203365	-0.000627312345924809	0.000672522745274254	68.8715896227874
1101.762	0.000184024563508161	0.000833662036110492	0.000853731474426391	-77.5520148105784
939.101	-6.61565334060212E-05	0.000333472897309084	0.000339971851999569	-101.221015918992
801.2801	0.00508882834355601	-0.000685087030035908	0.00513473642448202	7.66738423979814
684.3433	-0.000751892042181616	0.00146732280155174	0.00164875038955255	-117.131710115098
582.9476	0.00137770219847532	0.000492513702577331	0.00146309025521673	-19.671423005584
497.0677	0.00116635627195177	-0.000727914906808143	0.00137486256210384	31.9680025624078
423.5089	0.00125395793011165	0.001423827609167	0.00189728636507938	-48.6297871321507
361.5036	0.00187495183852619	0.00110714762732368	0.00217743433092279	-30.5615917105899
308.1262	0.00138076820883633	0.00103535285888157	0.00172582629164332	-36.8639670288463
262.7298	0.000939553906780133	-0.00301015157660455	0.00315337502652011	72.6653723674667
224.2111	0.00412150790436029	0.00172556873074188	0.00446815564301631	-22.7177994952489
191.2854	0.00187820808675378	-0.000229012405315326	0.00189211846852558	6.95183443819311
163.1722	0.00289029421021731	-0.000508656361564815	0.00293471155580511	9.98114824471904
139.1537	0.0053502184573193	0.000694474552535516	0.00539510263527577	-7.39581370406203
118.6706	0.00804830273024934	0.000940207631816133	0.0081030344457286	-6.66312673480464
101.1982	0.00577729065565307	0.00236224333550359	0.00624157679565247	-22.2388812630329
86.24196	0.00499892842369137	0.00360613831220529	0.00616388829489506	-35.8060119192932
73.61024	0.00107783194321558	-0.00857213259693524	0.00863962840388726	82.8334251745353
62.69291	0.00641064022985148	0.00981731758144341	0.0117250173838467	-56.8557421968439
53.57697	0.00668073229622199	-0.0067825765852578	0.00952026938424911	45.4334102917205
45.65746	0.0243202116885569	-0.0142037663841155	0.02816415587357	30.2862683012957
38.96512	0.0109558265409622	-0.0012112152104008	0.0110225758097442	6.30868358358081
33.18414	0.0142011977716906	-0.00824942675317988	0.016423369322607	30.1521560701894
28.30617	0.00340534708017169	0.0097230295072068	0.0103021207299491	-70.6979498905464
24.17237	0.0179456019696777	0.0113614852538631	0.0212397734740239	-32.3381848642639
20.61345	0.0176763762400174	0.0109840839811845	0.0208111599360624	-31.856779995217
17.55618	0.0230241315838205	0.010491314713998	0.0253017453867758	-24.4971428463395
14.98558	0.0385070336189867	-0.0119163090256021	0.04030868465886	17.1950994150286
12.76553	0.0378069134779546	-0.000964396536232333	0.0378192116180208	1.46121082717537
10.8809	0.0117623202835266	-0.0339413786051105	0.0359217115414579	70.8863384135854
9.278505	0.0185914347314308	0.0513531681566579	0.0546149185213989	-70.0981776706035
7.923394	0.0460616219014307	-0.000125244990799647	0.0460617921763589	0.155791120609078
6.75822	0.0459988883413779	0.0273834403236444	0.053532705261374	-30.765616251858
5.761429	-0.0398292753991616	0.0617018446453268	0.0734403758940428	-122.842724233844
4.919708	0.0614308738971237	-0.0964158116912217	0.114323055469321	57.4969449949528
4.191257	0.0802934457271111	-0.043730747841519	0.0914298404981167	28.5743277052243
3.564097	0.0869706128038682	0.113477315219405	0.14297198523097	-52.5329360607645
3.051758	0.192935960933436	-0.201090773997342	0.278678640028543	46.1856293922139
2.604164	0.15022272907487	0.116435727740516	0.190063534180456	-37.7788087403317
2.214424	0.096440128528063	-0.18961768193271	0.212733550931779	63.0419732404494
1.892567	-0.0734402564843005	0.215392661210228	0.227568604547517	-108.827317128251
1.607507	0.168485818696241	-0.118367642313962	0.205908644424435	35.0894880894364
1.376413	0.216861432695635	-0.0423179245358219	0.220951776928413	11.041830633377
1.17375	0.0842921402778216	-0.207386246677821	0.223862056239395	67.8807164118882
1.001604	0.179504991226408	-0.137296735918566	0.225992113953309	37.4110385907931
