EC-Lab ASCII FILE
freq/Hz	Re(Z)/Ohm	-Im(Z)/Ohm	|Z|/Ohm	Phase(Z)/deg
6999984	2.31338872055058	1.62049515459829	2.82449498467375	-35.0106834742941
5969734	6.10319776430136	1.37316087478049	6.2557648403853	-12.6798596738765
5091109	6.48541618948477	-2.15097113657623	6.83281054773329	18.3487613946804
4341796	2.8340564538685	-5.17739702620998	5.90231445711948	61.3041349520381
3702781	2.55326061840169	-5.32803994857379	5.90822727043224	64.3957006230049
3157797	1.64767896566919	-7.79649340635835	7.96869847649526	78.0669319810625
2693047	1.46645530930123	-6.95269036480142	7.10565932781613	78.0897929970882
2296687	-0.415447906177731	-7.80361406652335	7.81466502557778	93.0474291967735
1958656	2.72836645516176	-9.89095213348291	10.2603566029891	74.578764924306
1670375	-1.31005062793649	-16.2986009194877	16.3511658477456	94.5954465676579
1424531	4.41821873567415	-18.0166253130598	18.5504567185676	76.2212630356076
1214875	-4.97466022668207	-8.75928578279407	10.0733475962855	119.593537873436
1036062	9.92456125644502	-4.18498524780684	10.7708410840236	22.8641615640151
883578.1	2.8947487924134	-7.20742706431609	7.7670184407284	68.1179209390723
753531.2	6.24130852280728	-4.74294206197383	7.83896877657434	37.232201274199
642624.9	6.07741899332282	8.44334387693952	10.4031282528215	-54.2541070069154
548046.8	8.22776830472098	-4.397533865654	9.32922694416558	28.1233755429886
467390.6	1.00923274108515	-9.42282770725578	9.47672056812405	83.8866361935448
398593.7	12.5489703385316	0.129139612189107	12.5496347993391	-0.589601646121579
339937.5	7.96732298404095	-1.6866070833603	8.14388598800771	11.9525184008477
289906.2	16.2235143709548	-1.37837410697544	16.2819634480414	4.85627281518086
247234.4	17.4734029267182	-17.2637317805782	24.5633109500977	44.6541705016087
210843.7	9.87232797817984	-57.2916262087838	58.1359896566297	80.2229721641398
179812.5	34.4588092602622	-96.9056271599514	102.849939771002	70.4250500927256
153343.8	-37.0388475991632	-138.387345732923	143.258276167479	104.983801646954
130781.2	36.1984220299693	-163.798127571426	167.750267819056	77.5382638234953
111531.3	-7.59993164979147	-197.669852971155	197.815898589369	92.2018007869399
95109.37	-23.8964269560068	-203.517866499366	204.915985725169	96.6968265770797
81109.37	-13.9486786704083	-236.73640982788	237.146986855925	93.3720097877151
69171.88	-31.2959334818933	-272.427428259914	274.219144336813	96.5533006493995
59000	-26.2158937904503	-323.006258051859	324.068381407222	94.6400799798986
50312.5	-14.1815760926168	-410.531790407772	410.776664424698	91.9784618383979
42906.25	-31.7168396798875	-477.692145568562	478.743923049865	93.7986341619695
36593.75	-35.4447816282918	-516.136101532211	517.351725472668	93.9285236941257
31203.13	-26.237690832743	-620.866372094489	621.420524619204	92.4198685237667
26609.38	-52.4521485843273	-723.444807836319	725.343792884754	94.14687790985
22703.13	-94.4199759224913	-831.772929064639	837.114888995515	96.4762951217339
19359.37	-73.45590068368	-934.566144335264	937.44847724178	94.4941476294788
16500	-88.6466579748643	-1128.42766556174	1131.90424788284	94.4917985025188
14112.02	13.2865170041393	14.1043537509966	19.3769019410878	-46.7102295494357
12011.13	15.036951680795	5.95153239049736	16.1719094001204	-21.5933526335709
10236.38	26.1166170248534	36.4364165214752	44.8295676284	-54.3680912306787
8750.684	3.03003561211352	1.66192979581135	3.45588287661513	-28.7441180182334
7449.463	33.1276965577143	1.6697039830109	33.1697481240193	-2.8853833706423
6363.206	2.88506514256302	3.27194150243877	4.36224736485833	-48.5954612306444
5414.761	3.25769438251785	0.0871083697528408	3.25885878153217	-1.53168234414528
4620.567	4.95742186548432	-1.08390827072014	5.07453334718746	12.333266044446
3941.215	2.88757954499572	3.16917052020734	4.28739517829054	-47.6618837992582
3361.769	0.420747679096347	2.74822570676759	2.78024695752072	-81.2957210439632
2867.244	0.296075819451997	-2.3466892514141	2.36529307561804	82.8091317640218
2442.658	3.01498265789984	1.09679667626554	3.20828355612528	-19.9904802833806
2083.003	4.20693951404994	-0.415268943661883	4.2273855242271	5.63743029503293
1777.843	6.92515376517223	0.513826179374738	6.94418980255364	-4.24340392595681
1513.548	3.33267114565851	4.01114218075784	5.21497445433432	-50.2783872439703
1292.065	4.88724674506911	-0.509371576322211	4.91371958397644	5.95014951369975
1101.762	33.8298847282945	37.4568068030769	50.4725021829979	-47.9125814825177
939.101	0.844365075737829	4.35457268820386	4.43567984394464	-79.0263498090091
801.2801	0.947880608069169	-4.23030280378304	4.33519774160859	77.3703871895219
684.3433	42.1047166405615	-5.38312409405351	42.4474403043807	7.28578861866306
582.9476	-0.984734826360033	13.3767828500956	13.4129796129293	-94.2102470419915
497.0677	15.8521573012047	-9.84203855778355	18.6589553318249	31.8346695539029
423.5089	3.36265852996084	1.16744151736153	3.55954942170744	-19.1458831975782
361.5036	248.882838752133	-33808.8975110773	33809.8135691688	89.5782270430359
308.1262	39.5085435526548	9.59966166302667	40.6580682976528	-13.6568959540234
262.7298	-7423.18010220461	-37071.3464978113	37807.2523993817	101.323174293864
224.2111	-4353.84334747919	-44411.1386236775	44624.0426871646	95.5990967373886
191.2854	419.21527659104	-241.84998207535	483.976096472903	29.9811281683429
163.1722	-10693.0901183474	-59070.6710611421	60030.7117723316	100.260681358573
139.1537	6974.0668003149	-51850.3526813225	52317.2694328821	82.339478259353
118.6706	5580.60788417113	-70725.2303246839	70945.0589458946	85.4883970056125
101.1982	-31564.3151856575	-104443.61823215	109109.00688102	106.815547717988
86.24196	-34839.1751401275	-133101.975117557	137585.987312078	104.667987310278
73.61024	-127411.767954039	-180527.315669188	220961.241659927	125.213508998536
62.69291	-74810.764672116	-144143.753103199	162400.960802277	117.429361689668
53.57697	-77436.9273371473	-182503.567567564	198252.439809217	112.991688974821
45.65746	-107713.207234708	-247980.865646332	270363.911681073	113.478244734446
38.96512	98526.1260251005	-236827.365138283	256504.577713256	67.411463977676
33.18414	-243586.156325225	-636498.576992876	681516.437121844	110.941703279622
28.30617	-256533.196627502	-737913.816237716	781233.691776305	109.16983129818
24.17237	263704.675171182	-398097.370625838	477516.1486341	56.4790109873895
20.61345	-289865.672850599	-988075.072041964	1029715.71624787	106.349790326326
17.55618	1003728.63439061	-1209370.44202271	1571638.64725129	50.3086967113328
14.98558	1351515.32011095	1673792.16213002	2151319.0982517	-51.0806141008228
12.76553	2603762.80496281	-700811.080799069	2696426.69388184	15.0643438594504
10.8809	-399325.891510685	-1774605.81133748	1818979.64619276	102.681599930339
9.278505	-442795.627900662	-2057166.83367979	2104282.14593007	102.14731678638
7.923394	-488004.859082746	-2375993.33280019	2425591.28049211	101.606559219335
6.75822	-545030.378671895	-2752145.26667811	2805594.71103258	101.201821832855
5.761429	-615730.736588756	-3195159.42572876	3253946.54163271	100.907608005055
4.919708	-683336.6218455	-3676241.70107049	3739211.41197511	100.529914226505
4.191257	-773895.351190958	-4258428.44169051	4328178.23195783	100.300100854878
3.564097	-876224.142667116	-4932136.53593829	5009365.18506388	100.073839821581
3.051758	-976490.264604435	-5705326.30214759	5788288.3005984	99.7123034528533
2.604164	-1151990.28734187	-6535487.76517041	6636240.04620253	99.9966624065767
2.214424	-1317875.80654291	-7586060.77967061	7699682.77231781	99.8552564227384
1.892567	-1553650.90462308	-8726876.54873933	8864096.42492525	100.094638189544
1.607507	-1722702.39288413	-10106595.6801881	10252364.594436	99.6732850270049
1.376413	-1968830.74504621	-11551605.4727946	11718186.0158362	99.6724255903122
1.17375	-2225814.68098138	-13371792.0294338	13555776.3729157	99.4505763320375
