EC-Lab ASCII FILE
freq/Hz	Re(Z)/Ohm	-Im(Z)/Ohm	|Z|/Ohm	Phase(Z)/deg
6999984	26.4985641188609	85.1189544881697	89.1482490771439	-72.7080004274244
5969734	20.7036920278764	84.7850542293005	87.2762756094151	-76.2774701953099
5091109	16.2358202821833	89.718099937721	91.1753218621697	-79.7424897571431
4341796	13.9718385467625	98.5132790044479	99.4991377479473	-81.927750787772
3702781	15.8484859578509	110.080425986533	111.215442689101	-81.8073150592355
3157797	17.4724178269766	123.254720691019	124.4869935268	-81.9315896049994
2693047	19.3850799882366	138.927838125491	140.273752114831	-82.056608995897
2296687	21.8160354268947	159.267285375286	160.754494781827	-82.2003068109158
1958656	26.2644668395031	182.663445551436	184.542018410675	-81.8177428911069
1670375	32.1154733133083	210.396619088271	212.833599203492	-81.3212176658465
1424531	40.4693048127515	242.737018471072	246.087433178236	-80.5346612046909
1214875	50.6438908899287	279.314481895674	283.868602492632	-79.7230664878881
1036062	63.7547373990136	320.775233692914	327.049563662086	-78.7588358144625
883578.1	80.0487893415737	368.193136515644	376.794366269295	-77.73421538943
753531.2	100.996323098005	422.083810826515	433.998848663392	-76.5432653164711
642624.9	126.456294598683	482.703247338062	498.992604588825	-75.3198285365282
548046.8	228.646993027512	599.653262637901	641.765909668629	-69.1282174192265
467390.6	277.094006142767	669.304372519975	724.395907853299	-67.5102991973361
398593.7	333.72259119864	743.603053973338	815.055991791244	-65.8298712799969
339937.5	400.223461205402	823.491836959368	915.596867861586	-64.0798862863288
289906.2	474.853744578141	909.916573185651	1026.36945048935	-62.4415134711522
247234.4	561.651708457706	1001.05127894715	1147.84855477331	-60.7048783941107
210843.7	663.504315794138	1096.12345896329	1281.29801934097	-58.8126852756912
179812.5	778.310968892375	1198.22889552289	1428.81785065983	-56.9942146367711
153343.8	910.84938373063	1297.48378169184	1585.2793960674	-54.9306784897177
130781.2	1061.38639687372	1395.29441436203	1753.10797905276	-52.7401175994838
111531.3	1234.20155944131	1489.13361784838	1934.10765500102	-50.3478870245197
95109.37	1420.12348293071	1575.03195837121	2120.72543641602	-47.9606812894189
81109.37	1641.09874583954	1648.64753130922	2326.20802511041	-45.1314729928424
69171.88	1841.33270366726	1710.04607904907	2512.91936163214	-42.8828657483838
59000	2082.07162757037	1719.94083848178	2700.59599907334	-39.5591547675638
50312.5	2283.23963245941	1765.09070414545	2885.95364014983	-37.7063238496697
42906.25	2630.6743415645	1735.62423398324	3151.64067954387	-33.4153913557334
36593.75	2854.02757032921	1667.32353193471	3305.36550661837	-30.2934818399364
31203.13	3030.52098840871	1592.81729834077	3423.61277119351	-27.7260522303772
26609.38	3171.88114424648	1592.39104752075	3549.16035724657	-26.6581906805463
22703.13	3408.14447541866	1452.88859207574	3704.90675001552	-23.0885031886986
19359.37	3599.70927666766	1391.5778893903	3859.32583474979	-21.1355364369495
16500	3739.13757949817	1273.57598320538	3950.08172363725	-18.8091960084255
14112.02	3864.7736381632	1171.37575941736	4038.39032833527	-16.8615520345932
12011.13	3970.51330974926	1055.63285588196	4108.44698996026	-14.8886921881972
10236.38	4062.29734843513	954.390139061554	4172.9031003177	-13.2212131170279
8750.684	4164.42495823046	770.270173786082	4235.06214515881	-10.4792433743381
7449.463	4219.84829629586	696.617769211526	4276.96106600613	-9.37391611428349
6363.206	4265.70081477604	636.293166842631	4312.89606127386	-8.48396941899654
5414.761	4303.02498025105	580.247541012846	4341.97088768637	-7.67980596479658
4620.567	4335.13290438027	536.885843659384	4368.25179079255	-7.05986563046503
3941.215	4358.37407042787	499.676188618887	4386.92384607377	-6.54025593563883
3361.769	4382.5677264576	470.205056260004	4407.71966802793	-6.12383021013775
2867.244	4402.14344798748	454.596375565107	4425.55361523686	-5.89586749218905
2442.658	4421.53865412385	443.59026566666	4443.73450981329	-5.72902160928916
2083.003	4414.39198188757	449.55721557432	4437.22416154832	-5.81489709658116
1777.843	4456.35337873464	440.345073261577	4478.05641095614	-5.64324123299115
1513.548	4476.60768251519	460.897147113396	4500.27138330249	-5.87827768787854
1292.065	4492.62979536197	477.752794821916	4517.96084656942	-6.07010395768833
1101.762	4514.13881126226	509.337934468077	4542.78266471471	-6.43755325086163
939.101	4535.31218567508	539.188364335739	4567.25089236052	-6.7798840742964
801.2801	4563.34195713357	592.96807508584	4601.70630916474	-7.40362311880967
684.3433	4586.82229656333	649.734349313465	4632.61195276793	-8.0624443691188
582.9476	4617.75841893793	715.684461241308	4672.88958394422	-8.80990791991261
497.0677	4649.78462082228	793.482721963108	4717.00242209917	-9.68420140823659
423.5089	4684.09065578805	885.15820727155	4766.99174779452	-10.701063984723
361.5036	4717.41574622147	991.712414854617	4820.52951826612	-11.8720522080995
308.1262	4758.03851731368	1112.38695873489	4886.34170706511	-13.1588924976516
262.7298	4798.57445460288	1254.66539572374	4959.88931848221	-14.6528799484552
224.2111	4849.49522820426	1417.8201860214	5052.50611560893	-16.2970453669405
191.2854	4888.47016783653	1611.34978643249	5147.19231387985	-18.243382997
163.1722	4959.08640648071	1811.6556597918	5279.64337967987	-20.0682822223814
139.1537	5023.10669747737	2071.68896674228	5433.55280356818	-22.4128083313229
118.6706	5097.68571441045	2363.93461331249	5619.12684488625	-24.8784290702652
101.1982	5168.5807444897	2677.45596097524	5820.91035279462	-27.385302770457
86.24196	5271.24094462417	3052.08869734587	6091.07761506523	-30.0711684858477
73.61024	5357.05443473837	3496.96466619886	6397.4052625571	-33.1355988756372
62.69291	5472.7956201459	4000.10806550998	6778.8167430346	-36.1633542369604
53.57697	5591.57706769958	4567.21014787758	7219.77441745237	-39.242011168803
45.65746	5727.15652107903	5196.06280716566	7733.0065636173	-42.2164356185554
38.96512	5903.93743710753	6003.43821977345	8420.08003049356	-45.478765630783
33.18414	6089.24818398191	6887.23407406147	9193.09178878577	-48.5189599058385
28.30617	6282.9246082094	7905.83103361865	10098.3813536908	-51.5251204878632
24.17237	6489.2275023335	9111.16579815393	11185.8578472324	-54.5404655833439
20.61345	6836.45277885872	10406.9017460156	12451.5336625168	-56.6984767412364
17.55618	7172.65253132248	11949.1163666432	13936.5823026547	-59.0250234345667
14.98558	7559.45285264084	13739.4772926242	15681.7908322308	-61.1804333640693
12.76553	8023.2082379835	15795.6642885521	17716.5143509294	-63.0722827078118
10.8809	8549.52978476732	18144.4451454876	20057.8002078551	-64.7705296125795
9.278505	9174.71146249553	20856.7398275671	22785.4981656068	-66.2556935133381
7.923394	9935.93024719039	23876.139876777	25861.0279241266	-67.4056198081657
6.75822	10824.1041319882	27424.7276589648	29483.5024620298	-68.4616383203713
5.761429	11767.2327023619	31497.2965060868	33623.6145092089	-69.5145628604832
4.919708	12950.0677441905	36105.6134853723	38357.7838219862	-70.2685180230959
4.191257	14345.7048231396	41369.1211773023	43785.8816726919	-70.8748219619033
3.564097	15963.0915178111	47539.0066109549	50147.5566739042	-71.438497840753
3.051758	17880.7294209986	54267.5773443689	57137.4696276797	-71.7633649105922
2.604164	20080.4549107234	62091.8557501973	65258.1276158373	-72.0788354725912
2.214424	22817.953446665	71164.281513718	74732.9509845414	-72.222189512933
1.892567	25811.7788689236	81202.6709669077	85206.3477713842	-72.3661738068493
1.607507	29591.8253842256	92957.0167531229	97553.4883702826	-72.3417085089973
1.376413	33780.9605154141	105782.150720459	111045.111123317	-72.2893974623018
1.17375	38698.3803512686	120577.854621986	126635.633480677	-72.2064331735669
1.001604	44528.7777178661	137201.832961926	144246.854430728	-72.0191905661181
