EC-Lab ASCII FILE
freq/Hz	Re(Z)/Ohm	-Im(Z)/Ohm	|Z|/Ohm	Phase(Z)/deg
6999984	-6.14948792121876	24.6303986666163	25.386467658374	-104.018482353718
5969734	-0.0843659501143888	25.8103653558481	25.8105032383311	-90.1872811792599
5091109	4.38746223905029	24.5497186687115	24.9386950663417	-79.867222669143
4341796	7.84927685224022	22.0048304533976	23.3628703370517	-70.3683272710077
3702781	10.3308996424023	19.902935468395	22.4244136529918	-62.5677933691991
3157797	12.4480625985913	17.9323949802218	21.8294537766095	-55.2329251858051
2693047	14.2506326826431	16.0498116540404	21.4633871042244	-48.3981173772675
2296687	15.6012710890561	14.4386287021817	21.2573201131677	-42.7835721624877
1958656	16.6100718464452	13.0397106129345	21.1170201404732	-38.1336300437003
1670375	17.5142895817517	11.8189547073596	21.1290801959781	-34.0121784655637
1424531	18.1927744495117	10.7059357914361	21.1091000125813	-30.4756136638526
1214875	18.7707185483601	9.85361916349521	21.1998510711974	-27.6970605659436
1036062	19.2871445495196	9.05785726525562	21.3081844161301	-25.1562448459683
883578.1	19.7391097143489	8.41132004460584	21.4565318075381	-23.0800463316425
753531.2	20.1330402825525	7.89852455226055	21.6269739242814	-21.4208980668144
642624.9	20.502553736469	7.51091691595372	21.8350310884862	-20.1198312352093
548046.8	20.8376854444983	7.23966379438016	22.0595073956676	-19.1588263141702
467390.6	21.181972115987	7.0844985731894	22.3353097752409	-18.4929691421369
398593.7	21.5223687053583	7.04387902512436	22.6457189422189	-18.1223284740447
339937.5	21.8795963857848	7.11494761107535	23.0073731119655	-18.0138217268028
289906.2	22.2586612710794	7.27788827015012	23.4182761802281	-18.1061309571764
247234.4	22.65475302259	7.57400525190537	23.887306044643	-18.4859675978804
210843.7	23.113170325842	7.93917041819286	24.4386797810457	-18.9571451702842
179812.5	23.5850373531608	8.41725948558703	25.04204952071	-19.6409645691949
153343.8	24.1627368538022	9.02867142439477	25.7944714998344	-20.4887530299161
130781.2	24.7845247238902	9.71463994126478	26.6204225168862	-21.4033884765952
111531.3	25.4682438883316	10.5091620516186	27.5512964083855	-22.4228981180951
95109.37	26.2321607608381	11.3964600611308	28.6007964942832	-23.4823486474936
81109.37	27.149899754543	12.5293274231124	29.9015234119817	-24.7727126274856
69171.88	28.0626517918471	13.5273949344248	31.152894557366	-25.7360494867509
59000	29.1673962382902	14.7257464591104	32.6739133269865	-26.7878453000064
50312.5	30.5527958974822	15.9591081397416	34.4697906835706	-27.5801026912236
42906.25	31.0899445515821	17.2068108743542	35.5339132757179	-28.9624493156459
36593.75	32.6898130006477	19.0233989548257	37.8221308470554	-30.1966920796049
31203.13	34.2358581426258	20.7276128227143	40.0215931228424	-31.1922119782227
26609.38	35.9632483065758	22.5830590115967	42.4658660936249	-32.1266946829252
22703.13	37.8196586432452	24.6193815322288	45.1269379298113	-33.0628332356556
19359.37	17.2609949659671	27.3842803887749	32.3703685432555	-57.7757462580634
16500	19.5249188882047	29.8445559748179	35.6639871428449	-56.8064678264626
14112.02	21.9940142478437	32.5387647690778	39.2747740341269	-55.9439543504066
12011.13	24.7632593233958	35.5424001276834	43.3183704582028	-55.1341300731907
10236.38	27.7869769668091	38.870287956979	47.7809101505239	-54.4403813156904
8750.684	30.9469481806682	42.46934595114	52.548634113691	-53.9195855982283
7449.463	34.656418972314	46.7895181132173	58.2265092655541	-53.4731082363726
6363.206	38.4132249757479	50.5434991188433	63.4840228420816	-52.7650469931499
5414.761	42.4789426972862	55.2271735591189	69.6742511406356	-52.4336883114919
4620.567	47.3358988154569	61.4748233445945	77.5876357541347	-52.4035621906239
3941.215	50.6517142628243	66.2270850508039	83.3763932542612	-52.5905641557987
3361.769	56.4550649815287	73.0918312205496	92.3557802914465	-52.3180253213889
2867.244	62.1573415785281	78.5359523358955	100.157031312913	-51.6401188469239
2442.658	68.3415056730424	85.1176844919039	109.158515979844	-51.2388077480584
2083.003	74.3799655817573	92.5688109058379	118.749164344277	-51.2177744673991
1777.843	82.1882398650259	100.543773906872	129.861300022552	-50.7361518743901
1513.548	89.8984807353954	108.375493449611	140.808325105368	-50.3239774957289
1292.065	98.1584622919497	116.734803063886	152.519172453447	-49.9406228941628
1101.762	107.320945677916	125.010210498534	164.758423487511	-49.3539943260401
939.101	116.291399296544	136.124012885233	179.034735273151	-49.4925756279484
801.2801	124.786054422016	151.575356891401	196.333003325906	-50.536710995483
684.3433	134.881863754101	162.145077208764	210.912643605868	-50.2443134438939
582.9476	158.192394425617	162.808134054322	227.005114850657	-45.8238122741667
497.0677	162.656226356063	177.008223053919	240.393342256188	-47.419505463184
423.5089	184.643045881422	183.451716496586	260.283665791598	-44.8145643067776
361.5036	196.688834010082	190.734420105857	273.98196370813	-44.1194748280367
308.1262	-93.5097113864255	-389.375518493128	400.44645150802	103.50402354947
262.7298	-369.821960638161	-43.3595873740409	372.35512133916	173.312914829312
224.2111	-38.7932321164504	322.391870837226	324.717466792237	-96.8613800558413
191.2854	71.9018112786707	77.9363623950445	106.037479451962	-47.3062718141323
163.1722	79.1631369104691	96.9622808290564	125.173823737547	-50.7706897702806
139.1537	85.2026824143918	107.991636327014	137.556136203347	-51.7274490740578
118.6706	90.6268350920591	118.765378925827	149.39356903896	-52.6536697273544
101.1982	97.2506511062823	129.644273502251	162.065810066535	-53.1251681561235
86.24196	103.828447778511	140.528925164956	174.724713123567	-53.5415136675333
73.61024	107.36902653226	149.867460386593	184.359332666432	-54.3811833162975
62.69291	628.763638786843	-257.082394817637	679.29012298549	22.238165065789
53.57697	353.503644128846	-314.842141746639	473.381876112705	41.6893259061909
45.65746	118.517342653501	149.647965827133	190.894929701777	-51.6216810650766
38.96512	373.692170532855	-405.964949580217	551.772941168036	47.37032276605
33.18414	-556.869908328751	-489.994933070756	741.75408946435	138.655156168085
28.30617	-479.913436654265	244.847227154999	538.764393150474	-152.969761834295
24.17237	-509.755703308957	447.585424490596	678.368328618338	-138.715603215471
20.61345	162.89747100757	180.126432732174	242.860284586592	-47.875362144146
17.55618	179.793838535069	189.799904706641	261.438000684339	-46.5507983133626
14.98558	199.290646162125	220.974587526958	297.56768974542	-47.9536052606491
12.76553	-539.663353183307	329.492121455135	632.29865796952	-148.593796673983
10.8809	237.979034586494	221.686113228422	325.236458136298	-42.9699897107114
9.278505	-268.351382201471	457.389057059514	530.29917390774	-120.40026244898
7.923394	190.240295214605	218.856974552156	289.982318829034	-49.0013674510269
6.75822	-293.390197415033	294.87880954499	415.97033579079	-134.855013591879
5.761429	-253.843427303636	164.05392805506	302.2419178333	-147.126222577535
4.919708	-183.821757838554	412.043285568798	451.187442020704	-114.042722754209
4.191257	281.862089691365	507.3304626589	580.370946849407	-60.9443747524754
3.564097	13.6340628450645	492.713401311155	492.902001924592	-88.4149508315817
3.051758	387.011187019048	508.060933732372	638.673289924436	-52.701964339906
2.604164	605.656470716775	165.423110019937	627.841194769639	-15.2766075338126
2.214424	311.86181148085	435.549295276565	535.687388386202	-54.3965958809865
1.892567	-475.242479628648	568.035743813998	740.621374721192	-129.917263313442
1.607507	765.580771202019	-37.4099796534737	766.494242517158	2.79752373050576
1.376413	742.459356791807	374.555539863483	831.58748723759	-26.770009123844
1.17375	171.339110926468	777.432049478978	796.088991564483	-77.5712088967153
1.001604	637.253874845397	6.11021817684376	637.283167651274	-0.549355600901322
