EC-Lab ASCII FILE
freq/Hz	Re(Z)/Ohm	-Im(Z)/Ohm	|Z|/Ohm	Phase(Z)/deg
6999984	-8.55033929457815	26.1963326211686	27.5564174894217	-108.076398641953
5969734	-2.59209693110766	29.7435173301955	29.8562521035695	-94.9806460933244
5091109	2.7645410484924	30.1479753357243	30.2744629027873	-84.7606833100169
4341796	7.3622041859122	29.2213608353885	30.1345313477253	-75.8588672301873
3702781	11.4012045552349	28.0949014440657	30.3201410363156	-67.9121717948409
3157797	15.1745825344003	26.7909583080785	30.7899886677233	-60.4724867124057
2693047	18.7148627184008	25.2746422555535	31.4492230065355	-53.481530715961
2296687	21.7173306240974	23.4685841447859	31.9752543570376	-47.2194801673259
1958656	24.2082319208553	21.717236334813	32.5219440802059	-41.8953214222743
1670375	26.3791950427373	19.981249933391	33.0924807169758	-37.1425620271507
1424531	28.1435278092578	18.2257326531305	33.5296210580116	-32.9270708860993
1214875	29.4614528005551	16.802806268217	33.9162424157891	-29.6974911414413
1036062	30.4390039617746	15.5587291404216	34.184894539108	-27.073596541172
883578.1	31.5928806789417	13.5005213652982	34.3565741413302	-23.1383734351868
753531.2	32.5829948676726	13.2349144749429	35.1683737995636	-22.1065394715136
642624.9	33.4821766674419	11.8543996483538	35.5187689174707	-19.496562016088
548046.8	33.8954349617572	11.2584335829343	35.7162825331537	-18.3740059151339
467390.6	34.4610600192412	10.6897329930754	36.0809513332588	-17.2337568774661
398593.7	35.0354956081002	10.4281726580416	36.5545173335819	-16.5754226412828
339937.5	35.3530404376014	10.2943039287871	36.8213275366454	-16.2348106912334
289906.2	35.8516747918322	10.1904137845889	37.271800580069	-15.8671723219877
247234.4	36.2779800930814	10.3944608347073	37.7377351689032	-15.9882039266312
210843.7	36.7032835061181	10.8568415080486	38.2753449058446	-16.4782318104948
179812.5	36.9667638455764	11.3883743335893	38.6812189463643	-17.1225285806973
153343.8	37.4120420428279	12.1049156127381	39.3216209203771	-17.9293333703328
130781.2	37.9483263040999	13.1227146738502	40.153220414977	-19.0756328423172
111531.3	38.5074211556615	14.1579652194858	41.0276670457346	-20.1868844859735
95109.37	38.9009423027617	15.631865333829	41.9241997640714	-21.8921214758418
81109.37	39.4395731081771	17.1476760966871	43.0060777387585	-23.4986091897194
69171.88	40.2022051250898	19.4547078903618	44.6620975326854	-25.8233338772611
59000	41.08147023139	21.7771533649444	46.4965762723761	-27.9279167207577
50312.5	42.3670310154978	24.0263907021238	48.7055722401375	-29.557620684494
42906.25	18.6995780311729	26.925739293724	32.7821545212867	-55.2205206495405
36593.75	20.2319639052491	31.0681710583825	37.0751077729548	-56.9273447325014
31203.13	21.4969366858137	35.2286506828206	41.2695543446507	-58.6079674554909
26609.38	22.9219055113647	39.9472426180897	46.0564430352633	-60.1526043753841
22703.13	24.5110332941462	45.297142548163	51.5036103217565	-61.5814465248814
19359.37	26.3328749787167	51.3894744470084	57.7433839377677	-62.8685962116428
16500	28.4762181088845	58.3721991783509	64.947737718121	-63.9950885326495
14112.02	30.8658024044904	66.1316572046066	72.9800920984664	-64.9800029824794
12011.13	33.7318110815464	75.1844050777479	82.4046712616222	-65.8364029988614
10236.38	37.170452073878	85.1272225161463	92.8885704523972	-66.4117099209523
8750.684	41.1051255615307	95.9229433125573	104.359198929339	-66.8037849401603
7449.463	45.9271937049993	108.139174580443	117.487821498894	-66.9888503079875
6363.206	51.54722431401	120.949543096385	131.475884897966	-66.9168868089191
5414.761	58.6618475915222	135.22242943769	147.398499944477	-66.5479592846344
4620.567	64.6522958354809	150.637490899802	163.925510587542	-66.7714128247354
3941.215	74.0040356240974	168.653120367732	184.175113135368	-66.3084056304902
3361.769	84.1854611200261	184.558561679123	202.85229738176	-65.4801378418491
2867.244	96.9320720866565	205.021570664466	226.7811082007	-64.6957013245354
2442.658	106.149501343961	226.208085129148	249.875597874958	-64.8614007188873
2083.003	124.654416485722	251.325174460597	280.540668829041	-63.6191136274846
1777.843	136.956214430637	276.623062160604	308.670249927459	-63.6599655182775
1513.548	384.348662835828	258.060797028872	462.946292335154	-33.8783469837771
1292.065	-121.364634927574	-418.861593661727	436.089909601157	106.158880788988
1101.762	-114.139982797869	389.813091050603	406.179986739282	-106.320397591436
939.101	-473.342615568499	-39.0102889825832	474.947401676998	175.288645194262
801.2801	-477.480556268451	-89.7474249472665	485.841828066599	169.354865084769
684.3433	-432.434459752428	85.9082778376245	440.88523924305	-168.763801823312
582.9476	-473.890465633123	-15.5912412615053	474.14687621248	178.115618955437
497.0677	-495.79947099094	-21.2767226809566	496.255795294058	177.542718456086
423.5089	-437.336657361965	61.5414001760688	441.645441285391	-171.990012576134
361.5036	-513.00801371141	-25.081244946758	513.620765721369	177.20100642707
308.1262	-451.027625895311	96.7196911034022	461.281495366873	-167.896630200381
262.7298	314.858824654982	-130.936198992349	340.999072828184	22.5803182723073
224.2111	-498.80364014048	113.699739060158	511.598184202936	-167.159118926489
191.2854	-427.115095554759	81.8582374713391	434.888578710301	-169.150605630805
163.1722	-416.127869892477	92.9400883985615	426.380421845074	-167.409902553418
139.1537	-413.451765003247	105.653335325083	426.737611711945	-165.665417954583
118.6706	-30.034572983134	-696.80388639534	697.450881188008	92.4681115701167
101.1982	-468.256575637728	360.80969025445	591.141144913364	-142.384366569253
86.24196	-423.25911097627	331.389260675232	537.556617590463	-141.940954531601
73.61024	-464.416671337604	286.979910575846	545.930685793005	-148.286576704234
62.69291	198.955281104573	207.542995690075	287.501824236665	-46.2102551182486
53.57697	-372.238758258732	312.106942848032	485.769942384199	-140.021545917913
45.65746	-435.439058174834	366.753091634878	569.310990239893	-139.893890921157
38.96512	-423.510513731601	323.591269174015	532.984488261013	-142.61767498343
33.18414	-395.861206305138	349.180396959892	527.857030149667	-138.585198021299
28.30617	-411.775741099029	302.048554951753	510.678558886211	-143.738953388501
24.17237	-346.339644766175	309.017104854759	464.158077199544	-138.259471514767
20.61345	-388.148767615942	268.853901531737	472.167222677106	-145.291325238628
17.55618	-29.9843953579043	419.538260278371	420.608387698559	-94.0879778485106
14.98558	54.977921024855	565.50656988856	568.172731119103	-84.4472181003008
12.76553	433.696169857704	169.923017039433	465.796306843481	-21.3953441491516
10.8809	-675.004424627956	200.274639046247	704.088704860704	-163.474312754444
9.278505	244.030386947543	403.20535853866	471.301804482072	-58.8165813886981
7.923394	430.64942434694	117.696233803993	446.442975240954	-15.2856258895079
6.75822	-10.9843978195019	542.186530216048	542.297787698949	-91.1606218816282
5.761429	456.933117149248	996.673813453607	1096.42444517253	-65.3705310156405
4.919708	747.931693653987	-255.265214926779	790.292444809981	18.8445073973394
4.191257	0.316716867714508	291.548311811768	291.548483840795	-89.9377580594804
3.564097	-378.519962229894	69.1762058547724	384.789175085504	-169.643234743058
3.051758	411.070968106768	214.835729388652	463.82510868019	-27.5926676556708
2.604164	715.520703609646	432.578618978944	836.118495724006	-31.1556801892052
2.214424	687.276922130429	241.15916091112	728.35932655828	-19.3355035798768
1.892567	555.599014968399	-412.088554446758	691.742178950998	36.5643788569283
1.607507	617.458147685824	71.948396752817	621.635854772639	-6.64633334182936
1.376413	798.995027244168	311.848365453325	857.696016428209	-21.3207393146476
1.17375	883.38361127229	-19.9692834628207	883.609289757917	1.29497629024288
1.001604	25.6917264410848	545.203801788559	545.808803787756	-87.3020376103196
