EC-Lab ASCII FILE
freq/Hz	Re(Z)/Ohm	-Im(Z)/Ohm	|Z|/Ohm	Phase(Z)/deg
6999984	48.2156599376428	56.2866731371412	74.1143672716012	-49.4163493228842
5969734	45.2128778772178	51.9780811248673	68.8906760263208	-48.9817837535893
5091109	45.2970993959651	50.2330508563373	67.6401257540472	-47.9577878525535
4341796	48.291503122805	49.0874709336433	68.8596331425107	-45.4683206101778
3702781	53.2931292835467	46.2903463023929	70.5900403005147	-40.9775404372999
3157797	57.4947009234508	43.4539812672273	72.0686417400078	-37.0816623431063
2693047	61.4458761181756	40.6915524877703	73.6980198905992	-33.5138828007164
2296687	65.394446568231	37.8914370001415	75.5790621792895	-30.0892453042841
1958656	68.9055915328029	34.6196220025065	77.1135446733057	-26.6759179947276
1670375	72.1462043243189	31.4473197433698	78.7020248624399	-23.5515791378792
1424531	74.8161890391618	28.1233646613582	79.9273781768133	-20.6012131859444
1214875	76.9763277349927	24.8821073256637	80.897925168269	-17.9130957464188
1036062	78.5332689132274	22.219093834285	81.6159448699459	-15.7975808681912
883578.1	79.8652716619998	19.6749596390747	82.2530586327599	-13.8393486343048
753531.2	80.9731492739201	17.3993951830813	82.8214335548087	-12.127230421317
642624.9	81.8169672611117	15.4018001243222	83.2540183947622	-10.6609970461095
548046.8	82.4596624807586	13.6927220404227	83.5887945439872	-9.42814084001467
467390.6	83.101195561603	12.2353026100695	83.997091221826	-8.37569758445067
398593.7	83.5257825796145	10.962348320328	84.2420882708473	-7.47705338983363
339937.5	83.9081203419997	9.92982558436722	84.4936334611281	-6.74908759280812
289906.2	84.2342094519311	9.09764312384915	84.7240765803954	-6.16428676005194
247234.4	84.5238673412472	8.42863237439844	84.9430750210016	-5.69464987115926
210843.7	84.750289834307	7.96013817138071	85.1232954408281	-5.36574230294882
179812.5	84.981642813232	7.60364184678967	85.3211285940944	-5.11286394232106
153343.8	85.2433887509848	7.45226133563332	85.568519472795	-4.99628536566139
130781.2	85.4794840897994	7.4184712381745	85.8007920462853	-4.9600761518825
111531.3	85.7050564231356	7.53376897976126	86.0355413276006	-5.0235833668526
95109.37	85.9893470052519	7.76429918955228	86.3391692124409	-5.15945858909449
81109.37	85.9858509417741	8.24170426527295	86.3799296791634	-5.47504832631491
69171.88	86.5547877420885	8.67697662024432	86.9886268678053	-5.72468259990663
59000	86.9159720592303	9.37861479102861	87.4205045421233	-6.15863739619195
50312.5	87.2860665958756	10.194971193447	87.8794336543816	-6.66193498259077
42906.25	87.6590750196165	11.1643481691809	88.3671664326601	-7.25817205293776
36593.75	88.0976088948201	12.3535222916397	88.9595312824586	-7.98227611442409
31203.13	88.6045586184421	13.7790495123414	89.6695601273504	-8.83936368016029
26609.38	89.1314845998951	15.4022101509819	90.4524716329871	-9.80407563813386
22703.13	89.7495182991594	17.2913833742228	91.4000436210262	-10.9051400921927
19359.37	90.4112492690454	19.4954867782343	92.4892858611729	-12.1684432755207
16500	91.1436107826768	22.0293844404056	93.7680732729817	-13.5877800551967
14112.02	91.9345170125883	24.869697473121	95.2389482866251	-15.1370923106982
12011.13	92.8456714390507	28.2596063172279	97.0511414367336	-16.9287714431179
10236.38	93.8383417810303	32.0825913267129	99.1712007311111	-18.875154909801
8750.684	94.9497559931489	36.4604948457014	101.70950716404	-21.0066782288246
7449.463	96.1942276762645	41.599581566132	104.803886496209	-23.3862636252501
6363.206	97.5374729535865	47.4238305188855	108.455420939922	-25.9295487933225
5414.761	99.0950253644004	54.1840170915464	112.941275715073	-28.669329837235
4620.567	100.837186200164	61.9572695173593	118.350502182345	-31.5677628946192
3941.215	102.691496070848	70.885727845594	124.781127489171	-34.6164827816662
3361.769	104.933868909688	81.1457282784027	132.648958013955	-37.7149067574408
2867.244	107.452322732723	93.1006627185615	142.175015594487	-40.9068660932705
2442.658	110.308529183505	106.920981099835	153.623135659899	-44.1065832776463
2083.003	113.468053472042	122.709218245823	167.130342551062	-47.2407311719473
1777.843	117.052255552611	140.755485550883	183.066483121893	-50.2530911573153
1513.548	121.363191338901	161.977950876354	202.400298374447	-53.1573397363201
1292.065	126.638785475889	185.929751244386	224.960561842754	-55.7407949754091
1101.762	132.212591645261	213.375878253618	251.016801848122	-58.2166945771961
939.101	138.72759933203	245.477803615558	281.965776087005	-60.5277771396358
801.2801	146.722819229623	282.106861825031	317.980922653318	-62.521211900455
684.3433	155.985133132937	323.734711820095	359.354317346738	-64.2738324999806
582.9476	166.262560713733	372.41876190651	407.846752242881	-65.942113712063
497.0677	178.719883506923	428.156647453503	463.960032243459	-67.3435111831735
423.5089	193.609594552692	492.14794903144	528.861303971761	-68.5254658187489
361.5036	210.341375397459	564.115607284549	602.05474218389	-69.5510602720331
308.1262	230.955568285528	648.482041641003	688.381749360756	-70.3967459776462
262.7298	254.42323432119	744.209139648599	786.497568781343	-71.1259493635092
224.2111	282.093844040538	852.941302125811	898.379542129963	-71.6993655248761
191.2854	314.356367114263	977.63835049406	1026.93557242021	-72.1749777906142
163.1722	352.606569488123	1119.77862603449	1173.98277848096	-72.5213307777708
139.1537	396.873170086533	1282.23669482198	1342.25156162417	-72.8018509142668
118.6706	449.750176921387	1467.60488927054	1534.97209507261	-72.9622218011239
101.1982	511.627738888199	1677.44567993006	1753.73514314901	-73.0380814131993
86.24196	584.492996612023	1918.43479133669	2005.49846963281	-73.0554993301712
73.61024	669.327073724458	2186.57691673316	2286.72633789241	-72.9802699716706
62.69291	766.503091253729	2498.60547865009	2613.53330318207	-72.9454341377266
53.57697	881.625898637352	2841.90795055986	2975.51760616594	-72.7648951364809
45.65746	1016.45274908906	3236.99181142296	3392.82952391511	-72.5671101056017
38.96512	1169.20148918996	3681.39086106361	3862.59896886108	-72.3802685686096
33.18414	1352.15724627114	4189.46189967945	4402.26308022468	-72.1124107993859
28.30617	1561.65945730336	4760.05697379925	5009.68288960488	-71.8365889168099
24.17237	1800.08786086231	5388.53607040991	5681.25314423962	-71.5276500736754
20.61345	2076.59415072686	6108.99647045155	6452.2927043666	-71.22587320298
17.55618	2395.55927770159	6923.57239253593	7326.29230427424	-70.9143560497673
14.98558	2747.28479463038	7825.22131384298	8293.47106785993	-70.6548061685731
12.76553	3185.35366151861	8857.40991661849	9412.76730722489	-70.2201030894073
10.8809	3662.99515532745	10011.8336966799	10660.8793013488	-69.9041168653927
9.278505	4215.42030163304	11308.5697885081	12068.6999706256	-69.5563887795278
7.923394	4837.03670159818	12733.1347475408	13620.9267141278	-69.1993214816023
6.75822	5537.83998748908	14376.303866582	15406.0307863945	-68.9330106984254
5.761429	6372.89952301386	16217.6509634068	17424.8687542065	-68.5471236234048
4.919708	7293.18180240488	18206.7633563989	19613.1775273371	-68.1701746899883
4.191257	8326.31335712771	20515.5616196897	22140.8166672408	-67.9100518509989
3.564097	9578.56266425443	23142.6785820793	25046.6052523388	-67.5157422963898
3.051758	10893.6569108926	25926.21535411	28121.8847782279	-67.2088661013178
2.604164	12478.1948028617	29102.1596587394	31664.5076124819	-66.791695530683
2.214424	14262.541777153	32733.6401713643	35705.900028054	-66.4565152205315
1.892567	16289.2979805029	36612.2433254504	40072.4043453797	-66.0150512393832
1.607507	18626.1557777956	41204.1983756108	45218.5763026148	-65.674886196414
1.376413	21119.1283878912	45952.2229369199	50572.9609248719	-65.3170167575753
1.17375	24080.0752565008	51429.1933202287	56787.4277453046	-64.9101594272529
1.001604	27395.4197082032	57480.452899894	63675.0460271961	-64.5173395629112
