EC-Lab ASCII FILE
freq/Hz	Re(Z)/Ohm	-Im(Z)/Ohm	|Z|/Ohm	Phase(Z)/deg
6999984	24.29670559759	4.99880296620346	24.8056028749734	-11.6258064069082
5969734	10.8462025110364	-3.19933912269714	11.3082217758776	16.4346469110192
5091109	12.2291400274776	-3.60775251221861	12.7502056454425	16.4367324773934
4341796	8.64410279598687	-5.32679807829559	10.1535851261769	31.6428260953592
3702781	5.40284992776156	-5.14840188387193	7.46303083872559	43.6185550164877
3157797	4.34973594120044	-5.18226482789576	6.76580161581881	49.9915703013058
2693047	3.25078866633944	-4.90098148649349	5.881092286655	56.4439459703275
2296687	2.25263750628603	-4.10032433220572	4.67835819107567	61.216472409383
1958656	1.70940305817415	-3.25934451049268	3.68040560989872	62.3246873767251
1670375	1.42019700187549	-2.67888050639633	3.03205545656514	62.0698930452304
1424531	1.16615704637459	-2.42490274740841	2.69073885600182	64.3166897430564
1214875	1.03616434006463	-2.13344528715332	2.37175574899657	64.0952415552383
1036062	0.83650083796085	-1.80714591081368	1.9913588312707	65.1612868288587
883578.1	0.737543309941448	-1.54803083780766	1.7147505966883	64.525017197366
753531.2	0.677952259167291	-1.34679553755183	1.50780551984649	63.2801517958852
642624.9	0.624520983250827	-1.18114965530234	1.3360916760243	62.1328038111358
548046.8	0.562933315585835	-1.0029312469936	1.15011521335587	60.6950235200345
467390.6	0.530505821753304	-0.87873814304927	1.02645854809818	58.8800651123986
398593.7	0.504876734932834	-0.767376857036339	0.918568319827877	56.6580660279458
339937.5	0.480464584589761	-0.665627848202417	0.820918174575025	54.177433794771
289906.2	0.452508423655389	-0.568760256181243	0.726809536598439	51.4940719049451
247234.4	0.437743900780114	-0.497082554041475	0.662352465234777	48.6320102083958
210843.7	0.428018687185435	-0.421315042743186	0.6005883463918	44.5477836982088
179812.5	0.416179657250878	-0.365346273779369	0.553790038619266	41.2785094375042
153343.8	0.409053570543965	-0.317531412876572	0.517833005647726	37.8207148734676
130781.2	0.402229922618708	-0.275515411060673	0.487542462132052	34.4099716035672
111531.3	0.396184553182072	-0.239587668859897	0.462995087716703	31.1629281053136
95109.37	0.389792398216305	-0.208710426778177	0.442151734083615	28.1663760255132
81109.37	0.383659137712444	-0.181331984676779	0.424353181462182	25.2972096523043
69171.88	0.376998367275319	-0.156880394934047	0.408337148987107	22.5936681889339
59000	0.368602037449107	-0.13294761901884	0.391845034949292	19.8333924446896
50312.5	0.36254833191304	-0.102167583039983	0.376668963411057	15.7380505532771
42906.25	0.393916477452195	-0.10265156961836	0.407071905138956	14.6059948120796
36593.75	0.378337279706985	-0.093416494031575	0.38969954910576	13.8696695608232
31203.13	0.37299514884871	-0.0814177253949013	0.381777719456166	12.3134359751565
26609.38	0.368716750694268	-0.0694572474257619	0.375201747680501	10.668113181925
22703.13	0.3700701078377	-0.0617249156665131	0.375182422201581	9.46933650548458
19359.37	0.367321874773774	-0.0552590247350324	0.37145513793995	8.55528547575648
16500	0.366411131516755	-0.0491463141910413	0.369692409305295	7.63942389939576
14112.02	0.364504104539431	-0.0438305573805931	0.36712989525015	6.85672917377934
12011.13	0.363713835932681	-0.0392882656174556	0.365829635573846	6.16516911505644
10236.38	0.362357020208793	-0.0355622114141684	0.364097900262089	5.60513610186818
8750.684	0.361522418013577	-0.0321933425938739	0.362952985982689	5.08873038703236
7449.463	0.360712706027927	-0.0297800332102565	0.361939921351588	4.71957138779839
6363.206	0.35650803437826	-0.0242609093866806	0.357332576601294	3.89306200663053
5414.761	0.363576775774945	-0.0417432432372553	0.365965258240272	6.54960660685537
4620.567	0.341907399781815	-0.0208077890940052	0.342539974473845	3.48260936614368
3941.215	0.362469967699742	-0.0132969543294515	0.362713780381572	2.10091304881878
3361.769	0.346802089993404	-0.0077205346932527	0.346888016915751	1.27531237871399
2867.244	0.374305809656189	-0.0381804951505579	0.376248042323568	5.82422484948589
2442.658	0.378742368338905	-0.021034725219553	0.379326035542019	3.17884719668815
2083.003	0.366657395903324	0.00042779514418609	0.366657645466847	-0.0668494496764322
1777.843	0.336867270157347	-0.04101498323476	0.339354956576459	6.94183059509013
1513.548	0.369620335160019	-0.015242552313535	0.369934490909993	2.36144841742066
1292.065	0.315541445499632	-0.0250112570137043	0.316531146659223	4.53204974990341
1101.762	0.312001332424752	-0.00332593537616882	0.312019059162973	0.610750091297652
939.101	0.358785360081722	0.0047440431923971	0.358816722791431	-0.757549899819301
801.2801	0.368741539870441	-0.0326846039346556	0.370187258776405	5.06535943856897
684.3433	0.315687914454202	-0.000421312289759113	0.315688195592564	0.0764660306056875
582.9476	0.369858906527573	-0.0127501112895011	0.370078607968181	1.97437016314398
497.0677	0.363842388098594	-0.0379278183706849	0.365813890911277	5.95115791941918
423.5089	0.354844480861114	0.00680696482046438	0.354909763697282	-1.09896742852863
361.5036	0.309763495823811	-0.00319330391412242	0.30977995502433	0.590632397195019
308.1262	0.304648851140001	-0.0155274511246855	0.3050442988147	2.91774689170026
262.7298	0.320706725570721	0.00964846241366801	0.320851829748938	-1.7232238539309
224.2111	0.324920185125247	-0.0456552964311683	0.32811207352678	7.99839914677907
191.2854	0.318209257738875	-0.0454572787297666	0.321439723587862	8.12989296076159
163.1722	0.344134454082475	0.00621823638517289	0.344190628795127	-1.03517659944994
139.1537	0.348782334268967	-0.0352246715873977	0.35055654919934	5.76693479955076
118.6706	0.351137065649977	-0.0117665695244899	0.351334158646226	1.91925792578814
101.1982	0.294896465893202	-0.00246431042933074	0.294906762252398	0.478782613105894
86.24196	0.350395906626983	-0.00812805651831042	0.350490166315277	1.3288392418507
73.61024	0.314529858593713	-0.0751561348435418	0.323384409877165	13.4387021664817
62.69291	0.208942387260904	-0.0622630515638735	0.218022037382305	16.5936083217003
53.57697	0.283454720355277	0.0134919251509293	0.283775634147765	-2.72511733506169
45.65746	0.120960728990252	0.00223496504125216	0.120981374709452	-1.05852119185475
38.96512	0.319565037625441	-0.0634788554195741	0.325808806446248	11.2350663793628
33.18414	0.283818387060604	-0.0191379078012284	0.284462890987017	3.85762170221271
28.30617	0.296001410942406	0.00311333627933481	0.296017783490593	-0.602613517649
24.17237	0.284010264724768	-0.0190803977804483	0.284650473473158	3.84347365537754
20.61345	0.299879591209214	-0.020632739176452	0.300588554588708	3.93594216801812
17.55618	0.303447968473283	-0.0339535780555902	0.305341636586529	6.3844171449412
14.98558	0.289612648004721	-0.0448557664269937	0.293065736083322	8.80412677575974
12.76553	0.281846476849352	-0.0343521853858059	0.283932226337859	6.94908424077648
10.8809	0.315735738776522	-0.00261915559607607	0.315746602066899	0.475280752357834
9.278505	0.285985681484258	-0.0135491234231738	0.286306459514192	2.71246986469197
7.923394	0.304159293048524	-0.0170946481731795	0.304639299079982	3.21680736948895
6.75822	0.273633678611535	-0.0168375327475259	0.27415122210106	3.52114822631757
5.761429	0.338081841462568	-0.0824171857099754	0.347982649031634	13.7002745886927
4.919708	0.297945005799072	0.00597971874408192	0.29800500585874	-1.14976472072934
4.191257	0.271848278560561	0.00441302612361617	0.271884095444931	-0.930024520098557
3.564097	0.274533516486595	-0.0258654300961298	0.275749292199551	5.38228703224102
3.051758	0.311870696307629	-0.00831597191684516	0.311981548499791	1.52741896519171
2.604164	0.312500734838153	-0.0469419432053681	0.316006733007829	8.54274915919901
2.214424	0.321736503417856	0.00917555441241775	0.321867314945652	-1.63356684519103
1.892567	0.317014912509012	0.0156066198088727	0.317398836379334	-2.81839142636222
1.607507	0.291002829387475	0.00995638855004869	0.291173103813651	-1.95955691230866
1.376413	0.26604862448094	0.014138876534117	0.266424057505787	-3.04206269042539
1.17375	0.276877452598091	0.0158342099223436	0.277329850468846	-3.2730953162404
1.001604	0.286455868179371	-0.0110284176140861	0.286668084044017	2.20477196242655
