EC-Lab ASCII FILE
freq/Hz	Re(Z)/Ohm	-Im(Z)/Ohm	|Z|/Ohm	Phase(Z)/deg
6999984	1.77006654900931	1.64486004358584	2.41634023906133	-42.9002206399983
5969734	5.67954809547582	1.73924524729795	5.93988557121024	-17.0261341612445
5091109	8.45547155398014	-4.81026757962108	9.72798403512881	29.6352908432019
4341796	3.71550157808377	-4.2525062447956	5.64701348845287	48.8556241766794
3702781	2.76510107640591	-4.58603164097627	5.35513493525389	58.9125518193825
3157797	-0.136906211248546	-8.2383283802266	8.23946586928579	90.9520652442006
2693047	-1.18042367264817	-9.037854756011	9.11461566044882	97.4412133445137
2296687	2.54636249695759	-10.9946137861766	11.2856322052908	76.9601494082083
1958656	1.38385574196971	-6.32875546822899	6.47828700284426	77.6657469329119
1670375	4.31640575204132	-9.73782481699879	10.6516003859896	66.0941194151112
1424531	9.72660990314951	-9.42048565195436	13.5407714007262	44.0840316588299
1214875	-4.61351842559456	-9.44070409546712	10.507685096227	116.044007036821
1036062	5.94532001103346	8.93428888371569	10.7316516851452	-56.3582314841759
883578.1	9.38103727883943	-0.93946042715131	9.42796087821531	5.71879717743505
753531.2	4.93400249067968	-12.0113177927498	12.9852275950968	67.6681490698947
642624.9	14.006955861482	-3.19121301896926	14.3658850419298	12.834655681387
548046.8	12.8613928791295	0.182898376250924	12.8626932874635	-0.814732806646743
467390.6	14.3973747269003	1.15486607232916	14.4436184757076	-4.5860848266044
398593.7	-3.20195652862873	-12.483843265921	12.8879349897223	104.385576413058
339937.5	7.3687074492518	-1.32204189418739	7.4863638866038	10.1713931510143
289906.2	-10.6866254258513	-64.8069435679507	65.6821429127583	99.3637732260752
247234.4	-11.5130782429735	-75.9867036361805	76.8539530546188	98.6156049371934
210843.7	-13.6177863092836	-87.5585365468169	88.611181157829	98.8402616886642
179812.5	-15.7849609132546	-102.160124711708	103.372414464134	98.7834242753872
153343.8	-17.5612267447945	-119.53141895742	120.814555425894	98.357945816723
130781.2	-20.1601295871133	-138.435574943395	139.895815644634	98.2856385429775
111531.3	-23.5641141602118	-160.688708938373	162.40729249771	98.342647843593
95109.37	-27.6018391462671	-185.745634840378	187.78525604134	98.4523119655811
81109.37	-32.5869958662023	-215.060748801	217.515603979188	98.6161778949885
69171.88	-38.3947853763354	-249.253726786411	252.193536517116	98.7569536252521
59000	-45.300810741048	-289.036500867759	292.564971053738	98.9075269338125
50312.5	-54.3736594892779	-334.461854599966	338.852810271222	99.2338263981395
42906.25	-63.0311499702015	-381.015254781689	386.193669345992	99.3933378483039
36593.75	-72.7942999401838	-446.439891804079	452.335701772278	99.2608700060697
31203.13	-187.559295467759	-516.003873687339	549.034140083021	109.975409958134
26609.38	-212.175267434467	-596.44780386564	633.062656335874	109.582074431777
22703.13	-226.371905223803	-679.07922898196	715.816204559094	108.435872362618
19359.37	-252.397212889952	-788.288488784909	827.709547260035	107.75422447375
16500	-281.704268691061	-906.632912032858	949.389557652677	107.260793220584
14112.02	-316.413075592135	-1039.49056729399	1086.5808179325	106.929852798116
12011.13	-360.168255202858	-1198.51877543348	1251.46651058765	106.726109006168
10236.38	-413.014519233674	-1376.39560660491	1437.02674261098	106.702904215465
8750.684	1366.54797626889	-1016.78783352059	1703.32347774581	36.6513022840276
7449.463	5.29024976085194	-9.87432275060815	11.2021869434219	61.8194531929787
6363.206	0.411045843524074	-3.21818003698234	3.24432449608698	82.7212400382487
5414.761	12.487669801217	13.9085866453251	18.6919950656623	-48.0812717165601
4620.567	7.94855280955065	15.1350133819777	17.0952660651673	-62.2926017401977
3941.215	10.2456512126963	-2.34101826474004	10.5096972024922	12.8705113802063
3361.769	108.403377873859	145.629622185887	181.546906314778	-53.3368416839566
2867.244	-2103.48178478443	-3581.96857097364	4153.93000210196	120.423238056565
2442.658	-2530.00437492947	-4418.97319205142	5091.97861437293	119.792526115685
2083.003	2170.85779458851	-13007.7677033935	13187.6701577562	80.5252646968508
1777.843	-3254.6793036343	-5481.62214253835	6375.03872012337	120.699461009598
1513.548	-3710.89520014229	-6168.38285476479	7198.5894610955	121.031088981419
1292.065	-4490.82951634847	-6364.05173801188	7789.01176459496	125.208925336175
1101.762	-5477.22404536159	-7161.38028454891	9015.83888626084	127.409770818831
939.101	1050.53959910945	629.736979808066	1224.82738091325	-30.9402194103462
801.2801	-7092.93860366281	-8287.30742432915	10908.2190288182	130.559549001784
684.3433	-8075.08763669326	-8683.02837915497	11857.5723558192	132.922369653124
582.9476	27.6725546787275	-14.7611617305595	31.3633891357886	28.0764617587233
497.0677	19.4085783772604	-41.3844224932248	45.7095541405075	64.8742349734982
423.5089	21.8757143044779	-19.9376477004605	29.5982545458143	42.3462162887304
361.5036	59.2408376277674	58.3497119299743	83.1514625556911	-44.5658089504436
308.1262	-13687.2804575941	-9933.23107237993	16911.8516390764	144.030588906222
262.7298	-14775.302278931	-10028.223886862	17857.0667176558	145.834661115751
224.2111	7181.90526214191	-30644.0730829547	31474.4178390617	76.809919874325
191.2854	-18639.175614872	-105791.686526877	107421.132957175	99.9922506315542
163.1722	-18341.0546898537	-8318.8611119262	20139.4572254498	155.60261749448
139.1537	-19480.3177877462	-9388.70801102968	21624.768651432	154.267855014943
118.6706	2578.66315038073	8133.84756167916	8532.81781123712	-72.4098904866178
101.1982	-21975.9169047766	-9511.98387761884	23946.1638074604	156.595266874544
86.24196	-22643.153544065	-8637.96275206133	24234.8262408895	159.119031370536
73.61024	47431.2946135095	-16840.2887288055	50332.1272467503	19.5472000260217
62.69291	-24146.1988930932	-6930.34377856469	25121.0785173309	163.985677586598
53.57697	-23898.2846910395	-5418.1109286808	24504.7737636866	167.22609769274
45.65746	-25153.4124874793	-5624.70316694379	25774.6279406999	167.395120242303
38.96512	6148.91477568624	13436.2398306643	14776.3897385587	-65.4094348499299
33.18414	-27347.4086486984	-5519.41646539135	27898.8300456728	168.589508062033
28.30617	-28404.9274259409	-5463.88123120858	28925.6616204664	169.111759092295
24.17237	-27370.7352722086	-4129.86958425115	27680.55223662	171.419575795302
20.61345	-25164.8901613849	-2580.40242575307	25296.8411765857	174.145365209858
17.55618	6786.87686220594	-8357.67239688482	10766.261441949	50.9215552873165
14.98558	-30477.1861095267	-3754.36723659412	30707.5584588215	172.977333448704
12.76553	-28695.0053373293	-2633.16645305735	28815.5669192689	174.75699765616
10.8809	-28507.8850769027	-2233.37447981377	28595.2351472229	175.520463918172
9.278505	-28226.6802767284	-1964.02989097516	28294.92698095	176.019739340849
7.923394	-28109.6177719824	-1764.1556454217	28164.9224466929	176.408834979522
6.75822	-28074.2060604656	-1592.68897860851	28119.3475050198	176.753010727057
5.761429	-27983.2590037776	-1438.3352355414	28020.1997266668	177.057595090948
4.919708	-27786.0316734755	-1351.17717697242	27818.8647489965	177.216017921302
4.191257	-27853.5350783659	-1184.36720569845	27878.7040954147	177.565178401655
3.564097	-27457.2119711737	-1257.00754822982	27485.9701885575	177.378795230899
3.051758	-27203.541759859	-1088.38598039938	27225.3056607767	177.708876216674
2.604164	-26993.4600012317	-1371.24841492871	27028.2667785699	177.091915262877
2.214424	-26787.5772464722	-1328.96642467137	26820.5228601834	177.1598107616
1.892567	-26824.664186908	-1645.57064719091	26875.0909113863	176.489564732856
1.607507	-26637.6049593094	-1797.74103935423	26698.1997672653	176.139029153795
1.376413	-26421.5784952341	-2201.96905778817	26513.1755531335	175.235990372889
1.17375	-26110.4422025058	-2434.3125245739	26223.6738363963	174.673632296968
1.001604	-26100.0791457973	-3070.38344878692	26280.0568100502	173.290626771081
