EC-Lab ASCII FILE
freq/Hz	Re(Z)/Ohm	-Im(Z)/Ohm	|Z|/Ohm	Phase(Z)/deg
6999984	2.54215592678071	2.00109749984227	3.23526628887658	-38.2086015711932
5969734	6.43276835221279	3.80445231748456	7.47357786533626	-30.6008164012446
5091109	16.5828169538658	0.167068744166501	16.5836585255092	-0.577224611831162
4341796	3.63638529636083	-9.34320765553806	10.0259078051862	68.733965160397
3702781	3.24304327755827	-8.00238366025476	8.63455117223983	67.9392726985506
3157797	-0.447221063074685	-8.63228630890522	8.6438633491148	92.9657254151878
2693047	1.53129409554473	-10.0671228093187	10.1829182096762	81.3511260627524
2296687	1.26363438871828	-13.9170433975301	13.9742931412321	84.8119057369016
1958656	0.322795741324141	-13.0674105228361	13.0713968214168	88.5849474093971
1670375	-2.97572100597836	-13.9430146127538	14.2570183417462	102.047335651129
1424531	15.0585089806936	-6.0454805729891	16.2267226536974	21.8737868263976
1214875	-6.1266163805975	-10.4484390511918	12.1121966166949	120.385938504102
1036062	2.59154464724217	-16.2641753373835	16.4693504141421	80.9465605636105
883578.1	13.8430005814814	7.12543135521841	15.5692144020443	-27.2363165549892
753531.2	3.59575898671293	10.177711987631	10.7942254929983	-70.5418188913733
642624.9	7.54219250126514	-4.70337891101442	8.88855673924149	31.9480349832475
548046.8	9.6507135077262	2.06768670077105	9.86973148068145	-12.0929217085445
467390.6	7.48856465193159	-4.01134964986576	8.49526494934899	28.1763225728367
398593.7	2.06313215450877	-7.34866545796597	7.6327844395129	74.3179545359625
339937.5	-5.3993863132744	-13.8587600865532	14.8734193680073	111.285936322937
289906.2	-0.144478338288226	-5.84750273529898	5.84928732663762	91.4153589173433
247234.4	4.7872206290062	5.07205784933141	6.97447146225052	-46.6548302602245
210843.7	6.88277210177788	-7.95132138781823	10.5164663084796	49.1200900357559
179812.5	12.0924542755374	-8.44457073663267	14.7491771069425	34.9279025320536
153343.8	18.0478596114217	14.0008506998752	22.8418269162906	-37.8029646409744
130781.2	13.9810755859364	-12.6946750474491	18.8845240633698	42.2391304768205
111531.3	17.5628634680645	6.27138901637067	18.6489810282634	-19.6507506883357
95109.37	38.4135804868525	0.713943266144668	38.4202144815352	-1.06475955632814
81109.37	52.2778543029889	-43.1948269977508	67.8142103831502	39.5653828187968
69171.88	107.078673776392	-46.1881780854023	116.615565738711	23.332858229166
59000	1.92938159202558	-99.5719850946611	99.5906759140586	88.8899328437452
50312.5	109.189848850352	-72.0848321683604	130.838244105855	33.4319498360127
42906.25	128.757067617695	-164.05873143109	208.551312199866	51.8743611823073
36593.75	-181.564639121308	-271.644203401621	326.735812883975	123.758425382022
31203.13	52.6655143053606	-580.347666299367	582.732417303319	84.8147132300977
26609.38	254.458716730798	-542.317726483659	599.047372900248	64.8637498458473
22703.13	-174.979608403361	-450.394986451076	483.190963468129	111.231276149281
19359.37	-315.391350678872	-748.957649733167	812.655686731393	112.836302820781
16500	-238.602880060735	-744.37539100361	781.681557352516	107.772788306313
14112.02	166.925655192691	-1573.79926622834	1582.62702641601	83.9455362548842
12011.13	-349.048423358464	-1214.74084526634	1263.89482276312	106.031684158469
10236.38	271.474577911455	-1371.33145077274	1397.94434593465	78.8022660153334
8750.684	-149.680726656188	-1972.02791279632	1977.70028284878	94.3405376446042
7449.463	311.852523132558	-2968.09008731697	2984.42804614442	84.0020298934841
6363.206	-786.022242174572	-2393.88067193216	2519.62212179595	108.177411101234
5414.761	-291.376752601845	-3523.62242268425	3535.64921755539	94.7271695647585
4620.567	-289.831952554533	-4416.03826861629	4425.53912541795	93.75503207376
3941.215	7.49342667030005	8.98714677384382	11.7012926806304	-50.1788644749561
3361.769	1.82283934273349	-0.885923103480701	2.02672223422401	25.9203413615547
2867.244	7.23706985543294	1.76727072445932	7.44972656585107	-13.7228892328665
2442.658	1.909514594094	-2.15149473821127	2.87666049328187	48.4100062515164
2083.003	-0.399138454017453	2.85926104925172	2.88698549584917	-97.9468485987167
1777.843	2.06031457928157	0.817162225367344	2.21644992457928	-21.6342732792991
1513.548	3.01568593169391	-1.11200955260605	3.21417592606623	20.2410404567692
1292.065	2.35628916829193	0.0353442075414313	2.35655423396463	-0.859369083676409
1101.762	3.99235860013501	1.88228591936905	4.41383364823902	-25.2425723969606
939.101	4.85547888041687	-2.59892035021978	5.50727356728906	28.1581483515751
801.2801	0.346720085096135	-3.82025774398638	3.83595933866575	84.8141402723026
684.3433	12.308245102484	-13.7811423943807	18.4773586639708	48.2312491490136
582.9476	5.75778752074367	4.43943411453221	7.27053590812286	-37.6333462153039
497.0677	6.83187253710834	0.574008811312302	6.85594402535196	-4.8026686027418
423.5089	11.699862390607	-15.1917566988803	19.1748859594291	52.398497243715
361.5036	15.5318976392841	0.402789340993999	15.5371195377527	-1.48552085346497
308.1262	336.520751144217	-508.414770939428	609.698118137213	56.4993452595387
262.7298	166.991183910492	150.196791312702	224.599936830934	-41.9691470341769
224.2111	80.3036224026509	40.3241091019494	89.8593653764228	-26.6633129232347
191.2854	110.082976859424	-180.99993735593	211.847207007983	58.6923068429342
163.1722	1502.49202092839	905.9462174078	1754.48591381891	-31.088397755323
139.1537	33106.9293532357	-41097.6414156832	52773.9035995274	51.1462063092093
118.6706	26.3465722438919	-23.113387620946	35.048117728613	41.2599112274742
101.1982	42.840996192655	-16.3295120298176	45.8476162729431	20.8651232759596
86.24196	4481.65874449722	2072.40829132578	4937.62505948804	-24.8167616227753
73.61024	507150.650287849	-76239.5058781634	512849.14384635	8.54920639355014
62.69291	358759.195962906	-85247.1888932811	368748.212066387	13.3665495913408
53.57697	351323.837591865	12511.5390704521	351546.550929157	-2.03958708417474
45.65746	276556.403749252	178011.674627856	328894.513117098	-32.768258444445
38.96512	352083.128325454	7120.09474942985	352155.114971625	-1.15852123471232
33.18414	529332.834584582	46524.6809278981	531373.499249625	-5.02299322032361
28.30617	-270502.87511087	-768755.778982738	814958.436463237	109.385492612267
24.17237	-287497.567358541	-888224.115891462	933593.557865653	107.935565615909
20.61345	-308733.069160949	-1027404.51262583	1072788.95434166	106.725421456814
17.55618	-330725.940323693	-1189839.02587626	1234947.9969218	105.533726538721
14.98558	-359428.838162382	-1374044.76005809	1420277.47019583	104.659221056013
12.76553	-391345.795954469	-1589971.20641395	1637424.7980401	103.82757281638
10.8809	-430382.143734263	-1839375.99513108	1889056.07145732	103.169301605555
9.278505	-471880.614808021	-2119771.49160761	2171658.92608944	102.549934229018
7.923394	-519035.335787221	-2446992.61243368	2501433.6939245	101.975601335179
6.75822	-572311.087105027	-2824769.21147731	2882162.56976138	101.453350304917
5.761429	-638166.75458935	-3272643.12927724	3334284.00983909	101.034231677779
4.919708	-712611.704782237	-3764036.31161443	3830898.69311949	100.720422693386
4.191257	-791057.726754956	-4345948.54126024	4417356.79454815	100.316143673142
3.564097	-886707.144350166	-5030185.40601467	5107740.67261882	99.9972353643718
3.051758	-982290.002977525	-5779802.54886867	5862679.51996852	99.645381982382
2.604164	-1087086.92991373	-6668418.84538364	6756446.39515899	99.2589219495662
2.214424	-1209874.70807708	-7738026.82687234	7832040.346081	98.8864993827312
1.892567	-1345285.37180566	-8936480.06094658	9037171.49396259	98.5609447635379
1.607507	-1486930.38170892	-10385469.3632405	10491374.3549097	98.1478994890281
1.376413	-1597111.21358379	-11971193.5026282	12077261.200534	97.5991205128518
1.17375	-1786424.41180419	-13931336.4401278	14045406.6223489	97.3071985162326
1.001604	-2016371.66079421	-16188491.6755723	16313583.8307996	97.0999596817338
