EC-Lab ASCII FILE
freq/Hz	Re(Z)/Ohm	-Im(Z)/Ohm	|Z|/Ohm	Phase(Z)/deg
6999984	9.11169167846003	-13.6101276400387	16.3785988296149	56.1985309579391
5969734	13.0752134284631	-3.19863803816767	13.4607760362869	13.7465008236039
5091109	10.2122147297369	-5.79219791374197	11.7404806698113	29.5611844819797
4341796	9.34520223266071	-2.89912324870889	9.78456541602799	17.2352408381555
3702781	5.73610119361989	-6.09480628636315	8.36955916232984	46.7366371742133
3157797	3.65177309105725	-5.0700146084394	6.24823933907455	54.2359728926995
2693047	2.54010658000246	-4.27979880346054	4.97682823049721	59.3104137123213
2296687	2.52369700775672	-3.89684316811924	4.64267522705152	57.0718561475893
1958656	1.65861922276473	-3.21776668140974	3.62008841633949	62.7308571576933
1670375	1.22193877678023	-2.88311032604932	3.13136703795186	67.0314783679453
1424531	1.0586290287552	-2.42658034717521	2.64744926331368	66.430101866176
1214875	0.716503181296676	-2.12835552138085	2.24572349905339	71.3943800905279
1036062	0.772192094929364	-1.84348521712214	1.99867915814901	67.2723498250183
883578.1	0.657853642861419	-1.57628540131028	1.70805359453677	67.3470635215033
753531.2	0.632632296753743	-1.37639829162943	1.5148253629037	65.3151259968514
642624.9	0.566742681236004	-1.17862450879374	1.30780464881566	64.3193826446935
548046.8	0.534271259822294	-1.01635694928474	1.14822786389788	62.2703136819672
467390.6	0.500472421790144	-0.881083371699516	1.01330180738903	60.4025858613997
398593.7	0.468169132568565	-0.76238570455554	0.894658761316654	58.4465652446026
339937.5	0.446321351495337	-0.663107334425471	0.799321015468427	56.0564660726364
289906.2	0.425859178238691	-0.574540038103364	0.715158929940715	53.4535073502012
247234.4	0.410251979629461	-0.497010833062788	0.644458264724457	50.4624155581884
210843.7	0.395553079528484	-0.429959749075537	0.584232508980428	47.3866577927892
179812.5	0.384054512014634	-0.370095662337468	0.533356041945536	43.9396119169893
153343.8	0.377410242183282	-0.321560351520041	0.495822095690113	40.4315976022095
130781.2	0.371380489786072	-0.279538519082589	0.464828196051648	36.9688183053553
111531.3	0.365083359191652	-0.243059557724306	0.4385929864462	33.6542689196794
95109.37	0.357799373127234	-0.212113350809232	0.415947670989708	30.6606331950562
81109.37	0.352949826554497	-0.182588538185704	0.397381623054768	27.3534978832493
69171.88	0.347142456167114	-0.15993991898787	0.382215466143879	24.7370746526285
59000	0.335904026458698	-0.136099676239332	0.362428802475213	22.0565259855767
50312.5	0.328340514539235	-0.10529800865672	0.344811780707911	17.7809201126601
42906.25	0.358708771436949	-0.104937487928978	0.373743038836378	16.3064304156248
36593.75	0.342749124640725	-0.095391365680628	0.355775877608922	15.5525497375255
31203.13	0.335723718627365	-0.0842316027542757	0.34612913508045	14.0845287339972
26609.38	0.330219180477956	-0.0720239170520701	0.337982472597406	12.3040566560502
22703.13	0.331110644449969	-0.0638268012585281	0.337206345472575	10.9108352926763
19359.37	0.327684404060507	-0.0572546488486639	0.332648708819489	9.91095518523756
16500	0.325261663204903	-0.0507553158737883	0.329197891305926	8.86916894466299
14112.02	0.322303315611956	-0.0455605178978394	0.325507585235091	8.04597183250878
12011.13	0.320727335538808	-0.0405165986713088	0.323276381026692	7.19987932686115
10236.38	0.318472061653819	-0.0364073871006726	0.320546333452018	6.52168064392069
8750.684	0.31672858657673	-0.0326630051999239	0.318408337616312	5.88788046052493
7449.463	0.315581229972641	-0.0287304732596463	0.316886340514652	5.20186033072314
6363.206	0.311173821862091	-0.027148440085288	0.312355863097405	4.98615948254804
5414.761	0.310502510934537	-0.0226833960374979	0.311329962824728	4.17825346803028
4620.567	0.306685660741217	-0.0238637736959613	0.307612701622168	4.44932438456903
3941.215	0.308640805448605	-0.0227767562204812	0.309480092109155	4.22060421641517
3361.769	0.305423482326094	-0.0215456503445723	0.306182492322746	4.03516184235872
2867.244	0.304982465370716	-0.0190853776130617	0.305579050038174	3.58082063476485
2442.658	0.302149085826856	-0.0176859349255125	0.302666255734256	3.34991749741154
2083.003	0.301530782655503	-0.0168596470924197	0.302001755936818	3.20027639118384
1777.843	0.298652594097273	-0.0187641148597677	0.299241481027448	3.59512452612029
1513.548	0.295094149135075	-0.0137717924427129	0.295415333252759	2.67200643928424
1292.065	0.296282898647641	-0.0105749217021096	0.296471558501071	2.04413178540572
1101.762	0.294658350990639	-0.0132707239031808	0.294957040806686	2.57872547249017
939.101	0.287274837315576	-0.00920967108923491	0.287422424657963	1.83620196380597
801.2801	0.29170754809435	-0.0170037247449972	0.292202704077873	3.3360141035549
684.3433	0.296818873985647	-0.00467786682444284	0.296855733298406	0.90290700061281
582.9476	0.294283964010416	-0.00293260233883808	0.294298575650922	0.570945739241662
497.0677	0.293693661310197	-0.0109612008674615	0.293898136466099	2.13739441755035
423.5089	0.292710562379698	-0.0108061210654616	0.292909961560068	2.11425265220501
361.5036	0.289550360468773	-0.010912654779086	0.289755927086788	2.15835779735859
308.1262	0.292771195518771	-0.0060644220719213	0.292833997583199	1.1866471599175
262.7298	0.29198531723594	-0.00711725478521702	0.292072047270961	1.39633023237034
224.2111	0.287795025129484	-0.00848597907740206	0.287920107547532	1.68894493496381
191.2854	0.286056406999528	-0.0065191094189802	0.286130681285835	1.30552157846226
163.1722	0.288224609029819	-0.00521261738724819	0.288271740950128	1.03609619671113
139.1537	0.288786198936428	-0.00721521540100499	0.288876319606563	1.43121591364247
118.6706	0.2877474696426	-0.00753686513291562	0.287846157906877	1.50038452458626
101.1982	0.286638860347513	-0.00649697944845909	0.286712481422199	1.29844841448137
86.24196	0.277664813019195	-0.00700636992670829	0.277753195496531	1.44544875823132
73.61024	0.301605991578511	-0.00390064042396146	0.301631213822068	0.740959333903493
62.69291	0.205190479258666	-0.00618017364823018	0.205283529112112	1.72518165071686
53.57697	0.268969892682013	-0.023096051738847	0.2699596836109	4.907865945759
45.65746	0.303818269994009	-0.0111800920502774	0.304023906363308	2.10745450796578
38.96512	0.282881457206537	-0.0105072519989037	0.283076528832509	2.12719691471261
33.18414	0.288693297435795	-0.0106369130600248	0.288889189662402	2.11011016734622
28.30617	0.272963502205043	0.00975684047146571	0.273137821386984	-2.04711574960276
24.17237	0.284816754944623	-0.00420387585126023	0.284847777715323	0.84562038842445
20.61345	0.286444061551003	-0.018878168050349	0.287065472717936	3.77063983341831
17.55618	0.275275989660458	-0.0183436605971154	0.275886499067364	3.8124021541476
14.98558	0.276119221705965	-0.0062531948239279	0.276190019807041	1.2973397411478
12.76553	0.276902576879791	-0.00474635340530777	0.276943252225644	0.982003824230621
10.8809	0.27291382102173	-0.00171756650857173	0.272919225668314	0.360582737773334
9.278505	0.260434224005317	-0.0119250985514759	0.260707101952966	2.62170189078735
7.923394	0.283458797606021	-0.0114648748370283	0.283690559052077	2.31614292568628
6.75822	0.274594123833318	0.0134110305595796	0.274921422563716	-2.79607357432628
5.761429	0.247293595496291	0.00424723991268326	0.247330065742843	-0.983951880734065
4.919708	0.264176488507946	-0.00513429289730246	0.264226376510644	1.1134082567971
4.191257	0.275710041884814	-0.00414419538816498	0.27574118580934	0.861147544672496
3.564097	0.2766118891401	0.00234444562558112	0.276621824227494	-0.48560321729069
3.051758	0.228277127720947	0.0467533308304903	0.233015709737071	-11.5746527349589
2.604164	0.301809845854872	-0.0681482624835034	0.309408094164425	12.723931587478
2.214424	0.264691608350234	-0.00142410700287484	0.2646954393483	0.308262638344727
1.892567	0.261689138165285	-0.0133431046898463	0.262029088989092	2.91889108841714
1.607507	0.257502087455434	-0.016677483458655	0.258041592574568	3.70566584649268
1.376413	0.28003535477847	0.0173488954302115	0.280572243991725	-3.54508697595593
1.17375	0.285125271229642	0.0182955216866427	0.285711649058213	-3.67144250443172
1.001604	0.282891288199956	-0.0118269555608411	0.283138407527606	2.39399471201527
