EC-Lab ASCII FILE
freq/Hz	Re(Z)/Ohm	-Im(Z)/Ohm	|Z|/Ohm	Phase(Z)/deg
6999984	10.1354912848888	-0.9781875547387	10.1825848623177	5.51260628274353
5969734	6.25344292471009	-1.19065824610564	6.36578474908051	10.7801092421392
5091109	3.96380233912586	-1.00194542289716	4.08847448495453	14.1857245397732
4341796	2.5434087467149	0.90250974746103	2.69878711593339	-19.5368524082416
3702781	2.1250761230729	0.479222980733682	2.17844054179081	-12.7081179523324
3157797	1.9331658320156	0.331139028563	1.96132179672542	-9.72006856621178
2693047	1.81271330081644	0.245016738721815	1.82919728657427	-7.69777392125188
2296687	1.74159223462406	0.203109982382831	1.75339589843434	-6.65196551695549
1958656	1.67443219030198	0.155446898346415	1.68163221250218	-5.3038852064287
1670375	1.65554368507671	0.159193280274367	1.66317990418411	-5.49254359258923
1424531	1.63846653412285	0.126837201904019	1.64336857071912	-4.42656077136848
1214875	1.60798417994849	0.0875372816116234	1.61036514450498	-3.11605732487756
1036062	1.59830916218092	0.0697053608446357	1.5998284330646	-2.49719758894762
883578.1	1.58880170578602	0.0391712921659074	1.58928450896576	-1.41231919260126
753531.2	1.58040908342936	0.0450958360467077	1.581052341137	-1.63445034611112
642624.9	1.56516456033368	0.0423428617571398	1.56573721258272	-1.54966175975648
548046.8	1.55415186550311	0.0359006553806984	1.55456645985418	-1.32328785377368
467390.6	1.55079587589706	0.0214583981909301	1.55094432896615	-0.792752426752139
398593.7	1.54115175608586	0.0226557149735399	1.54131827235893	-0.842216446163578
339937.5	1.54419115433389	0.0170419684852186	1.5442851905697	-0.632300752845908
289906.2	1.53976323784726	0.0164707210436974	1.53985132830335	-0.61286487851948
247234.4	1.53866360299285	0.0151211632552695	1.53873790255298	-0.563054162346207
210843.7	1.53596747415032	0.0106806264214479	1.536004608531	-0.398410098957225
179812.5	1.53298750197314	0.00496945700258785	1.53299555665003	-0.185734009574174
153343.8	1.5307769333928	0.00526034735198944	1.53078597167002	-0.196889898915827
130781.2	1.52949677754556	0.00419882027993476	1.52950254089819	-0.157289691722242
111531.3	1.52855741388542	0.00355225154004706	1.52856154146147	-0.133150807926042
95109.37	1.52768156719056	0.00319260552809114	1.52768490319956	-0.119738668082943
81109.37	1.52725437080826	0.00338311679835883	1.52725811788061	-0.12691926165042
69171.88	1.52676899757719	0.00270132131326164	1.52677138730712	-0.101373651875615
59000	1.52653924513936	0.00274073166055169	1.52654170547701	-0.102868097692654
50312.5	1.52654610431461	0.00298333132318068	1.52654901947625	-0.111973084606637
42906.25	1.52639579050041	0.00310225870806224	1.52639894302455	-0.116448228761286
36593.75	1.52668672023006	0.00349711715901353	1.52669072557451	-0.13124480652476
31203.13	1.52687465386737	0.00346032530715486	1.52687857489515	-0.12984805001179
26609.38	1.52703921161407	0.00426371529026743	1.52704516405868	-0.159977723218099
22703.13	1.52765060224705	0.00389725748462314	1.52765557347252	-0.146169497651225
19359.37	1.52746146737473	0.00419150378619905	1.52746721831225	-0.157224832899834
16500	1.52843338675289	0.00453636998648913	1.528440118681	-0.170052613087679
14112.02	1.52851816470783	0.00470309251202124	1.52852540015564	-0.176292639138669
12011.13	1.52895384996776	0.00468004602697475	1.52896101263638	-0.175378771455436
10236.38	1.52941442463662	0.00478717148888562	1.52942191670494	-0.179339113031159
8750.684	1.53007928429874	0.004587000175938	1.53008615993046	-0.171765585007782
7449.463	1.53065623950998	0.00464904587907192	1.53066329974244	-0.174023325199495
6363.206	1.53135304446085	0.00471940919596413	1.53136031671278	-0.176576768909275
5414.761	1.5314657683319	0.00466835552619572	1.5314728835718	-0.174653750661477
4620.567	1.53233075771806	0.00485105972499055	1.53233843645236	-0.181386635007839
3941.215	1.53272714795866	0.00454496621654009	1.53273388649413	-0.169897570708317
3361.769	1.53329819358069	0.00451793446775658	1.5333048497183	-0.168824191574919
2867.244	1.53357054763748	0.00424075970619603	1.53357641108098	-0.158438758580377
2442.658	1.53413961426302	0.00412523926066666	1.5341451605536	-0.154065658209041
2083.003	1.53488864665909	0.0038344084679277	1.53489343614834	-0.143134139139961
1777.843	1.5348368995641	0.00371382293194333	1.53484139269969	-0.138637509067995
1513.548	1.53550611425647	0.00356839057979703	1.53551026057475	-0.133150464151365
1292.065	1.53568101251336	0.00314347431738226	1.53568422978972	-0.117281882353201
1101.762	1.53599089957736	0.00293957529249808	1.53599371245046	-0.109652376353239
939.101	1.53655998940949	0.00262979272180993	1.53656223982754	-0.0980605234252706
801.2801	1.5363767861841	0.00258672782937796	1.53637896376065	-0.0964662110645396
684.3433	1.53674631246823	0.00230482614158772	1.5367480408669	-0.085932668479957
582.9476	1.53669064747762	0.00214058686942089	1.53669213837949	-0.0798121041292515
497.0677	1.53682511802394	0.00158863513225372	1.53682593911962	-0.0592273348320274
423.5089	1.53704044582643	0.00172011344029784	1.53704140832203	-0.064120107923547
361.5036	1.53727461162137	0.0014681123045345	1.53727531265202	-0.054718013744899
308.1262	1.53699719169359	0.00124244470760454	1.53699769386387	-0.0463155189243701
262.7298	1.53711942074081	0.00117951834915999	1.53711987329619	-0.0439662716431967
224.2111	1.53745623288189	0.00101549444811615	1.53745656825042	-0.0378440285261515
191.2854	1.53735339151636	0.000903377244134749	1.53735365693691	-0.0336680542842302
163.1722	1.53732025555978	0.000901506838609216	1.53732051988808	-0.0335990701656965
139.1537	1.53751455769007	0.000871268541464461	1.53751480455239	-0.0324679884527508
118.6706	1.53746184993748	0.000606591767210734	1.53746196960014	-0.022605534144871
101.1982	1.53731455059185	0.000616385687164155	1.53731467416165	-0.0229727198774586
86.24196	1.53741161638712	0.000425259287043232	1.53741167520203	-0.015848430872509
73.61024	1.53748537412232	0.000426507678634281	1.53748543328022	-0.0158941930116061
62.69291	1.53735389859199	0.000258552949779847	1.53735392033378	-0.00963603284639994
53.57697	1.53718066148102	0.000227687969834034	1.53718067834365	-0.00848667950936751
45.65746	1.53717734454665	0.000188992881109607	1.5371773561648	-0.00704440149957445
38.96512	1.53706844454605	0.000268271167744979	1.53706846795731	-0.0100000787702702
33.18414	1.53705871861622	0.000141876299471987	1.53705872516408	-0.00528861588118847
28.30617	1.53697426592698	0.000326390937834058	1.53697430058307	-0.0121672973599305
24.17237	1.53719935364212	0.000113925564329438	1.53719935786377	-0.00424632887550095
20.61345	1.53698441269335	2.91690746257258E-05	1.53698441297013	-0.00108736617909282
17.55618	1.53704876910051	0.000137606105138905	1.53704877526018	-0.00512947226992852
14.98558	1.53676548707509	1.10708078558194E-05	1.53676548711496	-0.000412756904851521
12.76553	1.53703857599648	2.24822325119324E-05	1.53703857616091	-0.000838064221022265
10.8809	1.53694081156655	0.000165408952049196	1.53694082046739	-0.00616629784191285
9.278505	1.53681267287666	0.000137181923851006	1.53681267899936	-0.00511444587879342
7.923394	1.53671720494985	-7.82225323852266E-06	1.53671720496976	0.000291649039525554
6.75822	1.53669483034981	0.000209640673810855	1.53669484464973	-0.00781646785809118
5.761429	1.53671427860615	-5.83359022796155E-05	1.53671427971341	0.0021750308691969
4.919708	1.53668288967402	-3.81028666914771E-06	1.53668288967875	0.000142067921979002
4.191257	1.53666842578254	8.41918964303874E-05	1.53666842808892	-0.00313915497247267
3.564097	1.53663849040709	5.09153178202492E-05	1.53663849125061	-0.00189845096345796
3.051758	1.53662978943844	2.69183886944762E-05	1.53662978967422	-0.00100369657931207
2.604164	1.53645485997609	3.09539881015643E-05	1.53645486028789	-0.00115430197350898
2.214424	1.53632004877972	4.46870488013851E-06	1.53632004878622	-0.000166656634940159
1.892567	1.53612020133568	-1.02913325284549E-05	1.53612020137016	0.000383856627186225
1.607507	1.53587613131765	4.21657897321753E-05	1.53587613189646	-0.00157299260117421
1.376413	1.53586529058265	-2.76556505097829E-05	1.53586529083164	0.00103169989154909
1.17375	1.53562224622495	-1.65486638495288E-05	1.53562224631412	0.000617449113838322
1.001604	1.5353916238765	-3.17013076322641E-05	1.53539162420377	0.00118298882439559
