EC-Lab ASCII FILE
freq/Hz	Re(Z)/Ohm	-Im(Z)/Ohm	|Z|/Ohm	Phase(Z)/deg
6999984	2.21290513517165	1.78648256212208	2.84402339688606	-38.9140042902465
5969734	5.54270702631404	1.62365103932067	5.7756249771811	-16.3271371103408
5091109	6.92366676051218	-1.99030066412835	7.20405844953044	16.038005418184
4341796	3.16773951336199	-5.59651592070128	6.43082919032824	60.489274375803
3702781	3.01502367890599	-5.93903868740992	6.66052162483657	63.0848304835251
3157797	1.77822079456662	-6.42324766499746	6.66484656688542	74.5257090324769
2693047	1.74948048590875	-9.10215560694614	9.26876036283367	79.120143000072
2296687	-3.16900239421522	-7.70368279111275	8.33002429291947	112.360404076146
1958656	-1.48542466194241	-10.361584733739	10.4675175959136	98.1582700251199
1670375	-2.22439077483211	-8.98684666486269	9.25804122354788	103.902229217086
1424531	-4.21732999061283	-12.8454032252416	13.5199946844949	108.175749523628
1214875	14.3228897108097	-2.68466188208228	14.5723223643016	10.6162547718877
1036062	7.6078081457155	6.45002706183129	9.97404601354792	-40.2918360072432
883578.1	-3.39108708637815	-14.8994730411724	15.2805028887148	102.821974590146
753531.2	8.19525123797241	-15.2843917394862	17.3428594441506	61.8004882899599
642624.9	5.44683246207979	-5.58687467931212	7.80263753818574	45.727171482862
548046.8	5.57458386959085	6.16865711964212	8.31434398968517	-47.8960401909723
467390.6	10.4060943612196	3.33361526065862	10.9270211201728	-17.7629750745166
398593.7	6.3550620771322	-5.89441586439803	8.66781128005629	42.8463855255679
339937.5	4.4239651701539	-3.93557731155023	5.92116851659567	41.6564209400165
289906.2	23.8601050071445	9.00757544100223	25.5037453382304	-20.682332550579
247234.4	6.7058855578043	-24.7491144404334	25.6415203663909	74.8394607210906
210843.7	21.0266368240805	-34.5484675754663	40.4439867958739	58.6747743344032
179812.5	0.399094776287999	-89.2359019651556	89.236794407774	89.7437545500492
153343.8	5.16079244589926	-127.938143796675	128.042189987552	87.6900446291822
130781.2	-34.9615321151112	-144.518145722397	148.686930060702	103.599592909698
111531.3	0.590258319708967	-169.354543888515	169.355572511125	89.8003054844286
95109.37	-13.3598634609186	-221.366492110858	221.769271498918	93.4537135693007
81109.37	-2.06741380362161	-239.231719425169	239.240652437996	90.4951314025837
69171.88	-24.8063914383797	-288.11311476905	289.179051727676	94.9210011868513
59000	-30.0757902406969	-336.017736203807	337.3610413224	95.114718217385
50312.5	-17.1392885297208	-371.863500254656	372.258267917517	92.6389102888452
42906.25	-22.8875715817947	-465.343263271546	465.90577760436	92.8157823602021
36593.75	-43.4242421827477	-504.444039316058	506.309642028123	94.9200844543791
31203.13	-32.4612064454124	-600.441268818163	601.318091548772	93.0945263275332
26609.38	-45.9627960372915	-697.294616036072	698.807813474104	93.7712467793623
22703.13	-48.372056672833	-810.995916569907	812.437217611197	93.4133773405235
19359.37	-50.8748023360133	-943.105635198785	944.476831190915	93.0877654255507
16500	-98.0041522939622	-1086.89578793648	1091.30530453257	95.1523615445251
14112.02	-104.277514251485	-1367.99018778988	1371.95880181144	94.359044181387
12011.13	-238.088287939205	-1425.40034992885	1445.14780919846	99.4827192643444
10236.38	2.66240347058669	-0.362664473275739	2.68699046525447	7.75691462486528
8750.684	6.14689066081257	-0.557504165940671	6.17212084222482	5.18237289019515
7449.463	-7.03458104077188	-11.1066366406449	13.1469657292663	122.348834614441
6363.206	3.85726714511563	0.705685106138674	3.92128821917166	-10.367579629645
5414.761	3.71790278034477	5.11553172274092	6.32388060374831	-53.9908271704749
4620.567	-0.308903636193729	3.02642188622738	3.04214577065101	-95.8279360807638
3941.215	5.24939725382556	-5.45354898983309	7.56950250102216	46.0927472040452
3361.769	5.189889341169	-1.54046681730183	5.41368537955316	16.531980981256
2867.244	15.7632606611015	-0.181007704009698	15.7642998721396	0.657891912765426
2442.658	0.849651668837797	1.97600888200807	2.15093446207308	-66.7330819482411
2083.003	2.03527143198799	0.373823198008173	2.06931717850008	-10.4076522978365
1777.843	11.445582430806	17.8337138996864	21.1906278490337	-57.3078689225596
1513.548	7.95498493930711	-0.833929849657688	7.99857639700672	5.98452125182964
1292.065	2.03856977674153	-2.64584636834638	3.34010025890477	52.386493777907
1101.762	2.37738318548772	3.15688636270176	3.95194664914041	-53.0173833357035
939.101	3.11931675317476	-2.63144557428352	4.08101002413043	40.1508712009072
801.2801	3.15364528846623	-9.14890028581942	9.67718218518862	70.9808191540025
684.3433	9.19316468477678	-9.19995425852222	13.0059000180813	45.02114996939
582.9476	19.7127829805761	-12.5431739634829	23.3650385387546	32.4684525485648
497.0677	60.8909958458472	37.9549126124863	71.7515767528523	-31.9363409146489
423.5089	121.59421866573	8.71882975890937	121.906406744249	-4.10133502994956
361.5036	13.9448243440708	12.5550145914848	18.7639685935409	-41.9978178422452
308.1262	12.8357883883417	-194.410908221597	194.834182573532	86.2225851242932
262.7298	69.3587153007464	257.81567748908	266.98231204955	-74.9425358284346
224.2111	-1.4002309330281	-11.6556100167583	11.7394161493903	96.8503219703953
191.2854	1066.65316095101	-51137.9429305825	51149.0660338709	88.8050777942863
163.1722	-4116.74191013883	-52805.7947455406	52966.0223413355	94.457764809488
139.1537	42305.5393251725	-86096.7837553833	95929.2178150898	63.8317955610372
118.6706	13058.4756516664	-62905.3006146605	64246.405594134	78.2725665337349
101.1982	67221.4982257925	-22108.3863282215	70763.7659382124	18.2054474613843
86.24196	5402.26082821233	-6957.67036328053	8808.7228892791	52.172562796361
73.61024	32975.0877889411	-195143.51667334	197909.950518731	80.4088396728802
62.69291	-104064.073544142	-350681.596978688	365796.273712737	106.52815208795
53.57697	29915.8179770733	-123285.686290197	126863.377730858	76.3605490756039
45.65746	-150038.589592747	-276684.437969744	314747.290030611	118.469795749846
38.96512	-158198.790022674	-231145.928377658	280098.727898232	124.38816329465
33.18414	-243333.702938716	-631845.576885742	677082.065938793	111.062482782836
28.30617	79269.4766042934	-188845.096368344	204807.520231773	67.2293206946039
24.17237	-148453.931372941	-152472.589585298	212806.15666594	134.234901370209
20.61345	326540.117983502	-383878.276888864	503975.178079082	49.6143635368814
17.55618	2345.90858291897	-901.480537777068	2513.15623060003	21.0206583990258
14.98558	282.286092918665	-35.4910278307404	284.508438032631	7.16603470990277
12.76553	265.421840524382	-87.6001680945698	279.504101718646	18.265023612922
10.8809	1855462.19261214	270626.138329782	1875094.25228716	-8.2982909863285
9.278505	2578058.93341363	614655.913625985	2650318.80276868	-13.4100027105235
7.923394	804360.00732311	342568.841831851	874270.228690678	-23.0686673898312
6.75822	302300.900459391	1064507.47475345	1106599.29433582	-74.1464109721003
5.761429	321240.489413732	-209908.039840613	383740.585850001	33.1617887764526
4.919708	770732.674258841	-279483.826678938	819841.487450646	19.931706272756
4.191257	688067.276571109	-93615.9047473743	694406.591781539	7.74787908043607
3.564097	1459586.56191536	-220745.571863844	1476184.79169154	8.60014807111522
3.051758	195451.153633768	-648595.868773808	677405.16269602	73.2300795703476
2.604164	-2946950.83034929	-6293064.37363228	6948897.63971065	115.093011688463
2.214424	1943770.88371394	1232553.05128052	2301615.14432691	-32.3789508113874
1.892567	363464.043110997	-1922566.39126039	1956621.48599022	79.2944940571303
1.607507	631361.376629927	849063.470021154	1058076.53977602	-53.3656041652722
1.376413	858315.416134109	398844.792593555	946457.88186927	-24.9235036600082
1.17375	-1767507.34797739	-3268583.59331147	3715874.18134939	118.402587800477
