EC-Lab ASCII FILE
freq/Hz	Re(Z)/Ohm	-Im(Z)/Ohm	|Z|/Ohm	Phase(Z)/deg
6999984	-6.40027364943933	27.5541415919433	28.2877044253606	-103.076768921641
5969734	-0.612784660906947	29.4244685986099	29.4308487365081	-91.1930512928326
5091109	4.18321999211768	29.0537527988733	29.3533623491499	-81.8067421014404
4341796	8.60181520744775	27.4831867279143	28.7978606424936	-72.6206816594465
3702781	12.0794881194632	25.8623315329119	28.5442503062613	-64.9641893473337
3157797	15.3146869835684	24.3212353283565	28.7412965139357	-57.8020450208599
2693047	18.3411591844912	22.6447259807147	29.1407229658514	-50.9941604991155
2296687	20.7749960605957	20.8860996589534	29.4589480511694	-45.1527984819772
1958656	22.7669127373369	19.2247602676775	29.7980489787366	-40.178304420138
1670375	24.5205559076398	17.6333466511592	30.2025259893877	-35.7208589317808
1424531	25.9771197432743	16.1336113788867	30.579472956239	-31.8431779771606
1214875	27.1577709312687	14.8613407411813	30.9581002417907	-28.6884666275923
1036062	28.2229964916225	13.5777774307307	31.3192204712153	-25.6917025534078
883578.1	29.1208034091789	12.5296216039232	31.7019338327103	-23.2804497796454
753531.2	29.9004002431328	11.5925823772925	32.0690177722026	-21.1916404642487
642624.9	30.5899030099939	10.8637627407567	32.4617237226905	-19.5520930855921
548046.8	31.1957128205176	10.2583284483505	32.8390895265755	-18.2028175851047
467390.6	31.786898926533	9.78709395027663	33.2594971603175	-17.1134471996445
398593.7	32.3390111493332	9.47513824453201	33.6985146092478	-16.3302711894802
339937.5	32.8965478529971	9.28421220893027	34.1815660405573	-15.7603672593974
289906.2	33.4686251106668	9.18962798482381	34.7073209755206	-15.3535786840104
247234.4	34.0454186480862	9.24504247069866	35.2783409645136	-15.1923311717268
210843.7	34.6301961399135	9.35278599860879	35.8709505118647	-15.1136354185655
179812.5	35.322027714232	9.58427277202302	36.5992339593812	-15.1811011989422
153343.8	35.9545906193638	9.90666967150583	37.2944324341633	-15.4046292235566
130781.2	36.6901642031954	10.3151910775151	38.1126136104977	-15.7029683474812
111531.3	37.4570767651999	10.8167451563104	38.9876207990516	-16.1075051987333
95109.37	38.3343254207265	11.3778223596665	39.9871897876092	-16.531155922031
81109.37	39.2609230316368	12.0260011084149	41.0614756183421	-17.0303339418828
69171.88	40.3079626035197	12.7604398263892	42.2795538506456	-17.566416173319
59000	41.5088463290498	13.5366460461647	43.6603379481632	-18.0619100745482
50312.5	42.9860336390835	14.2472295590716	45.285567658243	-18.3371876472188
42906.25	43.3228264225798	15.0498650725126	45.8624653495842	-19.1566548041267
36593.75	45.0326633707886	16.3375435373866	47.9046563405142	-19.9404266903979
31203.13	46.6574848709082	17.3867360559077	49.7917612176636	-20.4377196791038
26609.38	25.6280265274649	19.0323083898872	31.922163246563	-36.5989282119747
22703.13	27.5851823184306	20.2023310302427	34.1917601564553	-36.2176190697372
19359.37	29.6834003534517	21.4395497612955	36.6163699799743	-35.8396044348217
16500	31.9250695048636	22.6392003728096	39.1374942530893	-35.3418072432561
14112.02	34.2877046304062	23.8343193275328	41.7578910701771	-34.8042181328187
12011.13	36.8532065237635	25.0414427468242	44.5559500619798	-34.1957770614355
10236.38	39.572952476372	26.2431603897411	47.4839134332762	-33.5507067982095
8750.684	42.3606011651855	27.365090749047	50.4308310736547	-32.8625959454133
7449.463	45.3715953867952	28.5039466519192	53.5822418593932	-32.1384059402576
6363.206	48.4141736857042	29.5751430220713	56.7328943245936	-31.4198309214943
5414.761	51.6362397994786	30.6499920902333	60.0476750237727	-30.692317761127
4620.567	54.8496778880071	31.5983978421191	63.300441630426	-29.9458511568967
3941.215	58.2257621018668	32.7590539410382	66.8086445563374	-29.3630327581117
3361.769	61.6246461943914	33.8434535756575	70.3063039030755	-28.7750176321248
2867.244	65.0519026935715	34.9286435857955	73.8360358280252	-28.2329078846838
2442.658	68.5470435336123	36.2086462994395	77.5226627770025	-27.8443852038056
2083.003	72.0325632635633	37.6336892266992	81.2710571798536	-27.584990021216
1777.843	75.5489398742084	39.1731762717851	85.1009991441764	-27.4073673751475
1513.548	79.1403048243694	40.9176004459377	89.0922997455308	-27.3401422370448
1292.065	82.8150032666769	42.9717872262045	93.3000496434696	-27.4242982779936
1101.762	86.5375148048582	45.3263738610243	97.689414144985	-27.6445203361301
939.101	90.4805883536539	48.1760806175155	102.506934460497	-28.0329169662934
801.2801	94.4778266014315	51.3200623177506	107.51654996152	-28.5106720941853
684.3433	98.6506088160034	55.0808753386893	112.98604094243	-29.1765006183289
582.9476	103.00046480024	59.2623491713718	118.832326318957	-29.9144015035219
497.0677	107.623271069621	63.761663691781	125.09323815646	-30.6447221570855
423.5089	112.681432293466	69.4218333033288	132.349900350934	-31.6367813906206
361.5036	118.05504531171	75.4762095598146	140.120133931805	-32.5920280858186
308.1262	123.80814753691	82.4183558677318	148.732117514884	-33.6514728856391
262.7298	129.719227872201	90.7531836631006	158.313670997638	-34.9771138770774
224.2111	137.052852101666	99.491423769377	169.357691507823	-35.9772002493224
191.2854	143.459258655798	109.691014347675	180.589804592322	-37.4020488829875
163.1722	151.906779680556	120.653967090064	193.992395437262	-38.4588236994827
139.1537	162.105279383522	133.60470918817	210.067465165992	-39.4948287959044
118.6706	170.972323325145	147.117649555251	225.555177625919	-40.7112181949672
101.1982	-444.139221622291	192.236074217213	483.956977854128	-156.595667945
86.24196	-419.515342225758	450.777956557776	615.787210391056	-132.942709654851
73.61024	-407.228599077322	265.038429460301	485.881159335553	-146.942532308416
62.69291	-408.548310525652	290.728397250903	501.432670456806	-144.563840726151
53.57697	-382.920093601084	271.029089278601	469.131714253738	-144.709314710334
45.65746	-386.204972534023	265.775523648235	468.818632074813	-145.46533252101
38.96512	-366.882328897448	274.757555697522	458.360510591927	-143.170521959952
33.18414	-380.67485101981	189.042534071694	425.029907050319	-153.591077267334
28.30617	-395.00034858008	245.926692380324	465.301207180372	-148.093661814613
24.17237	-313.568421292286	371.903484720179	486.453858838379	-130.135732120725
20.61345	-244.294449627536	557.35152142249	608.539642546633	-113.668466722429
17.55618	-12.2737921009097	468.650329095553	468.811024757212	-91.5002139668022
14.98558	-39.6199276147447	454.342853086338	456.067063944362	-94.9837400654181
12.76553	6.64259217417384	469.730971455722	469.777936450329	-89.1898189537167
10.8809	88.362087691326	488.673644238332	496.598216986672	-79.7505111662749
9.278505	172.870411451267	469.007230633414	499.851939619879	-69.7667215861203
7.923394	287.982686809939	414.275211266151	504.537390657903	-55.1949724614556
6.75822	257.365054230427	505.171762406831	566.952626479721	-63.0029548146009
5.761429	-123.641341472571	689.384174740776	700.383981615911	-100.167919491541
4.919708	722.146752676725	215.792070103989	753.698978320459	-16.6372104099097
4.191257	395.716437968599	405.685540541337	566.720616426536	-45.712698568957
3.564097	315.166351343108	470.101871168845	565.973142733272	-56.1612543237879
3.051758	-17.46750758256	825.542226978181	825.727002310837	-91.2121307874104
2.604164	678.491317958659	502.111791002129	844.077436737083	-36.5029806996021
2.214424	641.521645220653	433.929702240125	774.496615727155	-34.0746938905905
1.892567	554.808014102733	490.193894808701	740.33910272276	-41.4618158249004
1.607507	698.220438274367	446.379468548776	828.713708325099	-32.5911972970157
1.376413	636.409480695887	996.708327687665	1182.55846265694	-57.4413107930456
1.17375	923.993739182179	451.058358728102	1028.21110333742	-26.019858400991
1.001604	804.338626475102	375.68576088745	887.750199647083	-25.0360612188616
