EC-Lab ASCII FILE
freq/Hz	Re(Z)/Ohm	-Im(Z)/Ohm	|Z|/Ohm	Phase(Z)/deg
6999984	13.5242336633018	-11.610068311695	17.8241011661685	40.6449040597587
5969734	9.24104410020984	-2.07290622520983	9.47068298912685	12.6430299468055
5091109	12.6926108308973	-6.20679603470656	14.1289308413998	26.0590315254441
4341796	7.60817941060362	-3.10081638197013	8.21580526659604	22.1740167110462
3702781	6.39854905744021	-5.0791442077319	8.16940242143852	38.4424141882302
3157797	4.04830911284595	-5.15667945545954	6.55592477683431	51.865915784407
2693047	2.89121839888575	-4.14199220866463	5.05126155397778	55.0839561590711
2296687	2.38745218880865	-3.70731834307507	4.40955068581234	57.2191292192497
1958656	1.69003386797917	-3.3381295193684	3.74156693953153	63.1477412494305
1670375	1.40153513484473	-2.70002703199816	3.04211221156041	62.5669912282859
1424531	1.09941901233868	-2.41106399193053	2.64989655229704	65.4875289974062
1214875	1.0887433760777	-2.2235869633952	2.47582332219691	63.912066948135
1036062	0.783397158018364	-1.8110579575245	1.97323136826477	66.6084636278002
883578.1	0.674848235993117	-1.57379151678681	1.712378427782	66.7901485446362
753531.2	0.623466658428887	-1.34505118403238	1.48252263451166	65.1310346572758
642624.9	0.57779091097492	-1.16243000733484	1.29810856971122	63.5701257360009
548046.8	0.538675202643549	-1.01173071580935	1.14619806981829	61.9678492619176
467390.6	0.50911724064133	-0.876930336137129	1.01400551238927	59.8619428859143
398593.7	0.479345240862385	-0.76000982403037	0.898547045268133	57.7599899186973
339937.5	0.454584870048734	-0.659892458579013	0.801314832613674	55.4379294849029
289906.2	0.435754749304599	-0.572224802069099	0.719251990365361	52.7103753603385
247234.4	0.418480978193422	-0.495271898281862	0.648398474965389	49.8037948431076
210843.7	0.406302663902219	-0.427351087001592	0.589670082550813	46.4463194594205
179812.5	0.397019635490336	-0.367232097233178	0.540817902998003	42.7679647921483
153343.8	0.390557254509303	-0.319106195655611	0.504344855387305	39.2506628315094
130781.2	0.384282328706884	-0.276409970865374	0.47336601076776	35.7270411463903
111531.3	0.379548760624468	-0.240576257016246	0.449370890391797	32.3684886020483
95109.37	0.373070196200966	-0.209928526805079	0.428078681622874	29.3666824992666
81109.37	0.368038853646138	-0.180355536153319	0.409854507373427	26.1069250675391
69171.88	0.362973667599213	-0.158979119477367	0.396262846858272	23.6529754788835
59000	0.353112056846078	-0.135062145665515	0.37806071983458	20.9313973041224
50312.5	0.346484583422167	-0.104333059704185	0.361852116059129	16.7580414793249
42906.25	0.37977204011534	-0.103717686946645	0.393680277686004	15.2752668125719
36593.75	0.363739045178067	-0.0954218086807223	0.376047090879523	14.6995072538229
31203.13	0.365232999148088	-0.0890641158652851	0.375935580121877	13.7044285327074
26609.38	0.359856708339094	-0.0780746223864476	0.368228865242031	12.2411917267685
22703.13	0.359066698660001	-0.0691520919586112	0.365665018710902	10.9010377143795
19359.37	0.358651027351666	-0.0624038314084568	0.364039554986626	9.87041842123206
16500	0.361201056796459	-0.0559544285705517	0.365509372667154	8.80581700125538
14112.02	0.361862903863204	-0.0507214489022706	0.365400364765905	7.9790274437257
12011.13	0.360836876994487	-0.045758476134157	0.363726669268635	7.22722087284479
10236.38	0.357910122328858	-0.0408576012060291	0.360234644699492	6.51246748257499
8750.684	0.354669630938695	-0.0374310657425315	0.356639358165657	6.02457100170929
7449.463	0.352405059207996	-0.0292110115165972	0.353613643612932	4.73844003390764
6363.206	0.348977653894156	-0.0309749076733498	0.350349607995844	5.07222404591243
5414.761	0.346416028161807	-0.0282042182499157	0.347562285776939	4.65459453608378
4620.567	0.345104201271875	-0.0270395478648211	0.346161879594262	4.48007674830709
3941.215	0.342695678826656	-0.025249833914154	0.343624624261933	4.21394129021559
3361.769	0.34266391536943	-0.024099771849978	0.343510346131712	4.02302430442667
2867.244	0.340644339246853	-0.0238630507502232	0.341479151709197	4.00717686477114
2442.658	0.338934247206928	-0.0207739883407883	0.339570290987462	3.50739036374089
2083.003	0.336476213929715	-0.0214585754652826	0.337159773700058	3.6490633459117
1777.843	0.32965907202321	-0.0223052738390151	0.330412816047195	3.87082666051709
1513.548	0.333188936161761	-0.0210087830299278	0.333850619506696	3.60793242467265
1292.065	0.331308830450902	-0.0157455192372937	0.331682773913262	2.72094620231314
1101.762	0.329761224570684	-0.0205398751403011	0.330400290104498	3.56418423222543
939.101	0.330904417389148	-0.0156613592866673	0.331274827933481	2.70972711572668
801.2801	0.32924596881649	-0.0165886362186656	0.329663602530677	2.884335430835
684.3433	0.327729570892217	-0.0145473088130347	0.328052276064195	2.5415852022942
582.9476	0.325607673369399	-0.01389805331094	0.325904146710143	2.44409700641049
497.0677	0.32372950402273	-0.0144579108756801	0.32405219172487	2.55715704925027
423.5089	0.322717072980331	-0.0142670209017031	0.323032284885586	2.53134472762183
361.5036	0.321479890724938	-0.0141222819896501	0.321789929906318	2.51532769245895
308.1262	0.319490099590701	-0.0135229134792403	0.319776160658426	2.42368595791675
262.7298	0.318002842980951	-0.0131255912729567	0.318273607592951	2.36354601590864
224.2111	0.316841975003952	-0.0128918633315365	0.317104142616529	2.33000105587711
191.2854	0.314566333942773	-0.0132195757972651	0.314843986181181	2.40642560433843
163.1722	0.31420035557492	-0.0119722982799381	0.314428369218667	2.18214414022345
139.1537	0.312559899002812	-0.0119469545673977	0.312788139461975	2.18894686812504
118.6706	0.313039162118697	-0.0104628731471972	0.313213966378369	1.91431444593175
101.1982	0.314329221219048	-0.0117268828630942	0.314547896343082	2.13657967156567
86.24196	0.309957136220479	-0.0138888425409242	0.310268152154112	2.56564541898513
73.61024	0.290242980079002	-2.18600651334457E-05	0.290242980902213	0.0043153135669925
62.69291	0.826643490075619	-0.431550072719533	0.932510013323522	27.5668559070001
53.57697	0.323092794484357	0.0104327230345765	0.323261187830564	-1.8494481750716
45.65746	0.283229069595381	-0.00451849305156046	0.28326511017653	0.913990296201821
38.96512	0.313388062003895	-0.0129902346586112	0.313657175277472	2.37360600887554
33.18414	0.291183990377481	-0.00822263475988026	0.291300065181158	1.61752402692737
28.30617	0.319150406209744	-0.0313843198627488	0.320689814800988	5.61624288872679
24.17237	0.316252487082653	-0.00855722007735725	0.316368237346001	1.5499419361183
20.61345	0.290127047162853	0.000195205978497471	0.290127112832996	-0.0385502734931636
17.55618	0.287232034948323	0.0105348935415199	0.287425165708374	-2.10051255131998
14.98558	0.396843826362281	-0.112633688501715	0.412518327238146	15.8451993905445
12.76553	2129.66423374224	-3096.18516804668	3757.90265218688	55.4784490601746
10.8809	0.294751493297526	-0.00932254475095341	0.294898885453565	1.81157509185566
9.278505	0.381731684380271	0.0410419679927639	0.383931663185674	-6.13659570981327
7.923394	0.303283067592325	0.0659281848102954	0.310366146092952	-12.2642475484445
6.75822	0.38789950896106	-0.0396032757715536	0.389915950563796	5.82951324993495
5.761429	0.321509732476484	-0.0437417952276257	0.324471651653632	7.74759260153851
4.919708	0.295312992214025	-0.0251527675358975	0.296382228018341	4.86831810690789
4.191257	0.357490055646025	0.0484476401715181	0.360757971116352	-7.7177987961917
3.564097	0.287548424940114	-0.0256751859789131	0.288692417393655	5.10240631664434
3.051758	0.296263800512666	0.0121533239688533	0.296512972359897	-2.34906851834127
2.604164	0.274170127472601	-0.0311067420268407	0.275929136188745	6.47297350175662
2.214424	0.290696784796866	-0.0158361999644756	0.29112781715348	3.11820247886253
1.892567	0.279283981057582	-0.0107409028274101	0.279490445398264	2.2024365864536
1.607507	0.297875958457868	-0.0211053149710698	0.298622706683905	4.05278774301033
1.376413	0.293479744854589	0.0170842754673235	0.293976585986296	-3.33158743162971
1.17375	0.286795864180083	-0.0361497426571257	0.289065168439536	7.18407142129349
1.001604	0.270600273863888	0.0177046860204814	0.271178841582995	-3.74338136631496
