EC-Lab ASCII FILE
freq/Hz	Re(Z)/Ohm	-Im(Z)/Ohm	|Z|/Ohm	Phase(Z)/deg
6999984	24.9408818357328	88.0443299191367	91.5087515905106	-74.1838251161224
5969734	23.2878843724643	87.2966280497159	90.3494705429739	-75.0632007400892
5091109	21.5705767043996	91.6718015524629	94.1754160024501	-76.7590412221174
4341796	22.1757353270464	99.8981808877092	102.329906586338	-77.4842339034144
3702781	26.4006016095148	109.44466195409	112.583861168417	-76.4380129695056
3157797	28.5956485624266	120.532721470904	123.878359941873	-76.6536742835928
2693047	31.3528111164605	135.469210259708	139.050011482536	-76.9689729582533
2296687	37.5020192439981	154.493124061216	158.979642814957	-76.3557935259043
1958656	44.8910822207019	174.990382029242	180.656699476343	-75.6119224204859
1670375	53.9713949253891	198.932892229112	206.124251559179	-74.8207822969693
1424531	65.4911253036485	225.874609760551	235.177436902478	-73.8307685227627
1214875	79.9916321074457	256.778915248112	268.949944270696	-72.6971715250964
1036062	94.7201376895991	286.784222037942	302.02167884747	-71.7224557240199
883578.1	109.660837251365	326.667223450285	344.582318326679	-71.4433106862321
753531.2	137.359489895103	366.932852624028	391.800137568951	-69.4768622375636
642624.9	175.176744692615	418.844561722482	454.001826830686	-67.3034614332939
548046.8	214.329847236757	465.041721043106	512.055744745888	-65.2558248650553
467390.6	333.876195617207	546.638997200614	640.53688985125	-58.5842470027725
398593.7	394.372069728868	589.824752920697	709.522775208937	-56.2322896312282
339937.5	462.262338688973	633.495616454054	784.221375529066	-53.8817360062819
289906.2	537.154560838841	675.706187878552	863.199788326743	-51.5169558392826
247234.4	620.443116905926	714.837358107768	946.542185991958	-49.0436517363075
210843.7	711.087218918292	750.272348595324	1033.70867751785	-46.5359701656246
179812.5	810.551705286773	780.425710979557	1125.1925867607	-43.9152039149167
153343.8	915.999936947762	798.676552949076	1215.29425273015	-41.0857492464883
130781.2	1025.78580919255	809.2527308915	1306.57051428393	-38.2702632891052
111531.3	1138.1182181141	807.474363036285	1395.46692019699	-35.3550139204339
95109.37	1247.84328164419	793.700270471362	1478.87557789384	-32.4587122660476
81109.37	1350.10299285331	767.198026760072	1552.85894516405	-29.6074680126704
69171.88	1452.71631498639	731.954642846024	1626.69674217768	-26.7413612340874
59000	1543.61914616911	691.158160294701	1691.28935163733	-24.1205319580221
50312.5	1623.69835531034	647.08517917943	1747.88889182098	-21.728542025332
42906.25	1696.46122278839	588.892124187574	1795.76574595765	-19.1434080199033
36593.75	1756.28525536517	537.771246683485	1836.77320646088	-17.0244897723725
31203.13	1797.21876381089	495.320567756047	1864.22577759136	-15.4084164745824
26609.38	1830.89164561199	444.890858287624	1884.16880712946	-13.6576809062027
22703.13	1873.00171487006	404.425106127013	1916.16676997907	-12.1844459867387
19359.37	1899.18646931343	371.187011495269	1935.11990396616	-11.0587844545349
16500	1921.77538527811	334.744495232443	1950.71128272466	-9.88093219677271
14112.02	1931.64308574496	308.463518842064	1956.1172646758	-9.07294138450127
12011.13	1952.64757875312	297.834433600629	1975.23110461754	-8.67239804908121
10236.38	1961.92909626343	276.124617219883	1981.26489470739	-8.01126777885771
8750.684	1982.67551447095	269.398526078664	2000.8942404675	-7.73774918661816
7449.463	1991.8156050038	258.166782121008	2008.47690843768	-7.38515095949465
6363.206	2004.72473773408	251.485903139262	2020.4371887195	-7.15020961560125
5414.761	2015.43258333146	256.851991783686	2031.73360548015	-7.26277290403266
4620.567	2031.88611446531	260.60157092987	2048.52980474486	-7.30862671637698
3941.215	2044.03764925848	269.666645618279	2061.74926005689	-7.51553896493257
3361.769	2059.17916468377	292.892387202894	2079.9049936834	-8.09530349866955
2867.244	2071.39644798914	302.58616651137	2093.38043195833	-8.31089032824342
2442.658	2083.87266769808	327.520366646041	2109.45369367215	-8.93205679225655
2083.003	2100.71494309523	353.422129268416	2130.23718716959	-9.54995166725949
1777.843	2115.42123479903	384.96274926163	2150.16355632722	-10.3137788926822
1513.548	2135.91246838667	425.467965830899	2177.8762734733	-11.2657024326685
1292.065	2157.48739665461	463.141231710575	2206.638091585	-12.1156394851215
1101.762	2180.09762425409	514.293342395183	2239.93823426235	-13.2736158369706
939.101	2203.8844780072	570.737291829679	2276.58688581968	-14.5188593905961
801.2801	2228.61847824304	641.742716267671	2319.17529209177	-16.0640406203947
684.3433	2257.06851098275	717.028182933605	2368.22458360497	-17.624072916243
582.9476	2286.96112347728	804.102989714773	2424.20560150427	-19.371840563244
497.0677	2320.36578393333	907.203206362508	2491.40824211589	-21.3542172386171
423.5089	2356.65968654738	1018.87061162261	2567.47778986028	-23.3806028022342
361.5036	2396.88176645424	1151.18641409136	2658.99837577034	-25.6542769502298
308.1262	2447.24471579041	1303.86524854267	2772.91746817704	-28.0482034802675
262.7298	2498.48237032252	1481.04206373029	2904.46204129972	-30.6584731441686
224.2111	2553.61777802926	1679.69478800305	3056.52389768372	-33.3357444926323
191.2854	2617.08835349542	1904.87277901597	3236.92628186639	-36.0493585540411
163.1722	2686.50397186435	2169.94625382862	3453.3998226889	-38.9285459590869
139.1537	2766.1343378097	2472.85652453052	3710.32593793633	-41.7959361631309
118.6706	2848.34994088428	2808.70542069364	4000.24043352013	-44.598479003922
101.1982	2961.9382481373	3218.44157131353	4373.95065515579	-47.3765737355949
86.24196	3081.26561588362	3677.47796711264	4797.71216250262	-50.0412113646759
73.61024	3217.39037594301	4199.25756434022	5290.11955657707	-52.5413585403529
62.69291	3377.25984935976	4801.92669591322	5870.63745116504	-54.8807624066059
53.57697	3558.27434899885	5474.56287960233	6529.33036884051	-56.9775415649328
45.65746	3772.86463660408	6260.64749141773	7309.59742926604	-58.9255006655524
38.96512	4021.47795745483	7146.70373684695	8200.4670150277	-60.6333732612784
33.18414	4307.71716582138	8184.91288363787	9249.28246370784	-62.2421814542262
28.30617	4633.38060808125	9332.77383168938	10419.6393053123	-63.5972839354901
24.17237	5030.40855956166	10653.4618497407	11781.3946398545	-64.7240054396149
20.61345	5474.958961458	12161.5573492342	13337.1156097697	-65.7634081757617
17.55618	6024.18640953799	13894.4082106519	15144.1540345142	-66.5599341025526
14.98558	6640.86515736196	15836.4473366676	17172.4824729947	-67.2497179921106
12.76553	7371.58898855652	18069.9717169684	19515.7424165274	-67.8071486309934
10.8809	8213.16810107841	20597.5262385753	22174.6300398759	-68.2605874300599
9.278505	9219.09424535609	23451.6441609654	25198.6371170605	-68.5396751720681
7.923394	10372.3954345177	26622.6806065173	28571.9042019715	-68.7137397502289
6.75822	11706.7059213243	30251.2490823179	32437.4017851123	-68.8444314232982
5.761429	13235.8396357433	34352.8312075733	36814.4599694079	-68.9287708107415
4.919708	15013.8524954004	38961.634426581	41754.3377859617	-68.9258487259863
4.191257	17219.2307103238	44114.1745558843	47355.6997942422	-68.6776434091356
3.564097	19621.8044962404	50135.0664414346	53838.0915224132	-68.6256761371173
3.051758	22399.1048212165	56458.643321852	60739.5941913999	-68.3600529032946
2.604164	25604.9157817814	63651.8810520474	68608.8454476252	-68.0868093307967
2.214424	29557.9193834566	71925.8124273938	77762.4143890836	-67.6597838860857
1.892567	33726.0016554963	80919.7913526084	87666.7315474702	-67.3744509041106
1.607507	38836.0396108223	91177.0617994767	99103.4538804725	-66.9288616268373
1.376413	44378.6792547506	102113.131195862	111339.8344485	-66.5100867743762
1.17375	50795.1107844395	114499.650555143	125260.980583953	-66.0766442023597
1.001604	58207.2929051945	128193.214633517	140789.165866647	-65.5791449488477
