EC-Lab ASCII FILE
freq/Hz	Re(Z)/Ohm	-Im(Z)/Ohm	|Z|/Ohm	Phase(Z)/deg
6999984	42.0330315387162	67.5348659624138	79.5470543822705	-58.1022749055085
5969734	42.4058482120284	63.4029710455043	76.277078470394	-56.2241822784271
5091109	45.2710319689557	61.1367985099992	76.0734807116544	-53.4805165806636
4341796	51.1588410920673	60.8563866427589	79.5029987931044	-49.9479567539405
3702781	57.657300101723	56.9873363451985	81.067384062525	-44.6651770208532
3157797	62.6962793150905	54.4002978909003	83.0073240779061	-40.947517448835
2693047	69.1598139627073	52.3862457067528	86.7605821015775	-37.1427109961775
2296687	75.167836328202	49.9072760414587	90.2271567774454	-33.5819559163559
1958656	80.6983587171093	46.2414965069077	93.0080700736964	-29.8134234217081
1670375	85.7163462618836	42.7139229197629	95.769364765997	-26.4878617872098
1424531	90.0074853238139	38.7304005005974	97.986689592277	-23.2823061629016
1214875	93.4180002287753	34.70554701304	99.6563984911043	-20.3804410883246
1036062	96.123173611146	31.0645891663618	101.018182547269	-17.9095262193552
883578.1	98.3435558760876	27.7647307077331	102.187745124482	-15.7656384711126
753531.2	100.051980852434	24.747082979918	103.067050935354	-13.8928342444803
642624.9	101.517704645631	22.0651556019372	103.887994726317	-12.26266618493
548046.8	102.74349959768	19.7940502068213	104.632839649742	-10.9047161034243
467390.6	103.686639511507	17.6711166348837	105.181688407787	-9.67188281564128
398593.7	104.36470874075	15.9393764267524	105.574884093781	-8.68354780777446
339937.5	105.068804354965	14.5414737898255	106.070297956412	-7.87965364373821
289906.2	105.579562722467	13.4456895464129	106.432281907539	-7.25762201345443
247234.4	106.02568496884	12.5799176020731	106.769378568889	-6.76649405062419
210843.7	106.526189077169	11.9749232147512	107.197144296404	-6.41386144603297
179812.5	106.713299966418	11.5367596511256	107.335107085104	-6.17027416901106
153343.8	107.306667518101	11.3747183752379	107.907854727801	-6.05086976450579
130781.2	107.716707397401	11.3866826708927	108.316875854065	-6.03429982507061
111531.3	108.157650631047	11.6533209462093	108.783625969642	-6.14954455598322
95109.37	108.628398131647	12.1369166281041	109.304316593102	-6.37514668781598
81109.37	109.53459755821	13.3454497656801	110.344592489561	-6.946551767322
69171.88	109.616095209243	13.6592308854304	110.463853442216	-7.10299789328247
59000	110.254554772975	14.7543242574812	111.237389993122	-7.62206900778124
50312.5	110.821373216927	16.1366199458247	111.990031989286	-8.28457437671306
42906.25	111.548879146101	17.6974717680223	112.944025719519	-9.01496378521198
36593.75	112.329107026904	19.5955279936217	114.025492776004	-9.89552543181469
31203.13	113.590952247215	22.0332821755528	115.708123983827	-10.9773671518469
26609.38	114.224897566598	24.3404420585112	116.789487299601	-12.0293635003307
22703.13	115.315081860665	27.248896867456	118.490803377415	-13.2950902951321
19359.37	116.622353363097	30.6785443058196	120.589992887765	-14.7382563895076
16500	117.988752555516	34.4688784652817	122.920499967504	-16.2850361715546
14112.02	119.548764815213	38.7332228495604	125.666899862919	-17.9520740652216
12011.13	121.349091767425	43.7396227237806	128.99130462476	-19.8214233563493
10236.38	123.315469330665	49.4218285011375	132.850374890845	-21.8397072967432
8750.684	125.469319520531	55.7850541292317	137.311770817896	-23.9704628523214
7449.463	127.967706546102	63.1621842148023	142.706676204913	-26.2699831264554
6363.206	130.732425190936	71.374760887756	148.947384965591	-28.6328037777954
5414.761	133.849532076348	80.9766151414474	156.438196860049	-31.1732012385803
4620.567	137.376759855553	91.6875680126895	165.163507702192	-33.7198152914423
3941.215	141.460813672555	104.035482749038	175.597675029389	-36.3321304146721
3361.769	145.799802867994	118.036201591283	187.590317986947	-38.9928432828565
2867.244	150.731639354934	134.008224804297	201.688451374453	-41.6387509216147
2442.658	156.494864009935	152.197842281759	218.299852626408	-44.2024906829732
2083.003	162.943643992391	173.047015916987	237.688663665924	-46.7223877138484
1777.843	169.98538968708	196.497907183983	259.82005356545	-49.1377428654239
1513.548	178.320288891162	223.932178831098	286.258180924616	-51.4692055366364
1292.065	187.814707506177	254.149669932088	316.016485459572	-53.5358757628292
1101.762	198.55882972707	288.188256292334	349.968684209601	-55.4335463577702
939.101	210.275556756472	328.817566381136	390.303473889302	-57.401490226284
801.2801	224.421313855618	374.127250601671	436.275286665939	-59.0424413515386
684.3433	240.246261194003	425.449242504061	488.595255774119	-60.5470858173317
582.9476	258.927610240088	484.737198915528	549.557694293434	-61.890614551134
497.0677	279.514002523014	551.608588547017	618.385084365129	-63.1275158392624
423.5089	303.990111394081	628.351999630023	698.023082185994	-64.1827895063343
361.5036	331.647457769235	715.557217558408	788.677480244446	-65.1331546011178
308.1262	364.022291733056	814.155555071408	891.83041926827	-65.9097988924177
262.7298	401.191789494819	926.181337402513	1009.339745433	-66.579300076028
224.2111	444.439910598641	1052.98568801863	1142.93730943784	-67.1165626005222
191.2854	493.894492432531	1196.45526816199	1294.38671901707	-67.5692565544551
163.1722	553.780313470818	1360.42891260074	1468.82247457883	-67.8505788318643
139.1537	618.852980196578	1543.13052339648	1662.59761317527	-68.1473709697421
118.6706	696.93769073766	1751.44495326854	1885.01500500674	-68.3013247292937
101.1982	786.731022540876	1987.17064539511	2137.23954571036	-68.4011339772055
86.24196	892.330509225451	2255.05946559318	2425.19008142784	-68.4112180343998
73.61024	1012.33194361567	2552.06150836009	2745.51159285804	-68.3631468753883
62.69291	1151.09283449896	2888.20539245029	3109.13896482833	-68.2702704167976
53.57697	1310.1113405963	3258.72917545808	3512.22259598402	-68.0983257824789
45.65746	1494.07965523919	3680.66165699951	3972.34744823587	-67.9064422168896
38.96512	1703.99836960931	4146.74440580059	4483.20193730661	-67.661044393235
33.18414	1946.12878061022	4674.14216959429	5063.10401357695	-67.3950773847353
28.30617	2224.88766978818	5272.6364897978	5722.83327528618	-67.1217765164579
24.17237	2524.9031967242	5902.69380307801	6420.04129937835	-66.8409699010643
20.61345	2877.4657147566	6634.02201336664	7231.18641810822	-66.5515116229642
17.55618	3275.28859284869	7445.30291749762	8133.88289193687	-66.2546621893069
14.98558	3713.34133442475	8346.69550440387	9135.43812354849	-66.0163117465325
12.76553	4220.75305765265	9353.33500739352	10261.5609014524	-65.7124149319951
10.8809	4790.54413306619	10497.5135144495	11538.9385593695	-65.4703975593318
9.278505	5412.89012971881	11748.6551061431	12935.6204474123	-65.2633306121715
7.923394	6112.42310665655	13145.3516466042	14496.9647218882	-65.0621651303011
6.75822	6926.7422580154	14721.1711237265	16269.3772948757	-64.8016412208551
5.761429	7844.03447208276	16473.4435107183	18245.6355849844	-64.5379660435359
4.919708	8838.93333308341	18391.9347042617	20405.6365897395	-64.3316439415093
4.191257	9961.01090565491	20627.0043148677	22906.2228503118	-64.2235841013477
3.564097	11312.5665898002	23084.7863845789	25707.6160946577	-63.8931020451162
3.051758	12693.416963507	25730.0769104027	28690.759697587	-63.7414974125246
2.604164	14363.602707041	28735.3429607927	32125.2707039193	-63.4414394152146
2.214424	16244.8976082221	32178.2117034891	36046.2759066202	-63.213459508532
1.892567	18284.8593064933	35781.4886765811	40182.7203132212	-62.9323091184613
1.607507	20718.2939716498	40040.2618610829	45082.9266463457	-62.6413038543144
1.376413	23242.5654929526	44512.0958486099	50214.9731407876	-62.4281062587462
1.17375	26193.353214757	49542.3175610692	56040.4584381217	-62.1342935014031
1.001604	29531.7028776573	55138.9387106827	62549.3727945745	-61.827073531654
