EC-Lab ASCII FILE
freq/Hz	Re(Z)/Ohm	-Im(Z)/Ohm	|Z|/Ohm	Phase(Z)/deg
6999984	-10.7043591291864	30.7234518828373	32.5348090506709	-109.208849724029
5969734	-6.24531248672835	35.630210407156	36.1734131886264	-99.9418876413622
5091109	-2.44971023938704	38.2396217160127	38.3180081585761	-93.6654787703811
4341796	1.46039373063901	40.6763852322504	40.7025928585751	-87.9438076366457
3702781	5.13065053863595	43.2487497693309	43.5520140930337	-83.2345529269064
3157797	9.17545585256065	46.232313314923	47.1340193973684	-78.7747067453876
2693047	13.8932847074773	49.8488724014554	51.7487530251657	-74.4264154465807
2296687	5.81635455813481	43.5924464356813	43.9787604031046	-82.4001544898574
1958656	10.3742885642475	47.7057219456983	48.820710457495	-77.7312360088953
1670375	15.9075816767407	51.866516341896	54.2511444325955	-72.9491010676154
1424531	22.0072562697096	55.7346820358613	59.9222338548825	-68.4530439534444
1214875	28.9140710364184	59.1911559746199	65.8757652669844	-63.9651228399641
1036062	36.5214171448123	62.2987343729079	72.2145845015501	-59.6198682174715
883578.1	44.5922123702578	64.6300518904402	78.5207552907839	-55.3958400052726
753531.2	52.9651227942341	66.2723527750374	84.8370731163405	-51.3680154604383
642624.9	61.5407822989731	67.2539217520852	91.1611643025976	-47.539889625519
548046.8	70.0553199490927	67.4314293441518	97.2355157160443	-43.9066611141913
467390.6	78.304615842434	67.1458523246837	103.151240160453	-40.6129387443684
398593.7	86.2998462254	66.2587009926626	108.802017057418	-37.5160846729524
339937.5	93.9112877823527	65.0811046191676	114.257954433776	-34.7221992244458
289906.2	101.007662568953	63.5883815253653	119.35673488605	-32.1920634377717
247234.4	107.658527001443	62.0290655356657	124.249601236174	-29.9490368022376
210843.7	113.910000908295	60.470636361187	128.965833339124	-27.9621910560624
179812.5	119.553255069146	59.1050045874643	133.365596631637	-26.306973281709
153343.8	125.0598429701	57.5855497852815	137.681007650944	-24.7243664487325
130781.2	130.05228580421	56.4784636019603	141.786508151297	-23.4741037848216
111531.3	134.720050595308	55.7194304290656	145.788020631813	-22.4697030403794
95109.37	139.080418000109	55.3125967736562	149.675803097662	-21.68782764441
81109.37	143.252208922926	55.7391947098626	153.714193190485	-21.2609282504139
69171.88	147.364645218234	55.9067894955575	157.613158625784	-20.7756043500483
59000	151.289991358244	56.8236586466594	161.60937369834	-20.5858922945026
50312.5	156.202770328761	57.9808495381749	166.616578921631	-20.3644039996388
42906.25	155.587942745736	59.6464318204332	166.629243402111	-20.9749019895066
36593.75	160.332690762665	64.2157846175006	172.714326913657	-21.8268845012882
31203.13	164.284253173718	68.2311686538488	177.889876656082	-22.5542773405186
26609.38	168.246051020719	73.46822875279	183.587347930457	-23.5895146734948
22703.13	172.114061656682	79.4283079526321	189.557659629408	-24.7726839795959
19359.37	176.218603216651	86.5764585063259	196.337666501171	-26.1649542330299
16500	180.621214754857	95.0256896837774	204.092883068954	-27.7490736745856
14112.02	185.048115430359	104.57910326749	212.554919643277	-29.4727656350351
12011.13	190.186892509171	116.111777102782	222.829528708071	-31.4046532695013
10236.38	195.604691640502	129.392603103386	234.528550777184	-33.4846562235868
8750.684	201.656091069427	144.258141444944	247.942716042538	-35.5786851844971
7449.463	208.483191421948	161.708574337033	263.84636461319	-37.7987018349787
6363.206	216.424900579751	181.093725277035	282.196163910265	-39.9209375081432
5414.761	224.994617016681	203.358888368762	303.277785479025	-42.1085018291086
4620.567	235.179668804984	223.172602486434	324.215186442261	-43.4994141725682
3941.215	254.96769063403	263.117235855901	366.38668517251	-45.9011959539771
3361.769	8.83037095540032	578.30074502252	578.368158826895	-89.1251893144259
2867.244	33.5289989754123	653.46848716725	654.328096212403	-87.062770435073
2442.658	118.336740982864	724.630746435252	734.229734446757	-80.7251123757924
2083.003	187.908563375871	764.238453722694	787.000662222363	-76.1863126101046
1777.843	264.913686791498	845.96894665179	886.477704259167	-72.612144588299
1513.548	335.93554252335	883.273880369134	945.000230937964	-69.1766896486946
1292.065	423.464451927175	945.111952091866	1035.64412035838	-65.8648790012794
1101.762	660.863285124828	966.247124373396	1170.62965406906	-55.6298818054277
939.101	597.060611640643	995.017959978746	1160.40601284764	-59.0341334635092
801.2801	700.361511620932	1115.67460890093	1317.28359889061	-57.8815715628241
684.3433	921.847705099085	940.546654691296	1316.97805640316	-45.5752459939051
582.9476	782.412134465638	1190.77259866756	1424.81863052691	-56.6925810055245
497.0677	858.760278447206	1077.18960295821	1377.60903617825	-51.4373433536492
423.5089	1180.92632308541	1121.85696739976	1628.84929808113	-43.5306117245131
361.5036	1150.68874640657	1120.8022340671	1606.32569518031	-44.2461901740079
308.1262	1369.03027242958	1064.14282167259	1733.96765591112	-37.8578081611244
262.7298	1483.18385409143	1083.38355901251	1836.72379006102	-36.1460566411254
224.2111	1503.27226100462	1176.82167284882	1909.11936253149	-38.0552608764823
191.2854	1579.68747574936	1081.19619586762	1914.26166837191	-34.3891732356039
163.1722	1727.29086840978	1039.35217469468	2015.88359959953	-31.0363273509015
139.1537	1791.31492152696	1026.62231606778	2064.64586017397	-29.8174971516315
118.6706	1847.92868523136	956.397758958458	2080.75397369359	-27.3638798784971
101.1982	1920.85059658011	971.397533167859	2152.50555906989	-26.8262793089038
86.24196	2041.45038139867	858.606129618407	2214.66118075228	-22.8109567031593
73.61024	2077.8286291693	1207.68914743791	2403.30707339593	-30.1662909389953
62.69291	2084.5750674334	758.583876719506	2218.31077844917	-19.9966166613664
53.57697	2087.96629257725	651.972529637999	2187.38917852799	-17.3411005203838
45.65746	2307.61837347552	723.860512338831	2418.48642727745	-17.4157511915114
38.96512	2341.55686237262	681.697332779736	2438.77013948492	-16.2318599585885
33.18414	2265.74537037846	701.057909305581	2371.72601191439	-17.1929049866732
28.30617	2267.86730636279	603.812755370382	2346.87280499331	-14.9089634349889
24.17237	2569.8730086394	565.414348441167	2631.33818920268	-12.4083177860302
20.61345	2465.35139883552	466.111229517762	2509.02714174694	-10.706243523191
17.55618	2576.05003087143	503.120297568027	2624.72166055329	-11.0511469271259
14.98558	2572.92476741203	444.271128747917	2610.99955852183	-9.79675323751209
12.76553	2596.58234965056	634.145847459248	2672.89746424486	-13.7243101681985
10.8809	1174.77504580429	-494.382069439951	1274.56268532708	22.8228799548759
9.278505	2654.69466642068	164.297026182903	2659.77391609417	-3.54147505001542
7.923394	2863.36373218254	190.275832816267	2869.67885926844	-3.80182134254492
6.75822	472.516095658277	683.748956148829	831.134222427855	-55.3529426551512
5.761429	2574.76975699292	302.308374888681	2592.45629761684	-6.69654163341667
4.919708	2680.23893151925	469.56731668755	2721.0612258699	-9.937145086053
4.191257	2675.28076458391	-55.2600829656193	2675.85142452305	1.18332228583235
3.564097	2686.96012658468	272.299231014191	2700.72242058803	-5.78665600685916
3.051758	2670.49719605401	86.1479514686009	2671.8863642892	-1.8476720059067
2.604164	2756.41949225509	221.731010579991	2765.32331895144	-4.59906575841088
2.214424	2803.67947559187	-10.6902938007532	2803.69985630357	0.218464968466156
1.892567	2685.32648244712	236.379841199042	2695.71024901734	-5.03057918153115
1.607507	2584.3467167165	127.735732174394	2587.50156898069	-2.82963858788064
1.376413	2647.99149057833	304.97265561387	2665.49568651826	-6.56988358322505
1.17375	2625.74511903111	158.731434417391	2630.5385567195	-3.45943207741505
1.001604	2867.19469736852	350.054796484028	2888.48468806044	-6.96077257979715
