EC-Lab ASCII FILE
freq/Hz	Re(Z)/Ohm	-Im(Z)/Ohm	|Z|/Ohm	Phase(Z)/deg
6999984	27.6173964974864	1.01205386897785	27.6359338965248	-2.09869455623603
5969734	17.9772530539547	-9.27679242745676	20.2296936483982	27.2950676473019
5091109	11.4013885831349	-4.49602009550623	12.2558499632965	21.5212860020993
4341796	8.19973326138754	-5.55752620204396	9.90564097089685	34.1282081486557
3702781	5.79369650052794	-4.99630707663727	7.65049041201186	40.773481518564
3157797	4.28167585612937	-5.13504865581037	6.68591600564209	50.178176925602
2693047	2.60276590104289	-4.43228236124522	5.13999195188447	59.5772974532933
2296687	2.53681051795177	-3.56350558825435	4.37424046909983	54.5534602661374
1958656	1.76741632846295	-3.3225826407212	3.76341811157614	61.9896789539121
1670375	1.38899634562514	-2.90812854408535	3.22281282067141	64.4696694743563
1424531	1.19381188230973	-2.48655767068446	2.75828857445765	64.3540465912989
1214875	0.953615062310512	-2.51238568440577	2.68727808651664	69.2149632294093
1036062	0.897205357131269	-1.86459042826854	2.06922084806231	64.304027375784
883578.1	0.780602232141401	-1.60413142416278	1.78397799056228	64.0515248754699
753531.2	0.712189940806517	-1.38315862369793	1.55574493092407	62.7560100048996
642624.9	0.647185092631037	-1.19559228902483	1.35951810054132	61.5729094537339
548046.8	0.611290088565195	-1.0423432215028	1.20836872013094	59.6101852307338
467390.6	0.582149431997117	-0.903376168932292	1.07470296536734	57.2016482769203
398593.7	0.548924517980885	-0.784740061489493	0.957671702906106	55.0272677148209
339937.5	0.522357099007671	-0.683214459674322	0.860022637371707	52.5999893115286
289906.2	0.501633647471304	-0.592548065421799	0.776369452071938	49.749736275137
247234.4	0.481556135892284	-0.514702048520481	0.70485070104717	46.9055508617958
210843.7	0.465552065334985	-0.443158661467604	0.642750592976334	43.5883429519505
179812.5	0.449404479474438	-0.384139267465312	0.591208392176969	40.522961452221
153343.8	0.451246961363617	-0.329211069761559	0.558572957270084	36.1129396805668
130781.2	0.432929861283341	-0.277895154083074	0.514445314347083	32.6961688946616
111531.3	0.43823591992424	-0.248631818389345	0.503853651993748	29.5682776994834
95109.37	0.424886778514613	-0.217259194104232	0.477210993145953	27.0822195559887
81109.37	0.415120351391912	-0.191576497434429	0.45719411687924	24.7731480754099
69171.88	0.407921582052915	-0.165584011085731	0.440247750513041	22.0932754985563
59000	0.398239647537848	-0.140429688823983	0.42227398022406	19.4239797226009
50312.5	0.393863517561564	-0.105816021960092	0.407830235477247	15.0380794741216
42906.25	0.421882050685276	-0.113729229669415	0.436942561867818	15.0869241261565
36593.75	0.406088632657705	-0.102034221222833	0.418711069682131	14.1042212934159
31203.13	0.399706761501397	-0.0893682610348647	0.409575611176167	12.6031692729983
26609.38	0.43950700018463	-0.0562056406779864	0.443086309036191	7.28762208360748
22703.13	0.405632627711106	-0.0889313329216628	0.415266914934287	12.3659360979244
19359.37	0.360157961648826	-0.0502858322227502	0.363651512112038	7.94834555379644
16500	0.38680641318258	-0.0424197438946509	0.389125475844567	6.25842372579193
14112.02	0.380163501169472	-0.0291761452313262	0.38128143814247	4.38863669490878
12011.13	0.380321083340075	-0.0448542677639475	0.382956958116194	6.72627241340601
10236.38	0.377896617732547	-0.0408185270866118	0.380094732727539	6.16490555447068
8750.684	0.375414837618031	-0.0368880060648178	0.377222779395957	5.61182996778869
7449.463	0.392914688318598	-0.579580011800801	0.700210641432646	55.8654763212075
6363.206	0.528811338225308	-0.27824968726648	0.597548592082296	27.7524254776871
5414.761	0.370077232454929	-0.0273619574530149	0.371087368010769	4.22851561765034
4620.567	0.367808119529615	-0.0257284790928864	0.368706885517948	4.0013687916019
3941.215	0.367821115351226	-0.0228277870199821	0.368528805873366	3.55134711282553
3361.769	0.368118715624652	-0.0193580020879959	0.368627347110849	3.01020050743816
2867.244	0.365944538381225	-0.0178714943251254	0.366380670178519	2.79591085431246
2442.658	0.361281530767733	-0.0180124272907569	0.361730275220061	2.85423452011001
2083.003	0.350472658714141	-0.0186061100960026	0.350966197573304	3.03890110931186
1777.843	0.345909817036559	-0.0172088552518202	0.346337618836511	2.84809069367282
1513.548	0.342949903232836	-0.0161532060451657	0.343330106738324	2.69668258560494
1292.065	0.341262745436413	-0.0164625755783764	0.341659593480809	2.761817573671
1101.762	0.345860728438082	-0.0151146287588109	0.346190836791266	2.5023186857205
939.101	0.336344391593911	-0.0193287826876965	0.336899319674092	3.28901265674693
801.2801	0.334550329722835	-0.0137622565675441	0.334833276159178	2.35562430143316
684.3433	0.251589458811632	0.139170119786226	0.287516222197013	-28.9497697596397
582.9476	0.331672856314018	-0.0143427566082913	0.331982828294814	2.4761379522298
497.0677	0.332104415596566	-0.0131852894619339	0.332366055301879	2.27357674517042
423.5089	0.332480938652733	-0.0125645191655879	0.332718261761006	2.16418878883964
361.5036	0.322914658854072	-0.00890371440309132	0.323037386432304	1.57941431214204
308.1262	0.325223784893582	-0.0113341721277008	0.32542122505812	1.995971817936
262.7298	0.325071758409771	-0.0125697266394646	0.325314687869163	2.21438390239766
224.2111	0.324221611158433	-0.011308552725969	0.324418767192847	1.99761448793464
191.2854	0.323589522978716	-0.00972717529526804	0.323735690526729	1.72180578338795
163.1722	0.325219879136769	-0.0131851719878009	0.325487048200204	2.32163300727923
139.1537	0.319155230740263	-0.0114243743421915	0.319359636832805	2.0500653363321
118.6706	0.318730618340607	-0.0157673533554298	0.319120379323572	2.83206850188979
101.1982	0.321735745015113	-0.0123945320049186	0.321974399671854	2.20616883353108
86.24196	0.315609765841512	-0.00343397290793257	0.315628446855581	0.623378654060131
73.61024	0.299840802523543	-0.0261011918102061	0.300974715004226	4.97506587371872
62.69291	0.223365900839585	-0.0908743429507536	0.241144089424996	22.1384933277481
53.57697	0.313262077680707	-0.00928210790543802	0.313399564198806	1.69720526749621
45.65746	0.322449695063131	0.0131943787797051	0.322719533771491	-2.34318939840543
38.96512	0.295910214596214	-0.0150708249433285	0.296293747599996	2.9155776734879
33.18414	0.320773696878855	-0.0231811214015275	0.321610212833423	4.13336738140193
28.30617	0.363433237237057	-0.0575247170025802	0.367957621194118	8.9942399017621
24.17237	0.321650560608588	-0.00721001707347569	0.321731359189649	1.28410899974264
20.61345	0.19217205770515	0.0498007293201902	0.198520055418727	-14.528404867463
17.55618	0.185023329547344	0.0471991413271056	0.190948661736083	-14.3108413334959
14.98558	-0.00020462824329722	0.140572827778319	0.140572976714271	-90.0834039310027
12.76553	0.154049364599247	0.0389457581957231	0.158896125864892	-14.1878616723491
10.8809	0.0670030381558462	0.0816046357562715	0.105587516776499	-50.6116424159302
9.278505	0.208405521309559	0.035161890715015	0.211350940075893	-9.57667441882439
7.923394	0.182810114372379	-0.055234000772734	0.190972073241625	16.8115958444357
6.75822	0.112545675508136	-0.0283118275458306	0.116052094572082	14.1202583821016
5.761429	0.132220211453393	-0.00158461080737986	0.132229706602528	0.686636059431549
4.919708	0.163835540659611	0.0268047530911994	0.166013792112304	-9.29170812983812
4.191257	0.290892167182213	-0.0644360007076562	0.297943368973303	12.490004378882
3.564097	0.257437232577631	-0.0625537156274197	0.264928096011022	13.657405886461
3.051758	0.140040154812031	0.112006577582717	0.179322944381278	-38.6534345441769
2.604164	0.326130826051547	-0.0322116113940115	0.327717719401413	5.64075115841351
2.214424	0.209395350592215	0.0235605260757333	0.210716661037047	-6.41974572258897
1.892567	0.344947091537209	-0.050692922494043	0.348652073492998	8.36026210144984
1.607507	0.214050572712806	-0.0117136734132411	0.214370841822092	3.13232187780794
1.376413	0.293683297801214	0.00552717004764767	0.293735304340714	-1.07818911408821
1.17375	0.287198243939834	0.0376126699334116	0.28965072805302	-7.46122829553212
1.001604	0.288262105567874	-0.0114140852283837	0.2884879942875	2.26751084099337
