EC-Lab ASCII FILE
freq/Hz	Re(Z)/Ohm	-Im(Z)/Ohm	|Z|/Ohm	Phase(Z)/deg
6999984	20.200207506786	1.47396853300931	20.2539123764648	-4.17336155437545
5969734	17.322967771693	-1.83878081055649	17.4202849370608	6.05908597928797
5091109	11.8163352511641	-4.79022998885276	12.7503757636396	22.0671658118322
4341796	8.87051897388898	-8.17618841771811	12.0638370309016	42.6675711272855
3702781	6.36594515592237	-5.45429884968725	8.38299669986283	40.5897454128215
3157797	4.11479307199702	-5.00138858994645	6.47652760767691	50.554839380121
2693047	3.47280989401492	-4.15052793678666	5.41177334281605	50.0802641679921
2296687	2.41978774898925	-3.59151708934661	4.33063133425454	56.0298464534746
1958656	1.79385041797431	-3.15426659190589	3.62867703920867	60.3728493518324
1670375	1.46436860947831	-2.85026610975172	3.20443322926608	62.8074616149023
1424531	1.19265074378203	-2.39212281600597	2.67295105894219	63.500339476554
1214875	1.21402151768777	-2.20826816145756	2.51997946783621	61.1996847459857
1036062	0.824313244797798	-1.80963591620684	1.98853576150263	65.5101035345344
883578.1	0.724453116759447	-1.55709347065011	1.71737369105378	65.0493308756902
753531.2	0.684881065950431	-1.33200278026895	1.49776282539713	62.7889550781196
642624.9	0.602651181070479	-1.14101326228297	1.29038742660926	62.1582431372396
548046.8	0.576414792774126	-1.00059323891448	1.15474709053117	60.0549150713143
467390.6	0.551357969162869	-0.874795843747369	1.03405192248604	57.7779807934644
398593.7	0.515803043361803	-0.755030572187861	0.914398132368842	55.6608616334104
339937.5	0.47452484224333	-0.660031312651939	0.812905381694019	54.2860207561042
289906.2	0.457822148881044	-0.580077870205373	0.738980010222238	51.7179952704381
247234.4	0.452508830858984	-0.496209724019661	0.671556648553964	47.6373554760487
210843.7	0.425323845789037	-0.431432223038418	0.605833423370359	45.4084923572103
179812.5	0.419712651433427	-0.36793927799524	0.558155911968096	41.2392847468495
153343.8	0.413010908712577	-0.318926246642399	0.521816022667948	37.6752523484398
130781.2	0.406257004200698	-0.276412255356749	0.491374081910647	34.2308879151211
111531.3	0.400394616952121	-0.23995973987252	0.466793879612751	30.934598694376
95109.37	0.3945801885333	-0.208842337763128	0.446439970461139	27.8912531514473
81109.37	0.388570510510221	-0.180858817330004	0.428598825761552	24.9594624912306
69171.88	0.382889211651137	-0.157149803133881	0.413884294246407	22.3147924413098
59000	0.373514030283309	-0.132443482352503	0.396300399742592	19.5238806437599
50312.5	0.368371063645173	-0.101489478951679	0.382096002163016	15.4033515276734
42906.25	0.398358621986368	-0.102587184970577	0.411355955628535	14.4412923642913
36593.75	0.383977476064424	-0.0926019118382206	0.394985843038581	13.5588284978088
31203.13	0.378621542440149	-0.0808030030113928	0.387147772427295	12.046976222953
26609.38	0.374555744707078	-0.0688050405386808	0.380822976587027	10.4090560444345
22703.13	0.374568430925291	-0.0610698419341847	0.379514209272461	9.2600579412351
19359.37	0.372941394001014	-0.0544283841257736	0.376892202569862	8.3033272853477
16500	0.370015289838574	-0.0484552326524611	0.373174522557112	7.46069544478265
14112.02	0.368426040586314	-0.0429859408706339	0.370925246504794	6.6548704129768
12011.13	0.366769280371243	-0.0384542420848917	0.36877965475113	5.98535777021053
10236.38	0.365555904075646	-0.0340927324901448	0.367142252285415	5.32814710426352
8750.684	0.364421777989411	-0.0306939477652597	0.365712114514108	4.81445606346103
7449.463	0.362678793067174	-0.0278602005684403	0.363747299256469	4.39271099778995
6363.206	0.352108844483407	-0.0330629095952466	0.353657736172056	5.36432652423705
5414.761	0.374615745799022	-0.0477243445843636	0.377643443033987	7.26011437986325
4620.567	0.338746083113578	-0.0502845670365853	0.342457948523389	8.44351286908235
3941.215	0.340648825476275	-0.00286957435201449	0.340660911692738	0.482639593095376
3361.769	0.334442370525378	-0.0219961531957611	0.33516492948703	3.76290318431066
2867.244	0.363962574713044	-0.0438418345997182	0.366593592760181	6.8685836705606
2442.658	0.361700839474234	-9.08131720971888E-05	0.361700850874584	0.0143854003313763
2083.003	0.338635671353551	-0.0125600593837274	0.338868518757339	2.12413732008661
1777.843	0.343257887877881	-0.0299781736653654	0.344564462019366	4.99122041875243
1513.548	0.366509365310499	-0.00595318165612272	0.366557710643407	0.930568830003931
1292.065	0.326893838920118	-0.0117804591432111	0.327106039598105	2.06390742370466
1101.762	0.330831653260954	0.000114575905476575	0.330831673101313	-0.0198430697018493
939.101	0.342504774383673	0.00985690763145932	0.34264658046399	-1.64845400758192
801.2801	0.34370873059529	0.018984320666365	0.344232618905572	-3.16144818732341
684.3433	0.321630103040542	-0.0261463438284493	0.322691113105808	4.64753798787895
582.9476	0.380950918538795	-0.0264917441168549	0.381870940033285	3.97800701046324
497.0677	0.329443366440165	0.0125048213834594	0.3296806064197	-2.17375661106053
423.5089	0.318632388668517	0.0119286582798853	0.318855597405727	-2.14398400515215
361.5036	0.34027544219768	0.0260805467319868	0.341273455575827	-4.38288878230802
308.1262	0.331849920016368	0.0234921407362368	0.332680402325176	-4.04929671116459
262.7298	0.309360250817709	-0.00470107225936835	0.309395967760383	0.870605931954515
224.2111	0.34180150740718	-0.0512487159099532	0.345622194524946	8.52723919168482
191.2854	0.358576212508241	0.0259923081931646	0.359517037512777	-4.14597875543056
163.1722	0.318370368067656	-0.041873867858572	0.321112304455889	7.49285556582334
139.1537	0.340440654720753	0.0272417362170135	0.341528844431641	-4.57500554171995
118.6706	0.360428516870195	-0.0428146702737001	0.362962548707017	6.77432065410568
101.1982	0.30098494035609	-0.0192930669113332	0.301602647123669	3.66762889734733
86.24196	0.330934659230387	0.0252289482165139	0.331894935948176	-4.35953616849408
73.61024	0.354123198777172	-0.0123323645517565	0.354337871427277	1.99452338062991
62.69291	0.258030673087539	0.0530356881432198	0.263424775734617	-11.6148285355535
53.57697	0.312511736735589	-0.0286843473815546	0.31382539314434	5.24428269883242
45.65746	0.279004729422318	-0.0109454606958857	0.279219344154136	2.24658298456843
38.96512	0.314044446145083	0.0164751447803383	0.314476302048509	-3.00305171302832
33.18414	0.316991643281339	0.0277153317879044	0.318200945200227	-4.99679930880362
28.30617	0.356733729867384	0.0101315170268122	0.35687757237232	-1.62680766208187
24.17237	0.364422054992119	0.0281085498655596	0.365504479781334	-4.41059702128055
20.61345	0.362715460153426	0.0148950846874103	0.363021168228737	-2.35155744700332
17.55618	0.371011115217183	-0.00351593234594402	0.371027774425256	0.542954229935223
14.98558	0.362234790413159	-0.0365607747219275	0.364075175800181	5.76341110911071
12.76553	0.351045069657325	-0.0448240433406227	0.35389523279089	7.27657545731736
10.8809	0.344765795070661	-0.0478448421506186	0.348069795258254	7.90075567933288
9.278505	0.334215641632775	-0.0462591047066899	0.337401837399075	7.88029535646875
7.923394	0.330270864450281	-0.0481297270829051	0.333759366211363	8.29123787587043
6.75822	0.267442556754389	0.0134397179812181	0.267780035071212	-2.87684916428383
5.761429	0.263749019594236	-0.181286769282209	0.320044431374304	34.5025214762146
4.919708	0.237832785968473	-0.107540841162356	0.261016219035202	24.331053840687
4.191257	0.273123612319931	-0.010004266219612	0.273306774429908	2.09775375953642
3.564097	0.159469213469252	-0.152824547459675	0.220875015225254	43.7811031429663
3.051758	0.194898665075725	-0.110225157525214	0.223908630918413	29.4903783576574
2.604164	0.290797489539392	-0.0390694695072963	0.293410298677457	7.65202897088863
2.214424	0.115881293700429	0.0236111979900295	0.118262263212783	-11.5165605441106
1.892567	0.189385400281709	0.0181035269430473	0.190248699148354	-5.46036570985688
1.607507	0.22979618669395	-0.0117648341661883	0.230097150660409	2.93080288097791
1.376413	0.247032259442551	-0.0093051221610383	0.24720744831765	2.15717693134283
1.17375	0.267467085355383	-0.138759125515081	0.301318331108835	27.4198120184578
1.001604	0.206248161865851	-0.0929643609232925	0.226231467030823	24.2630093729373
