EC-Lab ASCII FILE
freq/Hz	Re(Z)/Ohm	-Im(Z)/Ohm	|Z|/Ohm	Phase(Z)/deg
6999984	25.7953477976581	-0.832585383166942	25.8087808007741	1.84866952542802
5969734	17.2317792983783	-2.25191823760775	17.3783012270156	7.44544903785422
5091109	13.193315269264	-5.087960963566	14.1404000848974	21.0889778865172
4341796	8.18487301784676	-5.33739444217096	9.77138300086499	33.108560997285
3702781	5.64010818861938	-5.83759509233386	8.1171631030411	45.9857416062266
3157797	4.20329384394919	-5.44754842227267	6.88065861321332	52.3464497576053
2693047	3.3508603568082	-4.13607645167895	5.32309999389096	50.9871876027487
2296687	2.21433809069362	-3.90404742870824	4.48830474739629	60.4385103151544
1958656	1.73159290514126	-3.25128461707308	3.68364841568134	61.9608018810375
1670375	1.54205610493215	-2.87680331290337	3.26403650897019	61.8073064877219
1424531	1.16757390285143	-2.45148762165952	2.7153306203425	64.5328667191593
1214875	1.02559748510833	-2.02009210932887	2.26552915047088	63.0831689059193
1036062	0.827795281999728	-1.83106668385369	2.00949004217984	65.6730527314696
883578.1	0.76574643846793	-1.59874056702314	1.77266438128366	64.4070451873485
753531.2	0.706913038909065	-1.36987623671372	1.54152098542076	62.7043865075583
642624.9	0.657096085735278	-1.1821217787282	1.35247446025134	60.9319988641006
548046.8	0.623651598432427	-1.0348169729647	1.20821665431459	58.9239536795056
467390.6	0.595373632247425	-0.900099530362983	1.07918901334991	56.5172330019027
398593.7	0.5696448754824	-0.780449552985552	0.96622812467797	53.8745453859531
339937.5	0.548614155297312	-0.680616278210424	0.874194491836681	51.1292754063632
289906.2	0.535977204534048	-0.590369764545652	0.797375709856916	47.7647297234842
247234.4	0.524288247272539	-0.5123406086656	0.733055977068565	44.3396682382835
210843.7	0.512917325891865	-0.444895564659761	0.678981771960036	40.9378000846296
179812.5	0.506070031534761	-0.383443031434304	0.634929472597644	37.1507610531991
153343.8	0.501485974710803	-0.33337689748055	0.602186298918699	33.6150900656483
130781.2	0.500576470044558	-0.289923554737856	0.578474260407587	30.0785367230931
111531.3	0.496165097287701	-0.253385558556671	0.557121212171633	27.0528554689883
95109.37	0.492932415961118	-0.221237154691143	0.540303845369527	24.1714220693856
81109.37	0.483445638731642	-0.194122280145213	0.5209636698057	21.8773850013511
69171.88	0.482203294534061	-0.168586969255442	0.510824415491505	19.2705473546428
59000	0.47201412625002	-0.141131858159418	0.492661685913467	16.6466241064837
50312.5	0.469621182015223	-0.106191867934305	0.481477691500605	12.741578687568
42906.25	0.499247998513933	-0.115117298759541	0.512348081380092	12.9843982011445
36593.75	0.484274831492654	-0.103758877799053	0.495265602620813	12.0931394325067
31203.13	0.478434120094157	-0.0904474812651074	0.486908568560333	10.7053668977644
26609.38	0.474054640298309	-0.0807841322683414	0.480888633692571	9.67093170570136
22703.13	0.470277862837094	-0.0718115341881193	0.475729087524692	8.68201228088351
19359.37	0.467244076302843	-0.0638218971802345	0.471582719572909	7.7780223900379
16500	0.464359904101995	-0.0572708975299971	0.467878270751598	7.03095418012273
14112.02	0.461345691308993	-0.0513583765005477	0.464195572712778	6.35218253938714
12011.13	0.458479971080005	-0.0462391567453025	0.460805754627738	5.7589878749323
10236.38	0.455478288205257	-0.0418368821306997	0.457395666499814	5.24804244788407
8750.684	0.45303268488295	-0.0376605398290869	0.454595347350226	4.75206325140246
7449.463	0.450105551539836	-0.0345402358387129	0.451428881905858	4.38816801543236
6363.206	0.448015140280754	-0.0314227835242854	0.449115750386466	4.01202809842252
5414.761	0.443288196585461	-0.0286160870819777	0.444210879731546	3.6935546646192
4620.567	0.439700719273874	-0.0264290555564167	0.440494287712754	3.43973436137625
3941.215	0.435186724940126	-0.0240926358351815	0.435853118224017	3.16875168033794
3361.769	0.419053178087422	-0.0262499269043074	0.419874534507215	3.58438385929277
2867.244	0.411070936740193	-0.0240544009033656	0.411774124047735	3.34892513451037
2442.658	0.406075393799314	-0.022243138963074	0.406684131335609	3.13529380989128
2083.003	0.401328565788096	-0.020365228913376	0.401844945552665	2.90495560892397
1777.843	0.397213110357557	-0.0192174981687579	0.397677717851768	2.76985731745228
1513.548	0.392355975588424	-0.018457038564697	0.392789859661019	2.6932975509513
1292.065	0.388794537168964	-0.0181192116438618	0.38921651810146	2.66825700347291
1101.762	0.384713102851382	-0.0178598585334551	0.385127441313097	2.65798157837503
939.101	0.380621321983204	-0.0160273553579804	0.380958615689438	2.41120922896998
801.2801	0.377698599925326	-0.0159614371010259	0.378035712413366	2.41986375646543
684.3433	0.374791009245228	-0.0154035007984618	0.375107409214887	2.35346940716567
582.9476	0.371619676987808	-0.0146319032027328	0.371907618792432	2.25476081117833
497.0677	0.369271660839847	-0.0143202709609582	0.369549224948198	2.2208044674499
423.5089	0.366623871750915	-0.0141063264978943	0.366895150942196	2.20344212738405
361.5036	0.363830917570371	-0.0130351112937178	0.364064349678099	2.05188046662707
308.1262	0.361691914827867	-0.0127911847429837	0.361918023396153	2.0254132542388
262.7298	0.359356175151069	-0.0123247949145513	0.359567464029897	1.96429641918999
224.2111	0.356886445001921	-0.0125240999761821	0.357106129471789	2.00983739657817
191.2854	0.357399748740093	-0.0127695792049385	0.357627798909079	2.04625745882566
163.1722	0.353605178273825	-0.012145254762149	0.35381369294489	1.96716120816564
139.1537	0.351121277627201	-0.0120792572954406	0.351328991202502	1.97030961124988
118.6706	0.346945067544058	-0.0107501589761427	0.347111575449686	1.77475281323599
101.1982	0.34943449926044	-0.0107386145046232	0.349599466697067	1.76022604129824
86.24196	0.347357047771874	-0.0125977330270444	0.347585416141432	2.0770579510185
73.61024	0.322575533804118	-0.0126719924699537	0.322824339853999	2.24963914144765
62.69291	0.242220040989547	0.131617377172674	0.275669516324877	-28.5187450695187
53.57697	0.334340507000655	0.00356179059989567	0.3343594786659	-0.610359334081373
45.65746	0.317334769673949	0.00501603018314191	0.317374410756155	-0.905584432389457
38.96512	0.333443305202191	-0.0231749321081663	0.334247685500408	3.97577018323105
33.18414	0.327102985025377	-0.00286005105431295	0.327115488328733	0.500957454876165
28.30617	0.32589888100095	-0.0304527596551532	0.327318577548366	5.3383514825948
24.17237	0.345495640044267	-0.014528132519664	0.34580095998147	2.40787576051791
20.61345	0.329114408566196	0.00557701205789405	0.329161657836041	-0.97081338553392
17.55618	0.319114234997805	0.0185608507857232	0.319653562720837	-3.32878165730696
14.98558	0.326752723806039	-0.00504619182963429	0.326791686807739	0.884774605270305
12.76553	0.325563399231239	-0.0061907545426636	0.325622254093307	1.08937726095373
10.8809	0.348453491664066	-0.0170697606366825	0.348871341014238	2.80451782631092
9.278505	0.320230373860605	0.0214941851387779	0.320950918892099	-3.83999064494094
7.923394	0.328190670727562	-0.00751337675072906	0.328276662561939	1.31146200488218
6.75822	0.324995358759432	-0.00926649937078527	0.325127438438777	1.63321562206262
5.761429	0.309319279430337	0.00570072840547102	0.309371806943774	-1.05583688458456
4.919708	0.313214474776503	0.0235948767407375	0.314101934756747	-4.30803299228977
4.191257	0.318677204501365	-0.0438907659154941	0.321685498587446	7.84189572503909
3.564097	0.342389562815673	0.0235974517273178	0.343201766389876	-3.94258446773707
3.051758	0.26566676007866	0.0170756466595097	0.266214960360106	-3.67760924918071
2.604164	0.313836340268401	-0.0254366246036166	0.314865479759673	4.63372855910071
2.214424	0.283697699313577	0.00505055393280674	0.283742652223533	-1.01990555533632
1.892567	0.281858790663206	-0.0209573681221003	0.282636850309244	4.25235352671675
1.607507	0.222074097026206	0.0385355361379113	0.225392750804992	-9.84425716830638
1.376413	0.205924393745812	0.0756721263101384	0.21938807314865	-20.1771327443003
1.17375	0.273321161217341	-0.141918318832764	0.307969586793102	27.4399858624243
1.001604	0.248859568188704	-0.0600651368118121	0.256005674427912	13.5694740536423
