EC-Lab ASCII FILE
freq/Hz	Re(Z)/Ohm	-Im(Z)/Ohm	|Z|/Ohm	Phase(Z)/deg
6999984	43.1928778980167	57.7437370558528	72.1107749943685	-53.2031534416188
5969734	44.5541549326299	51.5003456705677	68.0981521478282	-49.1361500427534
5091109	46.7424541098624	48.149928691131	67.10642777837	-45.8497672622862
4341796	51.0133959188546	44.5137330889141	67.7040545069857	-41.1075961272166
3702781	54.760515176933	38.9341551792322	67.1906426666962	-35.412430021084
3157797	56.9455860489868	35.621556842682	67.1691527589784	-32.0274927702762
2693047	59.7925905602163	32.751506318411	68.1748857866779	-28.711808928166
2296687	62.6985514922023	29.6020993794647	69.3353636097198	-25.2735751432552
1958656	64.757657740931	26.4602574360748	69.9549816644598	-22.2251360055278
1670375	66.6685094272183	23.5787148509152	70.7152454797964	-19.4772075017685
1424531	68.0433086246992	20.8769905180034	71.1740161975202	-17.0570165864021
1214875	69.1363726527612	18.5256289264109	71.575393472202	-15.0004590652934
1036062	70.0534244999953	16.4538498991637	71.9597905825242	-13.2178040181469
883578.1	70.7980738344096	14.6114259758369	72.2901170818659	-11.6610776887765
753531.2	71.3856635505776	13.0747566974539	72.5731508428143	-10.3790617038594
642624.9	71.8966108074366	11.7392311079478	72.8486938290716	-9.27338493954984
548046.8	72.3064547270261	10.6388751626974	73.0849441398085	-8.37020864877332
467390.6	72.7185928179592	9.72826586957541	73.3664289593905	-7.61976571744482
398593.7	73.0246997469609	9.03520239845284	73.5815306684687	-7.05324796793127
339937.5	73.3212459223526	8.49999153180777	73.8122954503308	-6.61267207136542
289906.2	73.6252866661029	8.13613654838217	74.0734740281549	-6.30601932983345
247234.4	73.8528361873514	7.9180872953972	74.2760898225889	-6.11955594498608
210843.7	74.1521866254465	7.84709583069666	74.566236959573	-6.04079716646739
179812.5	74.4073008425428	7.90361871606104	74.8258886180548	-6.06328003034833
153343.8	74.7066677256381	8.11430403935363	75.1460453564389	-6.19891059961169
130781.2	75.0151869837165	8.47934587647363	75.4928975778173	-6.44905824338786
111531.3	75.3431986255352	8.97639264513225	75.8760384050619	-6.79419656001877
95109.37	75.7534157818482	9.6096120293633	76.3604913942573	-7.22957572938278
81109.37	76.4295842205713	10.4451351362063	77.1400168015474	-7.78203309460382
69171.88	76.6221525384426	11.3746516101207	77.4618419538032	-8.44395977616256
59000	77.1305615062302	12.5441661920711	78.1439672893606	-9.23744902663923
50312.5	77.7004267524819	13.8957746551174	78.9331924527547	-10.1394622130916
42906.25	78.353725420825	15.4321524466205	79.8589858216204	-11.1420753292131
36593.75	79.0636597940472	17.2390799317945	80.9212467583368	-12.3002865937583
31203.13	79.8873143515374	19.3093158090278	82.1877890645206	-13.5881696664974
26609.38	80.8082122661622	21.6716208909224	83.6637694685878	-15.0126516071737
22703.13	81.8022252721341	24.3501297202897	85.349474965391	-16.5767289850557
19359.37	82.9697685012675	27.4409664019544	87.3898685330691	-18.3008334751177
16500	84.2343221140103	30.9634497905049	89.7449510832557	-20.1827763785824
14112.02	85.6964148182998	34.8077221015773	92.4956919570352	-22.1057487897563
12011.13	87.3019665063594	39.3963426120944	95.7794610920683	-24.2880017919609
10236.38	89.0918946888515	44.5171511099348	99.5948916470828	-26.5502339727877
8750.684	91.0794622795964	50.2279344312868	104.011123666529	-28.8755831843262
7449.463	93.4087583583071	56.9137402518341	109.381762499485	-31.353854831385
6363.206	95.9900017522442	64.3419907974123	115.559388264953	-33.8339026476088
5414.761	98.8631210697593	72.9505738469834	122.864571509683	-36.4234197801702
4620.567	102.005311514072	82.6455004361753	131.283518841585	-39.0146615156951
3941.215	105.926528857223	93.9317036530686	141.575402054552	-41.5654180534159
3361.769	109.950982908238	106.354962597254	152.972535808069	-44.0475628951699
2867.244	114.656673831627	120.572532367958	166.384760166772	-46.4406471772487
2442.658	120.054456993987	136.954289142345	182.125094258332	-48.7621174645141
2083.003	126.128087895264	155.568468455161	200.274419069435	-50.9663777756296
1777.843	132.954247817725	176.604843191059	221.056786033172	-53.0262985589957
1513.548	141.007980888317	200.602139857072	245.202914316768	-54.8957108754809
1292.065	149.991452322769	227.889910500016	272.82090659918	-56.6480851031546
1101.762	159.998924687393	259.081224501652	304.504083372288	-58.3020652886706
939.101	171.930192059946	293.92658869975	340.518473047266	-59.6748148700245
801.2801	185.2862985544	333.740278375682	381.724489445291	-60.9617926694474
684.3433	200.791308178804	378.969898227614	428.876827542365	-62.0838159196521
582.9476	218.869155369702	430.770948183381	483.184557877273	-63.0654645100497
497.0677	239.451260967608	489.667465453552	545.079015467192	-63.9410013167891
423.5089	263.229494974706	555.551468003369	614.757839010888	-64.647630165524
361.5036	290.210588180662	630.549449667718	694.128802145847	-65.2857332619612
308.1262	322.59611008267	715.065341104213	784.465864323589	-65.7178580310488
262.7298	359.406986638632	810.790452684087	886.879101235523	-66.0932599784185
224.2111	401.838866430962	917.61938384094	1001.74837567882	-66.3506899157708
191.2854	450.291289915902	1038.40644224292	1131.83487535317	-66.5566682431204
163.1722	507.602787772632	1174.37869789285	1279.38497576728	-66.6245064460638
139.1537	572.861160524351	1326.64107699563	1445.04202582812	-66.6446745604524
118.6706	648.988368045873	1498.66974683712	1633.15550758147	-66.5853161328769
101.1982	735.750244413167	1688.15671666611	1841.5215236806	-66.4509575299187
86.24196	836.891264594799	1903.64456032177	2079.48301286588	-66.2684704721696
73.61024	952.234065413459	2143.45644004781	2345.45416193032	-66.0467358054539
62.69291	1084.17873123778	2409.79863238539	2642.45585959631	-65.7768153881678
53.57697	1231.93691383404	2700.65008592625	2968.36309205602	-65.4792784051564
45.65746	1402.77432556457	3029.01650155039	3338.07081637398	-65.1505725180898
38.96512	1594.08495702005	3389.38561531913	3745.53623657946	-64.8116106864904
33.18414	1814.54235606973	3795.98584360513	4207.38309247228	-64.4514494164712
28.30617	2059.74700663337	4237.26456525772	4711.36590887652	-64.0754745113063
24.17237	2329.64040252024	4724.8128627655	5267.92947876194	-63.7537014135609
20.61345	2641.63078269537	5272.57081201177	5897.30583908976	-63.3884981149445
17.55618	2986.47958016677	5879.79639701306	6594.77565600839	-63.0729702571659
14.98558	3369.25139478698	6541.530928049	7358.22545481556	-62.749019919799
12.76553	3803.05685512268	7288.30286226911	8220.86370495557	-62.4443209643484
10.8809	4279.47104634461	8113.00636033716	9172.49936709582	-62.1891255623971
9.278505	4810.5053344594	9022.08745148674	10224.4326764441	-61.9338155688868
7.923394	5410.29639125734	10029.1626402011	11395.4118093581	-61.6550716015557
6.75822	6091.97625226188	11154.3011832667	12709.469286526	-61.358623238355
5.761429	6842.24384750436	12415.877112476	14176.3995901927	-61.1413576424414
4.919708	7681.64613850294	13758.925858725	15758.0369393864	-60.8252568268677
4.191257	8587.4219373025	15289.4603943616	17536.0033838961	-60.6789807017708
3.564097	9670.92890091064	17028.2798638201	19582.879791467	-60.4063100870681
3.051758	10767.6373236839	18817.4866679482	21680.401703677	-60.2211874234613
2.604164	12065.8591071995	20887.1242415427	24121.710450887	-59.9862747274576
2.214424	13483.5678412146	23192.9079900985	26827.5526793969	-59.827737305545
1.892567	15074.4679946418	25669.6756412746	29768.6384110817	-59.5764953123801
1.607507	16856.764981668	28556.0911616029	33160.2302174904	-59.4464911886649
1.376413	18716.7464913999	31516.7604869467	36655.4605865878	-59.2953449223094
1.17375	20894.7248279674	34914.7130796584	40689.3931519179	-59.1015705959961
