EC-Lab ASCII FILE
freq/Hz	Re(Z)/Ohm	-Im(Z)/Ohm	|Z|/Ohm	Phase(Z)/deg
6999984	-0.0465708739778272	-0.0227234179544484	0.0518189157218791	153.990772625218
5969734	-0.0349983706221376	-0.00733388998774564	0.0357585219011757	168.164946335841
5091109	-0.0260144696877864	0.00245890436295372	0.0261304198933525	-174.60040829075
4341796	-0.0203256521901491	0.00662858115121329	0.0213792007575852	-161.937869131021
3702781	-0.0167600555796774	0.00882298092039524	0.0189405505557662	-152.236375856527
3157797	-0.0133339759878465	0.00928704589679604	0.0162494349789051	-145.142986465469
2693047	-0.0109418009038907	0.00867046237633454	0.0139606563183761	-141.606117996126
2296687	-0.0096796462802185	0.00808990974723985	0.0126151572256803	-140.112302432661
1958656	-0.00839967962862763	0.00765320472014809	0.0113633692341699	-137.662392196461
1670375	-0.00732822204340856	0.00721998849166591	0.0102874230075995	-135.426252513625
1424531	-0.00645302236153696	0.00680301655561162	0.00937670154448897	-133.48759251802
1214875	-0.00563246462160492	0.00642842355222372	0.00854688756685237	-131.224237339915
1036062	-0.00496530854487459	0.00607503990593574	0.00784604351278505	-129.260138018206
883578.1	-0.00442265303788518	0.00569334309730919	0.00720930062607971	-127.840463193431
753531.2	-0.00386880835098216	0.00527668958516288	0.00654302155237133	-126.248442663881
642624.9	-0.00340926739937098	0.00486666518509023	0.00594201432379484	-125.012572699784
548046.8	-0.00295415994379464	0.00448340128864528	0.00536916642399422	-123.381304561267
467390.6	-0.00253675633192797	0.00409929176204701	0.00482071837364133	-121.750380197427
398593.7	-0.00218244633571125	0.00372082245801743	0.00431365179080861	-120.393730730116
339937.5	-0.00187177571766477	0.00335949433986312	0.00384574395362091	-119.12480110124
289906.2	-0.00161484547388058	0.0030048967508506	0.00341132384680567	-118.253790661082
247234.4	-0.001398078991434	0.00268418951584259	0.00302646629309636	-117.513070823537
210843.7	-0.00121425201977264	0.00239935260841509	0.00268910782733423	-116.842824794793
179812.5	-0.00107816805402567	0.00213062096791048	0.00238788443221637	-116.840991329848
153343.8	-0.000954000420600021	0.00188685336255624	0.00211431606300828	-116.821338877475
130781.2	-0.000847927646120401	0.00166820039430975	0.00187132943348585	-116.943722662515
111531.3	-0.000767650276375212	0.00148555686157472	0.00167217407460787	-117.327317906355
95109.37	-0.000708385003862497	0.0013286015141969	0.00150565311317832	-118.06568861694
81109.37	-0.000645539544897099	0.00119616617706846	0.00135924053323484	-118.354573937245
69171.88	-0.000587646237399156	0.00109705429390127	0.00124453052356967	-118.176097584062
59000	-0.000543470759757922	0.00101254286826788	0.00114917515061543	-118.224168743074
50312.5	-0.000480301496394401	0.000948546964603362	0.00106321722686239	-116.855601753624
42906.25	-0.000418840096692266	0.000890097374664277	0.000983717623600099	-115.199581838357
36593.75	-0.000354844872104411	0.00084168033268667	0.000913422501195552	-112.859851386161
31203.13	-0.000279522339685581	0.000785904648023842	0.000834133594916774	-109.578923163904
26609.38	-0.000203819536322568	0.00073287828450121	0.000760692436718142	-105.541690652073
22703.13	-0.000109898457930337	0.000667101727978449	0.000676093474696582	-99.3548923802507
19359.37	-2.58210183470163E-05	0.000604585752708992	0.000605136891428026	-92.4455370329886
16500	3.97496392068648E-05	0.000533324007023176	0.000534803263157895	-85.7375190549354
14112.02	8.53934847020561E-05	0.000454830805487665	0.0004627776019322	-79.3666294435372
12011.13	0.000106935199615798	0.000371588164856205	0.000386668981401499	-73.9453027860094
10236.38	0.00081903277702104	0.00179726693758485	0.00197509066494944	-65.5007643224738
8750.684	0.00421777873041506	0.00914093367707499	0.0100670912336894	-65.2306147220696
7449.463	28.6668327309507	64.6649582028694	70.7343206527295	-66.0916556965922
6363.206	14.2486159443936	94.2171242298883	95.288454465801	-81.4002285457951
5414.761	17.0874857600791	104.797985939277	106.18191948976	-80.7393217291117
4620.567	25.7268171214105	117.593307897427	120.374645093797	-77.6593871013859
3941.215	32.2010105730838	132.017991782494	135.888392573503	-76.2924243937628
3361.769	35.1955773945631	151.270574180969	155.311027558177	-76.9022233751206
2867.244	43.810457836404	165.328093464603	171.034308559645	-75.1582544383014
2442.658	55.1221254912284	183.96462395805	192.045389391929	-73.3199766484036
2083.003	66.1242583860206	206.846803611822	217.158968756828	-72.2720941368889
1777.843	77.3030149062506	229.688278895507	242.347811163163	-71.3990210486685
1513.548	89.9247067023268	254.048429237553	269.494076509239	-70.507727902563
1292.065	108.074770908203	283.970783987144	303.841343903581	-69.1639699856427
1101.762	-516.081113371764	33.4794349837021	517.165919358447	-176.288284659426
939.101	-151.33997043957	499.43610377074	521.862250409384	-106.857946594827
801.2801	409.201420542414	-286.416384498579	499.479877355602	34.9897074894144
684.3433	-482.229464354842	-32.2312125090196	483.305397602551	176.176156818919
582.9476	-488.413718134174	-26.9906235567321	489.158924912579	176.836949044044
497.0677	-458.995054674677	-15.0708481428994	459.242409495852	178.119400476885
423.5089	-125.174082258503	-427.850724659232	445.785591356079	106.307620632604
361.5036	-438.850663062353	-26.5911225794761	439.655538200423	176.532536567491
308.1262	-104.920175746519	-407.928697291462	421.205490648673	104.423964585332
262.7298	333.342488369332	246.300901508946	414.465135610195	-36.460043242435
224.2111	315.355160008823	-220.261388832153	384.660832883281	34.932566408506
191.2854	312.889458594581	-208.103860332172	375.775238653057	33.6280159935065
163.1722	313.771907749338	247.575584713048	399.682974667006	-38.2745146359451
139.1537	271.306736079426	208.172200487126	341.969311631502	-37.498832913741
118.6706	334.59228481105	-213.1285931389	396.706181283384	32.49632121572
101.1982	39.7966291404057	-372.770117514956	374.888426339162	83.9062313501383
86.24196	-307.304895408242	-285.605079431439	419.531357753993	137.096023415975
73.61024	360.185224614323	206.543271177322	415.202985176045	-29.8315231584563
62.69291	363.866519928473	-220.947567135152	425.695515301489	31.2670230775329
53.57697	432.743211015372	-256.660686837565	503.131588004396	30.6722470495635
45.65746	-601.639920985658	-105.244194218693	610.775682996934	170.077708639106
38.96512	-8.00792091584637	448.056339756143	448.127895129355	-91.02391415171
33.18414	318.043245526422	589.497523447395	669.820002818363	-61.6524359956981
28.30617	414.002281336308	-301.835695155093	512.35014962565	36.0945821128108
24.17237	-67.5697597830751	471.255926215316	476.075435650903	-98.1595878280487
20.61345	394.979258630093	-148.961253431603	422.135132122277	20.6633103517806
17.55618	859.214387110326	204.954511736206	883.320844822763	-13.4164542152967
14.98558	-413.358781154158	204.561669759272	461.205982931654	-153.670260034621
12.76553	-396.613373686434	325.134097036595	512.849246116963	-140.655924788681
10.8809	334.574906835326	330.697943236961	470.426931568574	-44.6661052124813
9.278505	793.63281968747	788.552936337536	1118.78004357051	-44.8160425378891
7.923394	-344.461899498902	339.924005542302	483.944552351108	-135.379900227999
6.75822	311.5653988809	292.596952552805	427.417798439656	-43.2017167613741
5.761429	-181.861376832661	295.165744335777	346.693491448519	-121.638596131597
4.919708	-404.820600688241	307.91548850289	508.617407096495	-142.742579782768
4.191257	-294.600919035228	303.488275510741	422.959613756306	-134.148671222042
3.564097	157.571754452122	354.27295685831	387.734684755245	-66.0216975498067
3.051758	244.458080193409	388.785523731063	459.253673294709	-57.8394018691024
2.604164	-234.656865483734	466.821667848856	522.480922227634	-116.687266753415
2.214424	896.743124443931	336.932560802159	957.951868188671	-20.592664655641
1.892567	535.603384876169	236.150445807042	585.352901202065	-23.792943338656
1.607507	387.294253387192	12.3006563398	387.489541604844	-1.81913068630005
1.376413	863.53123313557	200.690385012948	886.545442285552	-13.0836574095729
1.17375	679.211405748042	-121.055947724565	689.914977499202	10.1057207285364
1.001604	312.989422746555	559.973159914041	641.507847633479	-60.7975829653629
