EC-Lab ASCII FILE
freq/Hz	Re(Z)/Ohm	-Im(Z)/Ohm	|Z|/Ohm	Phase(Z)/deg
6999984	25.307970803646	87.3884489045805	90.9793074723405	-73.8488166933094
5969734	19.3651647614289	87.1023634894329	89.2290946478926	-77.4654981835137
5091109	14.4384155291966	92.2035889780267	93.3272182346749	-81.1001705484851
4341796	11.4653341214706	101.478922101862	102.124558836123	-83.5539196019123
3702781	12.3895045382963	113.727520098133	114.400387457279	-83.7827016495081
3157797	12.9981466011451	127.611209465118	128.271480057786	-84.1840585849972
2693047	13.2423801378602	144.113345348716	144.720478645263	-84.7499117034684
2296687	14.1516322688338	165.903636203879	166.506111604173	-85.1244542141454
1958656	16.1041894360885	191.173199281982	191.850298517104	-85.1848439657522
1670375	18.9628721731007	221.60062924277	222.4104975082	-85.1089843536769
1424531	23.314954238973	256.830694852711	257.886783123315	-84.8129370609328
1214875	28.3490004398936	297.30659244179	298.655111684515	-84.5531579966205
1036062	35.3094410236022	345.053683933457	346.855591596055	-84.1572441601851
883578.1	43.3195186750728	400.610114282521	402.945460780606	-83.82836638578
753531.2	54.4527079638553	464.342197215181	467.524088704762	-83.311558454572
642624.9	123.748308788036	605.213730987804	617.735626384036	-78.4439955060381
548046.8	153.90028642036	691.544163330774	708.462157067779	-77.4535233655954
467390.6	187.021646519094	785.86009565422	807.807641835835	-76.6135672379337
398593.7	226.192966699565	894.087966620738	922.256228084341	-75.802774662044
339937.5	271.416659664928	1016.90999181093	1052.5079261405	-75.055924176091
289906.2	323.408161451022	1155.93898259433	1200.32819277661	-74.3694634417448
247234.4	385.792368969111	1314.71980105991	1370.15470194201	-73.6461615211716
210843.7	458.182320925655	1493.68056910903	1562.37405308162	-72.9467519406554
179812.5	546.908679557122	1698.82228299348	1784.68659796898	-72.1548669720051
153343.8	652.266619238593	1926.97680681015	2034.37738793892	-71.2994409838748
130781.2	781.86432109244	2184.66414304211	2320.35972092502	-70.3083385898575
111531.3	935.079780164188	2466.32524517161	2637.63803624431	-69.2363345551677
95109.37	1126.92465706093	2782.87353887776	3002.38976751486	-67.954513375901
81109.37	1351.94837237966	3125.55503722771	3405.41608211383	-66.6092657687134
69171.88	1619.70585178546	3497.92381631393	3854.72671807539	-65.153609194404
59000	1932.26128263029	3893.88964021014	4346.95412840852	-63.6080555420386
50312.5	2302.23145583112	4344.94861531269	4917.19921763659	-62.0824981167233
42906.25	3444.34632687114	4764.84936313246	5879.39716916407	-54.1381231604471
36593.75	3910.41312317344	5118.97139532743	6441.67671806553	-52.6235722543762
31203.13	4460.46770097513	5506.78292299583	7086.63744468707	-50.9926937271599
26609.38	5097.28338139883	5877.6815140683	7780.06669965656	-49.0672919749346
22703.13	5796.35920876551	6234.3292749371	8512.61661214567	-47.0848981108276
19359.37	6583.40161059095	6554.89719367697	9290.20204225967	-44.8756931739401
16500	7429.36722872687	6833.04985232966	10093.8628732365	-42.6058349248601
14112.02	8317.19029476526	7041.75774893684	10897.7982452443	-40.2529550912656
12011.13	9289.81147135655	7158.51284249469	11727.9539259629	-37.6170111885647
10236.38	10269.1534366919	7186.91314124393	12534.2424105371	-34.9864244412483
8750.684	11250.8672553311	7113.89912399784	13311.2574441147	-32.3050793628612
7449.463	12196.2631759098	6940.5757967309	14032.8339207097	-29.6430773396377
6363.206	13096.4170479279	6710.38206484546	14715.4805205082	-27.1298323487641
5414.761	13920.0333906124	6351.82322594378	15300.7512197736	-24.5275955531507
4620.567	14777.6319597145	5899.92915605177	15911.8688526272	-21.7642201072348
3941.215	15410.4545083298	5442.05997836986	16343.1369376102	-19.450204000884
3361.769	16012.5278467859	5125.80517824355	16812.939266214	-17.7505017833166
2867.244	16451.9874486037	4554.16013429667	17070.6843898489	-15.4728971448464
2442.658	16792.123874229	4246.01336554177	17320.6250957582	-14.1902279880429
2083.003	16985.8179963571	3808.95431466233	17407.6461928819	-12.6391051859089
1777.843	17219.2685326758	3268.18848369414	17526.6729519709	-10.7468146646642
1513.548	17542.538011003	2969.69110504412	17792.1248064098	-9.60823293418019
1292.065	17686.0539120506	2832.44303654081	17911.4275404058	-9.09872448528216
1101.762	17778.5680036242	2523.39310266997	17956.753409514	-8.07829238173211
939.101	18021.8069218807	2408.29797954866	18182.0082468314	-7.61148074772723
801.2801	18043.0658143324	2225.04339799566	18179.742630282	-7.03013485047569
684.3433	18181.3591078691	2107.65641704236	18303.1154337614	-6.61244288824737
582.9476	18332.3157112094	2102.57485167451	18452.4963173644	-6.54279413867126
497.0677	18409.5661554461	2005.22743759091	18518.4519630615	-6.21632851658367
423.5089	18491.7938614163	2040.48655075244	18604.032508489	-6.29685773468931
361.5036	18557.8779951196	2072.18987577356	18673.2109333934	-6.37130787058861
308.1262	18715.651447149	2140.39519120889	18837.6458366145	-6.52422457653107
262.7298	18784.7067665833	2252.82284100343	18919.313387633	-6.83873829901224
224.2111	18916.3690734598	2390.77886873807	19066.8519300526	-7.20323685954061
191.2854	19046.1225220223	2565.52655171897	19218.1349150083	-7.67160693874826
163.1722	19250.1575130955	2775.6485713583	19449.2362130411	-8.20483584036471
139.1537	19347.7402596321	3085.08557465223	19592.1618551174	-9.05980346225892
118.6706	19492.8980494896	3409.01383819563	19788.7455316603	-9.91984749021799
101.1982	19694.9564495294	3797.91695850769	20057.8035380891	-10.9147715127288
86.24196	19876.667467509	4258.05240116111	20327.6393087088	-12.0913575337638
73.61024	20061.9786464278	4751.65597180181	20617.0129185604	-13.3248955596348
62.69291	20291.7951961097	5315.2185567056	20976.3795872025	-14.6782447900456
53.57697	20514.4457067357	6042.8660691249	21385.9466235187	-16.4132011007474
45.65746	20795.4934105696	6825.91341175119	21887.1112779592	-18.1719065120574
38.96512	21054.2604994059	7737.37453632226	22430.9796908688	-20.1782213641111
33.18414	21364.544533831	8819.42581234177	23113.3302403061	-22.4311601695009
28.30617	21835.7790543395	10062.0984219421	24042.6094998605	-24.7406212613804
24.17237	22130.0404517671	11410.74242971	24898.6693056885	-27.2766413246105
20.61345	22552.3452629768	12997.3967940554	26029.6100678177	-29.9557633267524
17.55618	23050.9003441175	14869.5722365877	27430.7890002008	-32.8250729394101
14.98558	23614.4137933587	16972.3216428901	29080.9257203701	-35.7058302488146
12.76553	24237.4748840938	19454.5595848559	31079.496093048	-38.7527739666967
10.8809	24893.8587981753	22289.6407229368	33414.5520607578	-41.8408560542692
9.278505	25690.2027914442	25532.4128995833	36220.0307556515	-44.8235024483817
7.923394	26601.8930794173	29245.9395599919	39534.6138991574	-47.7105737526884
6.75822	27599.8197346972	33588.0913626906	43473.0943317385	-50.5895606225059
5.761429	28890.2633301274	38470.2186899312	48110.3423531285	-53.094280001388
4.919708	30039.0809923089	43976.1552251872	53256.4420070686	-55.6639326871923
4.191257	31591.6963400723	50690.5136889097	59729.0838343338	-58.0677255504621
3.564097	33526.3521246549	58274.7279420938	67230.649286701	-60.0875163698573
3.051758	35319.4269261916	66656.73864368	75435.9511440431	-62.0822116378257
2.604164	37870.2278108578	76578.3590893725	85430.6691725352	-63.686264281074
2.214424	40748.029094037	88202.4102734523	97160.0074778449	-65.203857593037
1.892567	43969.9502758791	101041.623314605	110194.220217368	-66.482928574887
1.607507	47889.671063749	116274.329594111	125750.309411763	-67.614806699168
1.376413	52310.3375346882	133101.29034129	143011.625064222	-68.5446026091063
1.17375	57675.7112144185	152497.731880948	163040.013165242	-69.2830306154709
1.001604	63508.8878726775	174579.141354553	185772.052351578	-70.0094838039172
