EC-Lab ASCII FILE
freq/Hz	Re(Z)/Ohm	-Im(Z)/Ohm	|Z|/Ohm	Phase(Z)/deg
6999984	9.88376360101952	-0.931330612009823	9.92754549874766	5.38299177032903
5969734	6.03130375688639	-1.26035906229077	6.16158502122062	11.8032227881705
5091109	3.74625938570676	-1.03934105706651	3.8877614661782	15.5058422180664
4341796	2.48601805191065	0.75460122697946	2.59802016277483	-16.8850433041936
3702781	1.9709816764313	0.373446261018356	2.00604857336419	-10.7287779532734
3157797	1.80862593853464	0.237580056892006	1.82416338878213	-7.4834934354509
2693047	1.65410571755427	0.17869343490204	1.66372986645153	-6.16576499116338
2296687	1.57218347907037	0.130349426114171	1.57757784744528	-4.73954183174767
1958656	1.53473189365601	0.118919619650915	1.53933227775646	-4.43074450918853
1670375	1.48522402881085	0.0957609217466842	1.48830795532743	-3.68908158311262
1424531	1.46539292834159	0.0769501958534383	1.46741192821764	-3.00593483665341
1214875	1.45751464193012	0.0752746189181741	1.4594571592527	-2.95646394174843
1036062	1.43913222960796	0.0543415911287774	1.44015783260821	-2.16245960221393
883578.1	1.42267500202052	0.0267165661567289	1.42292583653587	-1.0758371223392
753531.2	1.40368072109142	0.0277335451510623	1.40395467031182	-1.13188729160566
642624.9	1.39810051076548	0.0314384555304309	1.39845393727818	-1.28816725980555
548046.8	1.39431580778494	0.0152426959117202	1.39439912206572	-0.626333970367416
467390.6	1.39053222788753	0.0165310782156835	1.39063048770722	-0.681117902906644
398593.7	1.38003105738261	0.0166277085495208	1.38013122565652	-0.690311583687314
339937.5	1.37666271184103	0.0135110360455637	1.37672901119593	-0.562302212535878
289906.2	1.37870383577436	0.00476635118494664	1.37871207468512	-0.198077869608252
247234.4	1.37452558219163	0.00869989819130329	1.37455311440765	-0.362642062680593
210843.7	1.37653033979581	0.0028624149990135	1.37653331590557	-0.119143078454904
179812.5	1.37034236767191	-0.00105398300692537	1.37034277300127	0.044068378451867
153343.8	1.37081823000003	0.00158805250532494	1.37081914985573	-0.0663754416925205
130781.2	1.36902268156168	0.00103362477908754	1.36902307175976	-0.0432588349239707
111531.3	1.36389342323738	-0.00116737139606346	1.36389392282031	0.0490400764796659
95109.37	1.36544941427872	-0.00232008102691229	1.36545138534115	0.0973530924356226
81109.37	1.36210682184351	0.000669345611822802	1.36210698630327	-0.0281554096133144
69171.88	1.36228595380728	0.00084404305960541	1.36228621528272	-0.0354992273974683
59000	1.36295625642621	-0.00244161062731976	1.36295844338476	0.102640003194413
50312.5	1.3616701983603	0.000624021224009881	1.36167034134737	-0.0262572978408712
42906.25	1.36357151216475	-0.000366258589547265	1.36357156135372	0.0153897838870847
36593.75	1.362533626729	0.000779177065930427	1.36253384951867	-0.0327651014469938
31203.13	1.36125848398327	-0.000900624535011845	1.3612587819151	0.0379075523568976
26609.38	1.36112759501311	0.000579540670200506	1.36112771839147	-0.0243953855419243
22703.13	1.36272372773854	0.00056771169172577	1.36272384599309	-0.0238694618521958
19359.37	1.3615297279797	0.000764230665010964	1.36152994246215	-0.0321602871984537
16500	1.36174845261343	0.000233759648119571	1.36174847267719	-0.00983547372530703
14112.02	1.36224620591993	0.000257538097282244	1.36224623026423	-0.0108319963000663
12011.13	1.36273171748511	0.000518736254174529	1.36273181621594	-0.0218101598632484
10236.38	1.36212370634719	-1.47804315806276E-05	1.36212370642738	0.000621717649412047
8750.684	1.36189937596686	0.000210333920335633	1.36189939220902	-0.00884885186124765
7449.463	1.36217028582286	0.000756154425032064	1.36217049569731	-0.0318054601655071
6363.206	1.36167460722201	0.000521060881646859	1.36167470691706	-0.0219249061208792
5414.761	1.36165989825386	0.000396862324550874	1.36165995608757	-0.0166991299588295
4620.567	1.36180944251468	0.000351657608899958	1.36180948791864	-0.0147953860112601
3941.215	1.36167112921192	0.000418320770937863	1.36167119346835	-0.0176019109087274
3361.769	1.36189785771514	0.000386671139670753	1.36189791260713	-0.0162674635559779
2867.244	1.36217259158391	0.000465066718294744	1.36217267097438	-0.0195616614807708
2442.658	1.36206464023796	0.000463730997049442	1.3620647191793	-0.0195070242254271
2083.003	1.3623104899519	0.000477439985711333	1.36231057361452	-0.0200800736938052
1777.843	1.36262955107709	0.000434359577401761	1.36262962030656	-0.0182639292635333
1513.548	1.3624802338372	0.000410387369972005	1.36248029564279	-0.0172578382935954
1292.065	1.36263110860543	0.000438680841314087	1.36263117921914	-0.0184456084507914
1101.762	1.36304659803809	0.000480866503178109	1.36304668286006	-0.0202132634628613
939.101	1.36314868293136	0.000634572748087615	1.36314883063446	-0.0266723198197742
801.2801	1.36361888144738	0.000473046227044449	1.36361896349843	-0.0198761923919858
684.3433	1.36338891234041	0.000520514235225959	1.36338901170129	-0.0218743655137707
582.9476	1.36362314811902	0.000322130202257793	1.36362318616761	-0.0135350450197329
497.0677	1.36390080906188	0.000390993547346998	1.36390086510553	-0.0164251530003538
423.5089	1.36444918806235	0.000486826485593925	1.36444927491059	-0.020442755978123
361.5036	1.36467693647226	0.000483605362590765	1.36467702216072	-0.0203041059212793
308.1262	1.36477430610695	0.000404261446764551	1.36477436598033	-0.0169716516045055
262.7298	1.36460790287299	0.000494984246317981	1.36460799264581	-0.0207828981027804
224.2111	1.36470494103282	0.000512845769223928	1.36470503739459	-0.021531318493092
191.2854	1.36452918264065	0.000406140934067119	1.36452924308291	-0.0170536189466769
163.1722	1.36418393088055	0.000436611310956452	1.36418400074995	-0.0183376918500785
139.1537	1.36433356613773	0.000586382689697447	1.36433369214967	-0.0246253937192016
118.6706	1.36424185365048	0.000280033154385349	1.36424188239119	-0.0117609041254221
101.1982	1.36427630244487	0.000469606978118205	1.3642763832682	-0.0197221756070767
86.24196	1.3637871713711	0.000279200105151102	1.3637871999506	-0.0117298268946142
73.61024	1.36332769172197	0.000282104541644353	1.363327720909	-0.0118558432320753
62.69291	1.36287944042611	9.8524599239196E-05	1.36287944398736	-0.00414199784466999
53.57697	1.36282283239564	0.000101619457071505	1.36282283618428	-0.00427228386362038
45.65746	1.36256342940526	0.000220271597147475	1.36256344720978	-0.00926241852735103
38.96512	1.36222242465165	2.04570254192772E-05	1.36222242480525	-0.000860433066301967
33.18414	1.36206651616812	5.49300995270654E-05	1.36206651727575	-0.00231065284409334
28.30617	1.36196995311205	0.00036379484944873	1.36197000169855	-0.0153042355586938
24.17237	1.36189884966153	9.87702978700673E-05	1.36189885324314	-0.0041553168215756
20.61345	1.36207685820361	0.000178008599742898	1.3620768698355	-0.00748793385836317
17.55618	1.36192060390352	4.55564212672424E-05	1.36192060466545	-0.00191655127316394
14.98558	1.36169816261245	-4.36822149470248E-05	1.3616981633131	0.00183800391607166
12.76553	1.36148136475517	0.000105106279879022	1.36148136881227	-0.00442323074066318
10.8809	1.36163367534781	9.86673667562483E-05	1.36163367892265	-0.00415179485000893
9.278505	1.36180708255281	5.50332797597287E-05	1.36180708366481	-0.00231543417689371
7.923394	1.36218340223587	4.28168434267139E-05	1.36218340290879	-0.00180095016250276
6.75822	1.36216673250068	0.000149392367785822	1.36216674069281	-0.00628377710822647
5.761429	1.361682226771	-8.42467620385704E-05	1.36168222937716	0.00354486810607819
4.919708	1.36144892752395	0.000107765462854248	1.36144893178904	-0.00453524628144244
4.191257	1.3612877159423	4.06344519458235E-05	1.36128771654877	-0.0017102795914233
3.564097	1.36126662971588	0.000116319172004355	1.36126663468557	-0.00489587966868486
3.051758	1.36155449556417	6.29940207253436E-05	1.36155449702142	-0.00265086085889714
2.604164	1.36145675225795	4.68717565753919E-05	1.36145675306479	-0.00197255904355357
2.214424	1.36144408681929	-2.08389030732043E-05	1.36144408697878	0.000876996130243609
1.892567	1.36132869274309	1.12299856427126E-05	1.36132869278941	-0.000472649099909018
1.607507	1.36128634871715	1.06454362144104E-05	1.36128634875877	-0.00044806044424364
1.376413	1.36161696257498	-1.1694967578736E-05	1.3616169626252	0.00049211511181547
1.17375	1.36154702000262	9.95766051549647E-06	1.36154702003903	-0.000419032110511132
1.001604	1.36144404803614	9.9325634500251E-06	1.36144404807237	-0.000418007604677659
