EC-Lab ASCII FILE
freq/Hz	Re(Z)/Ohm	-Im(Z)/Ohm	|Z|/Ohm	Phase(Z)/deg
6999984	-12.2452051670482	30.8049800013316	33.1495375905237	-111.678183229483
5969734	-8.03837258709658	35.7805243349342	36.6723513771861	-102.661718294848
5091109	-4.67231182784699	38.8955723680081	39.1751968425379	-96.8498063083797
4341796	-1.24011649502584	41.6657406964639	41.6841916882912	-91.7048171954434
3702781	1.86451176123932	44.9072615697922	44.9459513839182	-87.6224929051363
3157797	5.29283215901065	48.666540965615	48.9535114350476	-83.7930721855999
2693047	-2.5960868032517	44.1350940061003	44.2113807703099	-93.3663375055433
2296687	0.70038885873929	49.5946530385054	49.5995983306637	-89.1909075735274
1958656	4.62915485225099	55.683013786702	55.8751026756656	-85.2476974358781
1670375	9.50570659793955	62.4429872063893	63.1623709908314	-81.3443078649903
1424531	15.4986330523856	69.4465483699133	71.1549766846087	-77.4192604894466
1214875	22.5255672049453	76.7442792331517	79.9817827565781	-73.6422654081647
1036062	31.334382172544	84.4196141436338	90.0472917876771	-69.6363736877281
883578.1	40.6904915858574	92.1613390607762	100.744372165268	-66.1778858447594
753531.2	51.9454906224589	99.0895700438551	111.879742972015	-62.3352298001555
642624.9	63.6365290945351	104.775249227436	122.586543657413	-58.7270853810986
548046.8	77.4018306616774	110.024665434524	134.523122152877	-54.8737952398171
467390.6	92.0860521703103	115.017046792384	147.338935984873	-51.3182025097297
398593.7	107.219244453035	117.998938103455	159.435616393021	-47.740275884788
339937.5	122.929948126979	119.85178104966	171.686404724653	-44.2736004749269
289906.2	138.614015949474	120.473889079753	183.6513091912	-40.9949526246939
247234.4	154.431872964043	119.597278396659	195.327193158224	-37.7554148735565
210843.7	169.686329478302	117.586921666098	206.446444771344	-34.7206579679769
179812.5	184.42813226063	114.235803281693	216.94136240136	-31.7743027206079
153343.8	197.922166743164	110.055953913439	226.463014817223	-29.0765424013903
130781.2	210.363893901658	105.262079142372	235.229830512295	-26.5825086853874
111531.3	221.684995601882	99.9165763299212	243.161591334855	-24.2617660545218
95109.37	231.855250239028	94.5698311168241	250.400299562255	-22.1897157546328
81109.37	240.553956095872	89.5032029314659	256.665208254578	-20.4087853104497
69171.88	248.703852319115	84.2551096592485	262.588136940838	-18.7151908229784
59000	255.871824472605	79.5925434967921	267.965228227895	-17.2790434615932
50312.5	264.16811283273	74.6669879390724	274.517669605255	-15.7829188782138
42906.25	264.005118889193	72.4862106095617	273.775370565416	-15.3530057262153
36593.75	267.801293095312	73.140550671719	277.609568884221	-15.2757939337435
31203.13	275.945529462551	71.8412197434316	285.143991843756	-14.5927652165901
26609.38	280.176374529823	67.8737500030376	288.280500180207	-13.6177629366159
22703.13	280.035971323049	71.5059967886461	289.021197858533	-14.3241511430768
19359.37	286.399172800634	75.1044388654994	296.083033823604	-14.69420166464
16500	287.328529559947	76.0639803922597	297.22619839475	-14.8276779125937
14112.02	294.008601703372	75.2184601774194	303.477963989206	-14.350604604478
12011.13	303.612941053176	85.2014892391533	315.341262354816	-15.6754663733149
10236.38	306.917555638519	87.3449649129462	319.104260163927	-15.8857017770823
8750.684	311.60160680346	99.6269717985892	327.140787539944	-17.7304024238634
7449.463	318.424824780584	103.043178639837	334.682335507488	-17.9317283339165
6363.206	318.936451956042	111.22669088378	337.774832027587	-19.2258337283108
5414.761	330.432651355107	123.454756525266	352.741851770212	-20.4864669283135
4620.567	332.157188760014	135.69174686582	358.804470725286	-22.2208330924863
3941.215	340.659480989405	150.247690869372	372.321434515325	-23.7998532096653
3361.769	353.438101990618	164.714168841323	389.934929643163	-24.9871191640015
2867.244	363.556738184776	178.859461007609	405.171826107746	-26.1958595764993
2442.658	375.975747443251	193.073956605927	422.652712501622	-27.1817537841588
2083.003	90.2222706764306	220.265083263546	238.026815781558	-67.7256167367463
1777.843	105.532348086815	241.516065064282	263.566094513029	-66.3966984267198
1513.548	122.657701129542	265.060316027763	292.064860568884	-65.1674747730462
1292.065	141.222501933597	290.414820776819	322.931205025493	-64.0673385106155
1101.762	162.623470125622	315.648980574017	355.078402572045	-62.7423163135959
939.101	185.755464870384	343.112099508169	390.167919693708	-61.5695862985222
801.2801	210.589183771735	372.666974030308	428.051956956807	-60.5297824919187
684.3433	237.332073584537	405.12189686659	469.521314183627	-59.6369996555459
582.9476	266.110096275106	440.807855980902	514.9040194386	-58.8811537322093
497.0677	299.521333114973	473.977445815808	560.684981190907	-57.7099134074029
423.5089	332.054403145228	513.273228722706	611.317866556806	-57.0997591922122
361.5036	370.901671432233	549.107604394596	662.636560321868	-55.9624436984554
308.1262	408.240273670041	591.773400903691	718.926894102113	-55.399793414059
262.7298	451.210183716224	627.56158136153	772.932188675186	-54.2842617756732
224.2111	495.021447624798	666.983797183831	830.610389601715	-53.4179667781692
191.2854	536.821671955581	692.930751200571	876.544655702477	-52.2346313143076
163.1722	583.081912027994	739.952869473156	942.080020579875	-51.7619354037467
139.1537	635.18232672837	800.090040234939	1021.56774649125	-51.5543413354149
118.6706	686.443292653347	866.066472191796	1105.11335540003	-51.5996966744774
101.1982	743.931130454519	918.619611087175	1182.07255138307	-50.9982055811491
86.24196	793.358029185765	965.425026688793	1249.58490893199	-50.5876354843143
73.61024	864.889793041641	1058.32317231823	1366.77806946605	-50.7433940609206
62.69291	900.589900124703	1019.22447097811	1360.10319110251	-48.536085614335
53.57697	1003.22398184394	1164.19643267833	1536.81869184617	-49.2475101198151
45.65746	1073.18637191303	1342.6281698823	1718.83082105871	-51.3640391333401
38.96512	1148.50691192175	1351.66945583325	1773.71881778499	-49.6456069254499
33.18414	-5011.92654626306	1440.61325143137	5214.86090373809	-163.963389528367
28.30617	-4706.7247149157	1033.39897865257	4818.83502426452	-167.61674031746
24.17237	3706.53953045475	2402.1362451121	4416.86470597697	-32.9464884257763
20.61345	3126.63070161405	-2360.84605483605	3917.8327732192	37.0556042225837
17.55618	745.851135614642	627.308889331961	974.582145913083	-40.0659989627145
14.98558	817.690510485662	804.825854794078	1147.32838694217	-44.5457210501464
12.76553	894.869761735293	927.08980439055	1288.52139907457	-46.0131289888339
10.8809	-3335.63973680584	1282.04940357355	3573.53370306779	-158.975791921753
9.278505	-3695.48953401918	2562.51246016146	4497.01156375298	-145.261932503738
7.923394	1082.1368021307	1015.77928531801	1484.19258016162	-43.1883267377019
6.75822	1194.19455090668	890.196270432074	1489.47978345004	-36.7021923953912
5.761429	885.47714265705	784.071133914573	1182.72452972202	-41.5242051992122
4.919708	1265.95876989949	912.710618480757	1560.67045854433	-35.7902441207712
4.191257	1058.12626167402	1168.60882144427	1576.47637571947	-47.8404804735785
3.564097	1522.47927655814	1101.9113839336	1879.40199148332	-35.8955594930942
3.051758	-3405.34078270857	3054.93167143591	4574.81730384071	-138.104715614302
2.604164	-3670.43671036031	2660.69963481234	4533.36830529477	-144.061643218719
2.214424	-4160.63935798821	3217.29971550097	5259.4616955163	-142.286276194726
1.892567	2970.18827922342	3838.35239804068	4853.34601543933	-52.2666310071656
1.607507	-4778.60988060125	2880.89702889858	5579.84588336422	-148.91534058861
1.376413	4821.52645781043	2394.49438992649	5383.37447766319	-26.4101801693459
1.17375	4443.62351808776	2029.34722544087	4885.08343141723	-24.5455864279178
1.001604	-3522.00513993291	4332.0387018566	5583.10661908738	-129.111570061929
