EC-Lab ASCII FILE
freq/Hz	Re(Z)/Ohm	-Im(Z)/Ohm	|Z|/Ohm	Phase(Z)/deg
6999984	-6.14160418614367	23.2888873799785	24.085090354337	-104.773354248803
5969734	-0.0588905997706617	24.1189044532375	24.118976349073	-90.1398975696026
5091109	4.23868017217202	22.2526082556844	22.652703674902	-79.2154831771817
4341796	7.06450377391564	19.474102493242	20.7158847623982	-70.061050005479
3702781	8.96973628142339	17.280974360936	19.4701885923483	-62.5683090312147
3157797	10.6658277281772	15.3631901310001	18.7026065597396	-55.2298541320232
2693047	12.0294588832476	13.5945262542084	18.1526588989081	-48.4951821573406
2296687	12.9015084346404	12.1415986044367	17.7163014356935	-43.2619460847983
1958656	13.6308798116953	10.9506904920298	17.4848078826481	-38.7774799068227
1670375	14.2286876835578	9.95702953376514	17.3665768167621	-34.9837716466568
1424531	14.695080538489	9.11225754060794	17.2909985113366	-31.8025953765315
1214875	15.0649546461499	8.50502014997165	17.2999487352413	-29.4471887990605
1036062	15.3882485458611	7.9868112604977	17.3374550444986	-27.4302226615953
883578.1	15.6867308872309	7.60018631219677	17.4309023836549	-25.8500852767158
753531.2	15.9443517258964	7.36949476817606	17.5650734441183	-24.8064254641511
642624.9	16.1739855561883	7.27840190791014	17.7362043037641	-24.2280646770122
548046.8	16.3929785660826	7.31255485028621	17.9500196296965	-24.0406215343352
467390.6	16.6034667139353	7.46670438023839	18.2051306291009	-24.2138094870694
398593.7	16.8006427212844	7.75239684008155	18.503006583103	-24.7702317202327
339937.5	16.995042511364	8.1742010577442	18.8586593610334	-25.6864198825367
289906.2	17.19071353409	8.74792705227596	19.28851626028	-26.9704125718469
247234.4	17.3901173918253	9.48714501915512	19.8096467287013	-28.6145894494882
210843.7	17.5836714601324	10.3955452452651	20.4267682946723	-30.5917693976595
179812.5	17.7868167045002	11.5016279486312	21.1815555129509	-32.8882358067454
153343.8	18.0005404253499	12.8370784819025	22.1090488161563	-35.4945520618601
130781.2	18.2107399036571	14.4060780354791	23.2199511671098	-38.3466729406638
111531.3	18.4429815107391	16.2735452483089	24.5961753521604	-41.4242355231177
95109.37	18.6853478099035	18.4606909029394	26.2666962405045	-44.6534829522546
81109.37	18.9497072376526	21.0417726713802	28.3169137009454	-47.9945717430009
69171.88	19.2419013236994	24.0135269830779	30.7717442586213	-51.2950034486048
59000	19.6258638499545	27.5213416970819	33.8023487447912	-54.5067871241461
50312.5	20.2244761149815	31.6106199651387	37.5268001394454	-57.3888851547911
42906.25	20.0562608630684	35.8309708779611	41.0622950389375	-60.7622314694033
36593.75	20.58333648467	41.5940353248839	46.4083776429303	-63.6709090121645
31203.13	-1.82753555164331	48.3133761563334	48.3479286197029	-92.1662774036418
26609.38	-0.900894522922846	55.7999562400237	55.8072282713448	-90.9249643404909
22703.13	-0.0556549282422063	64.3652585085443	64.3652825702084	-90.0495421253105
19359.37	0.914760818531503	74.340894017518	74.3465218465461	-89.2950140049027
16500	2.03614927869389	85.8490934192839	85.8732364872668	-88.6413264564379
14112.02	3.26436975381269	98.817479386682	98.8713828275246	-88.1079600449507
12011.13	4.75072099750622	114.243217125359	114.341952096105	-87.618768679468
10236.38	6.62244737749102	131.609983971443	131.776495211518	-87.1193786652319
8750.684	8.50078099347674	151.169369278736	151.408194909093	-86.7814481576638
7449.463	10.8397031752857	172.922736295182	173.262147893709	-86.4130935911742
6363.206	69.8331205496159	104.921586822964	126.036518942511	-56.353281128826
5414.761	286.238643411903	-2.0465816363036	286.245959759575	0.4096529059964
4620.567	22.4228732604547	253.896938673511	254.88515200583	-84.9530252418423
3941.215	28.6653741461416	291.446114231094	292.852422177693	-84.3827030525691
3361.769	34.3718243837793	333.098246530531	334.866934995356	-84.1086000433785
2867.244	-94.2197343657085	715.227895986496	721.407167653063	-97.5045824766552
2442.658	24.5114519944885	670.89282629449	671.340446906252	-87.9075967039934
2083.003	107.577799859447	522.880482677699	533.832354010004	-78.3741519508116
1777.843	165.808029109451	637.850821276715	659.049294605905	-75.4285759260441
1513.548	155.697438878009	564.848642963497	585.914398125592	-74.5894219392955
1292.065	321.056166165558	548.70284273866	635.729401131026	-59.6673091229083
1101.762	193.723087601133	474.439140810616	512.465738369729	-67.7888139815492
939.101	118.372114215279	446.980376824917	462.38881332742	-75.1670779883464
801.2801	178.864417408284	427.301562772636	463.226840071624	-67.2862726994399
684.3433	109.572904834336	277.738079267642	298.571033673921	-68.4698316168417
582.9476	203.266370434864	-232.011693310108	308.458495072493	48.7782691447588
497.0677	-435.471128744584	-34.8620873089385	436.864360072572	175.422889205661
423.5089	346.325571478365	-243.723093620573	423.488308957636	35.1355768144767
361.5036	336.981223165303	-225.812894258596	405.644928452739	33.8262479314658
308.1262	322.266710413891	239.258634757247	401.373301238251	-36.5910901493373
262.7298	-439.634099378137	-51.5500241523935	442.646073433548	173.312227279958
224.2111	329.965234792493	-243.379626103283	410.013046833682	36.4121783482298
191.2854	274.080494258737	-201.119872145632	339.954879807584	36.2711677052701
163.1722	-91.7928902587427	-412.077949606948	422.177890532321	102.55795563815
139.1537	-111.479635633587	-391.984031241843	407.528146156316	105.875667750855
118.6706	-67.2845849025288	366.428559766667	372.554834592412	-100.404894835607
101.1982	-129.225698752431	-356.45388496926	379.155183701519	109.927166911784
86.24196	352.913385407393	-204.188446307669	407.726353336704	30.0527937293578
73.61024	17.3122180658149	400.187350747124	400.561641439067	-87.5229128403426
62.69291	-34.279955895	422.562784023469	423.950966289532	-94.6379027402771
53.57697	-36.2390201265345	500.040606342248	501.352046541005	-94.1451017406851
45.65746	542.885387712861	295.024020888564	617.87030766448	-28.521294731707
38.96512	-6.61125597242864	445.329462335814	445.378534204151	-90.8505371229034
33.18414	446.24708256569	349.93148894782	567.087740702996	-38.1023121706185
28.30617	342.866246383527	268.38950897565	435.419557940752	-38.0531982284199
24.17237	-35.5890493123225	-459.665354798323	461.041016432186	94.4272261590075
20.61345	-592.755725209406	284.446667411267	657.471867360045	-154.364971361218
17.55618	-49.824525762639	557.134687048525	559.35815260004	-95.110363738142
14.98558	960.548090564782	73.2836456104561	963.339569934511	-4.36284786454994
12.76553	-331.34538527761	305.57276404086	450.737704733406	-137.317185124895
10.8809	834.767685503752	227.929989403755	865.326047701608	-15.2721155446987
9.278505	348.039985111208	379.3404514865	514.811625131166	-47.4640185542877
7.923394	522.856642341408	210.028698913906	563.463506190063	-21.8850626358058
6.75822	1342.45605951975	732.888288500649	1529.48145302998	-28.6314917044445
5.761429	407.770509269666	166.052459957946	440.284235111965	-22.1571545631355
4.919708	510.745876471151	94.8913627081427	519.486016220737	-10.5249654063895
4.191257	480.377162720772	331.147575561405	583.456026846802	-34.5804036293068
3.564097	-3.21381281455208	463.166536721221	463.177686564387	-90.3975566900729
3.051758	-212.486112651421	358.965034392272	417.140556630445	-120.623028439727
2.604164	-313.427899968849	470.023637259815	564.94182714845	-123.696717827486
2.214424	235.511254933105	432.494017388292	492.459771226879	-61.4298418922897
1.892567	-703.767751982391	469.153138778559	845.809503585838	-146.3113620013
1.607507	429.208728437427	110.523840157968	443.210617889663	-14.4402896881498
1.376413	-195.074686176721	389.629989371372	435.735770627662	-116.595593506194
1.17375	-173.674379318589	207.588047471835	270.657694301984	-129.916862242985
1.001604	335.478438298468	369.479982684698	499.060357239346	-47.7613492724929
