EC-Lab ASCII FILE
freq/Hz	Re(Z)/Ohm	-Im(Z)/Ohm	|Z|/Ohm	Phase(Z)/deg
6999984	3.60721311579933	2.15883998820934	4.20387637276436	-30.8996196209832
5969734	5.87113430732674	2.81217578456693	6.50988100490122	-25.5936465563491
5091109	9.05891595692207	-1.36230789700585	9.16077732077479	8.55223161070843
4341796	5.03222857342105	-8.29457775452132	9.70171863851736	58.7552749046191
3702781	2.98900080378093	-7.56220543854203	8.13148675825754	68.4333342052919
3157797	0.604316153033737	-14.6302997652367	14.6427753255147	87.6346969061726
2693047	2.66783479101329	-9.74082560159416	10.0995557265066	74.6833297219174
2296687	0.0502455088573201	-10.797682692096	10.7977995966933	89.7333840139573
1958656	2.88213082025271	-13.9387751708069	14.2336267805276	78.3175437206527
1670375	6.81258864499617	-9.19798253475521	11.4461454977469	53.4740879942023
1424531	0.351553156347764	-11.9373552174008	11.942530686925	88.313136231387
1214875	6.29274515527829	-4.46596967057535	7.71644521057315	35.3633733746649
1036062	13.0865486243425	3.63216767208007	13.581251668951	-15.5119785960523
883578.1	2.96451193650872	7.21776228510953	7.80284713588907	-67.6708419715318
753531.2	4.15229501637813	5.18791918876824	6.64500258933195	-51.3269974118849
642624.9	-6.55522792734844	7.16617156928448	9.71210729656083	-132.450596204613
548046.8	4.44929253846931	1.59768916346173	4.72745330552526	-19.75262258431
467390.6	7.28778670852076	-4.00659026730297	8.31652575772713	28.8005772793656
398593.7	3.79101951042218	-0.853667499940372	3.88594610472869	12.69028177617
339937.5	2.57658515418131	-2.6183724061794	3.67350855643338	45.4608664292632
289906.2	4.65612380891014	1.08628782010847	4.78116200855147	-13.1323760108929
247234.4	1.26575962396975	2.90050857228626	3.16466386897221	-66.4239139219885
210843.7	1.92122991965501	0.754381669567001	2.06402909561767	-21.4377315668354
179812.5	9.32898082094422	5.68542108133744	10.9249208706362	-31.3596531642717
153343.8	-0.309157740377412	1.96731007262289	1.99145359731999	-98.9308463160743
130781.2	1.18261208569515	0.768610009774599	1.41043705721239	-33.0208755363181
111531.3	2.7313581346343	1.2875029227712	3.01959948267603	-25.238172081094
95109.37	2.01189357207914	-1.07168013220371	2.27952057484321	28.0429952939097
81109.37	2.69873248239066	11.0163283042869	11.3420741630154	-76.2350140226907
69171.88	4.22142241942979	1.99548098959611	4.6692988363462	-25.3002635173523
59000	3.23251047780071	3.12135689011199	4.49355013597723	-43.9977785923509
50312.5	1.39721726476147	2.16970354343974	2.58066455614876	-57.219805309448
42906.25	1.16236152739597	-0.962841435062328	1.50935348723988	39.6366301206214
36593.75	1.0360032755748	2.12032775544037	2.35989249278278	-63.9596224451309
31203.13	1.73061911648892	0.968685901439868	1.98327882608705	-29.2372112263009
26609.38	0.578340486583048	-1.0725112130769	1.21850647129869	61.6646972925139
22703.13	1.44840459613325	-1.63412904872491	2.1836331244022	48.4479360575541
19359.37	1.64976218188679	-0.530158421181268	1.7328540643497	17.8150397493602
16500	1.74549948462675	-3.5500377090782	3.95594946715823	63.8173570245999
14112.02	3.46420401394814	-1.11311507995709	3.63864461461713	17.8132062844157
12011.13	1.10790717939623	0.184902538734842	1.12323072740568	-9.47496868061072
10236.38	0.672745149901292	-8.37356738953046	8.40054860492597	85.4066359282474
8750.684	5.18911455592722	-6.55277387023132	8.35857375805957	51.6244427216491
7449.463	4.50163191927113	-7.59075222298627	8.82520307116905	59.3302953478124
6363.206	3.03528466618868	5.58785358912647	6.35901413257698	-61.4894867987629
5414.761	15.370449966718	-4.94122793635896	16.1451684939623	17.8213422851066
4620.567	6.10640752672949	18.4980636403541	19.4799017278088	-71.7313938656239
3941.215	21.1287121498022	12.9262841286157	24.7691602296667	-31.4577779162658
3361.769	20.0861584603347	-14.6389958896531	24.854656753835	36.0849449626967
2867.244	2.98962058273664	-16.9983753360773	17.2592756306539	80.0250152459221
2442.658	16.1311752585303	2.75382209861595	16.3645455596006	-9.68781677192387
2083.003	14.8906002827869	-13.3156618233635	19.9759061515595	41.8041237300233
1777.843	21.296646292576	3.66902837363987	21.6103889950566	-9.77507251454434
1513.548	17.5008906813764	-0.861856092492927	17.5220994908046	2.81933394193521
1292.065	25.6498907089867	1.64812758638877	25.7027861899051	-3.67647250091517
1101.762	11.6023622802152	12.5489132097769	17.0906416856674	-47.2444210201479
939.101	12.2191481057974	-6.66591071342529	13.9191215983901	28.613787308575
801.2801	14.1668607192756	-4.42661887049416	14.842334629834	17.3520898508944
684.3433	12.5393847599025	16.8800911783997	21.027925440898	-53.3931691647959
582.9476	18.1720117681195	7.12005443800336	19.5170998588623	-21.3959572139924
497.0677	13.7742739808385	4.86372963276327	14.6077544352246	-19.4482502148026
423.5089	13.9362636275951	17.1975866701229	22.1354112492679	-50.9800199007316
361.5036	12.3960173814104	-4.926958304417	13.3392715338467	21.6759903363626
308.1262	6.50965414083144	12.5062183213205	14.0989749178363	-62.5024188847746
262.7298	8.12326932193431	-17.0080059337435	18.8483360092856	64.470185136372
224.2111	17.4335945812911	0.470741564783256	17.4399489003161	-1.54672363218305
191.2854	25.30509361104	1.28787879668973	25.3378451028982	-2.91350070148055
163.1722	15.3515253020487	11.4719180967152	19.1644001710772	-36.7700993532701
139.1537	9.15932158450128	-5.63284057458859	10.7527701001669	31.5908702824968
118.6706	13.7802784467533	-8.1040677472659	15.986619033502	30.4594333357181
101.1982	14.952424077688	-1.57295763296684	15.0349320422186	6.00528524232518
86.24196	27.5988168961119	-15.2624825004545	31.5378830320266	28.9431291787941
73.61024	223410.327428811	19513.361157337	224260.887507174	-4.99172576752773
62.69291	308062.433429476	-48443.0195265101	311848.022330327	8.93661753630579
53.57697	315662.728891333	-69090.915209142	323135.440605886	12.3459627891861
45.65746	534566.676212284	128861.054315813	549878.807225767	-13.5529843282984
38.96512	342483.094170739	-42742.6321774251	345139.975079993	7.1138554435002
33.18414	381615.747223652	-92055.2016008192	392561.764147801	13.5620714389292
28.30617	416965.641540531	-396203.07798862	575184.514076104	43.5373898152295
24.17237	342399.22896118	-18090.7873649925	342876.812544529	3.02443106019583
20.61345	377320.101610433	-132145.979163805	399791.219123768	19.3014011319106
17.55618	470653.077799805	131374.778477371	488644.709438675	-15.5961690144688
14.98558	142939.667572392	-1068411.59475386	1077930.92745787	82.3798144881303
12.76553	649794.020125839	312873.437525311	721194.881082918	-25.7106445381148
10.8809	8.01305877583593	12.6776234841881	14.9977080966339	-57.7045276041287
9.278505	32.9199973687079	-22.7440547863503	40.0127261615632	34.640157397761
7.923394	102327.992011733	83760.1992259035	132237.622950189	-39.3019139062839
6.75822	29753.2254679812	-22873.0850254795	37529.0879762797	37.5516367041403
5.761429	566465.571282901	277500.02605809	630784.834877238	-26.0992989992859
4.919708	579140.160701023	-266923.870040011	637692.463601338	24.7448267715966
4.191257	1431717.30568665	235207.047172548	1450908.9559453	-9.32939729360183
3.564097	1297557.86284219	-721278.660565872	1484553.57384342	29.0685439105703
3.051758	1993421.18304106	92920.8316493137	1995585.70198105	-2.66883912859276
2.604164	2678137.8887403	-1643960.82109572	3142456.0032567	31.5434637545277
2.214424	2175989.64721589	-1163629.99955343	2467582.97138139	28.136043639839
1.892567	3032929.20522711	-1443020.24655913	3358715.08108371	25.4443738619837
1.607507	3546715.59335057	-1787428.63811051	3971661.19356292	26.7466095274908
1.376413	4145393.24778499	597177.499524497	4188186.49832117	-8.19752489889884
1.17375	4957336.27643437	-10203100.9348211	11343652.4825031	64.0864753009728
1.001604	10892135.2485667	-5459530.03008877	12183803.9389392	26.6216760802626
