EC-Lab ASCII FILE
freq/Hz	Re(Z)/Ohm	-Im(Z)/Ohm	|Z|/Ohm	Phase(Z)/deg
6999984	48.0845005167055	48.2742153285683	68.1360334590298	-45.1128060278771
5969734	45.5937214039678	42.4116573973813	62.2698652211122	-42.9292237635879
5091109	45.0002588479069	38.7881554885052	59.4099680405492	-40.7598279343061
4341796	46.53648969488	35.4539738248967	58.5032403640869	-37.3020792068931
3702781	48.8114801581253	31.4412213060315	58.0612692975439	-32.7870342713914
3157797	50.3914097748976	28.001076911965	57.6485428031917	-29.0596859830576
2693047	51.6958798658082	24.9499316813638	57.4017690145939	-25.7633050890653
2296687	53.0373733290963	22.3829975353903	57.5670178862795	-22.8808690133211
1958656	54.1799311454857	19.9237959368221	57.7271390548821	-20.1901847228734
1670375	55.2839151755108	17.7310152675792	58.0577314364952	-17.7824212620834
1424531	56.1287731379889	15.5920604390004	58.2541974685882	-15.5248071210853
1214875	56.8006984143383	13.7320610946214	58.4370502529263	-13.5909714301156
1036062	57.334573702674	12.189505923688	58.6160165512036	-12.0025490755185
883578.1	57.7516042299213	10.8276934663573	58.7578653197243	-10.6189534031028
753531.2	58.1330388628274	9.64418520012454	58.9275870505598	-9.41949490688615
642624.9	58.4416367775203	8.68874745552238	59.0840015704883	-8.45644452651846
548046.8	58.7080505659766	7.86944277864323	59.2331269721902	-7.63462824265051
467390.6	58.9456668741952	7.20107089878983	59.3838956732631	-6.96500100832522
398593.7	59.1503986101032	6.69683997745258	59.5282900931793	-6.45936002454431
339937.5	59.343843601536	6.32388433361229	59.6798398663106	-6.08268038129146
289906.2	59.5233048580721	6.04890532008895	59.8298677651756	-5.80261861103151
247234.4	59.7132433884587	5.91669877714144	60.00565606998	-5.65869333176803
210843.7	59.8831760311066	5.91549677629981	60.1746447740484	-5.64160028186589
179812.5	60.0299139216349	5.99103095478466	60.3281279117799	-5.69929025634203
153343.8	60.2591339635397	6.19081142531677	60.576310321277	-5.86578720794468
130781.2	60.4618259511944	6.51385736869873	60.8116989992245	-6.14904608270146
111531.3	60.6918921367352	6.95956867175685	61.0896175076747	-6.54156227941173
95109.37	60.9308792583448	7.49827852334409	61.3905222978974	-7.01566193657068
81109.37	61.2651249451811	8.18766896259879	61.8098168383449	-7.61208808299007
69171.88	61.4984505142228	9.04455842088782	62.1599827274683	-8.36649588226087
59000	61.8378988295643	10.026495523156	62.6454814342686	-9.20987829753754
50312.5	62.2348721994003	11.2045618997568	63.2354451636198	-10.2060112609961
42906.25	62.6562444496033	12.5403940608897	63.8988767642346	-11.3179733723183
36593.75	63.1216030750809	14.1293806591341	64.683662331216	-12.6173156009601
31203.13	63.6293747489914	15.9137351180847	65.5892086882907	-14.0416600317655
26609.38	64.2592669788914	18.051518123947	66.7466156388743	-15.6909534225173
22703.13	64.9650926066541	20.4768571677563	68.1158200189929	-17.4947391531482
19359.37	65.7199624223395	23.2582818975419	69.7141387210604	-19.4888614633215
16500	66.5972767583972	26.446258169885	71.6561361142419	-21.6583833433182
14112.02	67.5850160867418	30.0278280552767	73.9554247987422	-23.9554398989331
12011.13	68.7269898232399	34.2555574669606	76.7909001609954	-26.4930184073659
10236.38	70.0175164899947	39.0848806092251	80.1877827830653	-29.1709429277161
8750.684	71.4759217710236	44.5135843183087	84.2037207128085	-31.9137148113191
7449.463	73.1283278224888	50.8826571745265	89.0887037241747	-34.8301788505161
6363.206	75.0432755223442	57.9600644800582	94.820157538653	-37.6808902531439
5414.761	77.2305061852741	66.4923367122853	101.910656592398	-40.7271177737821
4620.567	79.7682567966786	75.930020956675	110.128755894462	-43.5878444786687
3941.215	82.6232527568341	86.7285753461028	119.785006063715	-46.3886569869185
3361.769	86.10468337058	99.0360981521622	131.233247447255	-48.9954144195355
2867.244	90.3641912381181	112.927922776451	144.631956360699	-51.3334317279242
2442.658	95.0501724802225	129.305942792036	160.482279800162	-53.6811492117846
2083.003	100.433963346941	147.630205031046	178.554357076728	-55.7722446287838
1777.843	106.849206751113	168.457635123171	199.486159456324	-57.613885680939
1513.548	114.284487195758	192.527775511344	223.892582183832	-59.3066321908735
1292.065	123.207111902133	219.416815604858	251.642069999118	-60.6848821670607
1101.762	133.593783770039	249.901239414434	283.368891240492	-61.8716496481151
939.101	145.172038120693	285.435016956573	320.231275107718	-63.0421451277879
801.2801	159.811219900802	323.96921052963	361.241851641492	-63.7432735816895
684.3433	176.398008622879	367.914161085707	408.016038132715	-64.3844133544409
582.9476	195.837891057878	418.273071148327	461.849371139391	-64.910732385048
497.0677	218.640587558728	474.559718152153	522.504193878553	-65.2633879079511
423.5089	245.235690108674	538.131076052461	591.376021424996	-65.5004205477967
361.5036	275.904127015424	608.406790705005	668.04334461179	-65.6063604441164
308.1262	312.32770059055	687.522717930828	755.139775291418	-65.5686598211968
262.7298	354.552747357305	775.942607866003	853.108774635748	-65.442838289386
224.2111	402.905563487658	873.808070269321	962.223174090659	-65.2459699909791
191.2854	459.394563693582	982.265089168086	1084.38372846037	-64.9350257955616
163.1722	524.725771310237	1102.22192398552	1220.74989444664	-64.542664297456
139.1537	599.980256766144	1235.8054035169	1373.75081578529	-64.1035494432677
118.6706	685.46687867664	1381.63620296417	1542.33052200362	-63.6127537959587
101.1982	785.543392712419	1541.44351460294	1730.06547001714	-62.9959074337208
86.24196	898.916021722934	1719.26485915629	1940.08290287809	-62.3972238335886
73.61024	1027.53369077729	1908.46449170795	2167.50137296207	-61.7015957745203
62.69291	1173.25770552658	2118.36691807025	2421.57222546674	-61.0201197729917
53.57697	1334.12458375229	2341.87134110351	2695.22722293579	-60.3305650665518
45.65746	1518.75027831471	2587.66152292283	3000.43239635495	-59.5904754825813
38.96512	1721.78470827011	2852.66161425194	3331.9995298708	-58.8860238734679
33.18414	1950.29605629134	3138.41897662403	3695.04105254859	-58.1420954722701
28.30617	2200.81980466162	3446.27451414419	4089.06050816451	-57.4373573842591
24.17237	2476.10873335167	3778.74636582748	4517.74706647404	-56.7642752144292
20.61345	2781.73850146325	4137.02046740739	4985.27907325866	-56.0830570439084
17.55618	3117.59758270597	4527.43558819574	5497.00715780464	-55.4486552548278
14.98558	3479.16142710121	4941.19449812219	6043.17526670391	-54.8501091645664
12.76553	3877.98070547248	5396.25301314617	6645.16974455175	-54.297342402136
10.8809	4323.04853778514	5886.02155662152	7303.01296897791	-53.7041993038827
9.278505	4796.2949761167	6420.77394949912	8014.41099573068	-53.2404014278802
7.923394	5275.19393987484	6977.76593016469	8747.39323910039	-52.9107043238281
6.75822	5825.90021738807	7612.25802480833	9585.80124868137	-52.5720347007042
5.761429	6418.80085878959	8286.99246988519	10482.1395077881	-52.2399483626464
4.919708	7042.89938925885	9043.0629129579	11462.0861388727	-52.0879025525525
4.191257	7756.86529419685	9850.87439185715	12538.2887778382	-51.7820748702455
3.564097	8486.1356381789	10759.9459357479	13703.6832497613	-51.7379227425527
3.051758	9295.71408508226	11738.587462128	14973.4677332148	-51.6245172061625
2.604164	10125.2914209506	12819.0919385685	16335.5637946368	-51.6961942263334
2.214424	11108.6301930413	14053.4121164249	17913.6835095361	-51.6751151090505
1.892567	12077.7773922809	15396.187523157	19568.2216101951	-51.8870407383135
1.607507	13204.162043247	16902.8731165884	21448.9397141166	-52.0038095369612
1.376413	14391.0250867554	18542.5317811971	23471.8360573758	-52.1846407466824
1.17375	15650.4362975541	20404.0945020236	25715.0389607192	-52.5109172926976
1.001604	17031.976453895	22402.9618375488	28142.1555858947	-52.7558853980058
