EC-Lab ASCII FILE
freq/Hz	Re(Z)/Ohm	-Im(Z)/Ohm	|Z|/Ohm	Phase(Z)/deg
6999984	24.4164737909976	5.08579755995762	24.9405198263257	-11.7661123117799
5969734	3.40766404059554	-9.21413788188109	9.8240781307909	69.7040972991125
5091109	10.1414376482602	-5.73420041328912	11.6503138135122	29.4848092078888
4341796	8.34031267990324	-6.36444606210888	10.4912815840605	37.3470506642329
3702781	5.52556012283883	-7.03260504700654	8.94367644865849	51.8430662275372
3157797	3.96181499098107	-5.04629873784174	6.41569240022505	51.8647813279727
2693047	3.28430494264851	-3.63355856747789	4.89789820429105	47.8901673735722
2296687	2.35497886808852	-3.88479997748144	4.5428621302196	58.7756149063462
1958656	1.63618440859506	-3.30521760410097	3.68802966763942	63.6631740819302
1670375	1.21630512599839	-3.06284034111472	3.295510448275	68.3411452960553
1424531	1.10343821238205	-2.44107599553703	2.67888557137702	65.6756310415477
1214875	1.11525555966661	-1.32609091344515	1.73271811732003	49.9358329669955
1036062	7.21899865020125	5.06486795028384	8.81855027005119	-35.0535980131494
883578.1	13.8634493241465	12.8418074101365	18.897281410886	-42.8091489984623
753531.2	2.71097008673065	14.3987693514139	14.6517547633846	-79.3372940044266
642624.9	-0.494556490286322	13.2361598763355	13.2453959696945	-92.1398067535067
548046.8	4.12879262861989	2.48036998932047	4.81655103305961	-30.9953207615039
467390.6	2.1476617982852	0.0743920270860896	2.14894983038405	-1.98385318761119
398593.7	1.34977098718422	-2.96709223015503E-05	1.34977098751034	0.00125948671145468
339937.5	1.75316699243893	-1.24262363888089	2.1488852950502	35.3285547294548
289906.2	-0.571548388864187	-1.7998394465313	1.88840927611133	107.617516743832
247234.4	-0.258630665234869	-2.57779216013438	2.59073391953904	95.7293300442218
210843.7	-0.432785635969207	-0.934590971541503	1.02993382835411	114.847671160588
179812.5	1.98380725334956	-1.02009408690365	2.23071359985501	27.2126935050959
153343.8	0.601767219679145	-0.3574837134383	0.69994170618274	30.7127035994777
130781.2	0.422113295062175	-0.303219433415401	0.519732295195328	35.691070856012
111531.3	0.405409398934318	-0.245958658695655	0.474186084287225	31.2448553404393
95109.37	0.408103452058555	-0.231758133967102	0.469318932328563	29.5918377240192
81109.37	0.38226820890069	-0.199705425550259	0.431290204537909	27.5835690858841
69171.88	0.374343969176243	-0.16041647539379	0.40726754454092	23.1964369781453
59000	0.366935108638181	-0.137022645165546	0.391684285157672	20.476875614823
50312.5	0.353768832215327	-0.0995038016664017	0.367496113167286	15.709586010015
42906.25	0.39017278315903	-0.112750316049335	0.406137211404334	16.1179903263842
36593.75	0.373256596350238	-0.101241309938625	0.386743182948392	15.1756580998885
31203.13	0.366873814908767	-0.0885670228984887	0.377412921891678	13.572098200344
26609.38	0.362092827165992	-0.0782011432383331	0.370441134714874	12.1869841897711
22703.13	0.360314680978374	-0.0680525992476209	0.366684913233289	10.6954604574866
19359.37	0.357245643964967	-0.0626069944393985	0.362690068632543	9.94009581869792
16500	0.354977709633988	-0.0549710913953457	0.359208846252689	8.80278032494119
14112.02	0.352377634587529	-0.0497785877327629	0.355876249775355	8.04067770248177
12011.13	0.350702789681743	-0.0449749934135058	0.35357488135203	7.30786468250945
10236.38	0.349371951007924	-0.0410398732549381	0.351774119781238	6.69969290128989
8750.684	0.347140165309462	-0.037751351156739	0.349186853826486	6.20650229039718
7449.463	0.345407446779664	-0.0298176520080501	0.346692077587764	4.93388510515148
6363.206	0.343226529733617	-0.0314680244037389	0.344666051813717	5.2384018600232
5414.761	0.341359696166938	-0.0289423733829431	0.342584446734264	4.84626438841551
4620.567	0.339327553716135	-0.027005181467252	0.340400453197489	4.55026006750605
3941.215	0.337996206734958	-0.0245402542567045	0.338885909778208	4.15268006980241
3361.769	0.336866415714066	-0.0238734802230739	0.337711304362178	4.05373312337229
2867.244	0.334796733206599	-0.0219516061702905	0.335515611528385	3.75134089600492
2442.658	0.333691304364078	-0.0211064283962935	0.334358143205527	3.61921453661657
2083.003	0.332349480142328	-0.0204619884232723	0.332978782989411	3.523121492964
1777.843	0.330578215275967	-0.019302111284643	0.331141250699892	3.34164570572324
1513.548	0.32932423639534	-0.0183593771341482	0.329835594510549	3.19085868390527
1292.065	0.32761058969463	-0.0172456483172247	0.328064187112743	3.01330823051895
1101.762	0.326663239630471	-0.0162015976945462	0.327064770181275	2.8393863188492
939.101	0.324574698674808	-0.0158934463238956	0.324963592816015	2.80336274339594
801.2801	0.320260894184225	-0.0119527272325227	0.320483865478396	2.13739212571917
684.3433	0.343520415302175	-0.0170870392402701	0.343945115737057	2.84760081475799
582.9476	0.337766762344127	-0.00962796944807012	0.337903956088305	1.63276183948887
497.0677	0.312304167771775	-0.0275679886637792	0.313518559588722	5.04458799962209
423.5089	0.317396292393428	-0.00154189253018047	0.317400037582967	0.278337339183941
361.5036	0.317707465010332	-0.0180515452694656	0.318219879344309	3.25194286035976
308.1262	0.327869176375822	-0.000830265873654272	0.327870227618765	0.145090274348317
262.7298	0.327041336879451	-0.0178295664258331	0.327526990440226	3.12054931399138
224.2111	0.33282503835367	-0.0108884823518253	0.333003100891039	1.8737822655886
191.2854	0.35268066430934	0.182735690502146	0.397210251077403	-27.3901901004495
163.1722	0.305794492014182	-0.017587596501098	0.306299844754935	3.29170785021522
139.1537	0.282824968682198	-0.00584374635949129	0.282885334157853	1.18368038445431
118.6706	0.310136627770028	-0.0112255143908329	0.31033971717765	2.07293781151372
101.1982	0.313121873851469	0.0232631080139414	0.313984840523748	-4.24893239572203
86.24196	0.317397849145542	-0.0492035245934612	0.321189012070208	8.81194192008533
73.61024	0.383743008050591	0.0952204785868974	0.39538036846818	-13.9356857579781
62.69291	0.395031208246183	-0.0342094393019559	0.396509698778975	4.94942830421779
53.57697	0.314547927583524	-0.0170524978660446	0.315009819577996	3.10312222969468
45.65746	0.278136119694813	-0.00735281920549725	0.278233292452856	1.51432114999502
38.96512	0.308506047523212	-0.0261793113852005	0.30961482151699	4.85040458144313
33.18414	0.291664506709558	-0.0100249366379029	0.291836741738808	1.96856495476371
28.30617	0.300063071259602	0.00499755336779561	0.300104685523916	-0.954173545247731
24.17237	0.29494743310674	-0.00784159380785324	0.295051654612717	1.52293041382466
20.61345	0.285116276940298	-0.0109895561875499	0.285327989726728	2.20732277053047
17.55618	0.284692727215915	0.000859286966936174	0.28469402400424	-0.172935106459203
14.98558	0.29354268205144	-0.00944633900955967	0.293694636496202	1.84316855763697
12.76553	0.293898232596855	-0.0102642779545692	0.294077415871201	2.0002191540713
10.8809	0.295154384008012	-0.00807076407484604	0.295264707731725	1.56631764286094
9.278505	0.288762318764883	-0.0125622187283615	0.289035440868159	2.49100563405565
7.923394	0.295357475552802	-0.0115248029536613	0.295582238045598	2.23453883875698
6.75822	0.288386702078647	-0.0122429460135901	0.288646461372541	2.43093100923618
5.761429	0.302989602741985	-0.00967923330446174	0.30314416855204	1.82973498917233
4.919708	0.298174371868334	-0.00251599274147026	0.298184986641767	0.48344981271347
4.191257	0.288742370064772	-0.00881556471913303	0.288876912286079	1.74874855074618
3.564097	0.284072071678213	-0.00144110288014006	0.284075727025494	0.290660057075379
3.051758	0.284879769951332	-0.00787373913843161	0.284988559587124	1.583184374434
2.604164	0.280596170303167	-0.00719788225529816	0.280688475534293	1.46943506336668
2.214424	0.281449947111921	-0.00151503014603554	0.281454024745866	0.308417165062073
1.892567	0.294405615458293	-0.00127223379830914	0.294408364338063	0.247594371953725
1.607507	0.282897502875271	-0.00363993182544215	0.282920918697713	0.737161769637366
1.376413	0.285599151767529	0.00895582171739054	0.285739535649104	-1.79609319927343
1.17375	0.300078384816806	-0.005777057428411	0.300133989122849	1.1029122429481
1.001604	0.271704559614479	0.013369278149003	0.272033279790403	-2.81697851243942
