EC-Lab ASCII FILE
freq/Hz	Re(Z)/Ohm	-Im(Z)/Ohm	|Z|/Ohm	Phase(Z)/deg
6999984	38.8291569186583	78.0229806038921	87.1509548388836	-63.5421653955986
5969734	39.4844585655753	73.1669508712793	83.1409957122046	-61.6465345304082
5091109	42.3945689127137	74.4648923386714	85.6873366624542	-60.3461495185793
4341796	47.0242282598553	76.4833497474921	89.7829651550459	-58.415568227886
3702781	55.9738387185042	77.2254218920992	95.3773369689983	-54.0649850978986
3157797	64.1710770587306	78.7132875934907	101.556431478529	-50.8113296666892
2693047	73.5914428101703	79.860594312211	108.597490665218	-47.3394689887822
2296687	84.7985874044744	81.5038607062778	117.616664362762	-43.8650242712191
1958656	95.1099732658484	80.097929728615	124.344623371662	-40.1027828531619
1670375	106.517030912356	77.4747348888601	131.712612989352	-36.0301186312806
1424531	116.455239871944	73.1341649744572	137.515195451787	-32.1289177591703
1214875	125.072434928828	68.4397245687274	142.573173767259	-28.6875097880745
1036062	133.10330602493	63.0905416016657	147.29869827788	-25.3608022379859
883578.1	139.636508480882	57.5028987276555	151.013038717901	-22.3820691456141
753531.2	145.210814236864	52.0011473143848	154.241044775201	-19.7028497406469
642624.9	150.191525217735	46.3256472531989	157.17366140883	-17.1420549823554
548046.8	151.297752921577	41.851025515579	156.979356527616	-15.4621713749216
467390.6	157.268825560027	37.8498226672492	161.759366248055	-13.5320026138408
398593.7	159.335567688668	33.1062930649506	162.738593367316	-11.7377451713429
339937.5	159.44860017879	29.0322811756527	162.070137438203	-10.3193251241391
289906.2	162.075972371304	28.1025562491043	164.49429925635	-9.83678579865788
247234.4	162.237616180835	25.8355922102172	164.281836880686	-9.04811512323825
210843.7	163.097487155521	23.293590702019	164.752486124606	-8.12801938877152
179812.5	164.608546750128	22.0749056930536	166.082133670502	-7.63810609646695
153343.8	165.028505846726	20.1335671602957	166.252122598784	-6.9557420103559
130781.2	165.947974146964	19.9101501018689	167.138099189145	-6.84154579220838
111531.3	167.46710974357	19.126610583038	168.555807014353	-6.5155843729805
95109.37	168.012673185903	19.0288260132111	169.086825537988	-6.46168623319254
81109.37	168.46028077838	19.4691679592721	169.581587151898	-6.59249822739886
69171.88	169.725289037619	20.3337162123231	170.93897669609	-6.83168518855418
59000	170.453112365632	20.8192451398161	171.719843009835	-6.96364882792871
50312.5	171.634856861244	22.3184823718677	173.079862332864	-7.40886568263511
42906.25	172.651168428879	23.4956995347771	174.242571883239	-7.74964379044507
36593.75	173.988125762293	25.3825618271569	175.829867631142	-8.30014164000677
31203.13	175.255882264323	27.6135744452013	177.417963470126	-8.95399534623211
26609.38	176.619917470907	30.1495258426748	179.174744749276	-9.68718078877127
22703.13	178.163980992432	33.1090456571439	181.214273795964	-10.5274520432204
19359.37	179.915776038082	36.484781719834	183.57784660609	-11.4634530860799
16500	181.830600606545	40.4105312716342	186.266954542647	-12.5299280780467
14112.02	183.832117302457	44.7827067910199	189.208187400638	-13.6909582949439
12011.13	186.114133644156	49.9712602955712	192.705987446272	-15.02933040859
10236.38	188.505996518583	55.7964132729089	196.590311199675	-16.4883731634686
8750.684	191.265415882626	62.2405916116501	201.137640825684	-18.0256533052723
7449.463	194.052056332251	69.867600393645	206.246653673559	-19.8011922166032
6363.206	197.263945339898	78.4016938839037	212.273148878816	-21.6751308996699
5414.761	200.925773841631	88.3238283308425	219.481810738098	-23.7295398290469
4620.567	204.945594468351	99.353565721309	227.758265960918	-25.8631888214904
3941.215	209.276898437352	112.426388870564	237.563703317726	-28.2452952322145
3361.769	214.16563709495	126.769519626356	248.872319108781	-30.6222564819384
2867.244	219.560341742175	143.337455512879	262.206731070824	-33.1380511350004
2442.658	225.669405554743	162.547067470774	278.115497135236	-35.7647704171997
2083.003	232.695401316413	184.308911801935	296.844950712354	-38.381365535159
1777.843	240.788456855799	208.891290872081	318.770532448031	-40.9426301188426
1513.548	249.941882481965	237.324581088065	344.664911772658	-43.5167117684032
1292.065	259.999048298482	269.064021824988	374.158994221379	-45.9816105805237
1101.762	271.894771064794	305.749030816885	409.156738155247	-48.3541256777573
939.101	285.561586353083	347.743996081698	449.968117105376	-50.6077291141895
801.2801	301.442661284388	394.757459913941	496.690175260112	-52.6341089482287
684.3433	319.212025103486	448.03396825121	550.118854137535	-54.5311607487509
582.9476	340.225417198271	509.430968865254	612.595499939992	-56.2628683887543
497.0677	365.552322967757	578.556561498617	684.365542440753	-57.7138668161893
423.5089	393.439199680756	657.06897969633	765.855108962922	-59.087705017354
361.5036	425.45561878541	745.316708404588	858.201304696704	-60.2806031468163
308.1262	463.686128384184	845.033565880245	963.891359604492	-61.2455786653757
262.7298	507.744534484584	958.01377137128	1084.24854089641	-62.0765393556539
224.2111	557.97221415191	1083.54007250421	1218.76662265095	-62.7536608779395
191.2854	616.872322399356	1225.44107888115	1371.94653684164	-63.2798653169877
163.1722	684.054889804551	1385.45133221317	1545.12345338383	-63.7225325095057
139.1537	762.98931658135	1563.78152755893	1739.99004685424	-63.9916507858787
118.6706	853.698375681595	1764.53049253596	1960.19610644716	-64.1818154780826
101.1982	956.44804324075	1986.35221555218	2204.62876322707	-64.288729402654
86.24196	1078.26484871744	2241.69233798664	2487.53685845409	-64.3122206722544
73.61024	1215.53783590896	2518.46769239208	2796.46415105735	-64.2357308066044
62.69291	1372.38866430755	2829.47590523144	3144.73918540236	-64.1250926563647
53.57697	1549.97262163439	3169.32174814554	3528.03280470639	-63.9388240771676
45.65746	1751.55776244956	3551.6609605761	3960.08209183568	-63.7490604554203
38.96512	1981.39864466183	3970.5893142948	4437.51282723327	-63.4799421790473
33.18414	2243.4953905538	4441.42019485499	4975.89036401546	-63.200281479244
28.30617	2545.9889736619	4947.63157479299	5564.27156543393	-62.7702193582188
24.17237	2865.27514887752	5520.17390944181	6219.49529055672	-62.5681944396557
20.61345	3232.07386656483	6149.03338847078	6946.71959211395	-62.2725482173682
17.55618	3643.82840705371	6847.65596801745	7756.79558299538	-61.9813137701032
14.98558	4105.06867945536	7609.6570291617	8646.29799188736	-61.6551288973352
12.76553	4624.34536372582	8453.88703849496	9636.01453416533	-61.3209799112149
10.8809	5205.64470196912	9400.85481629955	10745.9205301492	-61.0248753226913
9.278505	5832.04808762509	10420.7504445631	11941.7262037041	-60.7661275824102
7.923394	6530.38419915915	11547.2858421779	13265.9612584083	-60.5103592226638
6.75822	7294.72976407357	12798.1047378588	14731.0748831192	-60.3175016288228
5.761429	8171.06620347144	14219.4315119385	16399.9559579964	-60.1165653300704
4.919708	9160.32979953043	15762.1852652959	18230.6918786336	-59.8366181513695
4.191257	10173.0177613397	17431.0924191425	20182.4991836299	-59.731594987522
3.564097	11353.67973845	19411.1055579971	22487.7091449306	-59.6763618560714
3.051758	12602.0772046629	21420.2834334593	24852.3820235005	-59.5306586887696
2.604164	14014.6380139565	23797.961724863	27617.9843746838	-59.506136095138
2.214424	15590.5367065023	26416.2348392523	30673.8047506227	-59.451418625703
1.892567	17339.3402579059	29320.5899375895	34063.906335999	-59.40117022707
1.607507	19271.759598732	32641.007745998	37905.6210172794	-59.4417356389653
1.376413	21366.1887098868	36118.9713212056	41965.3918043019	-59.3935498883948
1.17375	23757.7433509765	40133.1592061777	46637.9763390231	-59.3756163094072
1.001604	26320.0513369883	44586.3921231913	51775.3943968047	-59.4459755266493
