EC-Lab ASCII FILE
freq/Hz	Re(Z)/Ohm	-Im(Z)/Ohm	|Z|/Ohm	Phase(Z)/deg
6999984	-9.18527091112413	28.6073866286631	30.0458278540059	-107.800805942495
5969734	-3.65149000308928	32.3111785962406	32.5168516545009	-96.4476472319774
5091109	1.2178798507466	33.5399931514293	33.5620972516435	-87.9204309586043
4341796	5.92144441775245	33.7458629807496	34.261447317766	-80.0475324872707
3702781	10.2258731148295	33.8011808571972	35.3141375132049	-73.1678563537964
3157797	14.6318545973918	33.8425526379683	36.8701713857268	-66.618719572333
2693047	19.2781979340162	33.5116301334729	38.6610691754094	-60.0895217221402
2296687	23.7346662944987	32.8377386552572	40.5172983317272	-54.1411140001377
1958656	27.8373065146409	31.8289282050063	42.2847053279258	-48.8273372503338
1670375	31.7860560991378	30.4853374314364	44.0421293836489	-43.803385471619
1424531	35.2618914492038	28.8081668371871	45.5336300452165	-39.2480444143857
1214875	38.3910134258153	26.870227944475	46.8602076569148	-34.9885329259344
1036062	41.0578451778626	25.2624955389026	48.2072643022025	-31.6035842159707
883578.1	43.3620975298341	23.4312301051299	49.2878691609446	-28.3851026638044
753531.2	45.347469342363	21.7204725141339	50.2809298043881	-25.5934288323869
642624.9	47.0235179588171	20.1755558288821	51.1689778501343	-23.2218705746712
548046.8	48.4799967928478	18.8665948314011	52.0217117131567	-21.2641196253328
467390.6	49.6543849457259	17.7726110647895	52.7392040933366	-19.6936251201453
398593.7	50.7300255269462	16.945614147666	53.4854122991138	-18.4711337205645
339937.5	51.7183483710524	16.3888005991127	54.2529293523126	-17.582659526811
289906.2	52.6469265127526	16.1051663187164	55.0552018740526	-17.0093407682692
247234.4	30.3470612350898	14.4032275773011	33.5916223223859	-25.3898053615754
210843.7	31.2240058726479	14.8355040330033	34.5692164020014	-25.413858129815
179812.5	32.0818575534425	15.4393303563646	35.6036305161754	-25.699093708965
153343.8	33.0306309955486	16.2100541464012	36.7938641541406	-26.1398758703371
130781.2	34.0008461724691	17.1968792217787	38.102364695808	-26.8292816077503
111531.3	35.0480345941025	18.4054939802916	39.5869541335015	-27.7062336202437
95109.37	36.181826448305	19.8499421727437	41.269174566455	-28.7498934328083
81109.37	37.4458251084331	21.585041709127	43.2215668808538	-29.9606048201213
69171.88	38.7817716617493	23.4447906633953	45.3175906516938	-31.1542707130291
59000	40.3516908331215	25.6195624195249	47.7977084352352	-32.4117411860028
50312.5	42.5487765002366	27.7286210987173	50.7865613100879	-33.0918936550246
42906.25	41.9407545737834	30.3611679559048	51.7767072520549	-35.9010083217259
36593.75	44.5268151252342	34.3286267608469	56.2235882924802	-37.6309741700321
31203.13	46.8361677850148	38.1103753358103	60.3823427917665	-39.1350915146536
26609.38	49.2143955517097	42.3009954567294	64.8955387230153	-40.6798774035735
22703.13	51.8518075315792	47.0134243666537	69.9919425003407	-42.1982270198261
19359.37	54.7530022471653	52.3177859621753	75.730059970015	-43.6970903414663
16500	58.0293350051152	58.2731095428513	82.2384278602713	-45.1200940510312
14112.02	61.6104399447471	64.7879086209593	89.4053656872062	-46.4400283828299
12011.13	65.6857544539668	72.2928148198489	97.6773741086634	-47.7414962848916
10236.38	70.3084668729634	80.6314059386376	106.97992399356	-48.9124272124887
8750.684	75.3588881616521	89.7810105281653	117.216005205855	-49.9911348533815
7449.463	81.2520757073286	100.272553962488	129.060004977954	-50.9817273149611
6363.206	87.7432813502789	111.589381986765	141.954477190057	-51.8218553299615
5414.761	95.1307015010472	124.466006438894	156.657706886473	-52.6089331827106
4620.567	103.748452441218	138.659376747246	173.17668475832	-53.1952351648901
3941.215	113.476309214148	154.120683637462	191.389806096729	-53.6364470446085
3361.769	124.233161396966	171.518364676768	211.783917737106	-54.0836577924419
2867.244	136.29089031414	190.062908564386	233.878421395765	-54.3563341367227
2442.658	151.01744267709	211.301029292582	259.719835539823	-54.4465005049424
2083.003	167.045356305059	233.873269111897	287.403648320911	-54.4634543261003
1777.843	185.282279305652	258.35284946557	317.924075608748	-54.3531370322258
1513.548	168.533616377767	163.543560947776	234.84053350486	-44.139092902942
1292.065	179.585419530837	181.779559463789	255.528337267936	-45.3478848816413
1101.762	191.712952950025	196.712433313336	274.680974493816	-45.7374216978169
939.101	206.365998086497	212.89928219892	296.501314545233	-45.8927505560769
801.2801	-345.188245890436	117.959340522791	364.786692626647	-161.133436386657
684.3433	-363.483412856329	88.8378435700677	374.182246868908	-166.265763132321
582.9476	-336.44161403571	101.676964337145	351.470005451063	-163.184510701666
497.0677	-327.523724234703	110.744987058859	345.740136656473	-161.318157979807
423.5089	-323.282405382384	106.136807719192	340.259512111919	-161.824480783364
361.5036	-386.627823020064	132.74233128537	408.78062582308	-161.050930464158
308.1262	-333.852865413939	148.772755522716	365.501119739625	-155.981113413943
262.7298	-323.925285491253	134.71519400575	350.82157014157	-157.418378043029
224.2111	-288.945459951789	146.317320465269	323.879973284683	-153.143081567322
191.2854	-3.96796648555067	194.598797964747	194.639248167873	-91.1681276287444
163.1722	-46.3220357710165	173.787710661177	179.855217813731	-104.924844289835
139.1537	-414.676266326817	193.861864853991	457.754113580006	-154.943830621638
118.6706	51.2289937316633	389.090870246494	392.448869418594	-82.4993907799741
101.1982	-325.954907163253	227.260778133018	397.358858944191	-145.115198012405
86.24196	-311.402507725085	228.13054088979	386.024695458905	-143.773846518224
73.61024	-299.684007195531	235.247688116002	380.988161145061	-141.868589962076
62.69291	-203.977159795833	240.235113885746	315.150109728797	-130.333689038943
53.57697	-300.018048329952	208.216035387902	365.19138368309	-145.238899600374
45.65746	-269.736398574836	321.245945606312	419.471908814662	-130.01873413896
38.96512	-173.974569422195	337.824490846953	379.990180691082	-117.247791364391
33.18414	-257.064601366119	317.280763946377	408.349473424318	-129.014797490331
28.30617	11.1440712161796	-458.941869016904	459.077149790751	88.6090116367926
24.17237	-72.3524365038339	405.821279890028	412.220555382215	-100.108847542863
20.61345	-112.96723283702	357.249533872809	374.684967869266	-107.547673188606
17.55618	11.0202223101053	397.047138522728	397.200044698953	-88.4101379861027
14.98558	68.6433167404808	455.330051506897	460.475146710881	-81.4269283790482
12.76553	67.3364125116861	399.295093716444	404.933036829508	-80.427804575899
10.8809	183.839332895979	-27.6898710409733	185.912961565095	8.56550131324366
9.278505	197.675127657128	456.833755150939	497.767552116015	-66.6015308384791
7.923394	77.9312206877011	500.842803839155	506.869597939491	-81.1556901588333
6.75822	27.706860134722	799.131630294334	799.611801210691	-88.0142814454468
5.761429	323.254371654446	368.574711850804	490.245557868314	-48.7479768661303
4.919708	410.226489253222	332.391335447957	527.986526689744	-39.0165694651528
4.191257	521.532775957323	370.65190538261	639.827532512872	-35.4013031807025
3.564097	506.219358363724	483.037555669901	699.702307392032	-43.6576020902259
3.051758	575.591676291889	521.386348271914	776.627003123654	-42.1711261161164
2.604164	554.077086502245	562.436846703247	789.516703000202	-45.4289870575421
2.214424	1268.87726049995	118.719531545943	1274.41901640879	-5.34518457725953
1.892567	901.768647250987	746.992868584514	1170.97610517081	-39.6371343234811
1.607507	991.408229136934	228.547458312956	1017.41054520864	-12.9814990347011
1.376413	889.131169827132	518.571134013061	1029.30571658267	-30.2521715829075
1.17375	1130.60108244034	663.700940528332	1311.01401444587	-30.4143702051311
1.001604	1082.28115888199	213.213225123854	1103.08312752877	-11.1447567716943
