EC-Lab ASCII FILE
freq/Hz	Re(Z)/Ohm	-Im(Z)/Ohm	|Z|/Ohm	Phase(Z)/deg
6999984	5.62224224101529	1.04999083977196	5.71944827586207	-10.5785025827665
5969734	3.86381235882277	-0.482603380747968	3.89383512328153	7.11956783271766
5091109	2.17498581683628	-1.08793199466719	2.43190446532333	26.5743039297612
4341796	1.31378761984927	-1.48471698159875	1.98252930003996	48.4952165348083
3702781	0.697714841306619	-1.02231073111467	1.23770967142207	55.6869312130888
3157797	0.473523135578281	-0.851226813480551	0.974069426640699	60.9135496230974
2693047	0.349157303999361	-0.674905228398024	0.759873601499019	62.6455437419983
2296687	0.268078285139557	-0.48238429600414	0.55187007166069	60.9374992589338
1958656	0.221902287189218	-0.35707430104757	0.420407756265767	58.1412933313569
1670375	0.210313322121664	-0.257361325572834	0.332365078434027	50.7446201906021
1424531	0.219665669633344	-0.193589278104736	0.292796542009256	41.3894226074856
1214875	0.210713705121026	-0.158042190097924	0.263396278213606	36.8711003533957
1036062	0.214764221587583	-0.112864138684714	0.242614889640275	27.7230843089985
883578.1	0.212908352663957	-0.0927319926457563	0.232226589980847	23.535479023836
753531.2	0.222456826317079	-0.0688145209633844	0.232857204892799	17.1888656342176
642624.9	0.224945306317319	-0.0539872825365387	0.231333131025093	13.4958317882341
548046.8	0.227261435912532	-0.0444076170110347	0.231559488472454	11.0564639754647
467390.6	0.225385464210487	-0.035888637712374	0.228224893020517	9.04738173726049
398593.7	0.225744265048492	-0.0322017632411874	0.22802944274397	8.11830775414405
339937.5	0.230289150402067	-0.0268543631070369	0.23184962715258	6.65130661549109
289906.2	0.231676410125995	-0.0235809340907274	0.232873397925696	5.8117744765977
247234.4	0.230710757593686	-0.021687305276944	0.231727842262486	5.3701454836044
210843.7	0.229553440256848	-0.0192907709629939	0.230362574603821	4.80362601521747
179812.5	0.230416263591856	-0.0166900786814563	0.231019941247558	4.14295353827227
153343.8	0.229255453243106	-0.0147492810103535	0.229729415034349	3.68108366525039
130781.2	0.228742934976816	-0.0130293906860583	0.22911371701288	3.2600931849955
111531.3	0.228628864296693	-0.0116936508545705	0.228927715796721	2.92794840524257
95109.37	0.228432770655308	-0.0104299980226469	0.22867075800813	2.61424885578829
81109.37	0.227929654115748	-0.00922903270299196	0.228116422622216	2.31867998280312
69171.88	0.227445296200276	-0.00817977963271558	0.227592336335103	2.05968185996557
59000	0.22700866795734	-0.00718641995312575	0.227122389824315	1.81320859452958
50312.5	0.22669801043477	-0.00618544794202735	0.226782379609454	1.56292573271376
42906.25	0.226391238103832	-0.00529284562444595	0.226453100895065	1.33928540837153
36593.75	0.226147840262678	-0.00445731776761069	0.226191762310556	1.12913938602022
31203.13	0.226018817616307	-0.00376174566691615	0.22605011976802	0.953514643783331
26609.38	0.225949649417299	-0.00303443313490903	0.225970024242709	0.769418147587641
22703.13	0.225929657091935	-0.00249130755376878	0.225943392395102	0.631770193927617
19359.37	0.225866104907779	-0.00200950176370347	0.22587504387061	0.50973975195993
16500	0.225967451454245	-0.00155172209039533	0.225972779241599	0.393444846704621
14112.02	0.22600776080355	-0.00114233747766988	0.226010647710119	0.289594298280656
12011.13	0.226073380406649	-0.000887674455626919	0.226075123121561	0.224970044793173
10236.38	0.226140207105673	-0.000668902973947595	0.226141196381786	0.169475415404864
8750.684	0.226259559186984	-0.00053164804237622	0.226260183799822	0.134629153629039
7449.463	0.226381636654665	-0.000353330180328012	0.226381912388471	0.089425591086413
6363.206	0.226470877947656	-0.000219381207792451	0.226470984204371	0.0555021179466914
5414.761	0.226453091505112	-4.44221259742791E-05	0.22645309586214	0.0112394151290279
4620.567	0.226570403759535	-3.02862098198938E-05	0.22657040578375	0.00765886435738455
3941.215	0.226588985190032	2.55414050844783E-05	0.226588986629562	-0.00645845475122801
3361.769	0.226663181025456	6.81507526936304E-05	0.226663191270889	-0.0172271048374646
2867.244	0.2267269849317	0.000125232050699745	0.226727019517494	-0.0316471691154463
2442.658	0.22680656406055	0.000101993376448563	0.226806586993415	-0.0257655224357324
2083.003	0.226805771240218	0.000132996787524837	0.226805810234252	-0.0335977065261441
1777.843	0.226836542678427	0.00015687582266518	0.226836596924582	-0.0396246610322811
1513.548	0.226855325377152	0.000122448531222765	0.226855358423857	-0.030926244969723
1292.065	0.22687403071224	0.000114578927468945	0.226874059645322	-0.0289362708739864
1101.762	0.226905875467137	9.47266282401909E-05	0.226905895239947	-0.023919326369106
939.101	0.226934223366865	9.56171521343668E-05	0.226934243510674	-0.0241411756273806
801.2801	0.22696427764541	7.97767212706925E-05	0.226964291665954	-0.0201391571016391
684.3433	0.226955499391061	5.22598409042704E-05	0.22695550540786	-0.013193195480846
582.9476	0.226934554869877	3.43482698444692E-05	0.226934557469313	-0.00867215167722931
497.0677	0.226924228142859	1.28494528026744E-06	0.226924228146496	-0.000324434028337617
423.5089	0.226911888025471	7.31973049382121E-06	0.226911888143531	-0.00184824897440639
361.5036	0.226876695719333	-2.14121665834065E-05	0.226876696729752	0.00540746050592789
308.1262	0.226907795909831	-5.46400325970214E-07	0.226907795910489	0.000137969841349329
262.7298	0.226857581289207	-1.59719080370568E-05	0.226857581851458	0.00403390935661856
224.2111	0.226866488649428	-1.22079285131518E-05	0.226866488977889	0.00308314720208304
191.2854	0.226872779680961	1.58377528275643E-05	0.226872780233769	-0.00399975878019758
163.1722	0.226844413661623	-5.50033506268162E-06	0.226844413728307	0.00138926050613622
139.1537	0.226872746768581	-9.45234444723201E-07	0.22687274677055	0.000238715073115244
118.6706	0.226842938621368	-1.56855880968797E-05	0.226842939163677	0.00396185131951393
101.1982	0.226848893621505	-5.00286198224657E-07	0.226848893622057	0.000126358507856325
86.24196	0.226842588276603	3.97513734316795E-07	0.226842588276951	-0.000100403806215797
73.61024	0.226870107466947	-7.4252113316273E-06	0.226870107588457	0.00187522841106352
62.69291	0.226873195015482	7.45100577308857E-06	0.226873195137836	-0.00188171715809337
53.57697	0.226833329341836	1.04512072811681E-06	0.226833329344243	-0.000263986809063977
45.65746	0.226836456053313	-1.25233685349574E-07	0.226836456053347	3.16323123198186E-05
38.96512	0.226826061198764	2.98289201281376E-05	0.2268260631601	-0.00753472159191355
33.18414	0.226854394851981	-9.3846283073316E-06	0.226854395046095	0.00237024102774474
28.30617	0.226853180123677	-2.52375525047863E-05	0.226853181527523	0.00637418984829812
24.17237	0.226846182141407	4.72426683149444E-06	0.226846182190601	-0.00119323388273032
20.61345	0.226812891727666	2.27303488773432E-05	0.226812892866641	-0.00574197102841691
17.55618	0.226836693556876	1.09759584415373E-05	0.226836693822423	-0.00277237374808849
14.98558	0.226826788721291	-1.63807479612944E-05	0.226826789312775	0.00413772873613847
12.76553	0.226817598492234	1.00465929370817E-05	0.226817598714734	-0.00253784264197641
10.8809	0.226798698311616	1.53567394457687E-06	0.226798698316815	-0.000387954765111678
9.278505	0.226809370637121	1.90616378722433E-07	0.226809370637201	-4.8152834145172E-05
7.923394	0.226801962951857	1.55948848529898E-05	0.226801963488009	-0.00393965321565718
6.75822	0.226809589799187	2.28760153047165E-05	0.226809590952824	-0.00577885232168948
5.761429	0.22676529535371	6.06610090837704E-06	0.226765295434845	-0.00153269476056927
4.919708	0.226726375339256	6.94616835090322E-06	0.22672637544566	-0.00175535876482861
4.191257	0.226779836392185	1.73762724650197E-06	0.226779836398842	-0.000439010403982211
3.564097	0.226769981414375	1.17810202907494E-05	0.226769981720396	-0.00297659653275374
3.051758	0.226778598869245	-1.05649323253787E-05	0.226778599115339	0.00266923790721817
2.604164	0.226755324503425	6.59564799856393E-06	0.226755324599349	-0.00166656634940159
2.214424	0.226722727866665	1.26312831876584E-05	0.226722728218525	-0.00319208939724921
1.892567	0.226712399287559	1.110777854623E-05	0.226712399559672	-0.00280720786315906
1.607507	0.226683706578649	7.2042802179429E-06	0.226683706693129	-0.00182092862786117
1.376413	0.226660836507584	1.21590347242268E-05	0.226660836833715	-0.0030735851094401
1.17375	0.226641462503713	8.92667062788416E-06	0.22664146267951	-0.0022566945437369
1.001604	0.226624141215051	-3.0311613436916E-06	0.226624141235322	0.00076634709380574
