EC-Lab ASCII FILE
freq/Hz	Re(Z)/Ohm	-Im(Z)/Ohm	|Z|/Ohm	Phase(Z)/deg
6999984	9.75735324412444	-1.16763774107137	9.82696902534042	6.82399036536557
5969734	5.80750884560873	-1.41692397827859	5.97786187127508	13.7112295417356
5091109	3.52592232065063	-1.14720394216507	3.7078572108674	18.0229604036352
4341796	2.39077366305224	0.522584682930148	2.44722157941969	-12.3300059145917
3702781	1.90000872692269	0.237569026999412	1.9148034376854	-7.12703347278821
3157797	1.67256216356596	0.133725075942384	1.67789945673995	-4.57120167491808
2693047	1.51363360527291	0.0698639017531965	1.51524508109403	-2.64269219961197
2296687	1.41664188100331	0.0620407772405892	1.41799974508221	-2.50762370194562
1958656	1.36003516511876	0.0542978146749658	1.36111862195699	-2.2862528634299
1670375	1.33200667169113	0.0673364506568779	1.3337076032687	-2.89398919672516
1424531	1.30821478287178	0.058797657224002	1.30953544534666	-2.57342446696962
1214875	1.29810098082886	0.0309061840491826	1.29846884777469	-1.36388420538988
1036062	1.28623796913188	0.0292419714700026	1.28657032692813	-1.30236629988448
883578.1	1.27274835596068	0.017807331327705	1.27287292321332	-0.801586862995261
753531.2	1.26673128944903	0.0131534123812917	1.26679957843633	-0.594923278122754
642624.9	1.25438794865516	0.0171029208549687	1.25450453790852	-0.781149458442945
548046.8	1.24680204352899	0.0109819006880772	1.24685040718235	-0.504651313781373
467390.6	1.24120950851393	0.00872915954369059	1.2412402032853	-0.402942252412489
398593.7	1.23774406769378	0.00690498162989556	1.23776332789531	-0.319631667986169
339937.5	1.23454476653551	0.00511969266847525	1.23455538224627	-0.23760588411965
289906.2	1.23377226894131	0.00325047803106833	1.23377655076437	-0.150950257493797
247234.4	1.2322522178993	0.00132748364733411	1.23225293293648	-0.0617237119454123
210843.7	1.23055185623156	1.39798689460985E-05	1.23055185631097	-0.000650917297525299
179812.5	1.22837851082477	-0.000826488932614479	1.22837878886768	0.0385502677635856
153343.8	1.22647079212584	-0.00122411612938401	1.22647140300868	0.0571857601572613
130781.2	1.2252146827596	-0.00142344280671682	1.2252155096305	0.0665656636805039
111531.3	1.22421962390142	-0.00178683428109418	1.22422092790561	0.08362714360813
95109.37	1.22315833379551	-0.00174141291955403	1.22315957342138	0.0815720585885548
81109.37	1.22277824005516	-0.00141302482150767	1.2227790564904	0.0662101433686252
69171.88	1.22179365419825	-0.00158758246264767	1.22179468563961	0.074449333758386
59000	1.22167808515499	-0.00149950675991668	1.22167900541365	0.0703256992110499
50312.5	1.22127724162678	-0.00120719496479752	1.22127783826417	0.056635096149939
42906.25	1.2210708912438	-0.000865157444276331	1.22107119773596	0.0405954005062594
36593.75	1.22075548403669	-0.000655620101971147	1.22075566009066	0.0307713229114976
31203.13	1.22077553932707	-0.000466518418443216	1.22077562846689	0.0218955363043008
26609.38	1.22078849378008	-1.45529341791647E-06	1.22078849378095	6.83018976870888E-05
22703.13	1.22080145746665	-0.000141514206862076	1.22080146566875	0.00664167519495494
19359.37	1.22044603801167	-4.30936933264335E-05	1.22044603877248	0.00202310194249324
16500	1.22067099730289	1.18303966356668E-05	1.22067099736022	-0.000555294423039412
14112.02	1.22070491759796	0.00037421308566609	1.22070497495639	-0.017564301959055
12011.13	1.22075854087727	0.000469364225248762	1.22075863110918	-0.0220294078931331
10236.38	1.22083696294171	0.000155497028141187	1.22083697284448	-0.00729771759995768
8750.684	1.22098488829911	0.000205711780124028	1.22098490562829	-0.00965320439152001
7449.463	1.22099126608078	0.000321829740060476	1.22099130849484	-0.0151020616711039
6363.206	1.22102800678547	0.000227895233991518	1.22102802805289	-0.0106938046094587
5414.761	1.22083680572532	0.000312913176862458	1.22083684582677	-0.0146855041653099
4620.567	1.22109840540752	6.61198411448822E-05	1.22109840719764	-0.00310244270174966
3941.215	1.2210892475725	0.000113453502591933	1.22108925284308	-0.00532344942330124
3361.769	1.22103667622918	0.000223549350840427	1.22103669669307	-0.0104898029865023
2867.244	1.22095109457473	0.000122639409867885	1.22095110073403	-0.00575512040981517
2442.658	1.22084104918307	9.88659669349091E-05	1.22084105318625	-0.00463991822216151
2083.003	1.22109547186188	0.000157447806795324	1.22109548201252	-0.00738770635126093
1777.843	1.22103439333812	0.00016599510896967	1.22103440462133	-0.00778914923041934
1513.548	1.22094282524748	0.000117675348940558	1.2209428309183	-0.00552220848243212
1292.065	1.22100926768136	0.000238565677792396	1.22100929098732	-0.0111946785843841
1101.762	1.22082261405501	7.19226035342329E-05	1.22082261617361	-0.00337547943648351
939.101	1.22087976991147	0.000104992705942171	1.22087977442603	-0.00492729838233866
801.2801	1.22112131882215	0.000119570380450448	1.22112132467623	-0.00561031735920955
684.3433	1.22091324892958	9.46910649576447E-05	1.22091325260159	-0.00444372143029045
582.9476	1.22081090371976	6.17128458032328E-05	1.22081090527957	-0.00289634176143197
497.0677	1.22069494583912	0.000105888121337798	1.22069495043171	-0.00497007254653415
423.5089	1.22085015353027	0.000123440525699148	1.22085015977083	-0.00579319345530161
361.5036	1.22080017985408	9.43766804760317E-05	1.22080018350208	-0.00442937800484714
308.1262	1.22082283811322	0.000141362983690013	1.22082284629766	-0.00663446165631424
262.7298	1.22085731574976	3.17708460692811E-05	1.22085731616315	-0.00149103041562295
224.2111	1.22081627500738	2.01999312921843E-05	1.2208162751745	-0.000948030291768338
191.2854	1.22084538861412	8.83695262623327E-05	1.22084539181238	-0.00414729082878141
163.1722	1.22069257606426	0.000262739798952055	1.2206926043401	-0.0123322461795707
139.1537	1.22077368138234	0.000236569584045885	1.22077370430435	-0.0111031543061899
118.6706	1.2207070946155	0.00012190907604044	1.22070710070288	-0.00572199141714291
101.1982	1.2209166547174	0.000242033421976724	1.22091667870764	-0.0113582637644719
86.24196	1.22081771422375	0.000133147996202664	1.22081772148462	-0.00624894127428252
73.61024	1.22085901432285	0.000210876904180837	1.22085903253506	-0.00989660259246954
62.69291	1.22094775126288	0.00019267691156283	1.22094776646598	-0.00904180685791386
53.57697	1.22077798580207	-4.45170365433493E-05	1.22077798661376	0.0020893547712176
45.65746	1.22083610784381	0.000102412986903867	1.2208361121394	-0.00480640428756605
38.96512	1.22072176517702	9.65024991654984E-05	1.22072176899145	-0.00452943992714658
33.18414	1.2207725322888	-0.000106962661249001	1.22077253697477	0.00502018916487424
28.30617	1.22074853550946	-0.000173457991700714	1.22074854783291	0.00814124325468314
24.17237	1.22073888180778	6.84760414562246E-05	1.22073888372833	-0.00321394544530227
20.61345	1.22070736905315	0.000196298779870309	1.2207073848363	-0.00921358533447204
17.55618	1.22081237192534	6.16765398132764E-05	1.22081237348331	-0.00289463434720248
14.98558	1.22072155106578	3.7765523673448E-05	1.22072155164996	-0.0017725623955852
12.76553	1.22074038250879	0.000109102683177508	1.22074038738427	-0.00512076388440033
10.8809	1.22056570002393	-1.58888970858141E-05	1.22056570012735	0.000745856404178476
9.278505	1.22072435355489	-0.000100657341492666	1.22072435770485	0.004724441529057
7.923394	1.22074738430743	4.80812720637337E-05	1.22074738525431	-0.0022566945437369
6.75822	1.22071651561506	6.20827977682266E-05	1.22071651719376	-0.0029139298468691
5.761429	1.22068338780347	-3.5069550158545E-05	1.22068338830723	0.00164607565977433
4.919708	1.22077136581487	0.000100995941288492	1.22077136999263	-0.00474015145884169
4.191257	1.22075225765519	0.000111573118818629	1.22075226275392	-0.00523666350607277
3.564097	1.22068993654133	7.23658930409691E-05	1.22068993868636	-0.00339665309180257
3.051758	1.22076941190396	3.23070032780981E-05	1.22076941233145	-0.00151630186509279
2.604164	1.22070039394976	5.36091452324423E-05	1.22070039512693	-0.00251624213309998
2.214424	1.22057995771739	-7.93872407040573E-05	1.22057996029908	0.00372655130404079
1.892567	1.22058674779011	5.36041542670033E-05	1.22058674896717	-0.00251624213309998
1.607507	1.22051308879692	4.36489533055042E-05	1.22051308957742	-0.00204905693061267
1.376413	1.22053510760013	-1.3676913639754E-05	1.22053510767676	0.000642037597616361
1.17375	1.22054981429896	4.03910447444326E-05	1.22054981496728	-0.00189606058353668
1.001604	1.22049399753706	3.31726851148197E-06	1.22049399754157	-0.000155728324434731
