EC-Lab ASCII FILE
freq/Hz	Re(Z)/Ohm	-Im(Z)/Ohm	|Z|/Ohm	Phase(Z)/deg
6999984	16.304116851461	-1.05410266893858	16.3381565282855	3.69916965101149
5969734	8.6259352008056	1.80117356891298	8.81197959109347	-11.7944106972814
5091109	11.3969066250084	-5.65368946879092	12.7221729758983	26.3847351136642
4341796	6.38805593815481	-8.90218393675939	10.9570131656803	54.3374207999054
3702781	6.21501732513371	-6.2294346847362	8.79956230974624	45.0663792577376
3157797	4.25554613144723	-5.33108165119479	6.8212978566092	51.4013157674913
2693047	3.10390858847101	-4.5839921790531	5.53599429400032	55.8973213154609
2296687	2.37607848496978	-3.80548387385606	4.48636339153605	58.0200554619072
1958656	1.79721746669692	-3.28439356405766	3.74395936225594	61.3125574316265
1670375	1.35783763977927	-2.82249981757585	3.13212839395467	64.3088975170426
1424531	1.20489071654808	-2.46745602954839	2.74592441567106	63.973144249096
1214875	0.738195016410411	-2.1230599423362	2.24773561634943	70.8272664649075
1036062	0.842689577724364	-1.86506085274162	2.04660150220666	65.6851421409469
883578.1	0.730263063768265	-1.59202308402406	1.75151980929982	65.3590145639584
753531.2	0.668461926733301	-1.38450593706786	1.53743228705141	64.2279958763701
642624.9	0.61848868949111	-1.17121147690343	1.32448653547658	62.162540320703
548046.8	0.579890126872752	-1.03612073808053	1.18735788333806	60.7653827372765
467390.6	0.54194591761977	-0.902042929793852	1.05232448646594	59.002620784777
398593.7	0.509006230109268	-0.783086325853329	0.933976196714089	56.9761263591788
339937.5	0.482254390101721	-0.680768977889243	0.834275552817382	54.6863750154519
289906.2	0.460485298547993	-0.592133705612626	0.750112681869447	52.1288231982807
247234.4	0.441636342569927	-0.513776658128967	0.677502113293171	49.3180354948177
210843.7	0.426716067195725	-0.444524914861764	0.616189095924169	46.1710075092822
179812.5	0.413666494886286	-0.384397811348639	0.564696065473392	42.8996419526253
153343.8	0.40500427033893	-0.332723214771608	0.524149975332178	39.4041353065132
130781.2	0.398555205076771	-0.290255221395241	0.493045986740575	36.064673715905
111531.3	0.389832256975031	-0.251749802684096	0.464055117124817	32.8539729305965
95109.37	0.383537568832791	-0.219368688476176	0.441841247723575	29.767890465729
81109.37	0.376770374690822	-0.189655293963431	0.421811623563194	26.7193596547544
69171.88	0.370293830041971	-0.165722809224028	0.405686541635603	24.1106197881663
59000	0.360748186853818	-0.138245589667722	0.386330295706787	20.9677858536911
50312.5	0.335136754031083	-0.0984219093111227	0.349290017227715	16.3662930460601
42906.25	0.399747749183054	-0.102636877098975	0.412713691943395	14.3998789748593
36593.75	0.373041582061989	-0.130506929868307	0.395211437955637	19.2821612091501
31203.13	0.332047081035123	-0.0638092111549879	0.338122580512108	10.8778730307224
26609.38	0.384423585481547	-0.0779220362086963	0.392241426676731	11.4585141898859
22703.13	0.369597326700242	-0.0767482375626176	0.377481755682223	11.7309613510486
19359.37	0.353010296477135	-0.0626942321314522	0.358534288683003	10.0706614410523
16500	0.35091742386292	-0.0559045421893663	0.355342589915691	9.05170756861372
14112.02	0.34852819369619	-0.0506686812229567	0.352192017311583	8.27165417843286
12011.13	0.346491131497985	-0.0451874346166941	0.349425254459365	7.4302599267053
10236.38	0.544981872907477	-0.074830415284391	0.550095294334878	7.81828413430175
8750.684	0.342379349049565	-0.0372030596336873	0.344394666482673	6.20144880264412
7449.463	0.340517172459348	-0.0337059577550494	0.342181291610009	5.65298552621294
6363.206	0.338491749810315	-0.0305156431077123	0.339864486470602	5.15139248925464
5414.761	0.3371329236489	-0.0273654198888166	0.338241739609035	4.64058228024606
4620.567	0.335327004796761	-0.0255310850804629	0.336297541548184	4.35397847788131
3941.215	0.333195126897527	-0.0240114509257373	0.334059189910738	4.12185092971981
3361.769	0.333619068016205	-0.0204938634336765	0.334247933400401	3.5152014973619
2867.244	0.33315735297532	-0.0197573119155676	0.33374267514906	3.39385075522658
2442.658	0.332551384790033	-0.0213750754594801	0.333237628992686	3.67768487960967
2083.003	0.331978786208451	-0.0194533635274297	0.332548263933172	3.35359531349848
1777.843	0.323007224617835	-0.0180126006506394	0.323509073964729	3.19181151271858
1513.548	0.327568538608056	-0.0120357988432667	0.32778957875383	2.10426313304691
1292.065	0.330359395821084	-0.0106593862964057	0.330531319126475	1.84806620086975
1101.762	0.325057507818078	-0.0208151064926566	0.325723275261686	3.66394134097787
939.101	0.316697730268493	-0.0177685509672763	0.317195797198973	3.21125368958075
801.2801	0.32700022524673	-0.0127388592666956	0.327248263321334	2.23092805873207
684.3433	0.314980484925167	-0.0192106328380768	0.315565768577221	3.49014146931847
582.9476	0.314310636767949	-0.0170884512958152	0.314774826746299	3.11199505411008
497.0677	0.31525388225529	-0.0193679848946491	0.315848269135532	3.5156134540166
423.5089	0.322073996692578	-0.011049415157742	0.322263477485207	1.96487969022543
361.5036	0.313119142679256	-0.0190069338373712	0.313695490955943	3.47370159130278
308.1262	0.31854951213655	-0.0178698421537712	0.319050345464528	3.21078672897772
262.7298	0.272497525679413	-0.0481176118470889	0.276713219906945	10.0140589404714
224.2111	0.309061125550804	-0.0108445376350455	0.309251327116389	2.00960706754452
191.2854	0.314432909431167	-0.040954393563543	0.317088815453189	7.42090925548876
163.1722	0.314697453981876	-0.0278542996136806	0.31592776001745	5.05814589992827
139.1537	0.327325667558259	-0.0558459202569738	0.332055506582571	9.68216167848592
118.6706	0.284330982982158	0.00598154556516381	0.284393893694904	-1.2051685936029
101.1982	0.312685453694937	-0.032280687584508	0.314347317060823	5.89416007795956
86.24196	0.28709014893026	-0.0151278879961093	0.287488446042657	3.01634605274874
73.61024	0.343410508274871	0.00337620220306242	0.34342710425201	-0.563278933689237
62.69291	0.21640204568528	-0.0259515126342409	0.217952578293488	6.83840598349106
53.57697	0.266514149450664	-0.00165760452668975	0.266519304197984	0.356350756906938
45.65746	0.158817163008813	0.0478708014463499	0.165874967663248	-16.7739009510941
38.96512	0.0456662310321798	0.118241226446904	0.126753273284569	-68.882819595572
33.18414	0.196534590265849	-0.067974779584844	0.207957726066076	19.0788012989243
28.30617	0.284316041307519	-0.0240863167863393	0.285334473909324	4.8423470759702
24.17237	0.274740712989885	0.00433705169663177	0.274774943165511	-0.904394972006765
20.61345	0.288393348432498	-0.0421796881916608	0.291461574681902	8.32094000797002
17.55618	0.312205400558121	-0.0117337969419086	0.312425821801481	2.1523675236105
14.98558	0.285320007119314	0.00364479326776808	0.285343286201953	-0.731879671724055
12.76553	0.290315778557862	-0.0206220122849685	0.291047279097982	4.06306889768615
10.8809	0.274029509605179	-0.0237421531076771	0.275056106946643	4.95179003624932
9.278505	0.325810615042219	-0.060504744519684	0.331381020856025	10.5202843412033
7.923394	0.291746055378572	0.0116401397403113	0.291978173297475	-2.28478609147436
6.75822	0.306930328663597	-0.0257854659942056	0.308011553208774	4.80218846410948
5.761429	0.316176290601617	0.0274498394341622	0.317365625775004	-4.96187180161244
4.919708	0.288418244757129	-0.0254234149595863	0.289536584798866	5.03747300972216
4.191257	0.273931319609401	-0.0456943331781037	0.277716293989999	9.47028188584655
3.564097	0.255408211674041	-0.0117576116148596	0.255678696847073	2.63572675169656
3.051758	0.18895942192677	0.0807875812501975	0.205504979061716	-23.1486121909858
2.604164	0.171757128691257	-0.196835759896891	0.261237109979519	48.8923393121914
2.214424	0.194665588938126	-0.0226329060468026	0.1959768862717	6.63175156594327
1.892567	0.362166321540298	-0.227820787654611	0.427863010490037	32.1719526191626
1.607507	0.817972548894368	-6.27000873408553	6.32313914256626	82.5672862786971
1.376413	2.8835933378642	2.55082990502983	3.84991477081887	-41.4960099461138
1.17375	49.7939439185912	-68.5892709448923	84.7580376113065	54.0213715505333
1.001604	31.0473749615742	-33.838304891523	45.9235274117337	47.4629471232108
