EC-Lab ASCII FILE
freq/Hz	Re(Z)/Ohm	-Im(Z)/Ohm	|Z|/Ohm	Phase(Z)/deg
6999984	5.68712041153247	1.03653017966922	5.78080733017753	-10.3293060489303
5969734	3.7686774433249	-0.497021947235319	3.80131036457949	7.51294346612063
5091109	2.11247814957583	-1.12638714726136	2.39401586000404	28.0668303381872
4341796	1.31521195477406	-1.57992750061749	2.05571238094925	50.2242828393761
3702781	0.667309312482231	-1.06334364111566	1.25538895073464	57.8893637888379
3157797	0.424446871878928	-0.886314172487128	0.98270441100025	64.4107121172374
2693047	0.287600504192316	-0.700135617747961	0.756904177060078	67.6682063656742
2296687	0.227066375016857	-0.519893641473963	0.567316963529519	66.4064387092371
1958656	0.194894187727075	-0.369039621829404	0.417341571006035	62.1609360388767
1670375	0.179607522868534	-0.272298468572331	0.326198280586835	56.5912362307218
1424531	0.175594711129982	-0.20501149315015	0.269931870849805	49.4195636161149
1214875	0.174309740073004	-0.154843527557236	0.233153176068195	41.6154544576647
1036062	0.169960567602349	-0.117125340175511	0.206409640886616	34.5719868792963
883578.1	0.170282977965909	-0.0923289928253838	0.193703214999359	28.4669554144168
753531.2	0.171700717710467	-0.0741183532606403	0.187015151130486	23.3484942473951
642624.9	0.179221377887518	-0.0622362033892249	0.189719918048173	19.1500084937032
548046.8	0.182122880627553	-0.045671528223039	0.187762169081809	14.0779282601973
467390.6	0.185143374365221	-0.0398483527478219	0.189383104547515	12.1464588849215
398593.7	0.182326301952644	-0.0320582853012612	0.18512324014068	9.97233615382993
339937.5	0.186782538770859	-0.0271516462154403	0.188745671955401	8.27086922625353
289906.2	0.187935110190942	-0.025045900834699	0.189596684546706	7.59101469528515
247234.4	0.185959911100047	-0.0216083339614444	0.187211133838046	6.62798150365131
210843.7	0.186377271242024	-0.018576747942377	0.187300781631411	5.69203202699331
179812.5	0.186881174138031	-0.017843442567755	0.187731088767625	5.45407577918194
153343.8	0.185531444242986	-0.0162163676603028	0.186238791294892	4.99524029064307
130781.2	0.185009184388669	-0.0134868124249405	0.185500114332973	4.16937663291032
111531.3	0.184755825296004	-0.012294245241386	0.185164422735209	3.80703239369163
95109.37	0.184457418161133	-0.0110134581119628	0.184785917683829	3.41692090084752
81109.37	0.184198903050736	-0.00975465489821922	0.184457011732485	3.03139135149108
69171.88	0.183752514994525	-0.00870303135259323	0.183958499454462	2.71166142124304
59000	0.183312469947122	-0.00765431336079309	0.183472205391279	2.39102793655209
50312.5	0.182952352812391	-0.00664423733352167	0.183072961655548	2.07988320590629
42906.25	0.182642370461155	-0.00573845386294196	0.182732496673162	1.79958824182373
36593.75	0.182385435803143	-0.00493166153967033	0.182452099134661	1.54888769377526
31203.13	0.182194941392656	-0.00419556126703237	0.182243242408104	1.3191665683533
26609.38	0.18209014639506	-0.00346706201885085	0.18212315045929	1.09080048811683
22703.13	0.182050509592334	-0.00295000436517637	0.182074409428077	0.928357785872521
19359.37	0.181942022649524	-0.00246131807846921	0.181958670286643	0.775052041587162
16500	0.181972587488011	-0.00201253690973056	0.181983716034965	0.633640328170924
14112.02	0.181931491163278	-0.00164963641251833	0.181938969924498	0.519506619718848
12011.13	0.181953118882814	-0.00132552135095273	0.181957947004343	0.417390128061847
10236.38	0.181996210650942	-0.00110395268613558	0.181999558798464	0.347540499482771
8750.684	0.182058241892053	-0.000892510722823514	0.182060429572754	0.280880928019645
7449.463	0.182078838150371	-0.000689599766963495	0.182080144030115	0.216999227834652
6363.206	0.182121934886147	-0.000530561489221174	0.182122707706007	0.166914809722645
5414.761	0.182148666210632	-0.00046196880569557	0.182149252036592	0.145314300846213
4620.567	0.182192310611067	-0.000346019141374703	0.182192639190077	0.108815857972348
3941.215	0.182230085367012	-0.000286927702346273	0.18223031125577	0.0902141528998516
3361.769	0.182259313357494	-0.000203108404809138	0.182259426528697	0.0638499583231428
2867.244	0.182252039277866	-0.00011929822885551	0.182252078322877	0.0375045682212703
2442.658	0.18230411206234	-4.45469586504405E-05	0.18230411750498	0.0140005216620751
2083.003	0.182338116179427	-7.3840723359468E-05	0.182338131130915	0.0232028369167169
1777.843	0.182350578503427	-8.7821041536111E-07	0.182350578505541	0.000275939625402878
1513.548	0.18239300360733	-2.39476725715427E-05	0.18239300517946	0.00752276969230712
1292.065	0.182406090400117	-1.59843825472455E-05	0.182406091100479	0.00502087213056604
1101.762	0.182441500596264	1.03931705063899E-06	0.182441500599224	-0.000326397669293089
939.101	0.182422388035753	-2.29348906764863E-05	0.182422389477488	0.00720346031308071
801.2801	0.18240741727941	-1.40394374449537E-05	0.1824074178197	0.00440991119079978
684.3433	0.182465978765672	-1.78722343097481E-05	0.18246597964095	0.00561202477343904
582.9476	0.182429343795643	-1.60429624109925E-05	0.182429344501058	0.00503863038446832
497.0677	0.182436965476545	-4.63551541437622E-05	0.182436971365703	0.0145582044023878
423.5089	0.182420794886235	-5.29923485431852E-05	0.182420802583244	0.0166441431992308
361.5036	0.182426083025665	-6.37227286177735E-05	0.182426094155066	0.0200138225839542
308.1262	0.182406957389469	-5.2525726494732E-05	0.182406964952097	0.0164988353728077
262.7298	0.182385926937726	-3.37997238898469E-05	0.182385930069605	0.0106180424002085
224.2111	0.182390723238481	-2.81795858334346E-05	0.182390725415371	0.00885226668970663
191.2854	0.182369890738964	-2.24500072182049E-05	0.182369892120779	0.0070531964017297
163.1722	0.182372359798483	-3.02382858679567E-05	0.182372362305316	0.00949993818132252
139.1537	0.182372860211354	-1.3583488104466E-05	0.182372860717216	0.00426750195786222
118.6706	0.182358795961584	-7.74446988277916E-06	0.182358796126031	0.00243325492605323
101.1982	0.182374085971064	1.01289856193541E-05	0.182374086252344	-0.00318218524880258
86.24196	0.18235801432691	-2.15681207080632E-05	0.182358015602378	0.00677657237824054
73.61024	0.18237330171104	2.77844813311758E-06	0.182373301732205	-0.000872898336092834
62.69291	0.18238259926722	-4.87367341442853E-06	0.182382599332338	0.00153107214409346
53.57697	0.182358343232516	-8.52813381416031E-06	0.182358343431928	0.00267948296555291
45.65746	0.18236185886322	1.07348311334051E-05	0.182361859179175	-0.00337274757371632
38.96512	0.182362490085543	9.30089002353033E-06	0.182362490322726	-0.00292221137883992
33.18414	0.182360553276092	5.1445516865702E-06	0.182360553348658	-0.00161636436035002
28.30617	0.182381570305229	6.25614041314209E-05	0.182381581035286	-0.0196538733083192
24.17237	0.182352919811677	4.47371341792578E-06	0.182352919866555	-0.00140565282865492
20.61345	0.182356697318126	1.44257441682792E-05	0.182356697888717	-0.00453251384571746
17.55618	0.182383664019716	1.51681854949538E-05	0.182383664650458	-0.00476508142546563
14.98558	0.182341340309193	-1.095425084975E-05	0.182341340638235	0.00344207374805377
12.76553	0.182366008820122	2.12266740584868E-05	0.182366010055472	-0.00666899955220473
10.8809	0.18236129426924	-8.22392358626672E-06	0.182361294454676	0.00258386032025014
9.278505	0.182378261094224	-3.24813312125761E-06	0.182378261123148	0.00102043038467666
7.923394	0.182356342938063	2.2143457889268E-05	0.182356344282498	-0.00695740358796178
6.75822	0.182359971039028	9.36516197053201E-06	0.182359971279504	-0.00294244538337497
5.761429	0.18235987278606	4.33475435569909E-06	0.18235987283758	-0.00136193958663321
4.919708	0.182357617358972	3.40015446459801E-05	0.182357620528856	-0.0106831017578456
4.191257	0.182347189837435	1.07817899948674E-06	0.182347189840622	-0.000338777396485142
3.564097	0.182353792830162	1.58863251170371E-05	0.182353793522156	-0.00499150231398763
3.051758	0.182353985033383	1.01220265994151E-05	0.182353985314308	-0.00318034949202698
2.604164	0.182353254101357	1.04799874073464E-05	0.182353254402504	-0.00329283428524045
2.214424	0.182331454172212	5.21654484010159E-08	0.182331454172219	-1.63924542989857E-05
1.892567	0.182339063865646	3.18222510428167E-06	0.182339063893415	-0.000999939695049396
1.607507	0.182318869617914	7.32004610024296E-06	0.182318869764863	-0.00230040778575861
1.376413	0.18231635188217	-1.79521205202361E-06	0.182316351891008	0.000564173607286334
1.17375	0.182320479656124	7.47877149405052E-06	0.182320479809513	-0.00235026829196428
1.001604	0.182319371800376	5.17273057742758E-06	0.182319371873756	-0.00162558497014706
