EC-Lab ASCII FILE
freq/Hz	Re(Z)/Ohm	-Im(Z)/Ohm	|Z|/Ohm	Phase(Z)/deg
6999984	5.58724038747043	1.07057350154637	5.68888238317457	-10.8469963351428
5969734	3.79745366923677	-0.568399081713893	3.83975674829709	8.51277773693572
5091109	2.09512861690007	-1.12540327905939	2.37825491944644	28.2425736826877
4341796	1.22224418046354	-1.56995420074499	1.98963238542044	52.0984507055609
3702781	0.656638699229891	-1.0720311387951	1.25714961077536	58.5117678416885
3157797	0.392665727208832	-0.896313458179231	0.978552087851052	66.3422674361824
2693047	0.270343852912584	-0.692192837961438	0.743112860696631	68.6662988447921
2296687	0.192226318855218	-0.516425457262619	0.551041024397942	69.5834896832375
1958656	0.159697883064665	-0.390099173436265	0.421521979226461	67.7369040053103
1670375	0.143017332822676	-0.280925883868636	0.3152353243453	63.0196851822188
1424531	0.148297034542396	-0.203724699334084	0.251983657352677	53.9480558710683
1214875	0.15079301231853	-0.154852912558394	0.216143371612257	45.7610160998204
1036062	0.146160297228957	-0.12004378204712	0.189138420460343	39.3968071763135
883578.1	0.147346788798599	-0.0996348472767069	0.17787124264791	34.06627714058
753531.2	0.150166837816088	-0.0744278629255683	0.167599480784847	26.3646013767433
642624.9	0.156487485023395	-0.0568034968231944	0.16647813736431	19.950424803923
548046.8	0.160602692039804	-0.0521322604568284	0.168851998124898	17.9836325805774
467390.6	0.162095128218951	-0.0378059538276276	0.166445548865492	13.1285773007112
398593.7	0.165439178518894	-0.032892189688987	0.168677259675223	11.2447665548344
339937.5	0.164703992384367	-0.029676283079721	0.167356167752424	10.2139352673027
289906.2	0.16787504412292	-0.0246406946015012	0.169673787809776	8.35024679919096
247234.4	0.165315776603186	-0.0213937557438134	0.16669432737421	7.37374909937155
210843.7	0.16669745549859	-0.0205500732317345	0.16795936169066	7.02783156013926
179812.5	0.165631598082336	-0.0170009084548108	0.166501823328147	5.86048161876177
153343.8	0.165134159678925	-0.0158038908206956	0.165888678510431	5.46674788673685
130781.2	0.164521477775926	-0.0138576957121596	0.165104065304357	4.81467665221215
111531.3	0.164230500369685	-0.0124751240154904	0.164703630715533	4.34390645280071
95109.37	0.163816858474926	-0.0111384125973096	0.164195089316891	3.88972968409405
81109.37	0.163531941950878	-0.0099398882067229	0.163833749318592	3.47830416127107
69171.88	0.163202606090391	-0.00882039898056206	0.163440784606755	3.09358076353237
59000	0.162704046628835	-0.00777979175297311	0.162889938145724	2.73754708146926
50312.5	0.162341298411376	-0.00680476653727565	0.162483851559218	2.40022906578409
42906.25	0.162005216028757	-0.00587226986861921	0.162111608387352	2.07591490021722
36593.75	0.161727256675714	-0.00504573951025471	0.161805948713444	1.78699520244455
31203.13	0.161549905663688	-0.00433764883081808	0.161608128562043	1.5380341542621
26609.38	0.161439141246719	-0.003609886661092	0.16147949593736	1.28095830482721
22703.13	0.161339725138129	-0.00307380484504506	0.161369003169359	1.09145308704549
19359.37	0.161243424126756	-0.00257491353039698	0.16126398235133	0.91488468332002
16500	0.161267011821026	-0.00215070372818496	0.161281352388332	0.764067867696709
14112.02	0.161232054513584	-0.00174435381041658	0.161241490234019	0.619853244746691
12011.13	0.161229993225214	-0.00144003979037981	0.161236424017653	0.511728660354168
10236.38	0.161249524691304	-0.00121855102339556	0.161254128876653	0.432971829891988
8750.684	0.161293627675168	-0.000987943082370153	0.161296653282546	0.350939227827707
7449.463	0.161296371040915	-0.000810656578920235	0.161298408160333	0.28795942050803
6363.206	0.161311508983278	-0.000682523713900895	0.161312952886872	0.242422224641299
5414.761	0.161323192624973	-0.000557580828444006	0.161324156204501	0.198030428702815
4620.567	0.161370070357164	-0.000445683482576989	0.161370685816362	0.158243208084899
3941.215	0.161375620694699	-0.000409957249449212	0.161376141419807	0.145553396134121
3361.769	0.161359224271114	-0.000303457839773331	0.161359509617612	0.107752333713027
2867.244	0.161348663304023	-0.000251576653182637	0.16134885943448	0.0893361523745931
2442.658	0.161355091793946	-0.000217410789028417	0.16135523826416	0.0772006197948247
2083.003	0.161351994068531	-0.000181244350886789	0.161352095863072	0.0643594896903527
1777.843	0.161340920162051	-0.000153412834921599	0.161340993099197	0.054480322203589
1513.548	0.161341504224177	-0.000113402089480272	0.161341544077631	0.0402714730872043
1292.065	0.161320285543272	-9.86601757409839E-05	0.161320315712538	0.0350409184571432
1101.762	0.161363877332199	-9.62842556651152E-05	0.161363906058136	0.034187830136817
939.101	0.161354820495633	-7.1633041607054E-05	0.161354836396281	0.0254363066162282
801.2801	0.161338992879055	-9.71464303005288E-05	0.161339022126257	0.0344992842646722
684.3433	0.16132229430015	-6.93906758506567E-05	0.161322309223896	0.0246450289828407
582.9476	0.161295095713119	-6.88059919308747E-05	0.161295110388904	0.0244414914556985
497.0677	0.161287114193807	-6.70683148777463E-05	0.161287128138376	0.0238254071273281
423.5089	0.161257225903971	-5.73677926843469E-05	0.161257236108362	0.0203831626378514
361.5036	0.161241213261095	-8.68637458181987E-05	0.16124123665868	0.0308663365026641
308.1262	0.161220857681227	-6.02180084050292E-05	0.161220868927316	0.0214006898453802
262.7298	0.161171973270645	-7.31518538053718E-05	0.161171989871526	0.0260050932786105
224.2111	0.161190637360279	-5.74867734404157E-05	0.161190647611274	0.0204338751322985
191.2854	0.161159151482512	-5.00598374164848E-05	0.161159159257396	0.0177974212971599
163.1722	0.161157228811268	-2.78181714432698E-05	0.161157231212186	0.00989011671022866
139.1537	0.16116280760927	-1.3125708276133E-05	0.161162808143773	0.00466638486159198
118.6706	0.161130525503973	-1.6080190033103E-05	0.161130526306343	0.00571789247707654
101.1982	0.16109989515266	-2.42232542875274E-05	0.161099896973785	0.00861509081041223
86.24196	0.161096285896175	-1.39326281894919E-05	0.161096286498666	0.00495530226753347
73.61024	0.161096522033757	-1.43949891901175E-05	0.161096522676899	0.00511973886290484
62.69291	0.161102820243553	-3.35702512610059E-06	0.161102820278529	0.00119391684842212
53.57697	0.16108549367577	-8.91878026608637E-06	0.161085493922672	0.00317228110035595
45.65746	0.161058249612486	-2.46787301085032E-06	0.161058249631393	0.000877935208069829
38.96512	0.161066959526144	-1.33751920194772E-05	0.16106696008149	0.00475790971274398
33.18414	0.161056252524505	-8.75876728542565E-06	0.16105625276267	0.00311593242007822
28.30617	0.161058620303389	2.73566766381681E-05	0.161058622626729	-0.0097319975475064
24.17237	0.161023494096598	1.54562137028372E-05	0.161023494838398	-0.00549966832277168
20.61345	0.161005918628615	6.75223884839926E-06	0.161005918770202	-0.00240286066093713
17.55618	0.161014890900145	9.04443507251865E-06	0.161014891154165	-0.00321838529525674
14.98558	0.160990009397115	-3.33164477764637E-06	0.160990009431588	0.00118572068716277
12.76553	0.16098280947242	2.06721729384414E-05	0.160982810799701	-0.00735748282756778
10.8809	0.160971309624082	-5.9928105470422E-06	0.160971309735635	0.00213306801323931
9.278505	0.160982043689583	1.11919321039766E-05	0.160982044078631	-0.00398336645767889
7.923394	0.16095705950729	1.24757623925468E-05	0.160957059990787	-0.00444098899456547
6.75822	0.160933891503967	1.5917642955425E-05	0.160933892291157	-0.00566700866824877
5.761429	0.160927703220903	1.10730490496177E-05	0.160927703601858	-0.00394238507842436
4.919708	0.160933743293072	2.04991287833111E-05	0.160933744598623	-0.00729811867041428
4.191257	0.16092549925779	1.22431106240894E-05	0.160925499723514	-0.00435902680901421
3.564097	0.160902137342382	7.28111938866678E-06	0.160902137507124	-0.00259274002015907
3.051758	0.160898648914179	4.016421261449E-06	0.160898648964308	-0.00143024188539075
2.604164	0.160875412732098	8.31988915866506E-06	0.160875412947236	-0.0029631285868214
2.214424	0.160857137747748	7.47851053641553E-06	0.160857137921592	-0.0026637741816838
1.892567	0.160815690795285	9.40899158253149E-06	0.160815691070535	-0.00335225688408906
1.607507	0.160777224428915	4.89119848630255E-06	0.160777224503316	-0.00174306423646069
1.376413	0.160754359883873	3.1389667935842E-06	0.16075435991452	-0.00111878489274661
1.17375	0.160717611929059	9.56035786146211E-07	0.160717611931903	-0.000340826465447869
1.001604	0.160663018306519	-1.05817692609162E-07	0.160663018306554	3.77367937452148E-05
