EC-Lab ASCII FILE
freq/Hz	Re(Z)/Ohm	-Im(Z)/Ohm	|Z|/Ohm	Phase(Z)/deg
6999984	21.4918823655212	92.2930660985879	94.7623926327935	-76.8913944727926
5969734	20.7149904727645	90.780543292783	93.1140046975726	-77.1459023253897
5091109	18.0946476343379	96.0468998904021	97.7364990756666	-79.3308768771211
4341796	17.7116888929809	104.743451698932	106.230384529325	-80.4023079540157
3702781	21.1306360406536	115.544258672676	117.460544404071	-79.6363206777053
3157797	22.1495828379449	128.001113050391	129.903383181632	-80.1826359353626
2693047	23.7825238098976	144.840925908405	146.780455976852	-80.6753796391751
2296687	27.1720905927191	166.152277482853	168.359442324801	-80.712220825402
1958656	32.0232309135157	189.679076670604	192.36330067025	-80.4172048566891
1670375	38.0737536473435	217.51990511021	220.826900163801	-80.0717686020048
1424531	45.2366757421405	249.448205823445	253.516792778576	-79.7212903187232
1214875	57.0176671134701	285.751337240053	291.384352870124	-78.7156347967096
1036062	65.9845400126943	335.979597741671	342.397794413664	-78.8888399381777
883578.1	75.5578996701384	382.517783746768	389.908772772685	-78.8263302427289
753531.2	100.541308430066	434.371377166453	445.855411543148	-76.967597859545
642624.9	118.848994201889	496.860534858533	510.877161872312	-76.5476197957141
548046.8	211.091060949427	625.326059792886	659.994028055444	-71.3468818893116
467390.6	251.725690009915	701.041818845397	744.866064994929	-70.2481207255892
398593.7	300.023611798159	784.837409832857	840.228497201541	-69.0794014150814
339937.5	354.159598580307	877.723117684641	946.4813218361	-68.0260185087334
289906.2	415.375574134685	979.912955258302	1064.31492870803	-67.0283843958516
247234.4	486.84740544666	1095.62807126721	1198.92504633895	-66.0418083684158
210843.7	569.180949865196	1224.44325834585	1350.2696940234	-65.0686968491656
179812.5	667.320137529054	1367.31802934677	1521.47124827535	-63.9852909543527
153343.8	782.05854709034	1523.53553973006	1712.53499581691	-62.8277443208499
130781.2	918.99006239347	1690.88934532443	1924.48681806596	-61.4761368821363
111531.3	1081.45004353781	1872.18569271176	2162.08544342321	-59.9875352346069
95109.37	1273.99194749033	2058.58569322079	2420.91522747153	-58.2479780728102
81109.37	1493.76054006461	2238.23745390124	2690.91572723867	-56.2815468128756
69171.88	1746.23876343375	2451.77609244593	3010.07571772008	-54.5402306706479
59000	2026.22131301066	2596.94984945717	3293.89151762687	-52.0375338327826
50312.5	2420.12770564134	2750.30329948817	3663.49373560107	-48.6538570891241
42906.25	2856.64595919272	3098.56919946089	4214.44625307048	-47.3262909594942
36593.75	3332.12071076873	3205.2846057983	4623.51358117411	-43.8885098112415
31203.13	3490.42895235154	3011.54912292228	4610.04581226563	-40.7876908718833
26609.38	4260.56151173404	3055.9608298199	5243.21284983387	-35.6506314948316
22703.13	4716.21240779665	2790.87002068792	5480.11085178299	-30.6153867179747
19359.37	5239.72169427036	2921.64331602862	5999.22354138452	-29.1438248352726
16500	5545.38752660932	2655.40608675875	6148.37411889271	-25.5874070459601
14112.02	5876.45045300148	2620.35408592562	6434.1996753449	-24.0324568857546
12011.13	6176.61187301805	2425.52143295193	6635.78845741911	-21.439662434605
10236.38	6392.01254749052	2211.35642442065	6763.72099092672	-19.0833792317074
8750.684	6601.65230434333	2017.533099822	6903.06112940621	-16.9936932908842
7449.463	6830.06717794419	1878.36169584452	7083.64738786781	-15.3769782803636
6363.206	6982.08131904957	1701.99686264476	7186.53274300435	-13.6996042280724
5414.761	7082.57369135827	1570.0777113741	7254.51542925329	-12.499297754319
4620.567	7207.72530713734	1383.6145758702	7339.32513230669	-10.8664654410213
3941.215	7283.46020896289	1316.33571403365	7401.45474400717	-10.2444509994714
3361.769	7386.78696228919	1256.02164021593	7492.81068671405	-9.6500645828027
2867.244	7467.19551750999	1190.28563549932	7561.4673702131	-9.0568641887699
2442.658	7496.52493879311	1147.7398720556	7583.87717278262	-8.70455817012191
2083.003	7620.734983951	1031.55535624738	7690.23459646176	-7.7087976292302
1777.843	7667.74409708675	1077.06239199022	7743.02027213208	-7.99583229585688
1513.548	7674.45053871847	1073.73417077861	7749.19970969479	-7.9645659889766
1292.065	7759.68328275307	1070.03882406017	7833.11354019802	-7.85141255401621
1101.762	7787.74506160544	1067.1249191176	7860.51707825647	-7.80243039211048
939.101	7859.54345340317	1122.09856953946	7939.23979331114	-8.12514887021791
801.2801	7916.96933141753	1175.83798264244	8003.81148928623	-8.4478845370592
684.3433	7970.50949353625	1252.02838857701	8068.24619557151	-8.92722102846565
582.9476	8039.31492259177	1350.67109014595	8151.98729257859	-9.53709449433675
497.0677	8113.44216857812	1470.54677131207	8245.63227590693	-10.2732306695208
423.5089	8188.2229799326	1602.84548576025	8343.62686248123	-11.0756064954
361.5036	8271.10656839175	1748.25716917336	8453.85160712318	-11.9348942190695
308.1262	8353.58172833405	1940.44432104541	8575.99276206748	-13.0772574710013
262.7298	8447.51419726026	2145.88792271427	8715.80926189672	-14.2531387539483
224.2111	8554.5237503414	2397.81205056171	8884.2208001025	-15.6580541859209
191.2854	8667.41538235085	2666.11589849558	9068.20067016732	-17.0980117166437
163.1722	8787.90902316974	2990.47939580394	9282.79656225623	-18.7931703788957
139.1537	8918.13185923213	3366.43024954802	9532.36216704565	-20.6805964884597
118.6706	9061.76463540592	3788.82706229257	9821.95442951422	-22.6903605464401
101.1982	9236.70945056531	4286.59268953895	10182.9110945825	-24.8951766266169
86.24196	9401.40759552854	4834.67609294012	10571.6866062568	-27.2145040517285
73.61024	9589.70161625265	5471.74167525812	11040.9390021644	-29.7084403649063
62.69291	9815.85919932183	6224.53512563514	11623.0774475255	-32.3800279720423
53.57697	10049.2478776111	7045.08945189924	12272.7612333546	-35.0326220282697
45.65746	10318.6041480078	7990.6411216142	13050.8213188947	-37.7539022649774
38.96512	10645.6725331661	9115.90622959966	14015.351942433	-40.5734963297516
33.18414	10979.3503068785	10430.1142794181	15143.7583526307	-43.5304627554863
28.30617	11517.72103243	11779.6135949453	16474.7441323713	-45.6440524955224
24.17237	11843.0662108841	13505.3002993446	17962.4985302953	-48.7518328720915
20.61345	12360.972167808	15415.1733668187	19759.0789983339	-51.2749040891516
17.55618	12939.7999321434	17611.3457729665	21854.0138697421	-53.6937027170759
14.98558	13612.7123700866	20123.2410842584	24295.0770693549	-55.9229382584812
12.76553	14448.2898311385	22969.7558259391	27136.0048965916	-57.8295469950262
10.8809	15331.1246115555	26249.357028306	30398.5546737756	-59.7126300845032
9.278505	16402.3639086988	29991.5037747375	34183.7364906688	-61.3257354609145
7.923394	17659.4086634095	34234.3454253623	38520.7102873808	-62.7135538322804
6.75822	19004.643796496	39099.4001442953	43473.4353079604	-64.0774798635893
5.761429	20688.0445212823	44572.1547103024	49139.3138091456	-65.1017565139447
4.919708	22659.2370307495	50968.1765617466	55778.0964612908	-66.0312086492059
4.191257	25016.8940253945	57919.5651045869	63091.3703178359	-66.6392887571782
3.564097	27539.7861817965	66322.8667446528	71813.3864691538	-67.4499094457293
3.051758	30654.1013148726	75343.9430426357	81341.1561304264	-67.8607774806176
2.604164	34164.6851962951	85718.5751356453	92276.2149085408	-68.2693536843254
2.214424	38553.53105299	97725.4913379023	105055.444475231	-68.4703472788573
1.892567	43246.185926639	110730.204785604	118875.610825195	-68.6666426194691
1.607507	49154.0675997319	126176.105142372	135412.450943397	-68.7157451025118
1.376413	55498.0913853837	142829.852627213	153233.171829509	-68.7658216138063
1.17375	63057.872721258	161691.508826099	173552.410927048	-68.6947748472101
1.001604	71950.3469260879	182927.159182527	196568.557987726	-68.5289035655197
