EC-Lab ASCII FILE
freq/Hz	Re(Z)/Ohm	-Im(Z)/Ohm	|Z|/Ohm	Phase(Z)/deg
6999984	-0.0724798195597432	-0.00259818382438115	0.0725263731521038	177.94699747633
5969734	-0.0446061300026624	0.0104754600658066	0.0458196693288453	-166.783946162237
5091109	-0.028622983370748	0.0142562220435172	0.0319767891445683	-153.523525543288
4341796	-0.0204221443290804	0.0144369593803482	0.0250097935846663	-144.742488966672
3702781	-0.0160615250162428	0.0139039353550877	0.0212436344396586	-139.118335249668
3157797	-0.0125504738503684	0.0128709917102563	0.0179771193875512	-134.277644021726
2693047	-0.00989197276267736	0.011048038964846	0.0148293725459409	-131.839995082342
2296687	-0.00850625362647748	0.00980169132844421	0.012978039283962	-130.952598049243
1958656	-0.00754029780182393	0.00870477530021159	0.0115164753274326	-130.899943227871
1670375	-0.00620923246166165	0.00845054023539887	0.0104864769123404	-126.307457316779
1424531	-0.00569049234136016	0.00736179159163483	0.00930471270516957	-127.703182505718
1214875	0.00412343772353073	0.00722067162650346	0.00831509695659818	-60.2710347516377
1036062	-0.00411089855748311	0.00640319937083621	0.00760923446429363	-122.70074529221
883578.1	-0.00343139095057563	0.00669142104035559	0.00751994410850279	-117.148956144731
753531.2	-0.00285324203152868	0.00571166554270898	0.00638467801555027	-116.54425648775
642624.9	-0.00173717435650414	0.00629612282261331	0.00653138096747754	-105.424807261867
548046.8	-0.00282804641853605	0.00487738183096096	0.00563796949888722	-120.106392395858
467390.6	-0.00173627831503712	0.00392632603350313	0.0042930989400004	-113.855709329878
398593.7	-0.00151544582801368	0.00372296985116834	0.00401958711441268	-112.148925353963
339937.5	-0.00127040884974066	0.00357958752207357	0.00379833983125315	-109.539962033835
289906.2	-0.000968728975428887	0.00294763028926737	0.00310273430219894	-108.192938257482
247234.4	0.000497103667195676	0.00344975019562692	0.00348538211221773	-81.8002103825759
210843.7	-0.00103250843821916	0.00249502018782121	0.0027002221043146	-112.48112628358
179812.5	0.000199152281146663	0.00224073133963738	0.00224956408388805	-84.9209969010945
153343.8	-0.000372353758331949	0.0016969694102759	0.00173734064039153	-102.375869650857
130781.2	-0.000177485136875119	0.00174046039445343	0.00174948659854043	-95.8226648690487
111531.3	-3.20317014391186E-05	0.00115643114712919	0.00115687468117667	-91.5866160023079
95109.37	-5.10080735755029E-05	0.0016374592789909	0.00163825355605391	-91.7842291458486
81109.37	0.000475317376486416	0.0010058826457293	0.0011125315749988	-64.7075042551151
69171.88	0.00159846853660381	0.000332109758661217	0.00163260483715758	-11.7372123205935
59000	0.00434609014166852	0.00233073164990377	0.00493161327998976	-28.2038761132045
50312.5	0.000269477360489988	0.000229803653722558	0.000354157827925472	-40.4567275311039
42906.25	0.00126409490269027	0.000300740052808784	0.00129937696700032	-13.382420522266
36593.75	0.000463001608030178	9.02381777294842E-05	0.000471713279183943	-11.0285895787316
31203.13	0.000317779848800748	-0.000156227456802296	0.000354105987753299	26.1797308145664
26609.38	0.00144942239493453	0.000101978275744921	0.00145300545341773	-4.02457702005147
22703.13	0.000634019263468465	-0.000479820470905539	0.000795115155653009	37.1181311067664
19359.37	-0.000332771992108714	0.00110280634135598	0.00115191971302993	-106.791197011695
16500	0.00536608366175194	8.92240842854795E-05	0.00536682539329701	-0.952592754690965
14112.02	0.000302515638712723	0.000239740239857937	0.000385993645378921	-38.396428595593
12011.13	0.00093141081512972	0.000248727728787659	0.000964049578397541	-14.9516029541025
10236.38	0.000159632566762268	-0.000269292603982473	0.000313051214549267	59.3411815459198
8750.684	0.00027712732869072	-2.84283234630105E-05	0.00027858163234889	5.85703814241304
7449.463	0.000349950088469685	-7.34050117319049E-05	0.000357565882275283	11.8465269383265
6363.206	0.00120272499154062	-0.000290259521618153	0.00123725421606329	13.5680301999986
5414.761	0.000628491330395124	0.000128469437502999	0.000641487138416797	-11.55263969647
4620.567	-0.000329665065029655	-0.000830230386392718	0.00089328693575514	111.656869199505
3941.215	0.00025551527577779	0.000900413286065755	0.000935965887134531	-74.1573544659873
3361.769	2.11512147017505E-06	-0.00100227051819934	0.00100227274999893	89.8790871812591
2867.244	0.000315484206702775	-0.000325681679193054	0.000453430083740467	45.9111883379242
2442.658	0.00047612974249484	-0.00149253489311174	0.00156663969656213	72.3069299708328
2083.003	0.00157264916717536	0.000866984786408769	0.00179579732232834	-28.867481561103
1777.843	0.00140653393039258	0.000461497986308557	0.00148031013261156	-18.1651857171205
1513.548	0.000781923163520876	-0.000943489784487296	0.00122538843110353	50.3495428725476
1292.065	0.00127711192726265	-0.000146305750693161	0.00128546499269424	6.5353055802889
1101.762	0.00155262035725283	-0.000307603990308931	0.00158279821474813	11.2062809797355
939.101	0.000342776118927755	0.000482052493667008	0.000591498160908177	-54.5842682067816
801.2801	0.005952036968364	-0.00149240038617456	0.00613628576464833	14.0760203107395
684.3433	0.000680635263979682	3.16312398648521E-05	0.000681369868652907	-2.66079881185369
582.9476	0.00126612541540402	-9.20535106667535E-05	0.00126946737506644	4.15836667591908
497.0677	0.00133489195193585	-0.00191573540245688	0.0023349472489908	55.1310647489868
423.5089	0.000485478657491325	-0.00272509744820346	0.00276800390698507	79.8986780520957
361.5036	0.00236657594198826	-0.00235406497087248	0.00333800892393752	44.8481510927282
308.1262	0.00125243037342355	0.000623922555025233	0.00139923593255143	-26.4810836964934
262.7298	0.00532776775233739	0.00183044395413931	0.00563343894012276	-18.9610183649793
224.2111	0.00149343790230805	0.00168361155680926	0.00225053430150975	-48.4255563260763
191.2854	0.0027617605363082	0.000727468321081271	0.00285596418361403	-14.7569348136289
163.1722	0.00247420708655815	0.00343160220735713	0.00423055485920144	-54.2081557917459
139.1537	-0.000405583941590192	-0.00455823010286939	0.00457623863062018	95.0846952289202
118.6706	0.00588608945466328	-0.00340315754816261	0.00679908305331788	30.0351924658914
101.1982	-0.000114658270822629	0.00448668441742943	0.00448814923778968	-91.4638884425909
86.24196	0.00484424822115652	-0.00225554156771002	0.00534361381387595	24.9672661764003
73.61024	0.00768572994115118	0.0049100228282638	0.00912023952001149	-32.5724443883811
62.69291	0.00746124868907473	-0.00734030452812294	0.0104666280418195	44.5318440123483
53.57697	0.00623611857192478	-0.00562260573581993	0.0083965987223149	42.0384348203421
45.65746	-0.00296010348180033	-0.0135097048121475	0.0138301965544358	102.358738212783
38.96512	0.0110326939380274	-0.00837975665004287	0.0138542649405923	37.218072134971
33.18414	0.0309144378653367	0.00712712205351388	0.0317253579537796	-12.982335553082
28.30617	0.00827457445232008	-0.00604650881546803	0.0102483584647748	36.1568511659856
24.17237	0.00518465658888246	-0.0148040214840002	0.0156856531914798	70.6987520314596
20.61345	0.0266415032033302	0.00590341817423599	0.0272877268945757	-12.4941354045849
17.55618	0.00241226448077581	-0.0215114044274549	0.0216462361709083	83.6016469862467
14.98558	0.0329849763863208	-0.0173223219412898	0.037256831650636	27.7065659357648
12.76553	0.0239927667898936	0.0234433530515982	0.0335446517426563	-44.3364195675851
10.8809	0.00741844223593514	-0.0389197559008995	0.0396204579048944	79.2083785005221
9.278505	0.0621872687537872	0.0231274738475388	0.0663485978874034	-20.4001909435227
7.923394	0.017154728046689	-0.0251668296224464	0.0304574130155714	55.7200768215371
6.75822	0.0550202693976958	0.0445833753918737	0.0708160109433436	-39.0181336399335
5.761429	0.106586796138267	0.0312609086274964	0.111076503002377	-16.3459186668652
4.919708	0.0831467880687717	-0.0661641651157734	0.106259517746038	38.5110659912428
4.191257	0.0694529297136334	0.100442677471518	0.12211650545055	-55.3373696622795
3.564097	0.139377954745473	0.143582127479352	0.200105076398696	-45.8512283046637
3.051758	0.178044451573135	0.116666055540445	0.212863325284899	-33.2353680165033
2.604164	0.183256540610149	0.00164032893598753	0.183263881753654	-0.512840714138737
2.214424	0.123079867079643	-0.187131437847562	0.223979527437752	56.6663280793516
1.892567	0.166475393802943	-0.188685091956436	0.251626947421085	48.5782896855243
1.607507	0.308403735953968	0.0688820408864577	0.316002531488354	-12.590380855011
1.376413	0.0975067135693702	-0.220995929487494	0.241550740096446	66.1922097896376
1.17375	0.15553925113273	0.0196504559243665	0.156775632867375	-7.20046374381218
1.001604	0.00473305582839953	0.217834654523648	0.217886067771466	-88.7552877618895
