EC-Lab ASCII FILE
freq/Hz	Re(Z)/Ohm	-Im(Z)/Ohm	|Z|/Ohm	Phase(Z)/deg
6999984	37.485424233049	76.1567815345474	84.8823444753527	-63.7929490225273
5969734	38.0917378138602	73.5619946806085	82.8392874852853	-62.6240578246809
5091109	40.6423855926022	74.9857917513491	85.2916905169223	-61.5422562116944
4341796	47.0606007929814	77.190830658392	90.4053343820425	-58.6307711757371
3702781	54.9693439310289	78.4018604317199	95.7521826976421	-54.9648210447295
3157797	62.7192712925608	80.1234168022231	101.75199708867	-51.946754399722
2693047	72.0591759393305	82.2077146647689	109.318951639043	-48.7638134195877
2296687	83.3659011717329	83.6596387025408	118.105074514243	-45.1007624550234
1958656	94.4347070757315	82.9357684034376	125.68315551874	-41.2907019793845
1670375	105.932962845834	80.7764427037624	133.216464122011	-37.3263955357185
1424531	116.288347637648	77.3648673536254	139.672124981825	-33.6352180729913
1214875	125.717117933728	73.2813044971855	145.516127389277	-30.2381799535504
1036062	134.543829941529	67.5661660319541	150.556397962998	-26.6652094135366
883578.1	142.204796169244	61.9631433627826	155.11813301137	-23.5442853851472
753531.2	148.338422863402	56.3658828803211	158.686484775735	-20.8058737103651
642624.9	153.446869793973	50.7943895072339	161.635428835949	-18.3157131890573
548046.8	157.763999620261	45.6413808157571	164.233416876562	-16.1352420855956
467390.6	160.987609829183	40.7104595636088	166.055268017589	-14.1914140106789
398593.7	163.684305600608	36.3973684924655	167.682200406392	-12.5365056335348
339937.5	165.877328842128	32.628660068794	169.055960207513	-11.1282097505709
289906.2	167.612690395773	29.3575518032081	170.164273070428	-9.93464699006622
247234.4	169.025983052563	26.5626112669318	171.10042450036	-8.93104838653712
210843.7	170.315417136474	24.2789072901711	172.037224615999	-8.11300216496114
179812.5	171.322341301094	22.4473813315475	172.786659084353	-7.46461447610134
153343.8	172.180009042588	21.0078193304138	173.456864917261	-6.95632069772898
130781.2	172.962205558093	20.0179434087948	174.116749940486	-6.60180879156974
111531.3	173.797004160075	19.3575062614288	174.87170069419	-6.35540829177373
95109.37	174.438293822641	19.1718416684719	175.488683010372	-6.27198563680268
81109.37	174.836134419336	17.785968886598	175.738483514372	-5.80868050450399
69171.88	175.984174871976	19.4709726031457	177.058037319639	-6.31355372483942
59000	176.900300727137	20.2629118857283	178.057018944608	-6.5344232252844
50312.5	177.603581259508	21.4544414822545	178.894731994875	-6.88793245530217
42906.25	178.526386951328	22.8459808473005	179.982248232348	-7.29249222486609
36593.75	179.519164905657	24.623606574307	181.200034683083	-7.8101939702345
31203.13	180.5629618088	26.916209097713	182.558115375236	-8.4785492382546
26609.38	181.772801375829	29.6168557967808	184.169784349398	-9.25407626185393
22703.13	183.088829972052	32.818600823343	186.006935947391	-10.1623232291174
19359.37	184.661073848062	36.4808341932943	188.230081172373	-11.1752037489276
16500	186.358669459799	40.7255386549003	190.756712022299	-12.3272270692853
14112.02	188.127272612964	45.5091970056143	193.553500905792	-13.5989699209356
12011.13	190.288028222692	51.135071705098	197.038902867342	-15.0414427363791
10236.38	192.657265148352	57.5977828611579	201.082884415764	-16.644825019007
8750.684	195.167475803681	64.670455604898	205.603043362022	-18.3330680806718
7449.463	198.251809512468	73.2039243202684	211.335265658279	-20.2665256194966
6363.206	201.538030698281	82.6941783341987	217.843762701872	-22.3091029704042
5414.761	205.182176809667	93.5537260265705	225.503936404241	-24.5108250784872
4620.567	209.339170588732	106.151087182651	234.714596164868	-26.8885197141888
3941.215	213.842068313526	120.034637299083	245.227943620072	-29.3065333899338
3361.769	219.349842246769	135.702664617207	257.933259735716	-31.7433629996709
2867.244	225.073701355128	153.942845213904	272.684012428762	-34.3708156678479
2442.658	231.562913474758	174.843365825775	290.157863016332	-37.0549109436516
2083.003	238.99306968994	198.874681616372	310.916108215438	-39.765052880822
1777.843	247.011244150332	225.470738685109	334.442235281227	-42.389686596647
1513.548	256.512445110642	256.381009288611	362.670451540358	-44.9853171888825
1292.065	266.951092404916	291.253309182573	395.084011124188	-47.4928784384285
1101.762	279.541613514264	331.975840480458	433.994783780709	-49.9008080569791
939.101	292.323373235899	377.603787902382	477.53280010722	-52.2546218117797
801.2801	307.64807362183	429.776197782262	528.540364951817	-54.4036547210225
684.3433	324.958907053726	488.785875096189	586.949676690514	-56.3828973172563
582.9476	345.435245564309	557.391811109629	655.752346522791	-58.2120536190555
497.0677	368.663798029442	634.89918878427	734.172987719119	-59.8577602940098
423.5089	394.20045027805	724.292699031568	824.617431825117	-61.4425042595621
361.5036	423.322749294964	825.001842886668	927.270290064901	-62.8368543497925
308.1262	458.41434444002	940.760706631747	1046.50581380642	-64.0209289292099
262.7298	497.819929922637	1072.2665303861	1182.19296005958	-65.0960269359934
224.2111	543.906194510216	1221.91839618744	1337.50458517639	-66.0049671821889
191.2854	595.866252339985	1391.72454234716	1513.9200086032	-66.8218331107069
163.1722	657.154132501298	1585.52263223306	1716.31394889944	-67.4873808855309
139.1537	726.824481948317	1805.58413149088	1946.38328277118	-68.0731156394931
118.6706	807.323144673473	2056.51663893398	2209.3056253352	-68.5666041884393
101.1982	905.545188635129	2345.14217350598	2513.90212669797	-68.8866011170199
86.24196	1014.09217425311	2669.320236198	2855.46028886019	-69.1978890871144
73.61024	1141.10376707045	3034.7930277439	3242.23480464715	-69.3933822868131
62.69291	1289.49963665146	3449.94536039882	3683.06018178656	-69.5055674230997
53.57697	1457.78440712238	3912.77071890614	4175.51315126398	-69.5660717662655
45.65746	1656.50954364036	4441.05475456783	4739.9357802866	-69.5445285531686
38.96512	1883.29918114316	5031.53104551694	5372.44082961323	-69.4791540687442
33.18414	2146.15383351011	5704.54421025766	6094.89958275559	-69.3827825676031
28.30617	2441.04350383357	6459.60104348472	6905.4427105434	-69.2987296590575
24.17237	2788.68484022664	7283.39715623588	7799.01514766927	-69.0490346519394
20.61345	3189.23838715245	8227.11701796459	8823.64414045406	-68.8111998711806
17.55618	3641.930620199	9288.35757510957	9976.83542439377	-68.5900381622601
14.98558	4144.46484136989	10456.9613107281	11248.3167040858	-68.3798199472266
12.76553	4724.55963142843	11790.2992069476	12701.6778065054	-68.1632419006672
10.8809	5369.48361805888	13278.1281589505	14322.7106977037	-67.9823018289649
9.278505	6109.37550684475	14941.8903581449	16142.631649098	-67.761541190501
7.923394	6915.91830620702	16789.9697292047	18158.5519666558	-67.6128586426645
6.75822	7840.96678547033	18893.0331863152	20455.4995810431	-67.4606237564983
5.761429	8857.46399653948	21262.3927298451	23033.5410444891	-67.3844203697459
4.919708	10043.1562238178	23937.2589119	25958.7625119409	-67.2389463855621
4.191257	11383.78527145	26886.7714298011	29197.415040117	-67.052334031688
3.564097	12889.3521910524	30357.2572769098	32980.2739418805	-66.9944652943798
3.051758	14599.5627293777	34007.8156332229	37009.1712421707	-66.7661416130202
2.604164	16494.7682799133	38250.9675091214	41655.8986938452	-66.6730932670909
2.214424	18805.9138947339	43036.8684237858	46966.3117685687	-66.3960108773657
1.892567	21279.3661810849	48338.138168441	52814.6478418629	-66.2399944697516
1.607507	24177.0613375381	54378.1675618223	59510.6326827458	-66.0296043673795
1.376413	27452.660494969	60837.5072141439	66744.6690926178	-65.7129305940107
1.17375	31135.1820270385	68284.5125850543	75047.8128850885	-65.4887895045555
1.001604	35266.8653260914	76471.918532493	84212.26819157	-65.2420738779722
