EC-Lab ASCII FILE
freq/Hz	Re(Z)/Ohm	-Im(Z)/Ohm	|Z|/Ohm	Phase(Z)/deg
6999984	-13.6407361062518	32.8507291195152	35.5702134545769	-112.549881218995
5969734	-10.6558940905606	38.3249803509869	39.7787908033009	-105.538081017964
5091109	-8.41124301059319	42.1750434688437	43.0056194070276	-101.2788846563
4341796	-6.24289666207525	46.2552109231864	46.674600119142	-97.6865538723887
3702781	-4.55486467143845	50.904093572737	51.1074704386461	-95.1131712313381
3157797	-13.6179424839249	49.5169897965252	51.3554343376109	-105.377079877532
2693047	-12.1932901591638	57.3099201126163	58.5926895458813	-102.011182014257
2296687	-11.4551510057676	66.3501322374281	67.3317201064189	-99.7953823331472
1958656	-10.2015524463958	77.1237353761991	77.7955154921834	-97.5350638313561
1670375	-8.55749971382191	89.8109577629521	90.2177307165883	-95.442908442436
1424531	-6.08826833859474	104.412753933618	104.590105628424	-93.3371166579916
1214875	-2.78471878590167	121.070897823183	121.102918868326	-91.317612317494
1036062	1.21534908888503	140.315534358326	140.320797659044	-89.5037425296689
883578.1	6.22835447399685	162.50533331515	162.624646826125	-87.8050945544445
753531.2	12.7740069455963	188.006232966507	188.439695626221	-86.1130355938642
642624.9	21.2745500515383	216.789616429847	217.830999335943	-84.3952508282824
548046.8	31.4050709408441	249.395714278274	251.365273618234	-82.8228254553254
467390.6	44.1939223366304	286.051756307142	289.445521744416	-81.2174550091484
398593.7	59.6578094372649	327.997137576061	333.378428343741	-79.6914392175969
339937.5	78.4625260428489	374.700047176744	382.826975730916	-78.1731010605002
289906.2	101.63599306377	426.630422119757	438.569711863623	-76.6002173213071
247234.4	129.229087015797	484.817563351209	501.74518100799	-75.0747171917713
210843.7	-17.5679091345394	432.782300201999	433.138720041851	-92.3245283466569
179812.5	9.46043982520697	509.379958949017	509.467803203096	-88.9359986504737
153343.8	42.7208937734104	592.408213027331	593.946601663007	-85.8753154046644
130781.2	88.7167036708438	687.748992169705	693.447423919553	-82.6496776096369
111531.3	143.337221112506	784.37946373816	797.368611177051	-79.6440556079396
95109.37	215.952954145683	890.738248109276	916.542582234469	-76.3720082315065
81109.37	296.383738298084	1001.81805222703	1044.74050849745	-73.5193659611091
69171.88	394.192164966517	1112.83144751399	1180.58514877033	-70.4946071690545
59000	506.975827447124	1244.63525864173	1343.92760841865	-67.8375153941353
50312.5	649.009027644928	1369.8677714016	1515.83324580555	-64.6495782220274
42906.25	797.330275106333	1444.95148100512	1650.33946509803	-61.1099022594887
36593.75	937.078637966089	1589.15031604603	1844.86181073857	-59.473305613477
31203.13	1135.47124047751	1747.67615428044	2084.14655871222	-56.9880782587853
26609.38	1363.56411014026	1820.16068080753	2274.26735157068	-53.161470762023
22703.13	1581.10712902139	1927.57087276672	2493.07625695262	-50.6393793027925
19359.37	1826.83176436615	2019.49409446255	2723.17290910185	-47.8675469998204
16500	2109.47531082434	2085.33573824094	2966.22845178222	-44.6702878043858
14112.02	2393.32331014062	2156.58111728999	3221.62049011273	-42.0214523512944
12011.13	2677.12826066411	2181.99856117561	3453.71299401367	-39.1818219524245
10236.38	2947.42308587871	2194.96306000234	3674.93750721636	-36.675269108598
8750.684	3226.45482679324	2177.04805010489	3892.24215097197	-34.0094798343487
7449.463	3502.1056113234	2123.65721185062	4095.68842397808	-31.2323877788173
6363.206	1931.18171998288	1845.17038899252	2670.97671274215	-43.695239687788
5414.761	2173.06023203735	1797.0625919164	2819.86253766518	-39.589836657493
4620.567	2385.07533607922	1755.47010783862	2961.46241885463	-36.3539199996209
3941.215	2615.41341254749	1745.14238232545	3144.18658051997	-33.7133179500456
3361.769	2759.04935996976	1665.76968112737	3222.90893469125	-31.1213829355886
2867.244	2905.02995142149	1663.05661718012	3347.38051774854	-29.7900524732447
2442.658	3112.0733201375	1656.5131640916	3525.48382675632	-28.0257492642763
2083.003	3248.07478865876	1649.36003698638	3642.85305280467	-26.9212871704924
1777.843	3377.74527035076	1608.69084182417	3741.26306692618	-25.4666733793701
1513.548	3485.10146565085	1676.53936065539	3867.39142752689	-25.6902988068097
1292.065	3612.92542021505	1720.44550781308	4001.64501641391	-25.4634075199379
1101.762	3757.42007330943	1744.39718639667	4142.59908164153	-24.9032725202621
939.101	3855.77178522726	1828.90428873507	4267.53640372383	-25.3763408533898
801.2801	3938.8334750487	1959.97303914002	4399.5344592718	-26.4550484942826
684.3433	4093.58311218445	2083.67318765158	4593.37747733623	-26.9765317610989
582.9476	4193.88796978109	2314.75901947579	4790.28241561174	-28.8959002677415
497.0677	4321.66328205295	2523.86924526671	5004.66677118945	-30.2851051969716
423.5089	4531.98675845429	2745.03033113033	5298.49936280363	-31.2033445481821
361.5036	4626.58203310285	3071.15673669001	5553.1310996902	-33.5764784398345
308.1262	4784.60770111997	3373.05608513574	5854.0565599495	-35.1830979340049
262.7298	5034.39868316886	3795.3973216667	6304.77683430644	-37.0123802865191
224.2111	5229.05777671881	4220.06994600932	6719.52644026903	-38.9049916641291
191.2854	5440.42357962949	4716.53064416134	7200.2687479775	-40.9233844665041
163.1722	5697.80054488161	5312.37660882043	7790.1396831633	-42.9951139100279
139.1537	5890.62188131	6067.06116931881	8456.27916880848	-45.8453554872637
118.6706	6311.99676266638	6843.71131339571	9310.08526668855	-47.3144651106027
101.1982	6687.76653176536	7676.46099258115	10181.0743320153	-48.9374769272918
86.24196	6970.38840408645	8702.46945766594	11149.8560154574	-51.3064339566177
73.61024	7293.09686650894	9686.76876160166	12125.2938498423	-53.0241786151537
62.69291	7688.36194901941	10554.2270700144	13057.6651245372	-53.9280539144403
53.57697	8666.72287866873	12029.830662307	14826.6284508455	-54.2296646273751
45.65746	8751.44462877714	14746.426324753	17147.7366565364	-59.3124763603838
38.96512	10348.3550587172	15007.8507968909	18229.7569364766	-55.4125932912022
33.18414	23533.29618191	16150.3702975968	28542.0827890151	-34.4609304698661
28.30617	-26544.1212241233	18245.9292154307	32210.3136354718	-145.496100354608
24.17237	-28641.0273876644	12654.863486817	31312.2024088201	-156.162053485645
20.61345	-23957.6718647697	10946.2754024731	26339.9124213951	-155.444309255685
17.55618	-22962.3417922154	17803.7398549139	29055.8478348847	-142.211963568698
14.98558	18264.1246276541	8749.40010543359	20251.6727857094	-25.5966775030853
12.76553	20551.5074797467	10621.2221292071	23133.8457505025	-27.3303675770599
10.8809	6813.34915111092	24694.0718413811	25616.7701079241	-74.5752698817557
9.278505	21950.2591366758	10307.9191247713	24250.0942853847	-25.1549155838836
7.923394	19723.2273421216	12890.9883821202	23562.327522063	-33.1684007094084
6.75822	19893.3584378215	6188.99583643495	20833.8517657935	-17.2813696702415
5.761429	15349.5386372605	7323.62568470174	17007.169945243	-25.5069064757442
4.919708	20254.1067697232	14669.5983472993	25008.5176831902	-35.9149770327712
4.191257	24817.5752592707	6897.79831774808	25758.3319215723	-15.5327425865478
3.564097	21381.8321136297	8787.49007520505	23117.1522112321	-22.3416469731676
3.051758	19388.9271784305	12800.8228236871	23233.4147747142	-33.4333134755651
2.604164	23346.7195033795	16736.9936134734	28726.2295957359	-35.6363018203754
2.214424	17218.2448186578	11206.7072077367	20544.0561008574	-33.0585876183937
1.892567	17943.8213513833	13807.2148954691	22641.1110120512	-37.5771677034913
1.607507	25673.3260804261	18933.8999019021	31900.0350709389	-36.4085171479189
1.376413	29508.5574362905	15011.8663833923	33107.5685347577	-26.9637719910013
1.17375	23421.9269689759	17441.075773573	29202.3592724896	-36.6731147872883
1.001604	21817.3872182721	15211.1732568784	26596.5820526398	-34.8843691987796
