EC-Lab ASCII FILE
freq/Hz	Re(Z)/Ohm	-Im(Z)/Ohm	|Z|/Ohm	Phase(Z)/deg
6999984	40.3274761677121	73.4248742337505	83.7706242682927	-61.2228895366885
5969734	41.3811349512813	70.32036934542	81.5926018382331	-59.5246426319207
5091109	43.8176797922422	69.6757772692488	82.3085840022135	-57.8350473898595
4341796	48.900230810423	70.8354578641391	86.0749363295429	-55.3813040660101
3702781	56.8315547895971	70.5888353002308	90.6234477872371	-51.1622204795832
3157797	63.2103497613927	70.9929055330924	95.0554625099904	-48.3189116916686
2693047	72.0124214960066	71.972773242599	101.812911450116	-44.9842228394938
2296687	81.1905501316383	71.5090712839985	108.191740473005	-41.3721823074301
1958656	90.237780837791	69.5876460110206	113.953049840205	-37.637924148087
1670375	99.2595334874999	66.9396246319341	119.722046148654	-33.9953277768089
1424531	107.386338943883	63.146398384755	124.576456125292	-30.4568091890164
1214875	114.832930903819	59.0416094205549	129.122088206978	-27.2100636288163
1036062	120.468997382932	54.3901821313017	132.178179903965	-24.2985556745472
883578.1	125.699663419841	50.0048857131313	135.280796785961	-21.6932764730417
753531.2	130.026350034915	45.7705401374684	137.846995062924	-19.3925644466938
642624.9	133.627639409158	41.8258150682029	140.020515711746	-17.380262185681
548046.8	136.63057050853	38.6954467958553	142.004402749412	-15.8127699793401
467390.6	139.258229389852	35.5617569559807	143.727147785632	-14.3252168445758
398593.7	140.59687262227	32.7657435472705	144.364381138037	-13.1184875139389
339937.5	143.080942644291	30.8737245977115	146.373983407278	-12.1764818733864
289906.2	144.065967994716	29.4783288156996	147.050926566346	-11.564058745327
247234.4	145.80270033228	28.2270233502425	148.509906307289	-10.9567693191119
210843.7	147.011411011417	28.1468201748225	149.6816570376	-10.8386884471134
179812.5	147.615881180142	28.3374352448148	150.311205879149	-10.8667232720291
153343.8	149.995350055752	29.3536311580504	152.840572821847	-11.0726729514889
130781.2	150.817072044009	30.2135687819705	153.813682611368	-11.3282522351629
111531.3	151.876381632246	30.2816127696322	154.865785019267	-11.2759526476234
95109.37	154.437202111649	33.0644775417726	157.937041479144	-12.084396096553
81109.37	156.047792336011	34.5531096547457	159.827503514744	-12.4853519615855
69171.88	157.625966288855	38.3699641332751	162.228848840408	-13.6810919617117
59000	160.353449607733	41.5060233168125	165.638095777136	-14.5119896266325
50312.5	162.666587758923	45.4902341499048	168.907608402182	-15.6238199576618
42906.25	165.60067672145	49.7077864017983	172.900110351524	-16.7079993454981
36593.75	168.842872729893	54.7565007002664	177.499831100261	-17.9681111539073
31203.13	172.803750237358	60.3296446443552	183.032243386267	-19.2452340792539
26609.38	176.774168891061	66.5059515730138	188.870718698684	-20.6172961112537
22703.13	181.230646239528	73.4125511778534	195.535034729937	-22.0517876246109
19359.37	186.350035394369	80.8684604314413	203.140452849831	-23.4589146736727
16500	191.935339884842	89.1887631133105	211.645482263128	-24.923411986761
14112.02	197.930406216529	98.1367145255814	220.923652972957	-26.372869157727
12011.13	204.672437758208	108.121470971694	231.475828679736	-27.8459665673202
10236.38	211.641503920552	119.246218605235	242.923417630743	-29.3984300906948
8750.684	219.09800317998	131.291278163834	255.423833499045	-30.931533370172
7449.463	227.071909970378	145.03831030248	269.43972192866	-32.5677117569933
6363.206	235.228508101505	160.334908174851	284.674786033287	-34.2788674008853
5414.761	244.648206072483	177.741035048243	302.398115527371	-35.9990356708948
4620.567	253.626990794322	197.501730323782	321.455415167128	-37.9082284470959
3941.215	263.517757891889	219.4839030638	342.950131110177	-39.7909104661162
3361.769	274.422280233089	245.847260844491	368.440583477265	-41.8562743485361
2867.244	285.597937548678	274.965761011356	396.449683642972	-43.91340482744
2442.658	298.074575820963	309.047521009322	429.37026328433	-46.0354342357983
2083.003	311.510644678745	348.158627472377	467.17588939458	-48.1798032685888
1777.843	326.54722668101	392.951131005395	510.924341376957	-50.2730014406961
1513.548	343.518631040728	444.898044708434	562.084797924195	-52.3272327531566
1292.065	362.434462179254	503.823308392397	620.642139605929	-54.2699607491067
1101.762	384.199973103155	571.800751792078	688.887305066983	-56.1023599920264
939.101	408.848805569818	648.847540624003	766.916212365917	-57.7843406249904
801.2801	437.242806049197	736.7511171425	856.728358380004	-59.3119606983682
684.3433	470.16142402773	836.766849616826	959.807545949421	-60.6692977150331
582.9476	509.146020735449	957.420874091274	1084.38203626602	-61.9964398558946
497.0677	552.304647077782	1082.10057857551	1214.9000310055	-62.9602121630842
423.5089	604.978035202193	1230.90651148433	1371.54265813777	-63.8263524619834
361.5036	663.940187780131	1397.78327765988	1547.45425271803	-64.5925116256324
308.1262	734.565313143852	1586.62843696584	1748.42100086415	-65.1571615327338
262.7298	815.499612650695	1800.28023998919	1976.37257639569	-65.6301954883938
224.2111	907.587139512967	2041.63097867324	2234.27202213329	-66.0329275225913
191.2854	1023.04402294304	2316.16330283278	2532.04097878939	-66.1690622947144
163.1722	1146.32203970828	2619.16686258718	2859.03642383158	-66.3626074379096
139.1537	1292.44951206183	2960.46549668808	3230.29127143505	-66.4153768508411
118.6706	1460.4923057571	3342.42802227269	3647.58315316449	-66.3968130182789
101.1982	1655.39985972842	3769.57696040501	4117.04495433377	-66.2914460797543
86.24196	1875.49051961851	4245.77354027942	4641.55767437137	-66.167458012888
73.61024	2130.78034032113	4773.58440332063	5227.5551565072	-65.9454941630543
62.69291	2428.65566141153	5363.77643680134	5887.99337513991	-65.6395347004544
53.57697	2752.44297885086	6015.64975283986	6615.43530696716	-65.4136747376139
45.65746	3121.47347102686	6740.36987939358	7428.06722784337	-65.1510881801054
38.96512	3536.18558079206	7542.23816414263	8330.0639245117	-64.8804229176856
33.18414	4016.41132536189	8437.63461737106	9344.79736916503	-64.545013424416
28.30617	4570.66405390186	9451.82409174712	10498.9498786765	-64.1927589719696
24.17237	5107.22159027176	10515.7385409353	11690.3579685761	-64.0953561467974
20.61345	5751.50272995394	11760.8589163256	13091.8900889972	-63.9396262180808
17.55618	6476.75019021358	13122.1885197995	14633.5274139761	-63.7303247355195
14.98558	7254.28872994821	14633.0129597034	16332.4760295646	-63.6301717129307
12.76553	8140.31730175587	16345.8958924649	18260.6976400291	-63.5265236477915
10.8809	9109.9681359249	18260.8808219946	20407.1381588075	-63.4863593063528
9.278505	10145.3715197621	20404.0270707809	22787.1210112019	-63.5623335099872
7.923394	11245.9366823974	22811.4961599115	25432.9598929843	-63.7569672729931
6.75822	12586.7035668773	25420.4130828088	28365.8687154312	-63.6580747575535
5.761429	14028.0013651159	28493.6242805879	31759.5882678445	-63.7880215854892
4.919708	15609.5705838325	31930.4431779639	35541.692353528	-63.9477622187717
4.191257	17471.4917780464	35785.1010904885	39822.4369546469	-63.9768111789848
3.564097	19475.5480300014	40226.4811532271	44693.0280585219	-64.1661737302755
3.051758	21738.6679242054	44969.3541960735	49948.0980611953	-64.2003793106448
2.604164	24240.2017846236	50421.7692961246	55945.8863680868	-64.3241381943931
2.214424	27207.1060539091	56664.4246824514	62857.6458708236	-64.352270422134
1.892567	30430.2787753471	63512.7220481539	70426.3283744893	-64.3999405106889
1.607507	34185.2425111824	71382.1531336764	79145.7048205901	-64.4100245678832
1.376413	38270.6289009174	79809.7668554472	88511.2417831349	-64.3812047907881
1.17375	42964.0923016079	89353.7905081489	99146.422555104	-64.3202993771657
1.001604	48238.9270666081	100015.513914681	111040.97040352	-64.251315258632
