EC-Lab ASCII FILE
freq/Hz	Re(Z)/Ohm	-Im(Z)/Ohm	|Z|/Ohm	Phase(Z)/deg
6999984	18.0186736784285	-17.320587836303	24.9935064391689	43.868335967275
5969734	18.2586046861749	-1.44951028537342	18.3160510250821	4.53906561810478
5091109	12.0914036399235	-4.18238404053835	12.7943103857185	19.080365473705
4341796	9.8293035546839	-6.29359373936434	11.6715264865521	32.6309834863096
3702781	5.97295139814996	-5.91379575897913	8.40530360448575	44.7148639208469
3157797	4.17365820464107	-4.98709269814419	6.50311589847904	50.0743054069227
2693047	3.19100935472919	-5.0493881900508	5.97317853372839	57.7087674918126
2296687	3.02379777933017	-4.2162560716159	5.18846492439913	54.3528161758606
1958656	2.77529300733175	-3.57117058224087	4.5227768686955	52.147856856235
1670375	2.62220346922627	-3.00472952764886	3.98802589865552	48.8890562640253
1424531	2.50261889862497	-2.56717730228123	3.58517791094148	45.7295607168677
1214875	1.1831222496522	-1.9369456746714	2.26969971675778	58.5826427209461
1036062	0.803301722591509	-1.88710309967845	2.05096361896902	66.9415239941097
883578.1	0.745841904593516	-1.57640829492363	1.74394474079648	64.6798876893898
753531.2	0.677289608015023	-1.39691253786124	1.55244512030509	64.1336870232916
642624.9	0.606092903619328	-1.16767337511575	1.31560241667911	62.5679652565376
548046.8	0.572669612169594	-1.04813433367562	1.19437685264413	61.3491121389558
467390.6	0.531802707500899	-0.900882451693146	1.0461373291657	59.4460901182083
398593.7	0.501075261422036	-0.784323212273705	0.930719785392201	57.4269868481673
339937.5	0.475480328187495	-0.682349200589482	0.831674199454566	55.1301193686248
289906.2	0.454987706431516	-0.592596157184569	0.747117138415209	52.4834095889534
247234.4	0.435678436364403	-0.514336291969394	0.674060472917495	49.7330918511884
210843.7	0.420376595720943	-0.445354262522865	0.612418893713456	46.6526129135573
179812.5	0.407460373016631	-0.384411994527974	0.560175452082495	43.3328095049001
153343.8	0.399053062622996	-0.333513672597873	0.520071837920988	39.8876200123564
130781.2	0.39183677210304	-0.289744642499878	0.48732741953384	36.4811624667635
111531.3	0.384286833046631	-0.252182322074482	0.459643659392673	33.2742718507927
95109.37	0.377518023449868	-0.219680087106072	0.436782782055825	30.19539146541
81109.37	0.386205730510024	-0.195845235256539	0.433024505601555	26.8896026044216
69171.88	0.385064264339404	-0.136475638588075	0.40853407152803	19.5154982712171
59000	0.324653605602044	-0.141967865801544	0.354337182004165	23.6192912901078
50312.5	0.364494938087872	-0.0844666600202035	0.374153947656109	13.0472058346467
42906.25	0.350073848765145	-0.12634624412725	0.372176131682707	19.8451781865354
36593.75	0.363012979663754	-0.101743426739931	0.377001522926819	15.6568509745511
31203.13	0.337978192181566	-0.0507195901759391	0.341762688451994	8.53455586272864
26609.38	0.341801573987182	-0.052113011503388	0.345751474252919	8.66888008821911
22703.13	0.366182301268674	-0.0919300457104417	0.377545508603593	14.0928480811825
19359.37	0.346090731633596	-0.0520794316881441	0.349987230806551	8.55761168440471
16500	0.344715075371562	-0.0559203885210235	0.349221381133463	9.21437028665136
14112.02	0.341434086508877	-0.0502898848622749	0.345117817490798	8.37886031147979
12011.13	0.340083194323308	-0.0451631941614955	0.343068933551282	7.56464144797528
10236.38	0.40263577097323	-0.166819897669698	0.435826160671587	22.5051863166318
8750.684	0.336144414578647	-0.0369880561238166	0.338173304310437	6.27934814447011
7449.463	0.334095827314717	-0.0338787351596689	0.335809157893474	5.79024272265668
6363.206	0.332080148245105	-0.0307458626906731	0.333500424184265	5.28968788522316
5414.761	0.330484274944517	-0.0283174547191734	0.331695242997809	4.89741118487125
4620.567	0.328862466855074	-0.0257592156871278	0.329869761116142	4.47873258931971
3941.215	0.327646568015188	-0.0237306706243236	0.328504822278778	4.14256507288717
3361.769	0.325797702575871	-0.0223530797640709	0.326563628070633	3.9249299191957
2867.244	0.324703899786161	-0.0207476206419094	0.325366080436547	3.65606087946364
2442.658	0.323159956025226	-0.0188264825543991	0.323707883165667	3.33413881269143
2083.003	0.322267823036457	-0.0186829637514496	0.322808926300366	3.31791780455348
1777.843	0.320591219816865	-0.0175770315865919	0.321072705571591	3.1382095921107
1513.548	0.320273331958149	-0.0163841222298783	0.320692136830354	2.928509330924
1292.065	0.318335460679302	-0.0158387317926526	0.318729243952768	2.84839378834645
1101.762	0.317548991555796	-0.0156994099194412	0.317936838868858	2.8303605147025
939.101	0.315315304376287	-0.0155115851931151	0.315696611399479	2.81633164308872
801.2801	0.314257753919223	-0.0150837432082394	0.314619540409567	2.74797376742505
684.3433	0.312895105780448	-0.013960807968834	0.313206403798678	2.55473859439702
582.9476	0.311431093891696	-0.0141158950970508	0.31175083758824	2.59520660346711
497.0677	0.310746959659114	-0.0137858600805759	0.311052604675711	2.54018260161172
423.5089	0.309633907956012	-0.0138287703750901	0.309942562172734	2.55722637714348
361.5036	0.307485547841814	-0.0143847900053403	0.307821838593492	2.67845851701521
308.1262	0.308145941698834	-0.0124488146355787	0.308397299552529	2.31343913785106
262.7298	0.305930399984805	-0.0134524413309342	0.306226024061681	2.51780115126053
224.2111	0.303763400329768	-0.0135883887316271	0.304067176275613	2.5613310467878
191.2854	0.304120592894929	-0.0133901431972284	0.304415227867473	2.52105096787451
163.1722	0.301716204603166	-0.0129878534685561	0.301995616620275	2.46486615352619
139.1537	0.301988476249246	-0.0109788617953302	0.302187979896061	2.08208450975519
118.6706	0.297922949520687	-0.0111294787641655	0.298130758474647	2.13939805095992
101.1982	0.299186748910628	-0.0133435092416558	0.299484156446703	2.55365742303761
86.24196	0.295748741054877	-0.00773194088140824	0.295849794228994	1.49757760434791
73.61024	0.308492547010246	-0.0253378162541223	0.309531349774779	4.69540861166213
62.69291	0.219011296368267	-0.0473449563936885	0.224070285474958	12.1982599991793
53.57697	0.275899370060694	-0.00727896993594838	0.275995372793125	1.51126671198918
45.65746	0.285105114275293	-0.0314261061616737	0.286831878169796	6.29011402144062
38.96512	0.294258532926734	0.00443648947354371	0.294291975152301	-0.863773983205375
33.18414	0.33909745325916	-0.0626953759332004	0.344844592490956	10.4750665120116
28.30617	0.269605796948907	-0.0366500506388727	0.272085486493284	7.74130152494797
24.17237	0.237201253862353	-0.00264837190255114	0.237216038048878	0.639685605867349
20.61345	0.238155548491946	-0.0181987296702986	0.238849867153223	4.36978237274441
17.55618	0.337842504797931	-0.0433073869578975	0.340606940348051	7.3047993583055
14.98558	0.11810065428319	-0.0200776389448786	0.119795142337736	9.64829414321574
12.76553	0.0978795484746147	-0.0705629537524611	0.120662904207824	35.7884450332945
10.8809	0.18226877215046	-0.0286292736869952	0.184503497563274	8.92661369320281
9.278505	0.161258383886972	0.11840481900662	0.200059909871589	-36.2881730926296
7.923394	0.296467136842658	-0.000414861558732069	0.296467427110966	0.0801768490616318
6.75822	0.136878008445707	0.108778032090939	0.174837780418422	-38.474442528978
5.761429	0.278062700660537	-0.0302825620442194	0.279706809110171	6.21533157002014
4.919708	0.240938560631847	-0.031672858851253	0.243011440033505	7.4889422640826
4.191257	0.357331315026059	0.0760327778433619	0.365330880168691	-12.0122206031003
3.564097	0.203156340673842	0.0101256168076166	0.203408522121668	-2.85334643552756
3.051758	0.216598443960225	0.0704711589617503	0.227774164846242	-18.0225020373991
2.604164	0.245811073540173	0.0517242538979939	0.251194112821691	-11.8829785132527
2.214424	0.221406761051719	0.278220750586337	0.355566786829475	-51.4873912170538
1.892567	0.190267888567045	-0.118007732417167	0.223892148879774	31.8079697206498
1.607507	0.270800114991647	0.00929554501459128	0.270959608496557	-1.96597575848752
1.376413	0.168127994632526	0.0736962684552402	0.183570592861116	-23.6694881225392
1.17375	0.163683461744381	-0.110726198883185	0.197617222852015	34.0769914513489
1.001604	0.226317564872127	0.0976321379596046	0.246478547813421	-23.3350984941449
