EC-Lab ASCII FILE
freq/Hz	Re(Z)/Ohm	-Im(Z)/Ohm	|Z|/Ohm	Phase(Z)/deg
6999984	-6.06976569906522	25.4447359504289	26.1586819856926	-103.41699126039
5969734	0.185977447554471	26.9437393531699	26.9443811942779	-89.6045258058324
5091109	4.90224325863116	25.689838029051	26.1533892053337	-79.1964609783834
4341796	8.48938779572308	23.4344077297344	24.9247100442434	-70.0864893315828
3702781	11.1459088234152	21.5087909665045	24.2251805429943	-62.6066972034885
3157797	13.5452880221708	19.6499077862696	23.866162314299	-55.4203053031247
2693047	15.6651463213755	17.7974525558186	23.7096209743369	-48.6460763222662
2296687	17.1882597976186	16.1128477361383	23.5597142817652	-43.1503568246186
1958656	18.4583361541783	14.6806225609132	23.5845468974208	-38.4965758886039
1670375	19.5201933511631	13.4092395042797	23.6821800632866	-34.4868052438942
1424531	20.3754345088634	12.2593199616703	23.7791769695166	-31.0341271929682
1214875	21.0239834841251	11.303384081235	23.8699470721801	-28.2643575380585
1036062	21.6440738480305	10.5397340775833	24.0738847543384	-25.9640924187909
883578.1	22.1668236212126	9.89155029455543	24.2736654974824	-24.0479668532688
753531.2	22.6168290220212	9.42882275520171	24.5035436939303	-22.6309677413969
642624.9	23.0080686252694	9.12077428776301	24.7499443529359	-21.6241834925268
548046.8	23.3542509942255	8.96373047745938	25.0153853373043	-20.9975911181938
467390.6	23.6935980038546	8.95009293422872	25.3276676758756	-20.6937114923903
398593.7	24.0144854914431	9.10268746090962	25.6817918461647	-20.7592062979517
339937.5	24.3140099796919	9.41825923393868	26.0744067677527	-21.1743428684137
289906.2	24.6272749524889	9.89222049656679	26.5397569306537	-21.884214658269
247234.4	24.9298605419046	10.5408224830792	27.0667117555606	-22.9195723123822
210843.7	25.2492653528306	11.3814298480258	27.6958904215623	-24.2640808040142
179812.5	25.5597284720776	12.4141388854107	28.4149707695187	-25.9054444588813
153343.8	25.9211909063128	13.684579474108	29.3117016460098	-27.830926425198
130781.2	26.2778322510115	15.1992414016076	30.3569004840191	-30.0453223597093
111531.3	26.6542274098918	16.9903784444593	31.6088721485625	-32.5149251553279
95109.37	27.0588427289322	19.1397136881845	33.1437718115299	-35.2731726289774
81109.37	27.5253208997113	21.6445505247525	35.016137109205	-38.1797588757863
69171.88	28.0182599054913	24.5620118661685	37.2601035297201	-41.2391988031802
59000	28.5762837200586	28.0223766389933	40.0232130612584	-44.4392884101229
50312.5	29.3941485288359	31.9480491620224	43.4130603965473	-47.3840565643993
42906.25	29.286318784699	36.1071258120129	46.4909991542829	-50.9546550591412
36593.75	7.1475536215148	42.2155575759115	42.8163616415212	-80.3903331360975
31203.13	8.26021068978638	48.3380799492604	49.0387709248586	-80.302727889222
26609.38	9.14951941558488	55.921627189758	56.6651753115301	-80.707980937718
22703.13	10.2478540588978	64.3886946141338	65.1990989732576	-80.9568738039229
19359.37	11.5244457026831	74.2693057381751	75.1581174829747	-81.1796970904492
16500	12.9774721737532	85.6750906471786	86.6523856649244	-81.38670674183
14112.02	14.5530430796038	98.0794743154553	99.1532871107804	-81.5600264748571
12011.13	16.5504227441542	112.825759905193	114.033190743724	-81.6547936941717
10236.38	5.0474064759664	57.6052943763648	57.8259997952589	-84.9925020339268
8750.684	-42.6458752183912	71.7346566152121	83.4537694346097	-120.731260167228
7449.463	98.4138872321358	-94.4731462677723	136.4201911957	43.8295925611682
6363.206	-215.198874118204	186.744342792675	284.928069847129	-139.049351131135
5414.761	-377.799596495745	410.127858313459	557.617606677849	-132.650501179334
4620.567	-385.685357853066	317.951704409395	499.846458023949	-140.498475986579
3941.215	-213.437896087913	381.502925982062	437.150109252313	-119.225527081624
3361.769	-133.732314427801	465.564607427412	484.391097782832	-106.026584834093
2867.244	-138.158726990651	387.205350655051	411.115333476603	-109.636906492771
2442.658	-101.748073277357	370.073382862022	383.805913345007	-105.373069172966
2083.003	-64.6803794330252	370.527312736986	376.130351032315	-99.9019524830416
1777.843	308.486112305539	272.16424744669	411.384320403207	-41.4205972411186
1513.548	-104.522944171324	385.033031268711	398.968020054508	-105.187774622021
1292.065	-126.281887844063	420.351741428139	438.910812943962	-106.721296160689
1101.762	-134.755302974868	430.899401918834	451.478998685274	-107.366045567549
939.101	349.416464918138	251.291795401255	430.394507855147	-35.7227668812386
801.2801	-117.713833226117	413.942436886556	430.354374426898	-105.874292652147
684.3433	322.323725756878	223.253509522385	392.09018567143	-34.707926845769
582.9476	-126.612106384151	404.084318086626	423.455737482166	-107.397386358943
497.0677	-325.996496084975	-110.27726835046	344.143562157598	161.310480345352
423.5089	-104.201670856896	377.154008459271	391.283956106387	-105.444631601578
361.5036	339.971875958233	243.001857932273	417.888477229388	-35.5560648107453
308.1262	305.786144238874	-194.127421611237	362.202459723708	32.4093003857955
262.7298	-118.093618116655	389.325804958423	406.842334383242	-106.874046708871
224.2111	-89.9104288287888	381.064590758457	391.527914128849	-103.275871755449
191.2854	336.088845605826	215.013352552381	398.981771408759	-32.6091423351592
163.1722	-298.218870968342	-292.551139203248	417.756704375587	135.549667622696
139.1537	354.228732833634	-210.804363785637	412.209261123509	30.7572166905814
118.6706	341.232147270495	187.776401629111	389.486014305534	-28.8235185094826
101.1982	-55.1141474195631	379.327600630302	383.31057622472	-98.2669028230767
86.24196	408.308491275526	-206.120668409061	457.385563822356	26.7853758519094
73.61024	121.963634577383	409.542666443659	427.317591256325	-73.4162335579856
62.69291	-102.560287479154	-465.900330617861	477.055270003004	102.414716189367
53.57697	420.685878117487	238.713060839971	483.69466966576	-29.572213919536
45.65746	-406.429812233768	123.477051469065	424.772615068191	-163.100744272018
38.96512	-352.152254084579	51.9200002324143	355.95912192411	-171.612949051159
33.18414	-262.897692889195	466.715689642815	535.666623829812	-119.392257800007
28.30617	133.640793249883	474.870494131829	493.317187839087	-74.2820300822078
24.17237	112.977095170814	472.410585648848	485.732009925558	-76.5503126973512
20.61345	-331.557577959159	277.701695318564	432.49122428663	-140.051568906377
17.55618	-322.831640753955	280.542965405704	427.69688297966	-139.009129493916
14.98558	-307.705133385935	289.121986316476	422.22502541138	-136.783417642951
12.76553	-254.44480431379	275.132941428534	374.753644280346	-132.762858202959
10.8809	-352.068540200289	263.303222485147	439.637173098256	-143.208107991312
9.278505	-504.436357048084	291.289520849202	582.499462032799	-149.995480623991
7.923394	-415.202525667137	394.326216958546	572.613571880032	-136.477228997233
6.75822	-257.01338131564	359.571457104933	441.981346823441	-125.556309647363
5.761429	-351.065519968974	326.935776249932	479.722837796192	-137.038269270225
4.919708	-106.830994222609	317.062746590783	334.57681719193	-108.620708547327
4.191257	-185.206525782385	278.717083690054	334.641106161616	-123.603898664675
3.564097	273.046243142857	412.960004792364	495.06587082179	-56.5276035379945
3.051758	335.852926226894	257.457635762138	423.180366117566	-37.4729982467586
2.604164	-47.8442938684312	362.90875615712	366.048960866271	-97.5103120546065
2.214424	502.854934527723	87.8630252425161	510.47330624005	-9.91114426130996
1.892567	162.483899379464	305.322453086865	345.865317597091	-61.9793657135997
1.607507	369.081707234941	-499.313862207949	620.915162971945	53.5290117284435
1.376413	600.227628696025	35.8017810106652	601.294415219025	-3.41347742449879
1.17375	-112.460712858283	342.231415182882	360.235691561332	-108.191047496758
1.001604	378.660455184279	114.482508238778	395.588150748992	-16.8219320030599
