EC-Lab ASCII FILE
freq/Hz	Re(Z)/Ohm	-Im(Z)/Ohm	|Z|/Ohm	Phase(Z)/deg
6999984	35.7940399805077	76.3620558329708	84.3349089592437	-64.8855795378418
5969734	33.4150182203128	74.2565086894051	81.4284503438665	-65.7725182047043
5091109	33.2412681540509	76.703155446816	83.5963872663642	-66.5692733146132
4341796	36.5608010357802	81.3276207860989	89.1676739357117	-65.7937176431242
3702781	44.3087096765105	86.2042349852688	96.9248775216804	-62.7969764872514
3157797	52.5979402209695	90.9051618186801	105.025195837804	-59.946224977578
2693047	62.0950500061649	95.7742562108376	114.142469694708	-57.0427212437069
2296687	73.8744672624229	100.925999376899	125.073955176658	-53.7971158695191
1958656	87.4288356012374	104.356855007055	136.14020156277	-50.0441563677429
1670375	102.384509362635	106.414184716497	147.670465788878	-46.1056330248577
1424531	117.932327273177	105.958198881051	158.540763610448	-41.9386198428523
1214875	132.758326128031	103.720693456682	168.471823779086	-37.9996037562633
1036062	146.997515182254	99.3710188279793	177.434125389305	-34.0588802554448
883578.1	160.132663568669	93.5565822044342	185.459709951708	-30.2953611415044
753531.2	171.57885410217	86.7518701206986	192.263335413834	-26.8215867845617
642624.9	181.415335522295	79.4148963871791	198.035980899566	-23.6414876750911
548046.8	189.58761552239	72.005152005313	202.800902056114	-20.7967178447989
467390.6	196.087051723983	64.4217515428319	206.398386441489	-18.1872388626551
398593.7	201.465227767728	57.5363128582187	209.520083278003	-15.9387748576452
339937.5	205.039741224793	51.91482913056	211.509916942883	-14.2083506431029
289906.2	209.078944839902	45.4797129979054	213.968244068457	-12.2720397744583
247234.4	211.584233808413	40.5184061987384	215.428942431557	-10.8409000642026
210843.7	213.806278460803	36.3103842601386	216.867629475626	-9.63849083534105
179812.5	215.340120390003	32.4813394845284	217.776042907134	-8.57768239596814
153343.8	216.640439952729	29.4373730501571	218.631285855904	-7.73802993593777
130781.2	217.836302214645	26.8240321736082	219.481623979323	-7.01997630876802
111531.3	218.760156784186	24.9305987670443	220.176158907192	-6.5015583661557
95109.37	219.440904745802	23.4120094908007	220.686277017973	-6.08981370584084
81109.37	221.553217376547	22.6800821960707	222.71105553681	-5.84492581462397
69171.88	220.877780660561	22.1256426349094	221.983193173588	-5.72031780742333
59000	221.621081844746	21.9524946187051	222.705671095326	-5.65693320542139
50312.5	222.36084609159	22.2370407798663	223.469979767335	-5.7108370747873
42906.25	222.976636276772	22.8850770506464	224.147958003007	-5.86000033421386
36593.75	223.701092786317	24.0790165055225	224.993284232364	-6.14362017238157
31203.13	224.754875338402	25.9799884402892	226.25143930534	-6.59370143876864
26609.38	225.270601103616	27.8244871029287	226.982479068596	-7.04127315001303
22703.13	226.172683885356	30.5113360577058	228.221437564334	-7.6829801509816
19359.37	227.137434529055	33.6413657420315	229.615233931527	-8.42484017453904
16500	228.308914317827	37.4880841917828	231.366196349759	-9.32469903968175
14112.02	229.675732152923	41.8211540483988	233.452245364917	-10.3198006791091
12011.13	231.069694109772	47.18235178317	235.837609078312	-11.540636230662
10236.38	232.640854230467	53.3409835317447	238.677664604829	-12.9138327190962
8750.684	234.464909327452	60.2368436230759	242.079059473556	-14.4083644798052
7449.463	236.373474842993	68.5018459389004	246.099415900136	-16.1617700315102
6363.206	238.602180940093	77.51078282913	250.87630857487	-17.9965756971694
5414.761	241.086033947028	88.9174850633186	256.960687487975	-20.2450110542895
4620.567	244.03692511888	103.082674026328	264.915191157276	-22.8994901416629
3941.215	247.142559773091	115.923879541539	272.979469372987	-25.1292413450837
3361.769	250.858770260282	132.29574179386	283.605863679313	-27.8058824399728
2867.244	254.981010917708	151.268663077718	296.475166511357	-30.6787329318044
2442.658	259.647449380551	173.499508848438	312.280126713941	-33.7513165110186
2083.003	265.154601717219	198.710627298992	331.350081052315	-36.8484112247085
1777.843	271.22256559511	227.50317725589	354.004767975685	-39.9901336210612
1513.548	278.716006070075	261.336853907505	382.072719845224	-43.1568312477036
1292.065	286.303700298681	299.800031302285	414.547786839549	-46.3191285584794
1101.762	295.567603352251	344.426781971772	453.861230213403	-49.3656712059049
939.101	306.596552480298	395.898350569214	500.736407679957	-52.2446351574105
801.2801	319.498624489891	454.603594508734	555.647189492751	-54.9001799462829
684.3433	334.163460320836	521.722229945538	619.563800938159	-57.3604091523731
582.9476	351.138962117038	599.860016044073	695.075973951788	-59.6566521079189
497.0677	371.134188744718	689.239370321969	782.80999971706	-61.6989028728832
423.5089	394.904856347978	792.149691740834	885.12766293474	-63.502688603514
361.5036	422.665039277984	908.632286530547	1002.12692187846	-65.0537426507127
308.1262	455.544519105849	1043.67691640138	1138.76350253969	-66.4196740343046
262.7298	493.818535148965	1198.46918634651	1296.21955558414	-67.6063269238
224.2111	539.682877670745	1374.05834729551	1476.24318803626	-68.5568066101425
191.2854	592.831850198251	1573.38773063995	1681.36806010397	-69.3542492694056
163.1722	659.28115848378	1800.76050364485	1917.65222014289	-69.8916836812383
139.1537	728.894575169739	2064.20341279775	2189.11466833461	-70.5512726949929
118.6706	817.34707539821	2363.17398320102	2500.52944724516	-70.9211169517499
101.1982	919.676553256679	2698.48517438423	2850.89936668792	-71.1802657624876
86.24196	1042.53181322476	3085.47481776452	3256.84316979566	-71.3307244794889
73.61024	1184.41375604277	3517.48162059904	3711.53780753415	-71.3904839775211
62.69291	1353.22023494782	4015.3787204615	4237.27167797951	-71.3757016664067
53.57697	1547.85450798609	4567.22717972035	4822.38713595965	-71.2782415454549
45.65746	1781.99410459343	5198.34741595207	5495.29970481513	-71.0782792749543
38.96512	2050.1282503191	5901.39278204439	6247.35644978915	-70.8429082127145
33.18414	2372.16591661688	6708.69966622713	7115.74467976436	-70.5266355098023
28.30617	2747.15362091746	7603.04040684749	8084.12496471174	-70.1340448285787
24.17237	3163.51189542485	8596.13579155227	9159.76845009199	-69.7955986589949
20.61345	3675.58471376199	9711.19674652118	10383.5092929936	-69.2688785579311
17.55618	4245.47277020839	10957.4885319247	11751.1954272679	-68.8211693368159
14.98558	4901.51861381678	12343.8450527481	13281.392826351	-68.3428641694407
12.76553	5678.18079105377	13906.7919990998	15021.3381828024	-67.7896734182419
10.8809	6543.6617888155	15618.6156051745	16934.0090654459	-67.2679953457753
9.278505	7544.42738469194	17532.5077541816	19086.8334910044	-66.7172683130955
7.923394	8664.09371904861	19628.4475075113	21455.5930127224	-66.1830997606951
6.75822	9939.01561845937	21956.762840632	24101.5241406791	-65.6454934615238
5.761429	11442.5322769004	24582.0885736053	27114.7676285172	-65.0388457480393
4.919708	13094.8766412451	27353.2918753802	30326.1994102322	-64.4181032727946
4.191257	14927.960145403	30544.2903353356	33997.0243726126	-63.9537782756205
3.564097	17142.4377021061	34106.9313481494	38172.580949655	-63.3155032918448
3.051758	19400.5111147735	37811.532779895	42498.139284909	-62.8383440400599
2.604164	22120.3486674774	42031.9872815217	47497.3449784804	-62.2433273698165
2.214424	25149.6809822797	46772.1943456491	53105.0338237121	-61.7328219743549
1.892567	28472.5957697708	51734.8894098396	59052.4130930913	-61.1735578705277
1.607507	32390.4732840221	57522.7569780805	66015.2280153773	-60.6165855978811
1.376413	36392.3410274738	63459.2036275507	73153.7627911436	-60.1667564329239
1.17375	41142.2755317106	70068.7520874177	81254.6420521018	-59.5798184675918
1.001604	46409.2824609143	77452.2018700318	90292.1096943309	-59.0700006214844
