EC-Lab ASCII FILE
freq/Hz	Re(Z)/Ohm	-Im(Z)/Ohm	|Z|/Ohm	Phase(Z)/deg
6999984	26.367812799935	1.1578285766585	26.3932210778704	-2.51428147152504
5969734	11.5549947144526	-4.06167286087129	12.2480647156914	19.3669818811413
5091109	9.73073958859727	-6.49121828363667	11.6971452819444	33.7066086142646
4341796	6.91032263472291	-7.34247196876631	10.0828792280818	46.7366944699928
3702781	4.85617268042887	-6.05162347941616	7.75915973793327	51.2544265775537
3157797	3.70599591834097	-5.31934139544911	6.48303930483985	55.1349952394614
2693047	2.89492777124715	-4.57022137659606	5.4099473409483	57.6484923317649
2296687	2.71193346018258	-4.2587968012345	5.0489536823646	57.5116700102876
1958656	2.56408167402837	-2.5843808106984	3.64054103201629	45.225902167058
1670375	2.00780722421382	1.7998893341217	2.69645906045136	-41.8744886768433
1424531	11.0418568641509	-20.3521720622679	23.1545570171523	61.518421167417
1214875	37.2102301984695	36.718745831339	52.2768354708811	-44.6190997549688
1036062	13.6312518924436	-13.3111912364716	19.0525284487168	44.3193912619138
883578.1	12.1493435740545	-3.04504141890771	12.5251278046686	14.0704397018149
753531.2	13.4792015575956	13.3288053614203	18.9564217876928	-44.6785670445254
642624.9	41.7337384341096	15.5736212144316	44.5448381006966	-20.4638752024515
548046.8	12.0390111598543	0.195391764329894	12.0405966483669	-0.929822265996876
467390.6	15.0856731757203	-8.19523914844545	17.1679783278306	28.5128665225406
398593.7	2.921449336732	-2.95444894348169	4.15495304266268	45.3217751949172
339937.5	1.43823479133545	-1.99777424418012	2.46162979461112	54.2491852994552
289906.2	1.58708495478294	0.61643483984457	1.70259524417067	-21.2265164052383
247234.4	0.684582964893636	-1.23586300269357	1.41280260378063	61.0165674346619
210843.7	1.46975378340297	-0.37871653937086	1.51776230056632	14.4492851255334
179812.5	0.845206693886036	-1.42096033775035	1.65333077055057	59.2552378766502
153343.8	1.54360064845743	1.69118874231269	2.28972101445643	-47.6123229499794
130781.2	1.65834870295181	-0.636297426271846	1.77623051298589	20.9914776585198
111531.3	1.43712179243344	-0.228935770204689	1.4552424654216	9.05125493195557
95109.37	1.40475054229321	-0.174931875218444	1.41560066651599	7.09843141965528
81109.37	1.45644398125183	-0.23176458285765	1.47476909799191	9.04169226635484
69171.88	1.4073540582566	-0.124939693901508	1.41288901630791	5.07320781444667
59000	1.34369675019334	-0.119053332713434	1.34896058226707	5.0632612671232
50312.5	1.28702098843698	-0.0894420196352497	1.29012514879516	3.97540062545319
42906.25	1.26964914452598	-0.139502417684102	1.27729005113767	6.27020946763777
36593.75	1.20944711055962	-0.150833409074897	1.21881624149589	7.1088076853251
31203.13	1.09670935096395	-0.173247728585054	1.11030904524446	8.97686209183578
26609.38	1.01052865351345	-0.169304503960262	1.02461318292951	9.51103064423625
22703.13	0.988399023955352	-0.157760624586299	1.00091010846417	9.06861555314803
19359.37	0.948659895936768	-0.159651710434664	0.962000138671234	9.55289667032646
16500	0.907094867565867	-0.160995168269924	0.921271156050486	10.0643016095264
14112.02	0.886881797778182	-0.146429134666797	0.898888655345882	9.37527402425795
12011.13	0.871610689198615	-0.126731693461124	0.880775860053401	8.27280009402313
10236.38	0.860469358678973	-0.10347356170663	0.866668503637729	6.85703284141076
8750.684	0.834652866723032	-0.0868487315699404	0.839159168515892	5.94046079738408
7449.463	0.839831386241983	-0.0885408334670969	0.844485782300791	6.0182856546967
6363.206	0.866479357440324	-0.0720202320690617	0.869467302834027	4.75140205810688
5414.761	0.870990397585825	-0.0567570363560583	0.872837690445731	3.7283389323616
4620.567	0.866920197789968	-0.0642644384708534	0.869298882656691	4.23955823323589
3941.215	0.856760484228064	-0.0555196378627833	0.858557486440553	3.70768666863611
3361.769	0.832120102959389	-0.0485472920102759	0.833535065435567	3.33894764746597
2867.244	0.805209019773803	-0.0437691514512488	0.806397733220928	3.11139344842519
2442.658	0.795784225938222	-0.0407228644232522	0.796825505326561	2.92945585720156
2083.003	0.792120463086251	-0.0371717029808228	0.792992158563041	2.68673833011265
1777.843	0.763008895481138	-0.0338524285002608	0.763759491920534	2.54037683430427
1513.548	0.74573250800149	-0.0323038456527401	0.746431853509849	2.48040362301454
1292.065	0.738483646761205	-0.0289602303392775	0.73905127797402	2.24574933097651
1101.762	0.733374904068608	-0.0269312012438411	0.733869225079016	2.1030868506935
939.101	0.732236282982275	-0.026764895196493	0.732725278484766	2.09335860028998
801.2801	0.726095885803514	-0.0249312312888575	0.726523779152732	1.96653553825336
684.3433	0.720918064935341	-0.0243850977347181	0.721330360751333	1.93729463717886
582.9476	0.712146719193246	-0.0235745661153273	0.712536812961429	1.89599985001039
497.0677	0.706339648722196	-0.0229259701314294	0.706711609826429	1.85902115391265
423.5089	0.70498388464258	-0.0224469007874063	0.705341152181483	1.82369887880063
361.5036	0.703257461561592	-0.0223326708808047	0.703611970784128	1.81887572008122
308.1262	0.698695566073597	-0.0215639766944898	0.699028253464611	1.76776960362893
262.7298	0.693729814740286	-0.0199615671626323	0.694016945054788	1.64818930108057
224.2111	0.694798827289015	-0.0219517912130504	0.695145518247548	1.80962703535222
191.2854	0.694571450296095	-0.0150619264990418	0.694734741607387	1.24227620520454
163.1722	0.690047840846362	-0.0184672649096963	0.690294909824758	1.53300072003187
139.1537	0.688257999771148	-0.0204497480863407	0.688561737570261	1.701890343387
118.6706	0.684036872732126	-0.0234219370635811	0.684437747638861	1.96108441779048
101.1982	0.682706521915207	-0.0241491675447616	0.68313349892877	2.02586130723459
86.24196	0.68128807300143	-0.00998661335633111	0.681361263105213	0.839806012719463
73.61024	0.717400569845229	-0.0758388347038015	0.721398022220389	6.03451754903276
62.69291	0.815454043743881	0.225737972627965	0.846122290064758	-15.473412806862
53.57697	0.700629306659945	-0.00431961236554368	0.700642622455831	0.353243033826149
45.65746	0.673923608318676	-0.105033582259599	0.682059442608596	8.85850047051766
38.96512	0.66085567943036	-0.0189044897931746	0.661126015801604	1.63856074533339
33.18414	0.647775706603883	-0.0554692151000778	0.650146291145292	4.89431434798857
28.30617	0.726809539923991	-0.00787661249522788	0.726852219057576	0.620904049342961
24.17237	0.670901256386114	-0.0464947708973437	0.672510415935146	3.96437118789692
20.61345	0.601542108032476	-0.0401665199069004	0.602881627732664	3.82011645790124
17.55618	0.596160222819918	-0.00872870740049228	0.596224120281608	0.838838859961282
14.98558	0.639411370201492	-0.0183702443768046	0.639675203694354	1.64565109804814
12.76553	0.639198387181681	-0.0242200633191394	0.639657087542103	2.16997394369707
10.8809	0.634569214807042	-0.0226034527975764	0.634971656421921	2.04002195914125
9.278505	0.642072096850992	-0.020976910480094	0.642414670075271	1.87122458199114
7.923394	0.633624333849437	-0.0295740858711507	0.63431413589897	2.67231125283125
6.75822	0.646223503116448	-0.0271763965571489	0.646794691157808	2.40810780842494
5.761429	0.606014357841676	-0.0330985590340437	0.606917553313783	3.12620555334492
4.919708	0.636026235661128	-0.0313394164074112	0.636797873324042	2.82089811671591
4.191257	0.640639336523236	-0.0302449020588534	0.641352877596633	2.70295532754603
3.564097	0.622920275688504	-0.0359553283877499	0.623957094280779	3.30348098698957
3.051758	0.648969548907146	-0.0547364888384524	0.651273796969529	4.82112701106974
2.604164	0.637536502378005	-0.0542262388857754	0.639838477155037	4.86164257563682
2.214424	0.601313114692965	-0.0430975471671888	0.602855588407027	4.09951531599222
1.892567	0.604962832329222	-0.029960511933672	0.605704268414151	2.83523122891891
1.607507	0.589348012698994	-0.0427810199475483	0.59089871868198	4.15184240550593
1.376413	0.66155911827657	-0.076763947109987	0.665997875785485	6.6187110465261
1.17375	0.604064744187177	-0.0857630484368705	0.610122541500561	8.08065296784805
1.001604	0.667736573167072	-0.195599855821214	0.695795540904211	16.3268735497551
