EC-Lab ASCII FILE
freq/Hz	Re(Z)/Ohm	-Im(Z)/Ohm	|Z|/Ohm	Phase(Z)/deg
6999984	1.89666666247948	1.75732451353327	2.58563993518549	-42.816127624407
5969734	4.22768282836573	1.94094829212883	4.65194393452633	-24.6600691249629
5091109	5.86487186789422	-4.35401229265921	7.30439217672795	36.5897608872526
4341796	2.55709148693105	-5.75464977788696	6.29719865802801	66.0419229599748
3702781	2.31430166729066	-5.43133789586984	5.9038481981108	66.9210694008236
3157797	0.58157063988573	-6.66920757675556	6.69451671975139	85.0162797824247
2693047	3.03286708406725	-8.65873844159544	9.17453182181964	70.6963456087201
2296687	0.924865347932526	-7.51209779540195	7.56881689562439	82.9812482856791
1958656	0.796482290771427	-10.5307362471401	10.5608138865498	85.6747228805891
1670375	0.37758764897414	-9.20534431743556	9.21308506610033	87.6511407948929
1424531	-3.6999159755542	-9.25166002962037	9.96406501031765	111.79741574665
1214875	0.0104606029873183	-12.0191638445036	12.0191683965755	89.9501339478553
1036062	8.26186809456264	-3.56271876751295	8.99730123027683	23.3268822793628
883578.1	5.68716354720695	-11.4336141553234	12.7699397753275	63.5539110303987
753531.2	12.4184735951771	-11.3753678659083	16.840946544623	42.4897995121902
642624.9	12.5984766238378	-7.2898541435138	14.5555345719452	30.0549537802455
548046.8	5.82424061463342	-11.9009097301507	13.2496577745367	63.923125033581
467390.6	17.6033427427616	-17.6230496781136	24.9088248553881	45.0320533562314
398593.7	-2.32828877224923	-44.8738883839695	44.9342496021013	92.9701371902103
339937.5	-9.8656924139431	-55.4099377180846	56.2813742256579	100.095669513575
289906.2	-11.8846916505639	-64.7744997575772	65.8557644741396	100.396873426476
247234.4	-13.9553259211126	-73.9657559745321	75.270739191591	100.684555535411
210843.7	-15.081160522407	-86.973304303673	88.2711564680214	99.8372655479713
179812.5	-16.8855132569864	-100.622948864424	102.02988971926	99.5260348736562
153343.8	-18.9978196948732	-116.59019944051	118.127861907074	99.2547393576618
130781.2	-22.1453459297859	-135.087825297964	136.890967160303	99.3098578975534
111531.3	-25.8745575696515	-156.664267357408	158.786603326788	99.378269058292
95109.37	-30.5373813327229	-181.082934008474	183.63975780799	99.5721579761643
81109.37	-35.8674842367693	-209.800914505251	212.844779481938	99.7014745505253
69171.88	-42.9497210967901	-242.165407198388	245.94463398467	100.057224045522
59000	-50.5594320973008	-279.654138151767	284.187777990907	100.247961695521
50312.5	-61.3329652085266	-323.40160701256	329.1661161778	100.738585455492
42906.25	-73.0474723106633	-366.49861357212	373.707327946969	101.272009162758
36593.75	-88.0979727024537	-427.051487736052	436.043834920134	101.656234660173
31203.13	-207.567538089044	-495.150296850229	536.896730609543	112.74348365797
26609.38	-229.906383285066	-565.469286204742	610.419903604166	112.125491380142
22703.13	-255.95173542835	-648.993017005869	697.641187854591	111.523427329019
19359.37	-287.571705062014	-743.560484890087	797.232513287218	111.143957381303
16500	-328.139668007461	-853.303615956454	914.222458007024	111.034350555095
14112.02	-375.748469604772	-971.055577507263	1041.21844346818	111.153869551159
12011.13	-437.394487642573	-1109.09627905281	1192.22837326953	111.522797075444
10236.38	-285.557333046546	-1163.5091853188	1198.0386532904	103.789413827225
8750.684	1.34594275779328	-0.339905216002222	1.38819936000622	14.173165304904
7449.463	2.26224573538674	1.43931593227285	2.68130306384227	-32.4658742384867
6363.206	3.27708169502038	0.545107335105593	3.32210873431674	-9.44406906671931
5414.761	6.29889239658161	10.0194548301372	11.8349279895094	-57.843813644125
4620.567	13.5536883533454	0.31296255857955	13.5573011157341	-1.32275786781318
3941.215	-4.94251510887224	9.57461348940312	10.7750489127841	-117.30325367896
3361.769	20.352325658718	-10.848537685068	23.063129224432	28.0592558361356
2867.244	88.4597514977856	21.1991347012066	90.9644488090258	-13.4766205133634
2442.658	6.27557764748597	-8.24756978850962	10.3636519734099	52.7324858016526
2083.003	177.598371082009	-40.48373277525	182.154094190608	12.8412160481413
1777.843	23.8126672404711	-2.5512326158388	23.9489437964501	6.11520719532103
1513.548	3.44848696121164	-0.681608760065461	3.51520309846311	11.1806525775593
1292.065	4.8001714058512	3.16715047811065	5.75086842803311	-33.4168065614874
1101.762	0.754730665738648	8.11916443445864	8.15416761488163	-84.6892354729641
939.101	21.8267125444459	9.38648836646808	23.7594516845763	-23.2699245449488
801.2801	1.39977889663135	-6.14444761129476	6.30187411865711	77.1663569186759
684.3433	1.76422233407241	6.06210614660549	6.31360525981408	-73.7737019263677
582.9476	11.2002279592642	15.6130403791138	19.2148936041634	-54.3457172287789
497.0677	41533.0499361327	2881.87148434735	41632.9127043687	-3.9692447669023
423.5089	13156.0644376192	-51734.2702439871	53380.8650095207	75.7320716701249
361.5036	3424.77193067066	353.238636080548	3442.94064879569	-5.88879146341919
308.1262	-6565.13521127731	-6639.41807990147	9337.17691714555	134.677683154286
262.7298	-8460.31634545879	-6749.95349672097	10823.0691059945	141.415838712363
224.2111	-9006.85605627805	-7091.05005889645	11463.2651088722	141.786828884711
191.2854	-9631.47147027674	-7529.22041415215	12225.1545073116	141.984155549354
163.1722	-10219.4000660029	-8091.53391862636	13034.9169105637	141.628463350136
139.1537	19554.9282599507	22760.6815268386	30007.396468504	-49.3323479805401
118.6706	-12438.966908609	-5503.57658538102	13602.1047262777	156.133176412771
101.1982	-12815.6110314603	-8897.92518538698	15601.6973023589	145.22761233181
86.24196	5423.93158720302	-8907.42550702437	10428.8668140813	58.6618254882332
73.61024	-14758.2704002509	-9908.10928476136	17775.7468142887	146.12417668963
62.69291	-15844.8027453167	-9827.72492283404	18645.1589212023	148.190778160888
53.57697	24526.3427870161	3350.08467888665	24754.0816404472	-7.77797082383634
45.65746	-18010.0711674916	-9807.90569870267	20507.5029599597	151.428218886495
38.96512	-18215.4710080363	-7361.73636555175	19646.8457102023	157.994028739797
33.18414	223.37199011544	-49766.984529453	49767.4858135388	89.742837817577
28.30617	-13763.4646844646	-1680.00297398093	13865.6182737406	173.040759876625
24.17237	-497.117350041296	14470.7822136348	14479.3184761633	-91.9675183445109
20.61345	-20452.2616568267	-5802.97506883725	21259.5749376334	164.1596275732
17.55618	-20902.4993299356	-5530.97383805931	21621.8905240789	165.178747603399
14.98558	15157.8838519888	-1331.82748271055	15216.2809948452	5.02132304835081
12.76553	-17683.728080712	-2800.22955501198	17904.0644657386	171.001889562652
10.8809	-15619.6186731421	-1772.92637885349	15719.9158852459	173.524278959936
9.278505	-17099.064551107	-2205.13884525943	17240.6683701588	172.651549646392
7.923394	-17450.4937957479	-2222.77234350674	17591.4880156993	172.740988358212
6.75822	-17540.6569692254	-2147.67917024096	17671.6488401712	173.019445846646
5.761429	-17573.5484094411	-2222.2684408469	17713.4999568734	172.792898334451
4.919708	-17675.9902264765	-2212.32915724898	17813.8999319774	172.86595045333
4.191257	-17381.7632067041	-2217.44458011657	17522.6354364811	172.729872976987
3.564097	-17329.4628595274	-2337.12939217706	17486.3505854	172.319176829437
3.051758	-17236.6129998555	-2399.43175465695	17402.8187501923	172.075039512932
2.604164	-17005.4296018387	-2441.66163801404	17179.8238494357	171.829240618821
2.214424	-16878.037970002	-2621.32186655468	17080.3833108308	171.171943436247
1.892567	-16545.3688518644	-2911.5391489523	16799.5919789776	170.019668014459
1.607507	-16398.9433783993	-3189.8515699137	16706.3011156278	168.992526575128
1.376413	-16477.1376971233	-3499.98413650836	16844.7604805106	168.007784012637
1.17375	-16432.129186091	-3967.55665095561	16904.3300774365	166.425675652942
1.001604	-16222.3891055458	-4381.52136933257	16803.6792935847	164.88556509963
