EC-Lab ASCII FILE
freq/Hz	Re(Z)/Ohm	-Im(Z)/Ohm	|Z|/Ohm	Phase(Z)/deg
6999984	19.0692287351143	-0.554437801652811	19.0772871716082	1.66540553690866
5969734	7.15367595238001	-0.0803336492165331	7.1541269996315	0.643387486181689
5091109	11.6410496588502	-6.86437640527685	13.5142036610796	30.5265725301515
4341796	9.36770759682869	-5.15929249920754	10.6944960008437	28.8439043478334
3702781	5.57188903757587	-5.17647763265126	7.60538415390024	42.8931503408064
3157797	4.34491206154566	-5.46013449150301	6.97791727436388	51.4889152847889
2693047	3.26427601779027	-4.41412521194527	5.48999082941416	53.5168191865631
2296687	2.08815104863002	-3.54165650955294	4.11141163513864	59.4765141771297
1958656	1.82936113736373	-3.05176492392051	3.55806567136812	59.0596873811721
1670375	1.27368560195753	-2.83665315829851	3.10948165344625	65.8194434481255
1424531	1.0435980059437	-2.44142116612511	2.65511470720445	66.8554657332811
1214875	0.8023011086976	-2.10799582349855	2.25551179578045	69.163225140509
1036062	0.839175316437226	-1.71000670839153	1.90481971704976	63.8607872254708
883578.1	0.643054108673407	-1.51153278324026	1.64263506035022	66.9535561078075
753531.2	0.638400453650491	-1.2698607746995	1.42130275674874	63.309831009673
642624.9	0.570325958402822	-1.10421013398803	1.24279995125119	62.683588139595
548046.8	0.579538978677103	-1.0636426015261	1.21128073194752	61.41568983475
467390.6	0.474940710155088	-0.900818761441537	1.01835314067748	62.2003555351817
398593.7	0.454471811165748	-0.780600572969715	0.90326180128738	59.7916982602312
339937.5	0.780018029130037	-0.589266832831786	0.977580444793937	37.0693265617771
289906.2	0.151859899720735	-1.39857261276354	1.40679308439992	83.8029843554557
247234.4	-0.530828942514988	-1.53219034287698	1.62153834768625	109.10869670144
210843.7	0.374818552936826	-2.03685545910652	2.07105507143525	79.5731807286819
179812.5	2.0282161915894	-0.214067085413708	2.03948170790594	6.02494915385407
153343.8	0.499571140790357	-0.357613293465855	0.614376588400042	35.5966244930626
130781.2	0.475909365757184	-0.304164031008526	0.5648057030296	32.5835311217168
111531.3	0.461682334450646	-0.261731614408943	0.530710859060665	29.549266959841
95109.37	0.433421016125092	-0.213904535665107	0.483331074520367	26.2675365966702
81109.37	0.439673504387318	-0.189036445918014	0.478589143572584	23.2651575360933
69171.88	0.449142729238786	-0.165475122608575	0.478655625090094	20.2250262863953
59000	0.445593605298388	-0.132039054458165	0.464745062356796	16.5056994071933
50312.5	0.448701506860837	-0.0985294706089986	0.45939209705618	12.3849010009432
42906.25	0.499925606978118	-0.113218431676279	0.512585627757623	12.7605550497428
36593.75	0.487426587063982	-0.100373762100616	0.497654066491044	11.6360279739733
31203.13	0.481521712090808	-0.0879049190239352	0.489479758522727	10.3457900446962
26609.38	0.477196010403118	-0.0782717270489658	0.483572637356458	9.31495302758658
22703.13	0.475994387190044	-0.0689620227115592	0.480964049813388	8.24364800140687
19359.37	0.471012857295043	-0.061944950958197	0.475068719962127	7.49221958267074
16500	0.467751345208498	-0.0553167602945207	0.471010896810086	6.74453257833683
14112.02	0.464871409488262	-0.0501208917909474	0.467565536747013	6.15366985210817
12011.13	0.46085679622941	-0.0450837643134669	0.463056727016796	5.58723747330609
10236.38	0.455822851738418	-0.0409614236022729	0.457659601003266	5.13495490307013
8750.684	0.451595989912045	-0.0371349027749442	0.453120225887948	4.70087634790106
7449.463	0.450439908098445	-0.0343819846898859	0.451750187248385	4.3649110855702
6363.206	0.444283486705756	-0.0305841649182488	0.445334938785596	3.93798877326232
5414.761	0.439951701909087	-0.0290024140894148	0.440906611467458	3.77158464082248
4620.567	0.438141454445215	-0.0266069036584542	0.438948586312404	3.47511851593014
3941.215	0.435638431890175	-0.0256738053325511	0.436394302918799	3.37275387625207
3361.769	0.432006073450506	-0.0248388687756267	0.432719559183747	3.29068798533989
2867.244	0.427527128691869	-0.0232463477881229	0.428158660373699	3.1123342451248
2442.658	0.424316337830658	-0.022284383397289	0.424901104132972	3.00631642654497
2083.003	0.421356332759282	-0.0210593702590287	0.42188227769374	2.86125955563611
1777.843	0.418663067753643	-0.0202784963146118	0.419153887866585	2.77302921180612
1513.548	0.41527654447725	-0.0208021592791875	0.415797232101949	2.86768069364614
1292.065	0.407441240984652	-0.0193810706083228	0.407901937667667	2.72337955406906
1101.762	0.410516180087571	-0.0186996509640433	0.410941858490795	2.60810904005566
939.101	0.40834690852662	-0.0179860850441985	0.408742824962672	2.52202499612623
801.2801	0.406159864764353	-0.0172912212244105	0.406527762984066	2.43774977995603
684.3433	0.398461558215202	-0.0123779718489695	0.398653769030697	1.77928720122665
582.9476	0.399019160541246	-0.0142180099208158	0.399272391088026	2.04072268652469
497.0677	0.394785613432899	-0.0144625109495727	0.395050433231704	2.09802591448911
423.5089	0.398880401633646	-0.0101048720021586	0.399008374906591	1.45116859590011
361.5036	0.392219033052343	-0.00441285818449366	0.392243856810876	0.644607886285318
308.1262	0.398697458677854	-0.0262587377448174	0.399561240442726	3.76813314306461
262.7298	0.392318161293049	-0.00852856271903575	0.392410851101765	1.24535069673322
224.2111	0.3774402823725	0.000787738262504823	0.377441104397763	-0.119579213928558
191.2854	0.392494411970387	-0.0266833666051472	0.39340038825777	3.88921574095181
163.1722	0.400462999642954	-0.0128965569322829	0.400670606937594	1.84452245690686
139.1537	0.380286991500186	-0.00634353190453799	0.380339895752847	0.955656932979325
118.6706	0.421632181432796	-0.0261001737960118	0.422439244734625	3.54224395937649
101.1982	0.385183349598808	-0.000708289808160707	0.38518400081339	0.105357542016718
86.24196	0.366437034391278	-0.0332595408598932	0.367943334267229	5.18622259362064
73.61024	0.318557879661663	-0.0609176508454355	0.324330206547372	10.8259401361717
62.69291	0.479663109131007	-0.175940961324655	0.510912830268597	20.1430933216916
53.57697	0.451161357904894	-0.00959058111124965	0.451263282477801	1.21778397833609
45.65746	0.433456175766216	-0.00782176795760703	0.433526742386044	1.03379691707927
38.96512	0.457744028704162	0.0181531536407659	0.458103844997422	-2.271038542138
33.18414	0.440438427493621	0.0245382371777855	0.441121449826289	-3.18883499697287
28.30617	0.355482812554363	-0.00809726864368468	0.355575021312027	1.304870698407
24.17237	0.387052391341441	-0.0240587625325876	0.387799403941945	3.55686813413941
20.61345	0.397652244889794	0.0421841322841542	0.399883494136054	-6.05545915644479
17.55618	0.288709448326517	-0.094298428514325	0.303719178145327	18.0880999753636
14.98558	3880.50958805898	-3481.43081410806	5213.32093549196	41.897126239329
12.76553	12121.5519157808	-5876.80630895468	13471.0383133572	25.8651712554616
10.8809	8755.81651834676	-672.883056716914	8781.63393173336	4.39453357653626
9.278505	5237.19834079438	-4876.69324891084	7156.14306067116	42.9585821210104
7.923394	753.113066757582	-2117.16569892597	2247.1248047293	70.4186329654202
6.75822	4251.85860294252	645.467490270916	4300.57320137827	-8.63206754988196
5.761429	372.217995619829	667.386929227272	764.167226179355	-60.850524265633
4.919708	1330.58634744056	452.619347546198	1405.46230891062	-18.7865240684722
4.191257	573.615233903774	164.114280743704	596.630483390268	-15.966099214895
3.564097	576.770400055652	-13.3903071815888	576.925813867583	1.32994046673294
3.051758	57.9368941918594	-117.775999358439	131.254979842586	63.8062989391539
2.604164	156.511900005835	1.853405075657	156.522873580224	-0.678461670568418
2.214424	108.995583902471	-93.6192931287358	143.682320958999	40.6601848441549
1.892567	43.5113520317246	-79.2081033630217	90.3723486139195	61.218706944784
1.607507	94.1610751146557	33.1886399669512	99.8388395846213	-19.4158551810659
1.376413	76.9670251887998	60.1332533314864	97.6725709840899	-38.0000105562979
1.17375	42.2097232996312	23.2282742521138	48.1789732742702	-28.8242633546163
1.001604	24.3586874572666	-23.3366833570159	33.7334617960627	43.7724686689937
