EC-Lab ASCII FILE
freq/Hz	Re(Z)/Ohm	-Im(Z)/Ohm	|Z|/Ohm	Phase(Z)/deg
6999984	4.8601102639465	6.59068317834849	8.18888127494128	-53.594145570594
5969734	4.42223074055732	3.64041842137066	5.72789411611152	-39.4615055705396
5091109	3.04474809458137	1.65585956762525	3.46588543768442	-28.5391710149151
4341796	2.15417369428042	0.795571670805011	2.29638816155223	-20.270014932469
3702781	1.42921205277924	0.32743979471757	1.4662414231545	-12.9040580591112
3157797	1.1157081679132	0.214802366169886	1.1361975059207	-10.897565590141
2693047	0.932395852269262	0.175796579187749	0.948823725769459	-10.6773664503164
2296687	0.806266440456068	0.179145575852676	0.825928998372914	-12.5271320440065
1958656	0.742238687716777	0.179767914694693	0.76369809001804	-13.614691882834
1670375	0.706246209385829	0.169001880702191	0.726185474897929	-13.4575868554092
1424531	0.676104985906639	0.155510775719269	0.693759002343484	-12.9532980520248
1214875	0.658679794476326	0.137219535201225	0.672821129641612	-11.7678369147432
1036062	0.648359666015942	0.1171313505679	0.658855074961227	-10.2404861315291
883578.1	0.635831205759839	0.0994956144723314	0.643568721674101	-8.89358840589147
753531.2	0.625485509500484	0.0862033860082833	0.631397771895319	-7.8469778606819
642624.9	0.61627197451668	0.0741349822372202	0.620715024923677	-6.85948510077392
548046.8	0.60933734180069	0.0623231064899238	0.612516257511003	-5.83991243391657
467390.6	0.602960811525409	0.0524858403178792	0.605240864176613	-4.97487737060412
398593.7	0.59817929671639	0.0440256569257719	0.599797240313642	-4.20934731461423
339937.5	0.5946604245756	0.0379027842570086	0.59586713419257	-3.64701559475191
289906.2	0.592168915037564	0.0324467861671724	0.593057179257906	-3.13627872434111
247234.4	0.590822750586167	0.0285456556569069	0.591511941609877	-2.76609986023181
210843.7	0.59015626152779	0.0250889018277847	0.590689314289146	-2.43430974135407
179812.5	0.590286821938047	0.022491222170066	0.590715148974887	-2.18203928894694
153343.8	0.59027788532379	0.0197358705595764	0.590607726404819	-1.91496418007143
130781.2	0.590571212126785	0.0185189974644541	0.590861498034851	-1.79607944828635
111531.3	0.591202231011796	0.0166314217690914	0.59143611839605	-1.61139280556167
95109.37	0.591881458945047	0.0147620086351662	0.592065518622611	-1.42870750441539
81109.37	0.592459190754675	0.0129609387574967	0.592600943842616	-1.25323173120524
69171.88	0.592762693472281	0.0112982274536626	0.592870357427413	-1.09194182004473
59000	0.593212191139616	0.00989160873119959	0.593294654990213	-0.955298834357368
50312.5	0.593426933800065	0.00869861205104644	0.593490683676636	-0.839796845394741
42906.25	0.593812478020144	0.00773097856345226	0.593862801564446	-0.745904532633267
36593.75	0.594050771846535	0.00665254772638729	0.594088020349439	-0.641606733354423
31203.13	0.594291689234445	0.0059307168356704	0.594321281206819	-0.57176260517018
26609.38	0.594464947077026	0.00522477578180031	0.594487907013474	-0.503561891829712
22703.13	0.594769960482948	0.00464058753247972	0.594788063889596	-0.447031125564688
19359.37	0.594856041221396	0.00407890019200723	0.59487002547142	-0.39286833657116
16500	0.594920859667986	0.00355587599324435	0.594931486410137	-0.34245607200878
14112.02	0.595122705311866	0.00303775584152123	0.595130458251186	-0.29245914455209
12011.13	0.595056797333015	0.0026999536678747	0.595062922556963	-0.259966593398662
10236.38	0.595297076965689	0.00234347405654441	0.595301689662097	-0.225552055321467
8750.684	0.595129299762979	0.00190931941435911	0.595132362535427	-0.183818153298815
7449.463	0.595433613446406	0.00168587415309555	0.595436000081877	-0.162223316704555
6363.206	0.595391525891851	0.00145066420177891	0.595393293152058	-0.139600192755373
5414.761	0.595365491191038	0.0012928114046369	0.595366894832484	-0.12441520690258
4620.567	0.595397324469522	0.00107588473172582	0.59539829653218	-0.103533530875919
3941.215	0.595388541412426	0.000944284636872014	0.595389290228411	-0.0908708771246305
3361.769	0.595383905445761	0.000838389209827664	0.595384495733903	-0.0806809373297878
2867.244	0.595344702902046	0.000704712235341056	0.595345119987441	-0.0678212433927536
2442.658	0.595425820432847	0.000566923314979512	0.595426090325385	-0.0545530649252588
2083.003	0.595439583478599	0.0004908827664983	0.59543978582142	-0.0472348583545472
1777.843	0.595459363481084	0.000494647075649561	0.595459568932289	-0.0475954951795364
1513.548	0.595464423200279	0.00032793604623846	0.59546451350126	-0.0315541093103612
1292.065	0.595485653499862	0.000370213657123811	0.595485768580837	-0.0356208033120171
1101.762	0.595482324962713	0.000330953985038841	0.595482416930625	-0.0318435389405715
939.101	0.595454542858509	0.000205785346840939	0.595454578417569	-0.0198010604363103
801.2801	0.595428814287331	0.000167351107864446	0.595428837805166	-0.016103540330791
684.3433	0.595488499780488	7.35078153724672E-05	0.595488504317434	-0.0070726597780303
582.9476	0.595592283395008	0.000106464682837635	0.595592292910518	-0.0102418669598154
497.0677	0.595540922461131	7.02024238189814E-05	0.595540926598866	-0.0067540322185801
423.5089	0.595454000088821	4.58820590227892E-05	0.595454001856517	-0.00441486383798089
361.5036	0.595456328732169	4.39221927091195E-05	0.595456330352069	-0.00422626503943106
308.1262	0.595481173648205	3.00594013767309E-05	0.595481174406892	-0.00289224396728119
262.7298	0.595483318566596	3.5014407222453E-06	0.595483318576891	-0.000336899068945365
224.2111	0.595519607855451	3.97552275213146E-06	0.595519607868721	-0.000382490638506853
191.2854	0.595538026015861	1.50932561807749E-05	0.595538026207122	-0.00145209850640161
163.1722	0.595463454721222	4.10008089240273E-05	0.595463456132783	-0.00394511751414934
139.1537	0.595502967326032	3.84763042437433E-06	0.595502967338462	-0.000370196282026275
118.6706	0.595485220600434	-3.73748498344239E-05	0.595485221773326	0.00359609454366745
101.1982	0.595517435369548	3.65941950942321E-05	0.595517436493894	-0.003520791846569
86.24196	0.595506774570099	4.22745138619187E-05	0.595506776070614	-0.00406737811326333
73.61024	0.595576676744422	4.03057231294123E-05	0.595576678108269	-0.00387749875404139
62.69291	0.59546886214726	-1.15564249857355E-05	0.595468862259399	0.00111195466287086
53.57697	0.595429452047212	6.86596849352216E-05	0.595429456005828	-0.00660684509058894
45.65746	0.595496286950434	4.03748210110287E-05	0.595496288319146	-0.00388467046676304
38.96512	0.595493598602383	2.20099436289895E-05	0.595493599009136	-0.00211770013925831
33.18414	0.595528032286248	-4.02420802987951E-05	0.595528033645902	0.00387169239974553
28.30617	0.59551303469228	-2.66712006166837E-05	0.595513035289541	0.00256610206634785
24.17237	0.595505041237922	-5.32924370684966E-05	0.595505043622523	0.00512746577172997
20.61345	0.595523636060725	-2.03267700681001E-05	0.595523636407628	0.00195565392380823
17.55618	0.595580295569142	5.98554625580374E-05	0.595580298576861	-0.00575819146359707
14.98558	0.595508277738629	1.62709357097976E-05	0.595508277960913	-0.00156547940560666
12.76553	0.595535242096705	1.49653956730757E-05	0.59553524228474	-0.00143980397803369
10.8809	0.595556276748676	5.58009611580833E-05	0.595556279362826	-0.00536835842824139
9.278505	0.595512882983967	-6.04130551986101E-05	0.595512886048332	0.00581249067384161
7.923394	0.595303197940588	-0.000125296978209647	0.595303211126585	0.0120593807592176
6.75822	0.595486642690863	9.54072620861583E-06	0.595486642767292	-0.000917977509498137
5.761429	0.59551269117765	-1.94230394680225E-05	0.595512691494397	0.00186873966403366
4.919708	0.595506876619311	0.000116065006330989	0.595506887929916	-0.0111670161820352
4.191257	0.595467506788428	-3.30507392105984E-05	0.59546750770565	0.00318013635172719
3.564097	0.595527485065099	-3.20033790908381E-05	0.595527485925023	0.00307904940793226
3.051758	0.59551815031248	1.63421971746143E-05	0.595518150536711	-0.00157230963548241
2.604164	0.595521302478378	-6.21531886429293E-06	0.595521302510812	0.000597982872748752
2.214424	0.595520946079159	3.01430490231404E-05	0.595520946842024	-0.00290009864569464
1.892567	0.595534508860165	1.82168646506563E-05	0.595534509138784	-0.00175262632910363
1.607507	0.59550024609068	4.17416314354271E-06	0.595500246105309	-0.000401615167567407
1.376413	0.595457785594182	1.78737968097702E-05	0.595457785862439	-0.00171984168406624
1.17375	0.595464934323423	1.04063928304903E-05	0.595464934414354	-0.00100130562643299
1.001604	0.595428170041401	-2.03572247076748E-05	0.5954281703894	0.00195889801084426
