EC-Lab ASCII FILE
freq/Hz	Re(Z)/Ohm	-Im(Z)/Ohm	|Z|/Ohm	Phase(Z)/deg
6999984	-13.4634855160328	33.0119680084843	35.6518649446788	-112.187428117796
5969734	-10.6644071689885	38.6325271380989	40.0774466918979	-105.432026530085
5091109	-8.49196909677483	42.5485355038156	43.3876873393828	-101.286963361211
4341796	-6.47059861934957	46.6634260232445	47.1099137625993	-97.8945948478007
3702781	-4.9896381449833	51.5413711368412	51.7823273664238	-95.5294823652802
3157797	-14.1124945312281	50.3248159112535	52.26614198882	-105.664991169585
2693047	-13.097053535657	58.3253449503357	59.7777439762619	-102.655931421117
2296687	-12.4101048722751	67.5871073087504	68.7170122844802	-100.40455106093
1958656	-11.5061384439077	78.616136341548	79.4536853466423	-98.3266050253294
1670375	-10.1908029498207	91.7335646016089	92.2978837204821	-96.3390717298001
1424531	-8.28092040817391	106.861297534226	107.181670790788	-94.4311222720144
1214875	-5.55362218655127	124.307842867078	124.431838842224	-92.5580659439522
1036062	-2.31644147868311	144.461156410119	144.479727340804	-90.9186618047444
883578.1	1.89223743453778	167.73957071659	167.750243358079	-89.3536848831241
753531.2	7.54847867890819	194.634933425629	194.781253820702	-87.779024974766
642624.9	14.4099162689037	225.5247083096	225.984600681124	-86.3440521768609
548046.8	23.2733464428808	260.99517935959	262.030785030299	-84.9043238292562
467390.6	34.3413879304258	302.014839434065	303.96100763646	-83.512895823781
398593.7	48.9294378911607	347.903684148595	351.327572696067	-81.9943857793457
339937.5	66.8096691738712	400.236886231984	405.774687475446	-80.5232593445678
289906.2	89.5012835391456	459.768847976301	468.39926699837	-78.9842374110669
247234.4	-43.8227482674445	408.900368457193	411.241953830273	-96.1171651757459
210843.7	-23.8557152719648	489.245021203581	489.826281372927	-92.7915462454681
179812.5	6.7065911478799	578.860761676147	578.899611135742	-89.3362096703726
153343.8	48.5564221187616	676.573266521292	678.313431313479	-85.8950251528169
130781.2	104.141475302742	782.435946683294	789.336086556553	-82.4185464350811
111531.3	175.391765465083	895.330938483491	912.348486488955	-78.9163419123439
95109.37	263.21259034013	1013.60767318432	1047.22556445672	-75.4430144624814
81109.37	369.233740715363	1137.15430541208	1195.59753663174	-72.0113983401043
69171.88	497.0409155983	1260.48637086228	1354.94485603967	-68.4794573077999
59000	649.093390322012	1384.62891965496	1529.22185261151	-64.8835168897793
50312.5	826.904540777935	1504.42062446659	1716.698149029	-61.2046121830238
42906.25	1013.85559562923	1584.40711705422	1881.02341329415	-57.3849890417842
36593.75	1221.93080905488	1686.59190077298	2082.71628933721	-54.0767822989004
31203.13	1452.44922828872	1761.3427822688	2282.96674470017	-50.490118067583
26609.38	1694.29172087031	1814.0805140836	2482.23942176968	-46.955529970265
22703.13	1940.9235273153	1841.45704429165	2675.47158176972	-43.4936215692594
19359.37	2196.46962678047	1847.60546172078	2870.21336550954	-40.0695570306222
16500	2436.38713173477	1820.80259490946	3041.59569063868	-36.7721276238648
14112.02	2662.55969370555	1779.31037533371	3202.36936256821	-33.7536427196669
12011.13	2884.14046903896	1716.75284645852	3356.41275485774	-30.7627571924604
10236.38	3084.69773294511	1639.94213357857	3493.53263976779	-27.9968034364663
8750.684	3260.99819638596	1563.08626713851	3616.26159387696	-25.6096836450348
7449.463	3422.71748266815	1483.51408761454	3730.38992791812	-23.4334352405232
6363.206	3559.04299191275	1404.27844884159	3826.06651538681	-21.5325217044618
5414.761	3681.02777464243	1334.08442624866	3915.32204729678	-19.9216164859838
4620.567	3828.6041308172	1250.16381430954	4027.54505289755	-18.0835449608923
3941.215	3877.5733801104	1220.62571641915	4065.15712583469	-17.4735397147283
3361.769	2105.05850776475	1078.73369860411	2365.36206818678	-27.1327945405649
2867.244	2185.85604259304	1073.73167266241	2435.33700826372	-26.1610982270687
2442.658	2264.67672649329	1078.75336608766	2508.47951962256	-25.4702715543236
2083.003	2340.80907276219	1095.97752779809	2584.67674121237	-25.089208783938
1777.843	2416.11783293399	1123.37880175576	2664.50845651799	-24.9361660272806
1513.548	2495.28312137171	1164.1605075223	2753.49006591219	-25.0111432843514
1292.065	2574.63214887613	1216.14936665473	2847.41110204361	-25.2841061075297
1101.762	2659.39829296232	1279.25604302763	2951.08375079962	-25.6890497588163
939.101	2749.49064910589	1357.16768768805	3066.2033464898	-26.2712665519165
801.2801	2845.21269823957	1447.51563737426	3192.26202224483	-26.9649350953254
684.3433	2949.03073747218	1551.72065820052	3332.35941813634	-27.752442666421
582.9476	3057.74390450498	1669.78020197612	3483.95805205068	-28.6381781219137
497.0677	3183.60991765637	1804.44012325065	3659.42294169406	-29.5441561763084
423.5089	3311.01125817436	1962.56137160525	3848.95345374225	-30.6568230257186
361.5036	3468.66531423696	2126.10225886557	4068.40876478063	-31.5060209626159
308.1262	3628.34825162352	2312.01163520856	4302.36084451307	-32.5056031320011
262.7298	3808.60394218394	2516.29291656229	4564.777544455	-33.4521981644926
224.2111	4006.766973966	2746.35084266203	4857.63569390038	-34.4278364276193
191.2854	4235.20509416122	2972.65445810388	5174.32475951153	-35.0646904760632
163.1722	4479.07806516922	3245.18303759872	5531.12585839434	-35.9240927912917
139.1537	4751.14781875883	3555.85151796944	5934.43220649983	-36.8118966244248
118.6706	5048.59575630928	3871.89425783048	6362.38039215235	-37.4855001858483
101.1982	5403.15120294426	4208.7217868761	6848.89640753922	-37.9163930956765
86.24196	5728.21094149145	4581.03353420063	7334.73031758449	-38.6504437044863
73.61024	6193.74235030959	5073.49655143004	8006.42314391334	-39.322024724893
62.69291	6496.13831562462	5024.82057491255	8212.71178270556	-37.7222692651082
53.57697	7177.25418998171	5728.09923170879	9182.81539158404	-38.5930390629921
45.65746	7830.9951853793	6471.1615165961	10158.7606019292	-39.5687059740086
38.96512	8041.39589968955	6770.38704288645	10512.0021273794	-40.0954260750724
33.18414	8896.98522279193	7333.72530178966	11529.9554577062	-39.498530103261
28.30617	9208.95680891959	7775.42353418196	12052.4726361215	-40.1754969269419
24.17237	10085.9652491055	8251.1059486815	13031.0185473942	-39.2858424401305
20.61345	11417.8752575479	8902.23009557121	14478.1758544168	-37.9426460218494
17.55618	9396.51989662307	5844.36819054928	11065.7681935931	-31.8804374225779
14.98558	9284.13178205672	6031.574369633	11071.3591000838	-33.0103674903554
12.76553	11652.4417158298	7415.47966940162	13811.9056132063	-32.4722054221229
10.8809	10004.282536557	5640.59579585964	11484.8591634173	-29.4150917033772
9.278505	12584.7614828999	1111.46477096865	12633.7474851521	-5.04717032040475
7.923394	12142.0251623653	6660.14167612176	13848.6917140041	-28.7456420859684
6.75822	9246.98501489713	3501.26383759469	9887.64786621066	-20.7385912764829
5.761429	8381.25156210676	5860.19168431475	10226.7895414069	-34.9613403489775
4.919708	8922.20976217917	2601.10098345775	9293.62971967735	-16.2530422082745
4.191257	8215.82201632842	10109.548356362	13026.9988628851	-50.8999490488621
3.564097	10519.215357335	10505.4638822404	14866.6964425541	-44.9625249277922
3.051758	9006.93170000828	8092.87864042629	12108.65406795	-41.9402241246787
2.604164	14885.2413161899	1679.25114398252	14979.6626612809	-6.43650473809655
2.214424	14699.9475106402	3317.75015287757	15069.7021500923	-12.7184483813786
1.892567	12179.2939678646	1689.64166536014	12295.9379680033	-7.89826904250201
1.607507	16199.0336753735	4170.67537248111	16727.3197218952	-14.4380551527488
1.376413	16565.1862096337	7932.87679409456	18366.7070644175	-25.5892233221707
1.17375	12630.1621468529	5136.74785463351	13634.7781198624	-22.1318126398568
1.001604	13874.8966891075	9333.44340831505	16722.0191361458	-33.9281542049078
