EC-Lab ASCII FILE
freq/Hz	Re(Z)/Ohm	-Im(Z)/Ohm	|Z|/Ohm	Phase(Z)/deg
6999984	22.2150689964422	0.117510502544316	22.2153797904716	-0.303073245002668
5969734	18.9392306627978	-3.82230871682551	19.3210895662066	11.410145092821
5091109	12.3894299186	-7.41229707662499	14.4374555119676	30.8910653611019
4341796	7.40745794611161	-8.14034569449387	11.0061646929926	47.6987937404205
3702781	4.85217421936525	-5.89123143865879	7.63218202868056	50.5242262451271
3157797	4.74919506151151	-4.86120878095596	6.79604330065139	45.6677786778188
2693047	2.77053066221785	-4.21094239769707	5.04062258327402	56.6576420391774
2296687	2.37889218318567	-3.98703889781088	4.64280165329931	59.1773156165124
1958656	1.65137318938106	-3.16849166383796	3.57300613411414	62.4721094174122
1670375	1.36909951161608	-2.98505288037202	3.28404844229264	65.3613636909184
1424531	1.09866300764535	-2.43707353176116	2.67327286365966	65.7335570746354
1214875	1.10700025145645	-2.13094926814913	2.4013317846874	62.5487138746212
1036062	0.775290831990409	-1.8466063467523	2.00275581987277	67.22508080692
883578.1	0.706969498526877	-1.58086158591895	1.73174167406155	65.9055590047337
753531.2	0.636514307153227	-1.34519127948643	1.48818347041522	64.6775385624298
642624.9	0.5655120029215	-1.19707163000309	1.32392760859744	64.7133484246255
548046.8	0.547717080273696	-1.01581119520976	1.15406515601894	61.6668172363559
467390.6	0.515063411471567	-0.880423495920007	1.02001757338035	59.6716063063718
398593.7	0.484139799115133	-0.76523357417915	0.905524029575272	57.6797185315995
339937.5	0.45881332732992	-0.664374131717625	0.807404889897937	55.3712429271276
289906.2	0.438461749772363	-0.575890930344312	0.723808724502738	52.7157153269892
247234.4	0.422007706806332	-0.499103791066978	0.653601636213809	49.784446058366
210843.7	0.407736438996605	-0.431085830868903	0.593366663422849	46.5944691565074
179812.5	0.396206220275939	-0.369784048880187	0.541959049921274	43.0244149716709
153343.8	0.389615756803619	-0.321952499307541	0.50542442536944	39.5680585317001
130781.2	0.382789176491823	-0.279393056778602	0.47390719958171	36.1252410844283
111531.3	0.376761438732009	-0.243686963546032	0.448700922572819	32.8945383424918
95109.37	0.370096035165886	-0.212288558343537	0.426658537063407	29.8387538858308
81109.37	0.364560331633999	-0.183247501507548	0.408024364725748	26.6865463618273
69171.88	0.356969499313015	-0.160677817246034	0.391464665576262	24.2332900521038
59000	0.348436450545534	-0.135994248181328	0.374035286580257	21.3206304526665
50312.5	0.342259864093956	-0.105454678190156	0.358137548606402	17.1247401977865
42906.25	0.372296226625957	-0.106262173073905	0.387164215529165	15.9300028738018
36593.75	0.356275915531533	-0.0964789340396226	0.369107995986613	15.1522012077558
31203.13	0.350821304015588	-0.0846805362765947	0.360896634197785	13.5703621382248
26609.38	0.345678957154109	-0.0725253095993714	0.353205127300888	11.8490995188266
22703.13	0.346316810116331	-0.0649079634781289	0.35234695499185	10.6154297126627
19359.37	0.343116353578663	-0.0578357729860413	0.34795661903463	9.56785086877937
16500	0.340958675203707	-0.0516641275817172	0.344850692728675	8.6162596443143
14112.02	0.339056989263467	-0.0461968427249375	0.342189699211066	7.75882830390102
12011.13	0.337092057935676	-0.0415694396660218	0.339645512023133	7.03009474343003
10236.38	0.335139689509893	-0.0371405023389456	0.337191382450348	6.3237695623266
8750.684	0.333495099219015	-0.0336063110985042	0.335184076812652	5.75427243227837
7449.463	0.331824149330656	-0.0308171121797494	0.333252097490943	5.30594327082881
6363.206	0.330543770557055	-0.028141075426895	0.331739512841412	4.86618212024764
5414.761	0.329852740795095	-0.0257331960145716	0.330854995409108	4.46084885766029
4620.567	0.329779766537225	-0.0239527093343826	0.330648494177434	4.15423736908958
3941.215	0.328244813464658	-0.0223486940644796	0.329004744179831	3.89499745806248
3361.769	0.327158040610601	-0.0213025163415138	0.327850851361786	3.72548904028861
2867.244	0.326274075350039	-0.0206221575616829	0.326925137650842	3.61656976343424
2442.658	0.325213508607914	-0.0190666843786763	0.325771951883931	3.35530788434813
2083.003	0.321576068590725	-0.0196594798243281	0.322176447055383	3.4984103962178
1777.843	0.319110352036904	-0.0172202891769196	0.319574647205397	3.08888079073891
1513.548	0.317233142705155	-0.0173254032754792	0.31770589611974	3.12605200065582
1292.065	0.317462911669965	-0.0168635054184072	0.317910487560521	3.04067154889881
1101.762	0.314677794034973	-0.0131302363489496	0.314951610831404	2.38933599218307
939.101	0.317743664863657	-0.0140138153549049	0.318052548459825	2.52534528654902
801.2801	0.31434312932836	-0.0146875375730321	0.314686076457007	2.67517317701793
684.3433	0.313476187921584	-0.0122365738184204	0.313714924944067	2.23541145347897
582.9476	0.314371456909359	-0.0134523632167425	0.31465914732521	2.45026604299066
497.0677	0.310704929649537	-0.0137766390774864	0.311010207377178	2.53882870234183
423.5089	0.307464634964214	-0.00389525646521162	0.307489308393978	0.725838977689991
361.5036	0.316205403246168	-0.00851382214373488	0.316319999698987	1.54231472194952
308.1262	0.307406296335051	-0.0207414347680238	0.308105238745903	3.86003213565682
262.7298	0.309183318587801	-0.00473632610982605	0.309219593942532	0.877635551142975
224.2111	0.301294916131893	-0.00568633000452992	0.301348570323214	1.08121318533091
191.2854	0.311338936189925	-0.00811416778116189	0.311444654644538	1.49291430085334
163.1722	0.303325559171128	-0.00456014867618429	0.303359835512921	0.861310837644108
139.1537	0.307631115100999	-0.0170440761513455	0.308102910583683	3.17118846984064
118.6706	0.303932570592093	-0.00705744256125955	0.304014497947422	1.3301931411206
101.1982	0.305517180353001	-0.00698466403801905	0.305597010820741	1.30965489599634
86.24196	0.295573683756526	-0.0160830527350933	0.29601092397863	3.11456419686345
73.61024	0.314802114517834	-0.0241238142700309	0.315725085667633	4.38210726787546
62.69291	0.226925372043785	-0.0272410521079632	0.228554587346565	6.84526428829878
53.57697	0.271658756868895	-0.0102173166013151	0.271850829945551	2.15392768768664
45.65746	0.313074869649503	-0.0268366402328881	0.314222976984565	4.89939247292681
38.96512	0.286720087083435	-0.0138230909374141	0.2870531068987	2.76015542310733
33.18414	0.288947690770527	-0.0116740303104296	0.289183421006995	2.3135989930759
28.30617	0.290537222159472	0.00575410968616409	0.290594196842302	-1.13459852789222
24.17237	0.293966760622045	0.0145154177201638	0.294324911793429	-2.82684083496701
20.61345	0.227462971753678	-0.0576908271069715	0.234664942101075	14.2316814845207
17.55618	0.199884597083191	0.0376498667894183	0.203399519715192	-10.6671391536733
14.98558	0.332687129693369	0.0578806310368198	0.337684606863909	-9.869484500026
12.76553	0.242083929851046	-0.0291808149929083	0.243836316113446	6.87327619490272
10.8809	0.222114054355311	0.0636450445736963	0.231052688452097	-15.9892409802404
9.278505	0.257954576071641	-0.0491497613645311	0.262595244356196	10.7876321779893
7.923394	0.261417245418493	-0.0262398284069538	0.262730860001293	5.73188124164466
6.75822	0.168235084900118	0.0923382421318782	0.191909861006034	-28.7608140083835
5.761429	0.0818391756124643	-0.0619187166785371	0.102623477528511	37.1107915174107
4.919708	0.188726155045743	-0.0503099761923295	0.195316807527725	14.926599075923
4.191257	0.103801128297398	0.0675123477481098	0.123824841345647	-33.0400123266755
3.564097	0.0700415360219296	0.0392425818060252	0.0802857209914306	-29.260857194506
3.051758	0.0924766910724089	-0.039216801458561	0.100448473897526	22.9804548076928
2.604164	0.08338756468183	0.0836030221688244	0.118080274641141	-45.0739251118995
2.214424	0.241676770801865	-0.0839625766773353	0.255846391077761	19.1580871986145
1.892567	0.217596179844068	0.0188348514559523	0.218409819175099	-4.94711985726121
1.607507	0.23217463902281	0.0129361927903231	0.23253474598279	-3.18908079586698
1.376413	0.270496608126147	-0.0163391433065913	0.270989635616833	3.456708236057
1.17375	0.26301478040236	0.0693026405395624	0.271991968072326	-14.7615356647238
1.001604	0.280367575513979	-0.0517880434995378	0.285110467799933	10.4654179027416
