EC-Lab ASCII FILE
freq/Hz	Re(Z)/Ohm	-Im(Z)/Ohm	|Z|/Ohm	Phase(Z)/deg
6999984	22.2309057382078	88.4544404494812	91.2052696129554	-75.8922706696435
5969734	17.65366341373	87.6271273244968	89.3877244092769	-78.6094657172719
5091109	13.4112591742064	92.462205703524	93.4297669706958	-81.7470398991878
4341796	10.9809467257147	101.120970415408	101.715445477797	-83.8024113976606
3702781	12.2203409219485	113.084233984644	113.742607268087	-83.8323197945664
3157797	13.1854534799701	126.694709488838	127.378984121925	-84.0584662363045
2693047	14.0043984551192	142.938453345939	143.622855496676	-84.4043035614455
2296687	14.9934576076621	164.071934826271	164.755587367072	-84.7786168890045
1958656	17.5127134090078	188.847275218369	189.65755584302	-84.7018405444569
1670375	20.8002322752921	218.523713217037	219.511418611579	-84.5626690960197
1424531	25.7902882727879	253.011702606949	254.322748933832	-84.1797614015337
1214875	32.203752927193	292.767316385354	294.533161538862	-83.7228275599169
1036062	39.2151001845043	338.527127293146	340.790903628355	-83.3922882079059
883578.1	49.2983175618346	392.129556446874	395.216286549086	-82.834399202787
753531.2	61.4521113106157	453.686211036384	457.829160352508	-82.2861931844059
642624.9	132.339851840815	589.992672795523	604.652950325767	-77.3573810475725
548046.8	163.161683457787	670.618109301794	690.181413450328	-76.3255986501009
467390.6	199.330219407868	760.188955873928	785.88789595074	-75.3071661692559
398593.7	239.292034951224	862.483099915679	895.06300092857	-74.4935661001701
339937.5	286.524756770861	977.122102678512	1018.26521092762	-73.6571050150586
289906.2	339.096743648332	1105.53095156647	1156.36728007341	-72.9477832646866
247234.4	403.437200583896	1252.26577574621	1315.64856550685	-72.1428348583074
210843.7	476.692425176896	1417.78493169959	1495.77731657337	-71.4161524867429
179812.5	563.052722395084	1605.38748188954	1701.26345261519	-70.6728543391197
153343.8	667.194018654059	1813.15185692389	1932.0112615599	-69.7976613070574
130781.2	791.364647956164	2046.22037963099	2193.91792190409	-68.8562916496574
111531.3	939.931352764398	2304.0992835177	2488.44217457756	-67.80754970145
95109.37	1113.57390673935	2589.78334350215	2819.04675591802	-66.7329100609026
81109.37	1344.71589416312	2889.12879498844	3186.74222836524	-65.0408511003223
69171.88	1574.55620739031	3238.49865453402	3600.98608517862	-64.0710054405043
59000	1861.42458738301	3601.94058157739	4054.48855562919	-62.6708111807636
50312.5	2183.00836446533	4009.95646341309	4565.66275121082	-61.4362590195952
42906.25	3227.59062282453	4395.62744478795	5453.3367640297	-53.7111664706715
36593.75	3648.96414418534	4732.39390070829	5975.82557953386	-52.3655865479627
31203.13	4145.39248785008	5099.7685730776	6572.0558714358	-50.8937553750968
26609.38	4723.16515522099	5471.19911916877	7227.88412227858	-49.196683033809
22703.13	5357.3613122752	5830.94075506899	7918.40831981956	-47.4237739987578
19359.37	6089.51147587557	6155.13528775548	8658.39710485682	-45.3070673683162
16500	6888.72079125295	6452.46648888306	9438.6862396204	-43.1271061972922
14112.02	7725.55928570102	6681.29831551282	10213.9127398738	-40.8542456493657
12011.13	8657.19649138319	6820.66383948442	11021.2751667703	-38.2331814606043
10236.38	9598.88969807533	6898.22912768242	11820.5011963885	-35.7028623274358
8750.684	10540.073130723	6864.64212420174	12578.4121849443	-33.0757878114035
7449.463	11503.8937514509	6719.9076027534	13322.789859268	-30.2909952031055
6363.206	12464.0867570667	6561.71018230786	14085.7906843843	-27.7645320758982
5414.761	13141.6121550614	6043.20170614948	14464.51716772	-24.6954492688123
4620.567	13931.4446833251	5637.89801971773	15029.0067883837	-22.0326221863638
3941.215	14595.4994355875	5641.95993221741	15648.013153464	-21.1342472819105
3361.769	15272.6987673669	4812.74309912959	16013.0516697146	-17.4907169894264
2867.244	16017.1242366394	4513.62800819558	16640.9466860606	-15.7378442884708
2442.658	16301.8537223987	4430.50301198763	16893.1877313228	-15.204540902341
2083.003	16710.5087147146	3994.42757955869	17181.284969201	-13.4435436598505
1777.843	16863.3708286594	3504.30544559343	17223.6300575952	-11.7393150757016
1513.548	17323.7779654013	3239.32079306027	17624.0313831676	-10.5912566232861
1292.065	17519.0773040372	3013.16159908658	17776.3104272805	-9.75900104839092
1101.762	17618.8737481728	2838.92259038272	17846.1254514317	-9.15337319978174
939.101	17798.8196512933	2568.87718472447	17983.2452846938	-8.21270255089185
801.2801	18034.9876509177	2389.100626461	18192.5419161839	-7.54605469710124
684.3433	18143.0787956655	2333.05376660548	18292.4697092437	-7.32756297150605
582.9476	18334.3208805668	2313.25750430693	18479.6775521875	-7.19106150639408
497.0677	18480.1686078805	2275.97828410109	18619.7934716095	-7.02107065815672
423.5089	18559.8459653914	2328.90677837436	18705.3919777538	-7.1521462129488
361.5036	18726.2761663758	2378.12217726251	18876.6756646758	-7.23747108779968
308.1262	18836.6269777183	2472.98496309222	18998.2675664226	-7.47935668017006
262.7298	18959.8183544469	2650.81300998836	19144.2294607943	-7.95905413498744
224.2111	19096.0152001025	2827.1686848922	19304.1622272344	-8.42147691228162
191.2854	19232.8015252782	3082.41719900203	19478.2429982647	-9.10529058161436
163.1722	19388.4000902192	3366.87392831178	19678.5644320809	-9.85140195201167
139.1537	19528.1589038457	3702.44677803011	19876.0434271511	-10.7355846918796
118.6706	19720.504974991	4081.59174475802	20138.463388241	-11.6935128295588
101.1982	19831.7601910621	4601.63564217367	20358.6287077278	-13.0633804332033
86.24196	19989.5805616577	5152.04205213371	20642.8406072894	-14.4526655765247
73.61024	20184.763368184	5737.77068815875	20984.439108527	-15.8684614770268
62.69291	20357.8951729922	6502.24255801732	21371.0798547436	-17.7133053632567
53.57697	20602.9843390896	7340.7404706345	21871.6582438091	-19.6107295863458
45.65746	20839.7392078121	8354.4628146149	22451.9883121831	-21.8454024972269
38.96512	21064.0831280443	9480.37429193752	23099.2011710447	-24.2312216744634
33.18414	21308.4064786565	10795.5146422685	23887.0534610505	-26.8682198195074
28.30617	21627.0729050168	12294.9698578811	24877.6318455981	-29.6181880530173
24.17237	21857.1579824419	14020.466045515	25967.457003004	-32.6784988762598
20.61345	22226.0097175831	16019.3823762627	27397.3743209639	-35.7821539567039
17.55618	22642.7494083706	18296.8464278761	29111.3154971662	-38.9405150474272
14.98558	23093.0554063644	20908.8419633302	31152.3495141047	-42.1582231065701
12.76553	23623.3675012078	23959.7733786228	33647.2024461482	-45.4050660695954
10.8809	24269.5764750769	27417.9904429403	36616.3698666152	-48.485716894565
9.278505	25089.643812609	31436.240124404	40220.982332643	-51.4062088270618
7.923394	26057.5621963675	36097.4119138317	44519.879767295	-54.1756920030738
6.75822	27088.6529722689	41231.4893712064	49333.8710788027	-56.6955088198576
5.761429	28440.1045972906	47139.8455301381	55054.5600846116	-58.8968527757959
4.919708	29883.320287329	54013.1993515038	61728.7496680468	-61.0460174653316
4.191257	31613.1666541366	62182.4011925848	69757.0306419202	-63.0514843398485
3.564097	34162.7372151197	71209.9034597044	78980.6493058252	-64.3707769589168
3.051758	36752.0614999483	81740.6107968	89622.7732104397	-65.7904517836919
2.604164	39283.822011926	93395.1921641637	101320.681952135	-67.1874374797799
2.214424	43015.2267068869	107173.95964968	115484.056716225	-68.1315000388169
1.892567	47199.5749402429	122668.5534664	131435.81659532	-68.9546112073019
1.607507	52373.1725413856	141315.281075639	150708.187791959	-69.6646778028075
1.376413	58012.9643046987	161317.813287564	171432.030004021	-70.2204468640844
1.17375	65260.0965865644	185146.201333254	196310.967789937	-70.5835302188588
1.001604	73358.8862913198	211703.046632538	224052.909267881	-70.8878853996323
