EC-Lab ASCII FILE
freq/Hz	Re(Z)/Ohm	-Im(Z)/Ohm	|Z|/Ohm	Phase(Z)/deg
6999984	-7.80286112893331	28.3205899985068	29.3758482373011	-105.403894302344
5969734	-1.97570330481025	31.7469632461884	31.8083806394396	-93.5610858601083
5091109	2.88747614746852	32.6352861169367	32.7627748891409	-84.9438006213407
4341796	7.52411978890425	32.3814994593529	33.2441556643247	-76.9189537427384
3702781	11.5897948709066	31.9119408827252	33.9513669246503	-70.0399651586182
3157797	15.6856920138266	31.3690534453449	35.0721890963414	-63.4332461187442
2693047	19.6817292923749	30.602152729133	36.3849174740786	-57.2529623770522
2296687	23.4407803189417	29.6212323973531	37.7741656519225	-51.6436482669419
1958656	26.7754083846458	28.4775689990826	39.0882901936382	-46.7645344892582
1670375	29.8712672877399	27.165292586973	40.3763015977374	-42.2837638890612
1424531	32.571429289229	25.7817970627485	41.5403305924254	-38.363248609677
1214875	35.0266636224434	24.2765156957135	42.6170902202863	-34.7253161148513
1036062	37.0725814031143	23.2853491969369	43.7788051357483	-32.1329972186716
883578.1	38.9698949057956	22.1494798153901	44.8246825427814	-29.6127793314312
753531.2	40.6444851159249	21.2182774629706	45.8496397895801	-27.5666152647262
642624.9	42.169866994616	20.4837127427725	46.8815546891528	-25.907833692887
548046.8	43.5869548827513	19.9857844114722	47.9505392513248	-24.6327218494013
467390.6	44.9349860541236	19.6383286116029	49.0389327202538	-23.6071904214746
398593.7	46.2455750087824	19.4693958470173	50.1767932668158	-22.8311018992361
339937.5	47.5383961974291	19.5721683285404	51.4098131304177	-22.3775943452341
289906.2	48.4221361308283	20.3414675363446	52.5212201781778	-22.7866002672883
247234.4	50.2393071096125	19.9386487118433	54.0512505989293	-21.6468153254345
210843.7	28.4604620355369	19.371871747514	34.427711429579	-34.2415162822208
179812.5	29.9478655400851	20.5135860374646	36.2998879133735	-34.410229434575
153343.8	31.5726452251633	21.8390812596918	38.3898085014949	-34.6719565553907
130781.2	33.3313467024319	23.3424349866958	40.6921115709892	-35.0041231075399
111531.3	35.256433256501	25.0273063307791	43.2363521604768	-35.3696071554759
95109.37	37.3472917109547	26.9134177085192	46.034250845391	-35.7774900802516
81109.37	39.7394433024137	28.9163269717968	49.1464883743042	-36.0414345477345
69171.88	42.2721497445363	31.269124276782	52.5803459199475	-36.4906964844745
59000	45.2048363590407	33.7693549990577	56.4255843328187	-36.7608231665669
50312.5	48.9448667918351	36.0957969971006	60.8153479487405	-36.4079842971694
42906.25	49.8837087714878	38.5796470776654	63.0616648165573	-37.7180694844699
36593.75	54.2625927748879	42.5180711700818	68.9363137299743	-38.0808778195026
31203.13	58.4222482117826	46.0910265083985	74.4146612618577	-38.2709451088814
26609.38	63.0344146308716	49.6968906005514	80.2690373881474	-38.2525588932356
22703.13	67.9183842831164	53.5314986808456	86.4784844608557	-38.2442567347842
19359.37	73.2327464266448	57.5738573150442	93.1546251955442	-38.1735938499107
16500	79.0309630776817	61.8062428956113	100.328982780935	-38.0272203219886
14112.02	85.1975677987604	66.1795514443527	107.881224447075	-37.839255787718
12011.13	92.1215442548336	70.8285928401386	116.202704269778	-37.5552520678276
10236.38	99.570672102835	75.9089663869377	125.205790285208	-37.3205456366302
8750.684	107.428423298439	80.9370523990403	134.505288310287	-36.9945326512008
7449.463	116.194377750886	86.383030040596	144.786606079119	-36.6284240792681
6363.206	125.435092891377	92.1525497525157	155.647213128145	-36.3033564742006
5414.761	135.807417036414	98.372329107115	167.692485389361	-35.9177558780775
4620.567	146.971519495711	104.860248533801	180.544452325318	-35.5068420065656
3941.215	158.982104693156	111.686935681499	194.291742528057	-35.0885255203406
3361.769	171.607409831018	118.583807784924	208.593438481853	-34.6451707784684
2867.244	183.433951190355	124.12225892499	221.482165444416	-34.0846060604462
2442.658	200.537744500861	134.564547278268	241.501561803848	-33.8623442725591
2083.003	209.702057147015	141.296416832551	252.862868332636	-33.9719339100337
1777.843	230.510270674348	142.493491713519	270.997011177378	-31.7229255951185
1513.548	240.635981044529	155.951332482535	286.751623319452	-32.9464597778866
1292.065	259.706747484471	168.113148524059	309.369722816625	-32.9157549696455
1101.762	276.38829265083	164.306492775204	321.538663122382	-30.7305111277504
939.101	-259.044043852456	163.2519988653	306.194434614591	-147.780483083795
801.2801	-230.61642375563	225.022937349452	322.209958317883	-135.70333490335
684.3433	-201.753400622518	232.119014733517	307.544584838701	-130.99654391213
582.9476	-150.621932913473	227.281172859522	272.660408220539	-123.532909193858
497.0677	-137.109422445498	237.322122774134	274.081709862879	-120.016552613581
423.5089	-110.713002519176	237.142810341916	261.713739462936	-115.026090217992
361.5036	-78.2276282609257	274.468832201102	285.399197043661	-105.908326345178
308.1262	-62.0844722585787	261.655176146945	268.919900528233	-103.348064437635
262.7298	-33.3428145483592	284.704551223141	286.650352815371	-96.6796951390053
224.2111	3.86344605277296	273.784562170988	273.811819866422	-89.1915378271021
191.2854	19.968452683829	318.352266365396	318.977906135473	-86.4108590557732
163.1722	58.5511895888983	317.667416599639	323.018311201337	-79.5566795441821
139.1537	99.6002526233192	302.608062243878	318.57785493914	-71.7815849684774
118.6706	155.931846021496	342.013770683904	375.883173261445	-65.4906802652795
101.1982	185.247588477674	381.295586702519	423.913898658221	-64.0877931039016
86.24196	235.90204506352	372.373985730638	440.808529992413	-57.6453983596712
73.61024	272.380848622213	376.502214881123	464.69909027945	-54.1161101219582
62.69291	308.111651928663	422.232571555567	522.697938140793	-53.8810140794601
53.57697	396.207993775052	452.484147124438	601.433851500048	-48.7936874390258
45.65746	440.351284496173	367.150476879523	573.331253666055	-39.820240175649
38.96512	460.004157043547	539.838032916305	709.245321648504	-49.5651808397474
33.18414	485.588429289892	362.816919737432	606.161892490762	-36.7659683275672
28.30617	629.528128772706	474.66440909551	788.423722485603	-37.0163050474157
24.17237	648.899692074149	494.813283818929	816.033697966939	-37.327042978027
20.61345	498.838231437492	372.814565465257	622.760211772343	-36.7731761366299
17.55618	564.469800946235	683.104118022279	886.147500272543	-50.4320373358906
14.98558	779.774539303607	385.265374546825	869.757288541383	-26.2927238213441
12.76553	903.470068928761	427.923530371083	999.688308071767	-25.344312512642
10.8809	909.710735860183	481.220847718977	1029.14873911337	-27.8780464742695
9.278505	1000.42447502884	857.092231826748	1317.36715614687	-40.5876082802457
7.923394	1178.86445806073	538.734562366441	1296.13129704015	-24.5601395559142
6.75822	1118.98780179313	398.522057593153	1187.83564980603	-19.6031092476706
5.761429	1343.75514623915	847.006841544467	1588.42641713972	-32.2243897165729
4.919708	1139.50017999344	338.210553115061	1188.63242360432	-16.5312074882326
4.191257	1057.12056298428	618.262625215319	1224.64384962418	-30.3214593690726
3.564097	1275.98365189713	352.196116015686	1323.69799578502	-15.4305326454744
3.051758	1300.26389922785	331.859116463346	1341.94511095463	-14.3176251537903
2.604164	1317.5694527101	356.614355728551	1364.97731168927	-15.1448558888222
2.214424	1305.13970344278	269.714554161273	1332.71736922317	-11.6761350196325
1.892567	1321.32453551863	311.50924633842	1357.54798762985	-13.2655543207931
1.607507	1468.74179863413	336.986017802949	1506.9047903732	-12.922209362061
1.376413	1424.66046829529	280.020474603722	1451.91904599418	-11.1198732146518
1.17375	1417.43062890482	269.850911816624	1442.88915110128	-10.7789977040167
1.001604	1577.90331305914	305.090995829091	1607.12768039724	-10.943224596835
