EC-Lab ASCII FILE
freq/Hz	Re(Z)/Ohm	-Im(Z)/Ohm	|Z|/Ohm	Phase(Z)/deg
6999984	32.8998222041248	80.1167368135205	86.6088322211421	-67.6745661972001
5969734	32.4982133276388	80.7601051751157	87.0535953156702	-68.0799338372552
5091109	33.6536224022783	83.2271250882607	89.7737191568452	-67.9836196318937
4341796	37.3754829065006	88.6116609032508	96.1714779470859	-67.1304854749439
3702781	45.2196760726653	94.1976735185713	104.489333428959	-64.356624901377
3157797	51.9882850692608	100.66359302306	113.295810799672	-62.6856507876575
2693047	61.4582334691348	108.918823256047	125.061682863413	-60.5658215372325
2296687	73.9526492693849	118.261337997336	139.480243758321	-57.9809224444998
1958656	88.6985120406783	125.722319727508	153.862041179415	-54.7966006360791
1670375	105.757802248958	132.167288051229	169.271689208049	-51.3338557166926
1424531	124.592900452934	136.40205462062	184.74011840421	-47.5906766044794
1214875	143.628931910138	138.486841163318	199.519110004633	-43.9557922451238
1036062	162.925445217055	135.909440681045	212.169924271585	-39.8342489937399
883578.1	185.962102237778	137.371815541496	231.198873643149	-36.4536031968177
753531.2	202.431472801039	126.365172239007	238.634988916947	-31.9739269460094
642624.9	216.805063041838	120.970091830299	248.270414020693	-29.1600796479204
548046.8	233.358739888628	114.289573312983	259.843045030018	-26.0937241199393
467390.6	245.445568032609	102.10177517026	265.835098058492	-22.5865978897419
398593.7	253.294452316763	98.7708952730555	271.870868846756	-21.303046377934
339937.5	263.770167410283	88.0433463755705	278.076126369484	-18.4583968687787
289906.2	268.983658222764	80.8242673228182	280.864327708542	-16.724483341264
247234.4	274.741494749836	74.2852596181695	284.607077800102	-15.1299933636165
210843.7	279.262783355645	68.5625352940583	287.556122197896	-13.7940047543982
179812.5	283.087187529077	64.0796954364426	290.249139723703	-12.7545447224718
153343.8	286.24977314466	60.6404608581621	292.602457471669	-11.9609637987479
130781.2	289.133749417814	58.2470766280653	294.942446908068	-11.3899998967442
111531.3	291.752177647389	57.0009257287243	297.268294131623	-11.0548768823722
95109.37	294.495170906057	56.744767160941	299.912277653212	-10.9063662218742
81109.37	296.731403223271	57.5853428202811	302.267426903034	-10.9826211748282
69171.88	299.397654153199	58.9209757242612	305.140355726242	-11.1334408552405
59000	302.277916671975	61.6391483672541	308.498498406378	-11.5254814969808
50312.5	305.344752169087	65.1094118995314	312.209309911001	-12.0370468643634
42906.25	308.800842395281	69.5186222397827	316.529302122494	-12.6871706153424
36593.75	312.71175270529	75.0276105949731	321.586353304373	-13.4917122216872
31203.13	316.822944413632	81.8085182245123	327.214626447251	-14.478391381526
26609.38	322.209449014625	88.9869330417376	334.271750655784	-15.438943665907
22703.13	327.867356739748	97.4315765948676	342.037886400426	-16.5502468757648
19359.37	333.791899511486	106.768206245015	350.451825568456	-17.737633151238
16500	340.396511984499	118.399497537904	360.400092103819	-19.1791147496958
14112.02	348.805479389009	130.39835624935	372.382859117238	-20.4978859771705
12011.13	357.52039785855	144.066172726159	385.455441016079	-21.9474290918058
10236.38	367.534181885239	158.816793894431	400.380005590887	-23.3698655731535
8750.684	377.964991555605	173.92803932968	416.063093420571	-24.7104550334667
7449.463	389.912538631662	192.808918279474	434.979386580891	-26.3120611469298
6363.206	402.582389317372	211.594250292562	454.801832609935	-27.726075148689
5414.761	416.474662038153	234.050344149234	477.734976442136	-29.335106795177
4620.567	430.38167037327	256.850533599629	501.199140864886	-30.8286301501665
3941.215	446.277353833997	285.792802928333	529.944339294899	-32.6352061852597
3361.769	461.872790015299	316.045475859544	559.652764638756	-34.3826472463174
2867.244	479.492471204186	350.693764702173	594.053151277291	-36.1811904131228
2442.658	497.55810065951	390.247364254367	632.342524933584	-38.1079844527903
2083.003	516.644934750837	435.490726563893	675.702716826597	-40.1282336384216
1777.843	536.938330039579	486.554959683445	724.595403696608	-42.1817831311058
1513.548	559.010572743911	546.094114045708	781.480391203031	-44.3303576741126
1292.065	582.898870893665	613.582094052164	846.317954335454	-46.4690028585297
1101.762	608.946908172361	692.188344892465	921.922470589392	-48.6605664249051
939.101	638.552683806936	782.806187843994	1010.21535215215	-50.7950977723532
801.2801	671.221964705873	884.999770497733	1110.74908043385	-52.821752626134
684.3433	707.183418883729	1002.59743955368	1226.91076030153	-54.8027198253311
582.9476	752.051755165155	1140.42312605586	1366.06981845366	-56.5971548847455
497.0677	797.65049562564	1295.37122267682	1521.26030570414	-58.3764925062581
423.5089	853.72643574477	1474.98045266861	1704.23477339361	-59.937516019092
361.5036	918.204810847153	1673.88004498583	1909.1816256356	-61.2530844124919
308.1262	992.110072300967	1909.13499313086	2151.52941359345	-62.5406924654894
262.7298	1079.5465660919	2170.79348640414	2424.410268287	-63.5586092843188
224.2111	1182.21496452828	2473.27145236161	2741.29602549989	-64.4523661489434
191.2854	1299.40245017832	2805.91554964087	3092.18511723439	-65.1514319547825
163.1722	1435.78819642286	3195.04153121448	3502.82430777974	-65.8017963480355
139.1537	1591.44352299162	3630.62376112537	3964.10410833521	-66.3302926182642
118.6706	1776.62896496015	4119.50628550696	4486.28382020874	-66.6708014359104
101.1982	1992.76364739682	4673.09203281039	5080.24567334123	-66.9049692867804
86.24196	2233.4429909006	5289.95730216079	5742.11771494518	-67.1103173605553
73.61024	2527.33302955105	5989.20085422965	6500.61067243416	-67.1211462628833
62.69291	2866.67439975115	6777.53851787366	7358.86203671802	-67.0732469912103
53.57697	3243.84049793542	7643.31410826039	8303.17720716463	-67.0035180275429
45.65746	3688.67358970229	8625.61084191642	9381.22994321924	-66.846413000118
38.96512	4180.47187433589	9710.16475198872	10571.8326038052	-66.7068977770037
33.18414	4767.70328093208	10934.8427339525	11929.0309829124	-66.4423058672122
28.30617	5409.47700848522	12314.5228249177	13450.2756072413	-66.2852581355669
24.17237	6144.8833971381	13766.5961367062	15075.7673488151	-65.9458379377314
20.61345	6977.16294622098	15423.1134310224	16927.883231057	-65.6587860823708
17.55618	7926.42573121307	17312.0683918766	19040.3764899083	-65.399064313838
14.98558	8956.38734525555	19357.4814104382	21329.0637589584	-65.1707979282579
12.76553	10103.0500796131	21683.3239755697	23921.4999433708	-65.0174744222809
10.8809	11381.6220322609	24248.8103795817	26787.0514411377	-64.8561295071721
9.278505	12793.6618766296	27103.7015850081	29971.460154999	-64.7314538909516
7.923394	14353.1837968392	30286.4389154603	33515.4034331344	-64.6430465031629
6.75822	16073.6080471855	33829.224271176	37453.6685845869	-64.5857507236498
5.761429	18020.5525540822	37916.3826803449	41980.8574223633	-64.5796200752419
4.919708	20032.4959418746	42345.746804477	46845.0975673026	-64.6825805910269
4.191257	22330.1659132794	47587.1855496112	52565.9256386465	-64.8618017893439
3.564097	25007.899030822	53390.0832095165	58956.7298877311	-64.9016223561055
3.051758	27685.9537600849	59804.8220614846	65902.4186006204	-65.1587658145602
2.604164	30925.8198257391	67080.9359002432	73866.4896495469	-65.2492358504113
2.214424	34474.1030978953	75661.8212283077	83145.5048453535	-65.5043739565831
1.892567	38470.399643596	84856.4688949826	93169.6944401082	-65.6124337967448
1.607507	43122.1192931441	95856.0285877524	105108.969117522	-65.7787634446712
1.376413	48111.680132592	107512.611162814	117786.651723475	-65.8915788345325
1.17375	54035.1875543034	121092.046046381	132601.225898283	-65.9520258819188
1.001604	60519.6183638911	136348.386457771	149176.092912198	-66.0654715253547
