EC-Lab ASCII FILE
freq/Hz	Re(Z)/Ohm	-Im(Z)/Ohm	|Z|/Ohm	Phase(Z)/deg
6999984	28.0459197775313	52.7843726165539	59.7725991461884	-62.0169517449603
5969734	29.6814703048713	48.6917314805745	57.0252084085217	-58.6343808098465
5091109	32.2214382763748	46.1095253612758	56.2521947450974	-55.0540649508991
4341796	36.1264386026699	43.7949500592567	56.7725040561473	-50.4807903146783
3702781	41.1521003532659	40.3849636976003	57.6579626447359	-44.4609519443568
3157797	44.985872472809	36.9402624104386	58.2092063946237	-39.391215108233
2693047	48.2044854008522	33.6674949030829	58.7977263659922	-34.9316324872999
2296687	51.12012579546	30.6817052456526	59.6207539211369	-30.9716919820328
1958656	53.6330513921099	27.6603790726482	60.34567732714	-27.2816890827856
1670375	55.9459628633036	24.7581526724646	61.179382838136	-23.8711578072693
1424531	57.7022690290532	21.9168117081419	61.7243751410363	-20.7980700251954
1214875	59.070403243015	19.37964603477	62.1681849479729	-18.163478302891
1036062	60.1866884928005	17.123564526852	62.5751862469036	-15.8814504302424
883578.1	61.0618963082129	15.1293358066117	62.9082823061015	-13.9159530915138
753531.2	61.7831096646493	13.3552411195905	63.2100870525938	-12.1975724498252
642624.9	62.3611890581398	11.8712323078594	63.4810527421546	-10.778012216609
548046.8	62.8241165257227	10.5748528922423	63.7079047758608	-9.55473013527088
467390.6	63.2070818050701	9.47594061876717	63.9134464797762	-8.52622505638744
398593.7	63.5354550203301	8.58291301030078	64.1125607067974	-7.69343090116479
339937.5	63.8246529812507	7.85258456243948	64.3059049581556	-7.01406338432227
289906.2	64.0554472539058	7.29292748502055	64.469272635882	-6.49534750365648
247234.4	64.2922452977354	6.85855717346115	64.6570383788634	-6.08916053395439
210843.7	64.5108912053453	6.57893398538691	64.8454890990266	-5.82299299022636
179812.5	64.6828341904257	6.39792161535247	64.9984802891752	-5.64887741882185
153343.8	64.913230179031	6.35661182734256	65.223722419066	-5.59284329237365
130781.2	65.1164138451122	6.42748851666175	65.4328660588831	-5.63727101276589
111531.3	65.362733654735	6.63440467453583	65.6985713406717	-5.79574884706789
95109.37	65.5929645720027	6.92818379661135	65.9578405654978	-6.02944687254585
81109.37	66.0901773393805	7.43129251637157	66.5066586832826	-6.41548864617115
69171.88	66.1456553799768	7.93604771282147	66.6200313640487	-6.84155152178633
59000	66.4507474074541	8.62546088131879	67.0082114850444	-7.39577359701637
50312.5	66.8163333466157	9.45770062375144	67.4823717942291	-8.05656582214075
42906.25	67.1683775603853	10.4297392456116	67.9733065609282	-8.82626013538565
36593.75	67.5689391532405	11.5909344558645	68.5558990886594	-9.73391122654214
31203.13	67.969899087196	12.9429351354366	69.1912332007728	-10.7812780760413
26609.38	68.5432078475871	14.537244832386	70.0678444748678	-11.9743538224202
22703.13	69.1142965052015	16.3437225042822	71.0204424564215	-13.3045498283297
19359.37	69.7211189040736	18.4575978247541	72.1229321276967	-14.8280216872708
16500	70.4030524334399	20.8673438444897	73.4304829826813	-16.5097330300711
14112.02	71.1743724442728	23.5928155682799	74.9827462772265	-18.339278943171
12011.13	72.032068895646	26.8247857605645	76.8647388630657	-20.4253609794628
10236.38	72.9736434708764	30.5174047712759	79.0978168813051	-22.6945660566564
8750.684	74.0204409415924	34.67213385626	81.7385009853629	-25.0990006326567
7449.463	75.2097873397025	39.571390137904	84.9847458614161	-27.7509587057316
6363.206	76.5075203714559	45.1164903786568	88.8194707115291	-30.5278559556126
5414.761	78.0056735693824	51.6118168211165	93.5342971566555	-33.4902883987129
4620.567	79.6620489749318	58.9798516055256	99.1194478510361	-36.515350858399
3941.215	81.6234896557774	67.4631587715943	105.89462618579	-39.5742923125111
3361.769	83.8049305425484	77.2456216346496	113.974349943155	-42.6677315554681
2867.244	86.3072894421662	88.4362138894756	123.571485942182	-45.6980079310899
2442.658	89.231763437208	101.463140647644	135.118749684111	-48.669985851057
2083.003	92.5282792659875	116.334265531687	148.644353410151	-51.5024657366437
1777.843	96.3927152241011	133.370605395257	164.557813341609	-54.1427297411199
1513.548	100.859576146507	153.191689542871	183.413052549301	-56.639570950319
1292.065	106.065155837981	175.592326057548	205.140152708424	-58.8662568295359
1101.762	112.150875145861	201.225111774701	230.367889265678	-60.8673119290303
939.101	119.520459212065	230.688366962832	259.811975902269	-62.6111662742905
801.2801	127.545667787926	264.81514897367	293.930196640997	-64.2826560500256
684.3433	136.939256693493	303.065143001956	332.567047265003	-65.6842827042542
582.9476	148.314868964257	347.553423931319	377.876544445759	-66.8901296798865
497.0677	161.753009074681	398.249582975321	429.845049156939	-67.8949830609869
423.5089	177.352601407738	456.435894013355	489.681192787575	-68.7658789095858
361.5036	195.255413175501	521.806645515704	557.141680076699	-69.4845971677979
308.1262	216.350453300066	597.199100436831	635.180513087189	-70.0858017822287
262.7298	241.673251493491	682.884938510118	724.387879337724	-70.5111083535543
224.2111	270.3158546076	779.794690153778	825.318374958576	-70.8811244976498
191.2854	304.379710447368	890.178946634001	940.779232956619	-71.1228553914155
163.1722	343.586691384303	1015.30127221524	1071.86215898235	-71.3037381673383
139.1537	390.8065046578	1157.68357052716	1221.86782163676	-71.3465381146345
118.6706	445.247192066954	1318.28290548669	1391.44345229762	-71.3377145645895
101.1982	507.761936260711	1500.72702323831	1584.29914542454	-71.30706132255
86.24196	581.788378093647	1707.83084812464	1804.20728373737	-71.1881152842809
73.61024	666.082596164094	1939.85102306027	2051.02121309865	-71.0491730189616
62.69291	767.817881561073	2201.80163389913	2331.83934572814	-70.7751846013301
53.57697	881.096846671654	2492.76530998621	2643.90063048621	-70.5334537075644
45.65746	1014.63120078478	2824.35849952829	3001.079373736	-70.2395263586623
38.96512	1166.35767644405	3194.74195718103	3400.99491360585	-69.9435363616977
33.18414	1344.12577655435	3613.4914172389	3855.38510730861	-69.5960947547303
28.30617	1548.23780434029	4084.52491416428	4368.10989710849	-69.2408036259697
24.17237	1775.47578297248	4597.50391916563	4928.42333233105	-68.8843092858393
20.61345	2042.88409691116	5178.69706853827	5567.07093192636	-68.4718369691247
17.55618	2344.45534192569	5841.47934050137	6294.39049756116	-68.1321302923916
14.98558	2689.76623320657	6556.9661027308	7087.21714509009	-67.6958229313995
12.76553	3082.87598775728	7374.6247085907	7993.07287270965	-67.3132017158111
10.8809	3528.47461233492	8267.43796130007	8988.9189302072	-66.8876086655879
9.278505	4029.74810511998	9279.0770738335	10116.3304183316	-66.5254993390652
7.923394	4606.35407123455	10403.4324293587	11377.6053781897	-66.1175533889321
6.75822	5249.50659874636	11647.7494420138	12776.0473775818	-65.7394585399253
5.761429	5972.8358857509	13044.1049285423	14346.5480832476	-65.3971735531141
4.919708	6794.47445326806	14599.793983601	16103.3806220838	-65.0436012977389
4.191257	7761.7704936854	16301.0149388709	18054.5885922094	-64.538424409772
3.564097	8793.97807126749	18249.5205093433	20257.8145203	-64.2717698519181
3.051758	9972.91603411252	20312.9985048208	22629.1175806816	-63.8507031682765
2.604164	11265.6886145741	22649.7844491194	25296.807615826	-63.5548850586505
2.214424	12805.7358717316	25275.4429504233	28334.3411350371	-63.1310681775922
1.892567	14438.7698138394	28138.8289132928	31627.0733130431	-62.8364532793359
1.607507	16343.7604596527	31347.9305172909	35352.6696824922	-62.4639734167214
1.376413	18399.8489431694	34796.4000396045	39361.7059697321	-62.1307411630733
1.17375	20705.8426370663	38717.1855039971	43906.1769306083	-61.862253140275
1.001604	23266.8160536147	42981.5645683394	48874.9385883509	-61.5723937917183
