EC-Lab ASCII FILE
freq/Hz	Re(Z)/Ohm	-Im(Z)/Ohm	|Z|/Ohm	Phase(Z)/deg
6999984	21.807312749133	89.9177000697006	92.5243301794891	-76.3675391607045
5969734	19.7769423482508	89.9852312888482	92.1328893433476	-77.6046123361714
5091109	18.1431456480807	95.2381354188546	96.9508956743957	-79.2142226700325
4341796	18.5265420603216	104.519449598305	106.148707505299	-79.9484680844926
3702781	22.7981210882441	114.760959277095	117.003555926106	-78.7640497303982
3157797	24.3369424747171	126.871534484237	129.184647042141	-79.1412278469328
2693047	26.7455581741653	143.412919765042	145.885538822674	-79.4360719283071
2296687	31.3458106985909	164.258232363513	167.222387100346	-79.1960026121473
1958656	37.6942155467589	187.224816584584	190.981637417886	-78.61674228127
1670375	45.5375346441429	214.336517620232	219.120537255262	-78.0053963138654
1424531	55.8084202596715	245.494881570926	251.758449012944	-77.1925983856928
1214875	68.7763903209109	281.297937142706	289.583703454314	-76.2609117150306
1036062	84.6783875875596	320.664140619362	331.65632875551	-75.2074715129031
883578.1	104.63279345133	366.351150268057	381.000245102489	-74.0602381197126
753531.2	130.326967517797	416.804048394969	436.704400276457	-72.6364952945921
642624.9	161.877132566358	473.33552798663	500.250665269211	-71.1197041235422
548046.8	271.406101858113	583.947516480059	643.93786511514	-65.0720200043774
467390.6	330.383647000272	643.427062547001	723.292291555125	-62.8206396441903
398593.7	396.551537311635	703.414370472636	807.492971072588	-60.587765820786
339937.5	472.30271718851	765.569009104621	899.536416364052	-58.3283067556876
289906.2	558.427786238066	826.706340328557	997.639697276618	-55.9615613434509
247234.4	656.971692645408	888.11660123118	1104.70036766528	-53.5083394111952
210843.7	765.521624650199	945.324398684601	1216.41340692853	-50.9995233840779
179812.5	887.450585998743	997.377990458357	1335.03984900836	-48.3378364876418
153343.8	1019.70375501597	1039.83855748525	1456.38592880688	-45.5601256376916
130781.2	1160.61883196416	1071.21605906293	1579.41125686256	-42.7060738911183
111531.3	1308.05446926543	1089.04133882634	1702.06272864367	-39.7796060088183
95109.37	1457.85885765357	1091.66367420129	1821.28581678155	-36.826346620018
81109.37	1603.87677811431	1058.50339771567	1921.67899565717	-33.4234356831771
69171.88	1751.44436469858	1046.75721984079	2040.40634186507	-30.8648067053511
59000	1886.61922864395	1006.17650305193	2138.1588503156	-28.0720041470772
50312.5	2013.45597947108	959.714466719022	2230.4835437406	-25.4848189527419
42906.25	2133.23352334209	883.619801146355	2308.99744869682	-22.5001270993008
36593.75	2222.57676129559	821.268497340725	2369.45761822732	-20.2798698065452
31203.13	2305.9842853291	753.263437889347	2425.89557298859	-18.089933440308
26609.38	2377.74661862692	694.463084986848	2477.0865868599	-16.2813807008217
22703.13	2439.24517731754	630.724109778699	2519.47017004032	-14.4976313042865
19359.37	2488.18318113592	572.626416303468	2553.22473659022	-12.9602938667033
16500	2530.0967880846	522.246100901489	2583.43390606047	-11.6628252100516
14112.02	2562.57057580308	477.00877645715	2606.58883002074	-10.5446178587625
12011.13	2593.0940977551	432.7039917041	2628.94841034377	-9.47353628612289
10236.38	2621.12352755989	401.850808736531	2651.74897364178	-8.71628661618824
8750.684	2640.8509804238	373.563768962357	2667.14150173678	-8.05140347240662
7449.463	2658.25500583016	351.943523252698	2681.45183055386	-7.54189502350859
6363.206	2673.37593171657	339.619965407638	2694.86188758996	-7.2399519950526
5414.761	2685.96765688931	324.656487819517	2705.51734219886	-6.89198326691374
4620.567	2695.79118378346	314.665743617489	2714.09370449345	-6.65771228364065
3941.215	2716.53594320247	321.633608980234	2735.51013690986	-6.75229615646085
3361.769	2730.32459960973	325.938722157919	2749.71061565321	-6.80759804284688
2867.244	2747.71255142019	339.851617948136	2768.65010202698	-7.05083581561376
2442.658	2757.5436054387	351.469192355181	2779.85203366486	-7.26360369283559
2083.003	2772.54088128097	372.717220732009	2797.48120011636	-7.65646366422295
1777.843	2785.90622783524	400.915209304772	2814.60592540822	-8.18911960804427
1513.548	2805.76689191603	438.593246835407	2839.84011661603	-8.88448983610479
1292.065	2826.48105672179	475.8791653173	2866.2617019369	-9.55694748193804
1101.762	2846.34321276773	524.567674354999	2894.27727245458	-10.4421730049931
939.101	2879.33724216551	584.051266350339	2937.97529530912	-11.4664324666146
801.2801	2897.13347762595	641.78586427751	2967.36777005606	-12.490703387392
684.3433	2917.13538462021	709.181636161852	3002.10217102492	-13.6640407377287
582.9476	2965.8031058592	800.712953197505	3071.99109636443	-15.1086048491243
497.0677	2999.76738630443	899.012166454678	3131.58542073647	-16.6831558955013
423.5089	3041.47051621448	1011.16982587473	3205.15324403709	-18.3899456009944
361.5036	3086.45813231452	1136.87608313639	3289.18090577851	-20.2209353677381
308.1262	3136.4713567008	1284.46335909403	3389.29176853508	-22.2703251868297
262.7298	3193.47583824445	1451.14686585886	3507.72221758552	-24.4375151286003
224.2111	3253.49949476512	1638.48738909332	3642.78737873277	-26.7301770979265
191.2854	3320.85622173154	1855.03458848716	3803.84533990235	-29.187782157315
163.1722	3398.24777375146	2100.11165774476	3994.81625444804	-31.7159985353754
139.1537	3480.51439685675	2380.79189251939	4216.88872300576	-34.3734741920173
118.6706	3578.15994457894	2700.6179926356	4482.91937593532	-37.0436981596009
101.1982	3683.53430290124	3069.39486820438	4794.74814954962	-39.8035785629666
86.24196	3806.34713491472	3493.61218139122	5166.58538934939	-42.5469119452089
73.61024	3937.83389646103	3975.08452473136	5595.34027337714	-45.2697219792296
62.69291	4093.93860794995	4533.9978359774	6108.80264064169	-47.9197835620025
53.57697	4266.84313462743	5157.27220035177	6693.53470776379	-50.3975166287339
45.65746	4469.30683196107	5885.01489866511	7389.7296239933	-52.7855646117936
38.96512	4690.90948437823	6717.40290972796	8193.17604120961	-55.0725600285259
33.18414	4958.71014588591	7668.83215961213	9132.34871230907	-57.1130632722151
28.30617	5276.58911685914	8751.13897400896	10218.8466105806	-58.9116923826898
24.17237	5604.52251071241	9985.31996756914	11450.6457209983	-60.6955391820501
20.61345	6006.8687716725	11413.4827310488	12897.6765540172	-62.2423533415648
17.55618	6493.64929689835	13026.7223288388	14555.5135884577	-63.5043501811199
14.98558	7042.01485361889	14863.9744146643	16447.7265480182	-64.650093884043
12.76553	7687.4841168084	16981.2582302365	18640.2935365341	-65.6435454050204
10.8809	8429.49456587412	19379.8347597705	21133.7259836525	-66.4927834489633
9.278505	9314.24376256106	22104.8321537484	23987.0536209389	-67.1510546597891
7.923394	10328.2600580273	25165.6301622568	27202.6082810037	-67.6861972404413
6.75822	11529.2137144896	28647.5127904037	30880.4591602961	-68.0776420060746
5.761429	12945.0674371367	32625.5982400096	35099.9206761289	-68.3579902552322
4.919708	14528.0447500993	37046.5678667731	39793.3697362804	-68.5870587817255
4.191257	16442.3442157478	42170.6632391377	45262.7387741605	-68.6991866222326
3.564097	18747.1607275495	47934.891080754	51470.4752092724	-68.639713603098
3.051758	21239.090954681	54213.5065395752	58225.4521313297	-68.6063674594214
2.604164	24295.2322004699	61334.0414519133	65970.6218592774	-68.3908207368931
2.214424	27854.6275149341	69631.3286914084	74996.0146229563	-68.1971037063594
1.892567	31879.5979170501	78454.7085871641	84684.4145215023	-67.8859303278239
1.607507	36801.3881351297	88780.5510070634	96105.8187925697	-67.4849744627913
1.376413	42117.6666408699	99727.0883755263	108256.131462063	-67.1042440079269
1.17375	48517.1747139559	112221.77234508	122260.551407621	-66.6195790090257
1.001604	55726.5108580085	126112.495810053	137876.051625539	-66.1603533362284
