EC-Lab ASCII FILE
freq/Hz	Re(Z)/Ohm	-Im(Z)/Ohm	|Z|/Ohm	Phase(Z)/deg
6999984	19.2159885402952	-0.386693439682299	19.2198789641623	1.15283749338462
5969734	16.2295798870804	-3.8594547448388	16.6821657538397	13.3766909443146
5091109	11.2487418610935	-5.80586180380378	12.6586817932352	27.2998117378456
4341796	6.48630419640426	-6.14670200506531	8.93611143995896	43.460137915712
3702781	6.14169229918216	-5.60422430353285	8.31430780896051	42.3800952831565
3157797	4.37238028755892	-5.0943199415826	6.7134048772765	49.3609901407187
2693047	2.98834134008763	-4.51563465121284	5.41489983915777	56.5043414515122
2296687	2.76283035849274	-3.76993744711134	4.67393409719708	53.7638613990897
1958656	1.77212854286491	-3.34774983249014	3.78785803764796	62.1055310200875
1670375	1.53438970312574	-2.78586533384359	3.18047125743494	61.155051333745
1424531	1.26700262323451	-2.4214852096448	2.73292631949924	62.3799205081757
1214875	1.1234525673955	-2.02300166871444	2.31401845775027	60.9548598801263
1036062	0.878902718005999	-1.86664226658357	2.06320705192537	64.7867443181817
883578.1	0.731853487059002	-1.57133103194968	1.73340437823621	65.0260687892079
753531.2	0.735437855432134	-1.36191197572688	1.54779619744684	61.6307781910421
642624.9	0.66396988719668	-1.17194565457903	1.34696422684147	60.4661268808797
548046.8	0.629607092526575	-1.00993343962031	1.1901137102912	58.0599906202278
467390.6	0.573666994909484	-0.898446596202403	1.06597378357826	57.4413680888251
398593.7	0.518602290467965	-0.76837846040611	0.92701337320164	55.9833738467116
339937.5	0.520307365508319	-0.64338832471267	0.827446850848309	51.0375735112525
289906.2	0.498529046028602	-0.555102917349343	0.746103517337869	48.0734966792802
247234.4	0.46568086581786	-0.480356344424377	0.669029809812405	45.888734121933
210843.7	0.444734811144883	-0.425046248364424	0.61518563498569	43.7032610969199
179812.5	0.45243772453556	-0.362196260072695	0.579556749070841	38.6788051153453
153343.8	0.439194215214716	-0.317651519297415	0.54202771736326	35.8767034520564
130781.2	0.433174736177301	-0.275464849708513	0.513343194643903	32.453131657123
111531.3	0.425737200395747	-0.239714097063763	0.488584703129256	29.3819690132407
95109.37	0.419006677525164	-0.20877931943647	0.46814036360373	26.4857934095693
81109.37	0.412702352504638	-0.182334061601145	0.451186149812727	23.8360927902073
69171.88	0.404966898766814	-0.156673165912388	0.434217307363285	21.1504046917332
59000	0.395618785318022	-0.131840025031962	0.417008411781988	18.4306599819164
50312.5	0.389765593693362	-0.100813733760896	0.402592383114673	14.5018597328146
42906.25	0.420488469433091	-0.102372229402282	0.4327708704141	13.6830457477931
36593.75	0.404646413534647	-0.0928496300681026	0.415162346305919	12.9233037114497
31203.13	0.399734724890745	-0.0801750945526773	0.407695837690318	11.3413729686714
26609.38	0.394396666580787	-0.0687320879175086	0.400340892889468	9.88573931267386
22703.13	0.395002468896883	-0.0611139497292401	0.399702220767087	8.79494799188175
19359.37	0.391776880756093	-0.0544280219892493	0.395539547798493	7.90925264343467
16500	0.38956001437933	-0.04810378012813	0.392518761928445	7.0393823892891
14112.02	0.38762258225131	-0.0428734451954865	0.389986408191496	6.31161139791393
12011.13	0.386770913764103	-0.0384125717068614	0.388673726149651	5.67179286583811
10236.38	0.384700492899903	-0.0344672973457748	0.386241457929817	5.11975375980751
8750.684	0.375264636486451	-0.0355334185326922	0.376943193637884	5.40915015846573
7449.463	0.363382755719771	-0.0230910493059217	0.364115673533211	3.63595464451691
6363.206	0.360789116800689	-0.0186346912889452	0.36127003545998	2.95668911416192
5414.761	0.38793112292448	-0.0461692308152644	0.39066885466789	6.78707469462529
4620.567	0.358438119547361	-0.0372463476544889	0.360368111738882	5.93247949529791
3941.215	0.370657928284825	-0.0440641606334984	0.373267933330381	6.77955748835317
3361.769	0.363244613040893	-0.0400064194159753	0.365441052014843	6.28501469706396
2867.244	0.399431533135439	-0.0196356115000547	0.399913874355352	2.81433144742592
2442.658	0.377278674964432	0.00555821873555705	0.377319615682024	-0.844043035614455
2083.003	0.374427440412046	-0.0408415089425548	0.376648293486405	6.22505466380351
1777.843	0.388282655382897	-0.0270819206932108	0.389225963804609	3.9898019196338
1513.548	0.354140873294749	-0.0432219115322564	0.356768681044833	6.9583776162135
1292.065	0.344186272008949	-0.0184076924054975	0.344678158546656	3.06136334671216
1101.762	0.39795190875773	-0.0236410685875359	0.398653510968963	3.39976597150351
939.101	0.37863918213886	0.00156409806686227	0.378642412644896	-0.236678380040892
801.2801	0.36658683331195	-0.0111107907509042	0.366755171781931	1.73603232544105
684.3433	0.333880397861917	-0.0140850078468934	0.334177359380433	2.41563532793737
582.9476	0.362160740698823	0.0118455775568698	0.362354411883139	-1.87336629822934
497.0677	0.390243867471164	-0.00436745218268995	0.390268306088798	0.641204516982241
423.5089	0.350395996742316	-0.0162310710584217	0.350771723775941	2.65216376492327
361.5036	0.369636781231505	-0.0140531883016782	0.36990382823192	2.17727457192263
308.1262	0.346061043444163	-0.0134326974389751	0.34632164695576	2.2228757098793
262.7298	0.313531730450084	-0.0177277487103685	0.31403251276478	3.23617907254233
224.2111	0.325932832507965	-0.0106561985660658	0.326106985320071	1.87258764858576
191.2854	0.316856847801418	0.0031028466646016	0.316872039877416	-0.561055685556791
163.1722	0.318715911429036	-0.0224957921736907	0.319508830650364	4.0373883563506
139.1537	0.322744723171156	-0.0130617771720437	0.323008926127001	2.31754839115774
118.6706	0.293069432835588	-0.000581433226494105	0.293070009600385	0.113671446102964
101.1982	0.321497841193853	-0.0117714372869659	0.321713270829956	2.09691151157758
86.24196	0.343285842727455	-0.0144141331430005	0.343588324963703	2.40436410219155
73.61024	0.308334893989471	-0.0103755964414784	0.308509416149678	1.9272993884428
62.69291	0.237196811214779	0.0251875132155425	0.238530371383694	-6.0614236470921
53.57697	0.307966401198936	-0.0296205686090909	0.309387592434069	5.4938757194629
45.65746	0.351090118235954	-0.0289591876089591	0.352282423163443	4.71528967419538
38.96512	0.317251131703678	-0.0188776795987545	0.317812283202361	3.40530704634022
33.18414	0.325241648696631	-0.0187256971581912	0.325780266101191	3.29515075360617
28.30617	0.31084438986251	-0.00110978011251014	0.310846370930873	0.204557162834488
24.17237	0.315945863163034	-0.0251838751963553	0.316947970524722	4.55738021402614
20.61345	0.250918527685495	-0.0317983148329208	0.252925365201021	7.22245959356725
17.55618	0.324992688834484	0.0548484267234736	0.329588527879701	-9.57943607539692
14.98558	0.092707896048657	-0.0285784260311392	0.0970127848491419	17.1326011787357
12.76553	0.0816002019912333	0.0766367295857075	0.111945438882533	-43.2033726094021
10.8809	0.253599050241686	-0.0438948789787496	0.257369848047599	9.81990073243538
9.278505	0.320883508658062	0.0503586599786274	0.324811053942983	-8.9191079460866
7.923394	0.276833626334673	-0.000677382783833945	0.276834455075666	0.140196469932766
6.75822	0.275180273721713	-0.0422888841579632	0.278410726748957	8.7366953728508
5.761429	0.265124365131018	-0.00104320745634686	0.265126417521759	0.225445427875793
4.919708	0.281221684014485	-0.00999108263565925	0.281399106772171	2.03471579700054
4.191257	0.317301865079408	-0.016629280973331	0.317737323222439	3.00003509023695
3.564097	0.301566567491476	-0.000362587229313303	0.301566785468973	0.068889294018657
3.051758	0.283897505454224	-0.0166447032255917	0.28438502026056	3.35536861787442
2.604164	0.274632816700593	0.0040235569887201	0.274662289038272	-0.839361970428236
2.214424	0.301035393143525	-0.0380703813392979	0.303433125845542	7.20763717540722
1.892567	0.302071853566483	0.00065444996516272	0.302072562510811	-0.124133254371596
1.607507	0.271832305801213	-0.0320437852876782	0.273714461899197	6.72304093144147
1.376413	0.283606641267329	0.000769187056138789	0.283607684345229	-0.155395034885304
1.17375	0.28352800125429	-0.0263565208630453	0.284750405947484	5.31090393941906
1.001604	0.30588943692903	-0.0173995445178397	0.306383896075149	3.25557942348546
