EC-Lab ASCII FILE
freq/Hz	Re(Z)/Ohm	-Im(Z)/Ohm	|Z|/Ohm	Phase(Z)/deg
6999984	-0.0723517441316908	-0.00260424213452425	0.0723985977488024	177.938574996742
5969734	-0.0446055114693661	0.010463972646346	0.0458164422122367	-166.7977544451
5091109	-0.0286400492201846	0.0143555216685575	0.0320364389673855	-153.378166150664
4341796	-0.0203041857407419	0.0144372611873293	0.0249137405699287	-144.585326643468
3702781	-0.0160741165977876	0.0139432894368035	0.0212789225459784	-139.060409216581
3157797	-0.0124222224452049	0.0128393154528084	0.0178650393723293	-134.054075890066
2693047	-0.0100897753405429	0.0112673033637868	0.0151246716167402	-131.844177674246
2296687	-0.0086527855114617	0.00977095640774436	0.0130515242875843	-131.526873647303
1958656	-0.00755201700703996	0.00890142342672647	0.0116734013850504	-130.311458276492
1670375	-0.00642238761774573	0.00774662638416669	0.010062667789828	-129.660635517003
1424531	-0.00568786994952116	0.00747081468960083	0.0093896185592931	-127.283662808123
1214875	-0.00503162851344251	0.00689565438347647	0.00853623657554346	-126.117521807693
1036062	-0.00423974922111488	0.00647104232277348	0.00773626926890926	-123.232335534533
883578.1	-0.00302657984180224	0.00614075251838273	0.00684609575092457	-116.237208405339
753531.2	-0.00330572604264518	0.00533212639650195	0.00627370676532586	-121.797420032407
642624.9	-0.00233601696105882	0.0060026288021942	0.00644115888480372	-111.264278518281
548046.8	-0.00242807078614944	0.00455295786575821	0.00515993731259614	-118.070787941317
467390.6	-0.00129622427731429	0.00414214374658214	0.00434022490136726	-107.376759878318
398593.7	-0.00128758166206105	0.0039572151367961	0.0041614202113418	-108.023629229021
339937.5	-0.00112958591579163	0.00335531526456693	0.0035403537769255	-108.606098123551
289906.2	-0.00103253219290591	0.00269108877663946	0.00288237428748279	-110.991092241563
247234.4	-0.000875892167534241	0.0023988047218922	0.0025537132146974	-110.059004500444
210843.7	-0.000305591037543573	0.00224487503570131	0.0022655793537508	-97.7519283568132
179812.5	-0.000244940892180316	0.00206211098603563	0.00207660727134211	-96.7739466963044
153343.8	-0.000341711813429914	0.00179333168324128	0.00182559729665514	-100.78814630477
130781.2	0.00030169054868265	0.00204112817377785	0.00206330351837875	-81.5922267029434
111531.3	-5.81382402528883E-06	0.00137160590736598	0.00137161822883449	-90.2428580853876
95109.37	-0.000595966798822329	0.00142250664136377	0.00154230398106941	-112.731508840052
81109.37	3.34859324786003E-05	0.000967126400117758	0.000967705937503069	-88.0169743470839
69171.88	-0.000251586622227171	0.000912292672625038	0.000946347583612392	-105.417473402089
59000	-0.00106589095679077	0.00619821520319837	0.00628919670839828	-99.7575671186686
50312.5	0.000113102951909731	0.00057207194839833	0.000583145429438451	-78.8164180728731
42906.25	6.31736922269033E-05	0.000437467439099112	0.000442005289178212	-81.7828497613834
36593.75	0.000543491354092027	0.00036439562470192	0.000654344728162982	-33.8407380341047
31203.13	0.000923895235879612	0.000621840140420452	0.00111367300726882	-33.9430568371592
26609.38	0.000552024555306098	9.63265313078567E-05	0.000560365871814745	-9.89826989965337
22703.13	0.000203433969084445	0.000249198542849147	0.0003216913016163	-50.7734170493854
19359.37	0.001030168103735	-0.000118746021710392	0.00103698936331334	6.57538397805831
16500	0.00253689713048794	0.00731605402673957	0.00774341614359258	-70.8756241028165
14112.02	0.000221189645294198	0.000122784361694376	0.000252983909887701	-29.035048797867
12011.13	0.000841378180164622	0.000101960843903461	0.000847533631041646	-6.90959025995811
10236.38	0.000214348627094714	-4.41672179649317E-05	0.000218851723959741	11.6430237886519
8750.684	1.9067291950641E-05	-3.55595399473671E-05	4.03490087065268E-05	61.7994569659286
7449.463	0.000102302863132763	-8.24512835575857E-05	0.000131392883998541	38.8671764496504
6363.206	0.000730170073658755	0.000390953780764949	0.000828247061667737	-28.1658603634976
5414.761	0.00108835088236353	0.000173271895204004	0.00110205752699624	-9.045909235727
4620.567	0.000409778739179132	0.000251686834876771	0.00048090007063165	-31.5583205501554
3941.215	-0.00026745892605502	-0.000889593715317429	0.000928930167159389	106.733557457504
3361.769	0.000756469672440162	-0.000531164486526593	0.000924327905598865	35.0750839304668
2867.244	3.17008953431773E-05	4.02838935239832E-05	5.12614752324852E-05	-51.7994755984837
2442.658	0.000589520202606667	0.000797948332228545	0.000992096573014806	-53.5431981634509
2083.003	0.000771828602523444	0.000364174507964969	0.000853429823667312	-25.2595032998067
1777.843	0.000564036259146576	-0.000408616334511356	0.000696494228591709	35.92146864459
1513.548	0.000432820445450934	1.01054495278947E-06	0.000432821625154574	-0.133773383866231
1292.065	0.000264342637940731	-0.000132512692627178	0.000295696878476539	26.624214283295
1101.762	0.000692401797714483	-1.90510754815758E-05	0.000692663838348193	1.57606594678729
939.101	0.00036408455526256	-0.000449437300369632	0.000578404227460587	50.9894221381497
801.2801	0.00408453098895092	0.00449327777061801	0.00607230915909511	-47.7281750161549
684.3433	0.000210023911068815	4.60837737473358E-05	0.000215020365136508	-12.3758024311565
582.9476	0.000387682096792438	0.000270882107428501	0.000472942411185851	-34.9428567305065
497.0677	0.000816561665671092	-6.22074634288805E-05	0.000818927788238868	4.35650350288445
423.5089	0.0011515750444986	0.000536707594413745	0.00127050388626455	-24.9885286401776
361.5036	0.000615217323231107	0.000300577894354559	0.000684718500829552	-26.0388347631657
308.1262	0.000992367407969063	0.00190281209954944	0.0021460398315481	-62.4567541485027
262.7298	0.0019848706961949	0.00220033490709035	0.0029633064951121	-47.9471193784082
224.2111	0.00213639169451663	-0.00385302721892037	0.00440567681771381	60.992904277723
191.2854	0.0020163217716098	0.00275453970059467	0.00341365529144638	-53.7958897398375
163.1722	0.00201330167894649	0.001678716800901	0.00262134960432142	-39.8217814321179
139.1537	0.00503115808464141	-0.00179021026900839	0.00534016895612075	19.586814327977
118.6706	0.00506419819979816	0.00493081519083594	0.00706817104016431	-44.2354357561933
101.1982	0.00722539754455996	-0.00786692714229968	0.0106815220048074	47.4340070249788
86.24196	0.00856848441730973	-0.00364608770340304	0.00931197512617954	23.0508713207144
73.61024	0.00791597382326095	-0.000478282677499461	0.00793040956635587	3.45760434204858
62.69291	0.0118256227772225	0.00524694803169583	0.0129373806358351	-23.9265341781687
53.57697	0.0161919362863974	-0.00381990873208236	0.0166364209920341	13.2741830651878
45.65746	-0.000941968442282681	0.023291432478812	0.0233104725705275	-92.31593397973
38.96512	0.0229168491793059	-0.000921985755635805	0.0229353882470005	2.30386902379899
33.18414	0.00504515941441617	-0.0191962812147227	0.0198481950310749	75.2745648707129
28.30617	0.00826462199741501	0.00671354076285531	0.0106477981918646	-39.087742282464
24.17237	0.0323055369191449	0.0432916902124821	0.0540168321644999	-53.2686138697124
20.61345	0.0442036555593565	-0.0325299015922024	0.0548831273016453	36.3497144894046
17.55618	0.0348474388289648	0.0250772236510244	0.0429326348944709	-35.7398811305792
14.98558	0.0565206569324481	-0.0139628063354299	0.0582197957814713	13.8764591106955
12.76553	0.0220122733184257	-0.0506642509507762	0.0552395374803981	66.5163320143431
10.8809	0.0866251872236619	-0.0134535082831177	0.0876636751833871	8.82791598341357
9.278505	0.0459298345768458	-0.0251538501634768	0.0523666485685599	28.7076779024631
7.923394	0.0396760341663735	0.0482040632273919	0.0624325187606718	-50.5427213227539
6.75822	0.116882088043824	0.0051304208972286	0.11699463117625	-2.51332692383835
5.761429	0.207471717720306	-0.096653848466219	0.228880929911483	24.9791722393831
4.919708	0.197912136375545	-0.101634412403785	0.222483184778973	27.1819944264328
4.191257	0.170743760390791	-0.0552497711092596	0.179460215423958	17.9306970098853
3.564097	0.329312474682202	0.115434196944634	0.348958106089496	-19.3171402825428
3.051758	0.420077671472552	-0.129620092531101	0.439620994104663	17.1482486561208
2.604164	0.281045379511777	0.0633319956152618	0.288092775010986	-12.6991626219945
2.214424	0.217150878118548	0.274459256441872	0.349974838115945	-51.6491200138854
1.892567	0.397569871948116	0.27232972473492	0.481897584612165	-34.4105903979859
1.607507	0.0854742482303343	-0.359391934849478	0.369416309798839	76.621875125963
1.376413	0.200963803448462	-0.429984443586735	0.474629404928799	64.949808106676
1.17375	0.411377580274202	0.0382014504886283	0.413147509216372	-5.30540010683903
1.001604	0.273213327906717	-0.258407547966529	0.376058484004732	43.404709978611
