EC-Lab ASCII FILE
freq/Hz	Re(Z)/Ohm	-Im(Z)/Ohm	|Z|/Ohm	Phase(Z)/deg
6999984	-8.31375904402642	31.3241000054622	32.4086073535153	-104.864225355111
5969734	-3.24206016145391	35.2359506747707	35.3847873251396	-95.256983637916
5091109	0.897943035229134	37.2606079936845	37.2714261835195	-88.6194967644435
4341796	5.16579726120242	38.8410803014	39.1830955939375	-82.4242187172529
3702781	9.16898474842663	40.433943059683	41.4605117270707	-77.2234235150709
3157797	13.7097390486477	42.3188934342003	44.48421839571	-72.0496146250396
2693047	19.0725020398354	44.4523381783474	48.3711763716957	-66.7780018393794
2296687	24.6569643645899	46.199202944775	52.3672821942209	-61.9107253697431
1958656	15.162213500609	37.2809192420264	40.2462378088753	-67.8683405235134
1670375	20.374154916334	38.5581388983098	43.6100477396681	-62.1479871927067
1424531	25.81154601619	39.0519313969126	46.8112086318551	-56.5371146373937
1214875	31.3062254400868	38.6749186514992	49.7577037654032	-51.0108335709538
1036062	36.6849675895766	38.2729514842547	53.0151455941073	-46.2136298396619
883578.1	41.6781995874933	36.8735600325537	55.6482861400894	-41.4998487633411
753531.2	46.2782205188259	35.0899844780486	58.0773682690493	-37.1708489534964
642624.9	50.3584649097965	32.9772653180683	60.1953072583692	-33.2188038066461
548046.8	53.8775636437467	30.8211572413843	62.0704083914719	-29.7721131646792
467390.6	56.8784377616327	28.5927496665626	63.6608358074149	-26.6886433873575
398593.7	59.1082554781376	26.6437109901721	64.8357401515291	-24.2640063195008
339937.5	62.1108127192538	24.6569718299	66.8260377133547	-21.6522641540662
289906.2	64.1926464755931	23.7723057586886	68.4530377896047	-20.3209795283459
247234.4	64.4830954742888	23.0409952780048	68.4759597621478	-19.6627426949878
210843.7	67.0341118066153	21.5577229621646	70.4152509405117	-17.8274442856247
179812.5	68.0115823675396	19.6891062904	70.8042106279795	-16.1455381371741
153343.8	69.3162693101042	19.0456235951349	71.8851929760118	-15.3636856595165
130781.2	70.5658723092769	18.6617149711771	72.9917936513045	-14.8132107282666
111531.3	71.8067238949879	18.46520840133	74.1428993082654	-14.4212388414617
95109.37	73.1088924875467	18.5448645823414	75.4242809918201	-14.2334863015753
81109.37	74.4004952233398	18.7997212498979	76.7389288989107	-14.1808200210469
69171.88	75.8279401552129	18.8059065920649	78.1251472378262	-13.928752968657
59000	77.420106291447	19.1599693371696	79.7557351115281	-13.9002998845508
50312.5	79.625269437965	19.2443174909331	81.9178081296146	-13.587040939641
42906.25	78.2925338176997	20.1197230701773	80.8364033589835	-14.4120944350515
36593.75	80.9157882923188	21.8907858747702	83.8246461440929	-15.138295522068
31203.13	82.9751069806561	23.1582237026906	86.1462228046894	-15.5943355495244
26609.38	84.9934674749329	24.555012677209	88.4694193548843	-16.11425464156
22703.13	87.15463221349	26.031607007581	90.9591912874441	-16.6299911416911
19359.37	89.4365357500157	27.7224175138527	93.6345361486679	-17.2217362229242
16500	91.9688221278182	29.4447405581931	96.5673702143616	-17.7529884201475
14112.02	94.6369886074348	31.4896104625173	99.7384338144771	-18.4044013261656
12011.13	97.6131690014877	33.5374596293671	103.21381671513	-18.9614480833256
10236.38	137.449785964074	119.151359885443	181.905168217178	-40.9210983649015
8750.684	104.358189430265	38.2575433331404	111.149769784063	-20.1328545658926
7449.463	107.903926758846	40.4287427671217	115.229079019614	-20.5396431412796
6363.206	111.733462177414	42.9146063056241	119.691394864118	-21.0107920657936
5414.761	116.076500045928	45.8259159636522	124.794905492252	-21.5436428152653
4620.567	122.91475327686	52.1878495658214	133.535044896148	-23.005384201359
3941.215	127.876893671828	53.1669631990414	138.48908228075	-22.5759179564407
3361.769	131.430620689946	55.5706243883725	142.695838586337	-22.9192915630626
2867.244	137.186990445996	62.6324155476566	150.808122543066	-24.5389630358061
2442.658	141.064902371219	58.2529360156239	152.619498215143	-22.4382419278487
2083.003	150.063721456048	66.1473682752021	163.995715879938	-23.787654938207
1777.843	167.418155374563	67.8942524537414	180.661197453337	-22.074373620895
1513.548	158.945874425546	78.7081680166325	177.366193817863	-26.3440837580996
1292.065	170.237546788988	92.5793964479019	193.782782990107	-28.5384433585153
1101.762	177.172180582319	63.7467675963016	188.291348583176	-19.7887934099166
939.101	198.225779766447	73.4807209651119	211.406897043518	-20.3393428256798
801.2801	188.726572636033	91.6770212730945	209.815145898601	-25.9089223126978
684.3433	222.363270802822	77.6731682647394	235.538840258697	-19.2546936124515
582.9476	235.439331011583	83.8116536414708	249.91212830373	-19.594703956816
497.0677	228.184338022599	77.9617560638026	241.13508149451	-18.8633118721756
423.5089	212.542466059033	102.056272049889	235.774855621154	-25.6488682286438
361.5036	236.914613482337	86.3826285450737	252.17155389901	-20.0326155996345
308.1262	234.347548967731	94.9755840198709	252.861889708786	-22.0615622845959
262.7298	-285.681696138428	86.3734577151405	298.453355997546	-163.177749799684
224.2111	-273.998841324421	134.332154200455	305.156505254698	-153.882884672395
191.2854	-303.569327682089	73.7300539859434	312.394714376101	-166.348498237938
163.1722	-294.541644936307	136.329386531603	324.56198519523	-155.162815090937
139.1537	-268.785880786948	72.6076076128389	278.420032313904	-164.883387860009
118.6706	-273.232450809543	104.360758316666	292.484427024447	-159.095711988274
101.1982	-248.391677192606	144.265701657759	287.247311516333	-149.85201199209
86.24196	-73.3776027833387	274.40724555308	284.048603239407	-104.970852800784
73.61024	-216.537184846794	194.263744510964	290.906780348612	-138.103512402933
62.69291	-285.569537905604	154.191465709738	324.538085711581	-151.633452368711
53.57697	-214.824392021827	120.193414144403	246.162499603891	-150.773156239322
45.65746	-223.37619347392	168.735041212258	279.943633511821	-142.933145545429
38.96512	-231.978024822118	170.092540324517	287.654786635681	-143.750126065506
33.18414	-216.890136303738	161.556924376207	270.447723302958	-143.318345071095
28.30617	-264.550289191212	186.173445639177	323.492515172016	-144.864586272815
24.17237	-227.802858486167	197.145278609498	301.264673024378	-139.12641395458
20.61345	-176.274109449974	229.647754918883	289.500696029672	-127.509293587846
17.55618	23.929560988655	286.783612358684	287.780235955505	-85.2302222231266
14.98558	-116.266922931338	239.356138133402	266.100278523075	-115.908101447816
12.76553	-114.738335820582	261.778266318444	285.819429751665	-113.668008356193
10.8809	-96.2405829532379	304.770547155883	319.60496901781	-107.525098651478
9.278505	-21.7165493952071	444.615301021632	445.145340782301	-92.7963017951677
7.923394	-140.031480132563	385.939937492888	410.558705644065	-109.942407589135
6.75822	149.015977621496	361.432576798016	390.946632108967	-67.5940083312047
5.761429	139.918605050883	341.537219366291	369.086559294487	-67.7224081730935
4.919708	-40.5897371582873	485.8531229277	487.545673574464	-94.7755844984471
4.191257	580.245831199744	349.012406083993	677.122503115367	-31.0265125838709
3.564097	179.166285808138	457.385982602592	491.225503258556	-68.6088311779404
3.051758	475.266913689672	-124.119183865044	491.206892308558	14.6362813611302
2.604164	228.97790395232	431.286409989152	488.30200484918	-62.035343690184
2.214424	212.070375630017	837.067589582378	863.513748442437	-75.7832940970096
1.892567	42.2718013821549	1342.22898784366	1342.89447128205	-88.1961382496213
1.607507	724.829308867987	316.669358738776	790.984835352784	-23.5999482349442
1.376413	694.1108175656	561.979868016201	893.090812357339	-38.9950147929
1.17375	351.320955265629	1231.67625504189	1280.80162821679	-74.0798332763061
1.001604	969.939246688836	504.588634685939	1093.33976078872	-27.4846708408666
