EC-Lab ASCII FILE
freq/Hz	Re(Z)/Ohm	-Im(Z)/Ohm	|Z|/Ohm	Phase(Z)/deg
6999984	17.251815479344	92.1758869161146	93.7764323596589	-79.3990588547417
5969734	18.0595308752508	93.4910440963692	95.2193361752926	-79.0669152209043
5091109	14.7805474116787	100.501390455898	101.582449593214	-81.6335942557519
4341796	14.2058986608918	110.036673367235	110.949885274799	-82.6437188485675
3702781	17.3291017317731	120.490914950414	121.730679585789	-81.8157948346035
3157797	17.4331747651177	133.669150330379	134.801177043958	-82.569406222539
2693047	18.1001634606462	151.706158056636	152.782113840616	-83.1961647546326
2296687	20.2669471747026	173.830411412838	175.007888621452	-83.3498893310663
1958656	22.9103950159682	199.732374951566	201.042054813367	-83.4564594809606
1670375	26.2461774364253	230.23502900356	231.72619707382	-83.4965092308402
1424531	31.4904417858715	266.151233570028	268.007699618344	-83.2522573227759
1214875	38.0899153666411	307.66530100155	310.014159504065	-82.9425163387282
1036062	44.9582955432536	355.705278750011	358.535205619723	-82.7964693967494
883578.1	54.278933534991	412.344770279269	415.901926182554	-82.5009950618004
753531.2	66.2007952939223	477.991635233501	482.554192449661	-82.1148215078822
642624.9	134.833438752979	625.96807365537	640.324984239853	-77.8442232860951
548046.8	167.775449823988	712.573710112633	732.058668350648	-76.7510198129855
467390.6	203.850411964855	808.19616936868	833.508271488921	-75.8436265528368
398593.7	247.390022033777	919.684647499231	952.376854951682	-74.944140110261
339937.5	297.355893551475	1043.73742108621	1085.26878311573	-74.0979960384118
289906.2	354.297607199619	1184.30656596378	1236.16699383711	-73.3449003124918
247234.4	424.40790170045	1343.46963698108	1408.91189664786	-72.4684467732802
210843.7	505.100666796127	1523.93389823238	1605.45981257073	-71.6624670428697
179812.5	603.585438450898	1727.23536188621	1829.66045398051	-70.7379423446466
153343.8	723.890555190441	1955.34091162396	2085.03611876734	-69.6848459171961
130781.2	870.861397417136	2209.95793677716	2375.35547988837	-68.4924634497494
111531.3	1051.30684013634	2486.39893839163	2699.52324549215	-67.0802370763109
95109.37	1263.9345739894	2789.0264628169	3062.05800363395	-65.6208562763332
81109.37	1530.16988830919	3093.71304762296	3451.44611838584	-63.6827119427441
69171.88	1840.74699334399	3456.27687052453	3915.89061379755	-61.9610883599351
59000	2201.07105536603	3815.09283531759	4404.50305174849	-60.0177301104103
50312.5	2633.36018776204	4165.9607055821	4928.46979081178	-57.7024649560662
42906.25	3901.02600854739	4489.32469449909	5947.43979641682	-49.0107926067568
36593.75	4383.51742235471	4691.87947239843	6420.97796099637	-46.9460360595997
31203.13	4960.01819531143	4902.72719651375	6974.13180698903	-44.6671823731361
26609.38	5603.40430293156	5068.80761065798	7555.85537023944	-42.1323139550743
22703.13	6272.53561278391	5184.91041441101	8138.0586763128	-39.5773118000915
19359.37	6985.49940931228	5251.73766637867	8739.44795247175	-36.9360508490517
16500	7696.62383120465	5221.48904832131	9300.64332617948	-34.1534755874209
14112.02	8375.15450824205	5137.15354019849	9825.14933894142	-31.524126428942
12011.13	9061.50910162911	4956.64040924554	10328.5638568715	-28.6786346718279
10236.38	9696.02162995663	4780.53346582515	10810.4734247146	-26.2451740539262
8750.684	10256.8366205167	4479.2757327372	11192.2566334882	-23.5914340821085
7449.463	10782.7681858783	4176.93634216739	11563.5153373405	-21.1749444740986
6363.206	11220.4067755192	3846.62852118196	11861.4535023364	-18.9229625082267
5414.761	11586.0520564154	3539.40847133139	12114.6198694346	-16.9873220002024
4620.567	11950.5627965186	3204.31495873812	12372.6951594358	-15.0097123336847
3941.215	12215.9098206789	2952.10478452972	12567.5524827153	-13.5856658409327
3361.769	12412.1245597311	2681.25819522704	12698.4243745337	-12.1896885505642
2867.244	12605.9122891113	2438.23417685469	12839.5486891848	-10.9469660112372
2442.658	12737.9373012365	2233.77920346851	12932.3167383142	-9.94649575726953
2083.003	12883.9491124948	2055.89879774782	13046.9484784733	-9.06628361492185
1777.843	12983.7868844903	1899.43895134812	13121.9888047415	-8.32293963067502
1513.548	13077.6245318411	1788.05335410432	13199.295367289	-7.78555678504387
1292.065	13158.6990972183	1690.90285379695	13266.8954315662	-7.32242354008373
1101.762	13235.6328759483	1585.28297002854	13330.2325456815	-6.83000069263649
939.101	13306.7821600007	1663.61543543417	13410.3716492396	-7.12615111778371
801.2801	13350.566013258	1609.90127748838	13447.2820673034	-6.87591180076032
684.3433	13457.249095073	1612.24859817356	13553.4829010537	-6.83177113222345
582.9476	13511.122781843	1687.18751971746	13616.0581870351	-7.11790625511178
497.0677	13575.74627401	1751.72123613069	13688.2947873505	-7.35242933981473
423.5089	13655.7683160274	1847.33973820768	13780.155021239	-7.70415094151169
361.5036	13742.6742965815	1982.42302667947	13884.923401972	-8.20846839278584
308.1262	13846.1565942763	2151.04480380122	14012.2462931958	-8.83049429349166
262.7298	13956.5183302125	2350.92514721198	14153.135799156	-9.56150822598728
224.2111	14053.5176233585	2581.75184552874	14288.6948382957	-10.4096576501194
191.2854	14178.036759444	2844.46937566491	14460.5578170844	-11.344363808362
163.1722	14320.3313202501	3156.22344630495	14664.0252169976	-12.4293625258453
139.1537	14460.3637045599	3527.57064109222	14884.4171231543	-13.7094018063692
118.6706	14646.0935226216	3946.09873872267	15168.3799638962	-15.0791376297207
101.1982	14809.214793267	4415.44183047925	15453.4452259509	-16.6022141477831
86.24196	15036.0111583664	4959.61018824507	15832.8571260485	-18.2550770655986
73.61024	15241.5410412377	5572.14471942756	16228.1659495452	-20.0818727812819
62.69291	15479.6276362922	6289.59119171673	16708.6154159219	-22.1126013649861
53.57697	15765.2609612148	7083.62443693963	17283.5525381448	-24.1952685728189
45.65746	16063.1493097753	8010.37226997031	17949.674917715	-26.5045176703142
38.96512	16409.3753563875	9033.4956918172	18731.5681137725	-28.8331442004408
33.18414	16791.1193829288	10245.7137801284	19670.1891448984	-31.3909767669315
28.30617	17231.5009800678	11680.3804361501	20817.2023374726	-34.1313995235746
24.17237	17666.6618132244	13184.2611244924	22043.948852727	-36.7332123304195
20.61345	18168.8756272628	14973.0957007532	23543.6113717258	-39.492170271735
17.55618	18780.6298215128	17041.7288061622	25360.0586985811	-42.2209104189353
14.98558	19467.6705815148	19414.1394947529	27493.6176264984	-44.9211172679381
12.76553	20219.0667856876	22137.9582279707	29981.6586630471	-47.5938851681321
10.8809	21071.3336115583	25226.8760523495	32869.3835587191	-50.1288968256428
9.278505	22068.7891875055	28742.381516559	36237.4937246769	-52.4824584790134
7.923394	23219.5051235704	32828.0262123725	40209.7590540372	-54.7279488330666
6.75822	24590.2749395798	37303.1285390393	44678.9102419051	-56.6070727841792
5.761429	26124.7558546627	42711.0095210029	50067.2867526186	-58.5474058165456
4.919708	27803.5283827004	48581.9138833822	55975.3387403774	-60.2174059020134
4.191257	29788.4012390363	55632.3907773092	63105.5603887411	-61.8331468842823
3.564097	32321.2702149049	63579.0023850656	71322.8858963592	-63.0528594385568
3.051758	34919.8252467928	72322.8927175994	80311.8609316703	-64.2272510312365
2.604164	38225.7565306439	82396.651851353	90831.8044445509	-65.1122989373751
2.214424	42035.0180707486	94112.3289409919	103073.14491615	-65.9322015422073
1.892567	46471.0365735109	107064.581582554	116714.959922299	-66.5369011991884
1.607507	51607.2848437119	122332.287515023	132772.363154379	-67.1269904323936
1.376413	57471.2895652206	138593.005174961	150036.562902901	-67.4773541241161
1.17375	64554.1031759624	157580.515932757	170290.490745922	-67.7231530182272
1.001604	72607.5827845653	178933.296095922	193103.561669816	-67.9136614851082
