EC-Lab ASCII FILE
freq/Hz	Re(Z)/Ohm	-Im(Z)/Ohm	|Z|/Ohm	Phase(Z)/deg
6999984	4.94652984353829	6.88866882122536	8.48067895993813	-54.3190976096171
5969734	4.27904184178339	3.81272364925909	5.73123553078675	-41.7017648199232
5091109	3.06609964332554	1.78411063752983	3.54739591668988	-30.1943887892685
4341796	2.15665531620404	0.841043211925246	2.31484682802916	-21.304576175247
3702781	1.45280142633841	0.374057894490314	1.50018375301209	-14.4385421668747
3157797	1.13132607623201	0.245630428550425	1.15768432579541	-12.2497803641175
2693047	0.961833881522852	0.19963471883083	0.982333159680553	-11.72561565482
2296687	0.831592570302446	0.194774687877596	0.854097993218602	-13.1821316658221
1958656	0.762008064106604	0.191481189305487	0.785697992629062	-14.1055161780329
1670375	0.721006428794091	0.180916881409792	0.743358048548244	-14.0859897763748
1424531	0.691630953523835	0.164099206998391	0.710831854667325	-13.3474242601394
1214875	0.675544834253882	0.14207356453052	0.690322910546588	-11.8767676507535
1036062	0.661746282178445	0.120502981846855	0.672628508621941	-10.3203908256381
883578.1	0.647936460456505	0.103020587606428	0.656075375440717	-9.03428965164174
753531.2	0.637934389000253	0.0881824856340477	0.644000338075785	-7.8701941105406
642624.9	0.628355540516523	0.0759379303589054	0.632927527103227	-6.89088318794709
548046.8	0.62091561624121	0.0632262039073511	0.624126393731859	-5.81423819511676
467390.6	0.614286205601468	0.0534064444595571	0.616603430660307	-4.96883839544344
398593.7	0.609853716302127	0.0451568807617356	0.611523261346324	-4.23476257649065
339937.5	0.605935726443465	0.0389182227296707	0.607184265804875	-3.674962757125
289906.2	0.603596692312967	0.0333031310669119	0.604514735560692	-3.15806257971198
247234.4	0.602339707318742	0.0292112264866318	0.603047609037364	-2.7764560723788
210843.7	0.601255566843256	0.025579509796758	0.601799441659302	-2.43609335897031
179812.5	0.601499772849802	0.0229835468577925	0.601938717947705	-2.18823009792333
153343.8	0.601248677388486	0.0200330597895391	0.601582326490676	-1.90833735021294
130781.2	0.601601798130395	0.0188625073808128	0.601897431211013	-1.79585255699948
111531.3	0.602231917312571	0.0169020033553688	0.602469053103477	-1.60761873256515
95109.37	0.602882562838596	0.0149046827013205	0.603066774197734	-1.4161986898321
81109.37	0.603403246362984	0.0131468272192984	0.603546449568981	-1.24815131443581
69171.88	0.603694077527462	0.0115852306155793	0.603805230856896	-1.09940344941072
59000	0.604217470636939	0.0101341725725454	0.6043024518208	-0.960897204973591
50312.5	0.604350471094502	0.00885294733103972	0.604415309690773	-0.8392485247848
42906.25	0.604750258210826	0.00789487646753144	0.604801788919724	-0.747940824637162
36593.75	0.604955664742931	0.00674881447237169	0.604993308063274	-0.639158484695829
31203.13	0.60524240205794	0.00602118877942659	0.605272351890604	-0.569982081526032
26609.38	0.60531995836129	0.00533569645504154	0.605343474109678	-0.505030382658632
22703.13	0.605651195069031	0.00469298765760385	0.605669376988551	-0.443956863219134
19359.37	0.605839614955623	0.00412560981045514	0.605853661956322	-0.390163288228789
16500	0.605890153712509	0.00359797313236044	0.605900836586672	-0.340237006468238
14112.02	0.606031435753556	0.00303937191542306	0.606039057242318	-0.287347673470168
12011.13	0.606176992076528	0.00276534224659447	0.606183299704543	-0.261378017631187
10236.38	0.606256279241158	0.00232231483665884	0.606260727134402	-0.219475150354751
8750.684	0.606271318029508	0.00195686994134748	0.606274476128761	-0.184933702125935
7449.463	0.606364746382118	0.00169510070235671	0.606367115715753	-0.160170695403499
6363.206	0.606377717519998	0.00146958898817328	0.606379498331331	-0.138859129143151
5414.761	0.606370494598091	0.00128942697095704	0.606371865558625	-0.121837412486507
4620.567	0.606328660365545	0.00112068096443568	0.606329696045394	-0.105900018457148
3941.215	0.606335634070744	0.000944563147894434	0.606336369801047	-0.0892565685368494
3361.769	0.606405078229952	0.000812074516412762	0.606405621979294	-0.0767282733885188
2867.244	0.606285818784104	0.000739408968887872	0.606286269665028	-0.0698762711165493
2442.658	0.606441938265282	0.000585190878275758	0.606442220607468	-0.0552879921594951
2083.003	0.606394451131001	0.000529215913640648	0.606394682061074	-0.0500034763642886
1777.843	0.606415478046744	0.000418604608001007	0.606415622526727	-0.039550892716158
1513.548	0.606447200268732	0.000360704467007795	0.60644730753916	-0.0340785498965517
1292.065	0.606483462483229	0.000381482939432667	0.606483582461125	-0.0360394979503869
1101.762	0.606373519032031	0.00030507315263647	0.606373595774847	-0.0288261311970284
939.101	0.606362473701134	7.10479764586799E-05	0.606362477863508	-0.00671339232217147
801.2801	0.606335574539329	0.000123755639091383	0.606335587168852	-0.0116943092408941
684.3433	0.606459119069546	0.000208261829721642	0.606459154828748	-0.0196757259186255
582.9476	0.606522470474987	0.00022367694528459	0.606522511719439	-0.0211298756139336
497.0677	0.606418763491091	0.000150402953893079	0.606418782142433	-0.0142104018320095
423.5089	0.606483947348301	0.000103911079058172	0.60648395625003	-0.00981669216878264
361.5036	0.60652395176911	6.96100264214302E-05	0.60652395576364	-0.00657576785978104
308.1262	0.606520768439053	9.6260184142256E-05	0.606520776077722	-0.00909334441158588
262.7298	0.606554479680148	8.31312640776285E-05	0.606554485376921	-0.00785266733158755
224.2111	0.606460013943199	0.000132930033231055	0.606460028511673	-0.0125586676410505
191.2854	0.606487119173206	9.19641898309759E-05	0.606487126145664	-0.00868799968984263
163.1722	0.606500622270858	0.000102877305138998	0.606500630996109	-0.00971876222243888
139.1537	0.606491797006284	4.19119977886695E-05	0.606491798454461	-0.00395946093959265
118.6706	0.606508370746153	9.05521249810835E-05	0.606508377505901	-0.00855429998834885
101.1982	0.606521925724627	5.49503225556079E-05	0.606521928213851	-0.00519094433881031
86.24196	0.606485655189062	3.33152517095191E-05	0.606485656104093	-0.00314735113373201
73.61024	0.606565004125684	1.10703814976268E-05	0.606565004226706	-0.00104570183414649
62.69291	0.606541644003524	5.83432287858066E-05	0.606541646809541	-0.0055112798854478
53.57697	0.606524339272257	3.59709146173874E-05	0.606524340338913	-0.00339801959614395
45.65746	0.60652652310733	0.000103676127015887	0.606526531968228	-0.00979380823444512
38.96512	0.606483712104233	7.17996056152038E-05	0.606483716354292	-0.00678305826048142
33.18414	0.60654429144424	3.47862795578903E-05	0.606544292441764	-0.0032860040553647
28.30617	0.606445070976225	5.89267516195351E-05	0.606445073839108	-0.00556728765583743
24.17237	0.606481987916852	-1.65418508079131E-05	0.606481988142442	0.00156274754283948
20.61345	0.606524922948887	1.99358555690879E-05	0.606524923276523	-0.00188325383089991
17.55618	0.60666540037838	7.10618126648659E-05	0.606665404540296	-0.00671134686284285
14.98558	0.606525811589267	2.80609955415541E-05	0.606525812238389	-0.00265079668762409
12.76553	0.606578225718291	4.57540076134553E-05	0.606578227443897	-0.00432180288698015
10.8809	0.606592111281143	5.11097104981368E-05	0.606592113434322	-0.00482757794288511
9.278505	0.606496607703293	-2.91147665707379E-05	0.606496608402117	0.002750474155243
7.923394	0.606507875181162	-6.73849053843043E-05	0.606507878924498	0.00636573872081994
6.75822	0.60657466933197	-2.69713851498483E-05	0.606574669931613	0.00254766084675377
5.761429	0.606539599171435	-1.65578820641222E-05	0.606539599397441	0.00156411347422307
4.919708	0.606478324250569	-3.84335382132261E-05	0.606478325468368	0.00363092865873802
4.191257	0.606520420815173	-3.58622242448722E-05	0.6065204218754	0.00338777396485142
3.564097	0.60652181467794	1.02769723462862E-05	0.606521814765007	-0.000970825990605413
3.051758	0.606567623773813	-1.82217402836883E-05	0.60656762404751	0.00172120761544983
2.604164	0.606600745153295	8.09899345287433E-07	0.606600745153836	-7.64981162422148E-05
2.214424	0.606613533818974	-1.61404756710326E-05	0.606613534033703	0.00152449802635213
1.892567	0.606604095917036	-9.36451139113627E-07	0.606604095917759	8.8450932581116E-05
1.607507	0.606603130014592	6.50814792567547E-06	0.606603130049505	-0.000614717251071138
1.376413	0.606620775731576	-1.96117827730933E-05	0.606620776048596	0.00185234734151497
1.17375	0.606692782558996	2.31434974425346E-06	0.60669278256341	-0.000218566095516996
1.001604	0.606684860522091	-2.58335878050268E-05	0.606684861072109	0.00243974367308309
