EC-Lab ASCII FILE
freq/Hz	Re(Z)/Ohm	-Im(Z)/Ohm	|Z|/Ohm	Phase(Z)/deg
6999984	11.6077719635608	0.734302330357557	11.6309745881589	-3.6196814972196
5969734	7.24717603608562	-0.439848559550372	7.26051150080711	3.473158427313
5091109	4.48877017011826	-0.371640235411778	4.5041285621883	4.7329138559736
4341796	2.46381139366339	1.36074139117337	2.81460187543425	-28.911484719769
3702781	1.89904537053139	0.76188723220538	2.04617826054679	-21.8604025323034
3157797	1.60553686356686	0.581340018134584	1.70754350953551	-19.9045366141109
2693047	1.44116687929064	0.47076650258763	1.51610787014741	-18.0899620881978
2296687	1.32254313989579	0.405012880231823	1.38316874966112	-17.0265753387468
1958656	1.25762371431367	0.360021359705621	1.30814096574046	-15.9748883874723
1670375	1.22068020556433	0.312139981062864	1.25995695642133	-14.3437348405144
1424531	1.19643875782796	0.27183812691355	1.22693181085046	-12.8006334475122
1214875	1.17463797201114	0.225242275793419	1.19603864824471	-10.8549661780731
1036062	1.16165388312906	0.18398393159523	1.17613342409527	-8.99980905153077
883578.1	1.14438568427175	0.152310434905791	1.15447696510035	-7.581148362053
753531.2	1.1290441870459	0.128426754505269	1.13632486885349	-6.48940020174302
642624.9	1.11358014657275	0.110713856373556	1.11907028413504	-5.67777626409266
548046.8	1.1011564931762	0.0919602869693481	1.10498973608065	-4.77383392874405
467390.6	1.09069564094879	0.0780652484791868	1.0934857860095	-4.09389631889537
398593.7	1.08227317232892	0.0649500487980375	1.08422033202748	-3.4343508499332
339937.5	1.0747399895399	0.0555687871804401	1.07617560612798	-2.95980829639861
289906.2	1.06814622851218	0.047520957830521	1.06920279036202	-2.5473629087003
247234.4	1.06324054177178	0.041179548705895	1.06403768960445	-2.21797004523739
210843.7	1.05723150403543	0.0358690299762418	1.05783979904163	-1.94314682809832
179812.5	1.05301087725754	0.0320990744153646	1.05350000389227	-1.74601439614782
153343.8	1.04808942220967	0.0277670495133358	1.04845717413086	-1.5175829987227
130781.2	1.04246231187542	0.0256712453142369	1.04277834869958	-1.41065704203759
111531.3	1.03737718492516	0.022677834332126	1.03762503245307	-1.25232874972011
95109.37	1.03413145373658	0.0200808783902571	1.03432640171479	-1.11243594741877
81109.37	1.03034637084597	0.0181058733448202	1.03050544227822	-1.00673268266847
69171.88	1.02623112907405	0.0155694798114728	1.02634922856803	-0.869197028736288
59000	1.02157732951686	0.0137736992209897	1.02167017915423	-0.772459407564195
50312.5	1.01610530230205	0.0120440232233617	1.01617667945183	-0.679102237383374
42906.25	1.01134059616018	0.0108609310987702	1.01139891302392	-0.615283906330523
36593.75	1.00735785771744	0.0094441971655899	1.00740212743729	-0.537144552484155
31203.13	1.00447187235958	0.00859195367000007	1.00450861819569	-0.490079106290473
26609.38	1.00213368573459	0.00780663000132321	1.00216409213061	-0.446325585335764
22703.13	0.998858750225146	0.00699033341628094	0.998883210221601	-0.40096766796313
19359.37	0.995727582869348	0.00622045883945334	0.995747012747218	-0.357930630731232
16500	0.991490180209628	0.00582181367842567	0.991507272271176	-0.336424430707879
14112.02	0.986980979634903	0.0051332929070931	0.986994328685399	-0.297992942824802
12011.13	0.981761727375819	0.0048262754623789	0.981773590129002	-0.281659978733684
10236.38	0.976048565889804	0.00431548435125779	0.976058106047345	-0.253324923933285
8750.684	0.968995708897054	0.00391986677716841	0.969003637359765	-0.231776668807768
7449.463	0.962255433106945	0.00355908538146018	0.96226201506273	-0.21191840999477
6363.206	0.957191038043478	0.00336559519284599	0.957196954937568	-0.201457804937508
5414.761	0.951444808665184	0.00322400590829409	0.951450270981109	-0.194148123978788
4620.567	0.944396053399281	0.00298728483904842	0.944400778031682	-0.181235660628822
3941.215	0.936423661020645	0.00277924803669374	0.936427785330485	-0.170049862890262
3361.769	0.92941851283009	0.00274811917333776	0.929422575662055	-0.169412561934738
2867.244	0.921486376126678	0.00246046938462226	0.921489660981972	-0.15298563276522
2442.658	0.91439726829218	0.00221225409054223	0.914399944405271	-0.138618716052314
2083.003	0.906734808869821	0.00210790108823211	0.906737259002402	-0.133196186183417
1777.843	0.898553533110898	0.00192187685062072	0.898555588417716	-0.122547249898895
1513.548	0.893849682289018	0.00174596238032736	0.893851387487211	-0.111916075306022
1292.065	0.891232944295161	0.0015064043537281	0.891234217392431	-0.0968439621388694
1101.762	0.887575983421381	0.00148346215212963	0.887577223122804	-0.0957619886385443
939.101	0.881669127716558	0.00118334703703513	0.881669921840757	-0.0769004472059557
801.2801	0.876537975966947	0.00120779646608783	0.876538808088117	-0.0789487713235483
684.3433	0.871522957261226	0.00108124156729806	0.871523627973837	-0.0710830921204334
582.9476	0.865440592262209	0.000873352746621397	0.865441032930716	-0.0578195775293909
497.0677	0.85910799682109	0.000832326338631128	0.859108400010779	-0.0555096351529635
423.5089	0.852551033658938	0.000672661796822136	0.852551299023594	-0.0452062955513086
361.5036	0.847643859693459	0.000578762078020437	0.847644057279686	-0.0391209337275359
308.1262	0.842682057860758	0.000540059078131302	0.842682230917592	-0.0367197821997017
262.7298	0.83832898300309	0.000437122795425984	0.838329096965705	-0.0298752512973807
224.2111	0.831979063607763	0.000461318294404076	0.831979191504342	-0.0317695357117524
191.2854	0.826854997292564	0.000365034758733212	0.826855077869188	-0.0252945797760246
163.1722	0.824537717298016	0.00030618805515796	0.824537774148734	-0.0212765069728635
139.1537	0.822579778471805	0.000199319968086318	0.822579802620496	-0.0138833861704386
118.6706	0.820246800028153	0.00025434804168189	0.82024683946319	-0.0177666878410291
101.1982	0.816743370625204	0.000145687253675123	0.816743383618744	-0.0102201805072697
86.24196	0.812586192105035	0.000230811863730131	0.812586224885629	-0.016274636987573
73.61024	0.807615057502598	0.000105635565554727	0.807615064411133	-0.00749425358284346
62.69291	0.802146580285054	0.000134331638752511	0.802146591532992	-0.00959504917531423
53.57697	0.797315383036712	0.000129483062565004	0.79731539355066	-0.00930476583798915
45.65746	0.794029860749744	8.07507726389956E-05	0.794029864855816	-0.00582683180745374
38.96512	0.792136545910062	0.000133169957456593	0.792136557103989	-0.00963227424326388
33.18414	0.790160255808534	4.67958031133052E-05	0.790160257194232	-0.00339323826334359
28.30617	0.787827259529	-3.55755059125569E-05	0.787827260332232	0.00258727572166691
24.17237	0.785165079803056	-1.79440920720859E-05	0.785165080008102	0.00130943258837183
20.61345	0.781820837063284	0.000158673511979775	0.781820853164981	-0.0116283961761422
17.55618	0.77864517543472	0.000132568002030987	0.778645186719882	-0.00975487575226598
14.98558	0.776065455509825	-2.94195161236079E-06	0.776065455515401	0.000217199992246066
12.76553	0.773935959877231	7.93485585003992E-05	0.773935963944876	-0.00587430709035828
10.8809	0.772554967548154	-2.89733143747342E-05	0.77255496809145	0.00214877737006621
9.278505	0.770829154072671	4.51478567285315E-05	0.770829155394837	-0.00335584302692878
7.923394	0.768583936016216	-4.44918099953225E-05	0.768583937303987	0.0033167398033267
6.75822	0.767044271081047	-2.4843919631815E-05	0.767044271483383	0.00185576216997395
5.761429	0.766297610556429	9.1605592324873E-05	0.766297616031837	-0.00684931509991035
4.919708	0.764260906537635	5.63770127591578E-05	0.764260908617008	-0.00422652115156548
4.191257	0.761436707928912	5.10628518199419E-05	0.761436709641079	-0.00384232315612492
3.564097	0.759208252560665	-3.5097711647601E-05	0.759208253371938	0.00264874721759091
3.051758	0.757507923902947	4.21168497562214E-05	0.757507925073779	-0.00318560065021936
2.604164	0.75567496566224	2.53314717221799E-05	0.755674966086816	-0.00192064906731472
2.214424	0.753872793604747	-2.6259613336615E-05	0.753872794062097	0.00199578102299022
1.892567	0.751962233862258	-8.28153303317367E-06	0.751962233907862	0.000631011597806864
1.607507	0.746308423698093	-0.000127596352442908	0.746308434605667	0.00979585942335168
1.376413	0.737674225669403	-8.83949127456727E-05	0.737674230965549	0.00686570742242904
1.17375	0.733094419439457	6.43202674982063E-06	0.733094419467674	-0.000502701939475
1.001604	0.727584171957854	-0.000146078749610362	0.727584186622137	0.0115034054331344
