EC-Lab ASCII FILE
freq/Hz	Re(Z)/Ohm	-Im(Z)/Ohm	|Z|/Ohm	Phase(Z)/deg
6999984	-6.94004553860026	29.2362155341758	30.0486360894904	-103.353622128248
5969734	-0.898555488789863	32.0786700306692	32.0912522800683	-91.604492285516
5091109	3.96647234263947	32.7182864847425	32.9578393306146	-83.0877038440144
4341796	8.54627853616252	32.4045370793157	33.5125782377664	-75.2254050918907
3702781	12.6490418762784	31.9257051417903	34.3401937849567	-68.3864089618706
3157797	16.7710017927086	31.3621179413497	35.5647148575405	-61.8642011967784
2693047	21.0237659217387	30.4927854249957	37.0379359104539	-55.4150226322536
2296687	24.8563644689737	29.3060637774177	38.4276492741949	-49.6965715213268
1958656	28.4472141942936	27.8399331751472	39.80333999318	-44.3818608503169
1670375	31.8021777925816	26.1319184267758	41.1613371140277	-39.4100195830692
1424531	34.5461942664456	24.3076480993283	42.2409906893266	-35.1312681718574
1214875	36.7357285931345	22.4604660780229	43.0579410992961	-31.4418897966069
1036062	39.047199846358	20.4374193772622	44.0723487761149	-27.6276925656871
883578.1	40.833656539965	19.0027463324993	45.038781895175	-24.9558413979654
753531.2	42.1471362763262	17.1473970531367	45.501805700358	-22.1387568883338
642624.9	43.7684474129498	15.6604085207394	46.4857546349051	-19.6872767477753
548046.8	44.6065521466144	14.3906818443058	46.8704194386253	-17.8804085042066
467390.6	45.47678327679	13.2279678858057	47.3615556289279	-16.2182865884219
398593.7	46.1264843350957	12.1058636148994	47.6886201412704	-14.7055863360293
339937.5	46.4895148504372	11.7973453604118	47.963031061244	-14.2390153442983
289906.2	48.2114326661847	11.0078671101285	49.4521524105908	-12.8615732386023
247234.4	47.8266316844518	10.8781542734143	49.0481491870633	-12.8139088796253
210843.7	48.7517455438384	10.371639352134	49.8427888106384	-12.0102725465969
179812.5	49.3403387403513	10.2262331413115	50.388936000605	-11.7092863576588
153343.8	49.9789211486361	10.2620537810582	51.0215866764932	-11.6031401965328
130781.2	50.5979694242525	10.4014009844543	51.6560127409869	-11.6164385469578
111531.3	51.2410446596926	10.6705187236832	52.3402772981677	-11.7632532523821
95109.37	52.0407619790037	10.6911719687461	53.1276017284859	-11.6092307378951
81109.37	52.6330083509789	11.1711039875177	53.805456343889	-11.9829310006133
69171.88	30.5250104007748	11.7735233138238	32.716847512995	-21.0916707881543
59000	31.5628256000855	12.5282679174483	33.9583488537469	-21.6496686552543
50312.5	33.0720646731542	12.9514900954772	35.5176372727486	-21.3860163962469
42906.25	32.1027781861758	13.9184063058896	34.9901472041292	-23.4395143227296
36593.75	33.9425383667258	15.9177625349006	37.489612893362	-25.1247951925935
31203.13	35.4985356620977	17.4732805891377	39.5659142280316	-26.2075822929877
26609.38	36.9450169939864	17.6968441767083	40.964772359927	-25.5946492324906
22703.13	38.5321428364673	19.3048354718771	43.0975951088476	-26.6111451159881
19359.37	40.2795989986368	20.8613841869896	45.3612548954299	-27.3802893897496
16500	42.2221398569349	22.6880629408639	47.9317983608708	-28.251357125687
14112.02	44.3844999288925	24.6412544275023	50.7658867124249	-29.0380281784016
12011.13	47.0376837005858	28.9760299651176	55.2463030478578	-31.63379055093
10236.38	46.2348937556037	2.12291291014304	46.2836057348173	-2.62893605590867
8750.684	52.0604506455261	29.5022283086689	59.8387165353008	-29.5398704520008
7449.463	55.2366108346714	31.8591833539303	63.7659057842064	-29.9753412946121
6363.206	59.0702572959515	35.0817672226992	68.7024431041398	-30.7060343707424
5414.761	62.9612080859965	37.2329153285698	73.1464538273224	-30.5984901925963
4620.567	67.6370593938766	40.1423587675971	78.6522775949766	-30.6889831467593
3941.215	70.8199655759655	39.2381446388127	80.9635690843562	-28.9888569404235
3361.769	75.3520006452822	40.7388859647606	85.659680310496	-28.3977707606548
2867.244	82.7681096540892	46.938347036168	95.15129215202	-29.5578613267679
2442.658	85.2372809970539	42.6766060051139	95.3241143252139	-26.596213835847
2083.003	92.2194864932757	46.5618361995238	103.307493819929	-26.7893178015399
1777.843	96.7505691145686	46.2583230868695	107.240407863837	-25.5533676233514
1513.548	102.069611357836	45.8999534978739	111.915196885171	-24.2130990194034
1292.065	106.880636316531	45.9646438948997	116.345257349887	-23.2704058294967
1101.762	117.091536236248	50.6081609751154	127.56023602772	-23.3744950721381
939.101	123.584715192251	51.7579478721422	133.985323812294	-22.7241994338206
801.2801	126.262437968821	48.3697556363073	135.210341698209	-20.9612885122943
684.3433	128.563352371471	45.6275841415482	136.419983901131	-19.5399521099133
582.9476	135.940689611264	47.8501839949366	144.11631136112	-19.3917164691571
497.0677	137.896485713928	45.3607004840301	145.165539714677	-18.2084898672765
423.5089	137.490986548613	42.5126732960828	143.913511432702	-17.1817838758698
361.5036	142.191597320551	43.7151311945719	148.759749407991	-17.0894288088726
308.1262	156.82748747762	48.6009526908227	164.185606649909	-17.2182469099519
262.7298	149.864949323504	46.362553067322	156.872525837562	-17.1900917638992
224.2111	151.183699390223	45.6385150806034	157.922085282825	-16.7977302657936
191.2854	164.209322225546	51.2112918978586	172.009586720104	-17.3209209468393
163.1722	174.101277367009	54.5347404227299	182.442573687719	-17.3924203500937
139.1537	159.309554763179	49.4268659959371	166.800927218714	-17.2368565791377
118.6706	173.236779573766	55.5218654641149	181.916627447039	-17.7704980103667
101.1982	172.415126315381	60.0353419755626	182.568392851751	-19.1982343513193
86.24196	193.456651911178	68.5362904320748	205.238152581026	-19.5078149071844
73.61024	180.807707507909	60.6546322634955	190.710281603498	-18.5447931747065
62.69291	182.203761379622	68.3511075449958	194.602375534087	-20.5628536615604
53.57697	-248.627144721159	190.892180740915	313.456985502347	-142.48348826781
45.65746	-337.363215370549	142.664568011774	366.288299091223	-157.077410859146
38.96512	147.777993248529	90.3245241164422	173.196001528396	-31.4340116269238
33.18414	-371.31727124984	117.688536947931	389.521639523881	-162.414054354554
28.30617	-279.879618299947	306.736325908061	415.23460160649	-132.378690001324
24.17237	17.9307461105471	351.434890922136	351.892020673295	-87.0792143237933
20.61345	-313.329113568564	341.846240479271	463.717570876362	-132.507720096787
17.55618	-332.62435198087	266.057322937299	425.940674999766	-141.344620058429
14.98558	162.465452570223	137.16412783716	212.624131377829	-40.1732795802748
12.76553	198.846867698837	158.760618545885	254.450409303485	-38.6040914188602
10.8809	189.716329362098	112.26316779656	220.44342691572	-30.6145960362175
9.278505	226.887893873071	165.653046153811	280.92534254886	-36.1335432428797
7.923394	-323.009320235746	208.681658454759	384.555659865497	-147.135332606477
6.75822	-206.102160769303	389.333794210275	440.521173143749	-117.895462856007
5.761429	-520.522099437677	278.013951856817	590.114407068706	-151.893059545685
4.919708	-345.804740170517	371.082985062203	507.231209732873	-132.980524869329
4.191257	-321.966373685793	263.009202423606	415.73571694513	-140.755161078798
3.564097	8.1827830495313	367.501171550766	367.592259207972	-88.7244626325114
3.051758	317.474568101911	-304.494391618376	439.894232649781	43.804439713962
2.604164	-66.3271214266102	359.624771715767	365.69011945684	-100.449872022525
2.214424	318.866821028804	189.957849137719	371.160388514243	-30.7834352392866
1.892567	325.663044987225	168.881893826362	366.848078818371	-27.4102894599027
1.607507	996.951292564881	-503.952592304574	1117.08553613288	26.8163098432685
1.376413	487.992255874883	-299.059683394634	572.340052788511	31.5015060551902
1.17375	461.647765564978	395.158907562789	607.675260050427	-40.5626960753134
1.001604	-116.947473261806	585.007758262261	596.58259170827	-101.304839644419
