EC-Lab ASCII FILE
freq/Hz	Re(Z)/Ohm	-Im(Z)/Ohm	|Z|/Ohm	Phase(Z)/deg
6999984	-12.5864870181374	33.0843013455168	35.3976079838555	-110.828658706643
5969734	-9.26477752489587	38.2250960709713	39.3318455226907	-103.624287390668
5091109	-6.74797688129223	41.8810013967359	42.4211441380811	-99.1529820532466
4341796	-4.22998594653626	45.6921407494037	45.8875201702076	-95.2891265702228
3702781	-2.14823094604599	50.0099563917958	50.0560749011233	-92.4596890905283
3157797	-10.7141314651985	47.6619294981114	48.8513268656697	-102.669166746185
2693047	-8.77812569264966	54.9251034403486	55.6221401836441	-99.0802164132649
2296687	-6.98494892541076	63.1380887362586	63.5232851854992	-96.3129448543421
1958656	-4.67115167793844	72.9137148544935	73.063188213222	-93.6655933619401
1670375	-1.54783746948507	84.3474480601943	84.3616488405669	-91.0513015343172
1424531	2.63838116454459	97.1528949527633	97.1887136084849	-88.4444008622515
1214875	8.58211048206802	111.061375461401	111.392467158712	-85.5813307599827
1036062	14.6355823202236	127.836608299218	128.671670119338	-83.4688353693354
883578.1	22.9993143843668	145.865463540458	147.667538464022	-81.0396662053193
753531.2	33.3899257804619	165.874825407949	169.202082870579	-78.6186903377735
642624.9	46.1592586637603	187.786677778728	193.376610559705	-76.1900941315525
548046.8	61.5270577909061	211.662970506472	220.424118290239	-73.7916928011348
467390.6	80.2683473587717	236.703124765552	249.942747167196	-71.2676991220245
398593.7	102.337535462341	263.786737245415	282.942421547367	-68.7959591938301
339937.5	128.537249617059	292.381147788845	319.38778956222	-66.2686423595081
289906.2	158.363599019846	320.972298374372	357.91374075082	-63.738861806667
247234.4	193.061137712004	350.810767585199	400.425770334989	-61.1747610818975
210843.7	232.451366215887	379.51387184448	445.044286086251	-58.5126272783812
179812.5	277.247599390794	408.268332538022	493.507105036326	-55.8202871399055
153343.8	325.245580537899	434.630200453781	542.851820302676	-53.1914937504878
130781.2	133.768860987649	348.639032059394	373.421053028942	-69.0087557189417
111531.3	179.145420972589	380.020230778551	420.129096417314	-64.7603309638262
95109.37	229.207807508428	408.139478746843	468.09620072648	-60.6817881949669
81109.37	281.871631368391	431.365999165888	515.29432541671	-56.8378086178563
69171.88	342.148072102307	451.943411647925	566.849319109842	-52.8721098867481
59000	402.326898857305	462.039414567561	612.655983532414	-48.9518524383717
50312.5	473.267476727944	472.209522131543	668.553615890405	-44.9358881198966
42906.25	502.889040135101	461.154369289771	682.320114757765	-42.5211403035839
36593.75	564.753049568368	469.397584073817	734.356928837134	-39.7318499765942
31203.13	626.332312691041	465.532096094353	780.392400280084	-36.6222017576129
26609.38	683.32577114321	464.238486354465	826.106216972822	-34.1914397709263
22703.13	729.333427914726	455.053505118909	859.65163967438	-31.9613046857827
19359.37	775.627740895371	449.282574371146	896.355523260732	-30.0815791289852
16500	818.095485998679	440.916403515284	929.347889167596	-28.3226559937131
14112.02	855.108532759264	434.718340291423	959.265676537752	-26.9477807389392
12011.13	890.094452714693	430.636351610736	988.795126445349	-25.8181486092152
10236.38	922.371760204946	430.509056720862	1017.89376260112	-25.0204080118986
8750.684	950.613598044637	433.827764178013	1044.92714662749	-24.5303457505674
7449.463	978.079966957626	442.635057838473	1073.57636719122	-24.3493713013973
6363.206	1003.5843868282	455.632219407848	1102.17164763382	-24.4182809354177
5414.761	1031.51586792754	474.261434473262	1135.31885125498	-24.6916161811628
4620.567	1052.93850743468	503.861037641677	1167.28550307631	-25.5724413883513
3941.215	1077.69253488086	539.437634192996	1205.16146674281	-26.5901977789981
3361.769	1102.96144391903	582.458730602481	1247.30995331032	-27.8379165102986
2867.244	1128.97870712117	634.660067495215	1295.13949920695	-29.3426984859625
2442.658	1156.12103907133	697.62022961137	1350.29250229215	-31.1073913062315
2083.003	1040.06917170295	740.115028101816	1276.52424056459	-35.435720755456
1777.843	1284.86495591814	775.522127460327	1500.77064374511	-31.1144501462676
1513.548	1252.79844608967	960.713303913575	1578.75710571361	-37.4829333349262
1292.065	1291.74880406661	1077.29925093109	1682.01921774521	-39.8276026833164
1101.762	1335.80191492607	1213.83102720398	1804.92451878831	-42.2611377857315
939.101	1387.07623858235	1374.58086068747	1952.80645078002	-44.7407616131868
801.2801	1437.82713257843	1553.48217395585	2116.75547193749	-47.2141631189871
684.3433	1498.41918747365	1758.16403312683	2310.06511353468	-49.5602534027093
582.9476	1569.05785470075	1998.52582886164	2540.87544756237	-51.864271395535
497.0677	1647.22280994964	2269.07052745612	2803.93010686579	-54.0223742266748
423.5089	2209.50597418023	6344.89592240885	6718.60260144464	-70.8001655611978
361.5036	2850.05401145341	7496.77080010696	8020.24814438668	-69.1846537620469
308.1262	4082.25349774733	7617.14751408717	8642.090596102	-61.8118328543035
262.7298	5163.13211746613	7844.97890186732	9391.57213852684	-56.6492940441024
224.2111	5247.96489781614	7207.62155629529	8915.76940412228	-53.9411402704811
191.2854	7468.7304635339	7963.82434980449	10918.0782654943	-46.8374834757342
163.1722	8281.75605541942	7901.61542124301	11446.5282783341	-43.6543935265731
139.1537	9173.71059411506	8246.80022046486	12335.5859180194	-41.9542787793932
118.6706	11845.7559268176	8061.49130244059	14328.6278302237	-34.2367893804109
101.1982	12213.7907021201	10333.808505479	15998.8837592847	-40.2337953825965
86.24196	12467.9089160194	5962.82029188225	13820.4188999986	-25.5596185928963
73.61024	13099.5619504951	7242.17360124505	14968.2197259871	-28.9362823331423
62.69291	9917.49802258866	5564.98559748592	11372.1515874647	-29.2980020483643
53.57697	14346.7633889239	5885.01825263558	15506.8713663208	-22.303356203719
45.65746	15366.1966355105	4019.09170188848	15883.1072888577	-14.6575896615312
38.96512	16217.4402287986	4550.61904318543	16843.7971149874	-15.6741371112302
33.18414	16081.8154949192	4037.61067449207	16580.9254739111	-14.0937590840768
28.30617	15251.9348482378	3783.06226331007	15714.1043875548	-13.930403087107
24.17237	16686.5322258055	3839.3872533457	17122.5363834917	-12.9576066946442
20.61345	17058.5676869792	4461.16236313398	17632.2630754391	-14.6557791148985
17.55618	19014.0787835408	2431.9711624755	19168.9769085835	-7.28876799919774
14.98558	17195.2938785507	3747.44402274836	17598.9053146312	-12.2944768017156
12.76553	18598.0338025375	2852.67262793532	18815.5415134005	-8.72038899400137
10.8809	18757.2679614983	2981.28689547021	18992.7136800551	-9.03106962883311
9.278505	17801.834197485	3517.64232526171	18146.0493861121	-11.1776502787128
7.923394	18521.6560142074	1412.01416991699	18575.4010865088	-4.35955965976368
6.75822	17382.246609134	-5578.62186029809	18255.5065402455	17.793404863016
5.761429	18872.4436524681	1348.11506113647	18920.5323295526	-4.08586860722779
4.919708	17737.5396021831	1332.21573516951	17787.4986972325	-4.29525717937394
4.191257	13213.800462832	108.906037260002	13214.2492483111	-0.472211990407113
3.564097	18489.9963748956	1114.75093550668	18523.5697313413	-3.45015245296511
3.051758	18481.6784112214	926.908041236507	18504.9073332647	-2.87113849393976
2.604164	18030.1586566186	342.374355743401	18033.4090338546	-1.08785777688104
2.214424	17010.8119674232	896.861727114988	17034.4381987957	-3.01801335993257
1.892567	18761.3657564176	873.677746137188	18781.6974166388	-2.66621899259563
1.607507	18672.8091923892	1539.53332637213	18736.1673241457	-4.71325452810707
1.376413	17933.8981743723	120.368285493725	17934.3021122348	-0.384550593667687
1.17375	18224.0130515632	1253.39931717581	18267.064940812	-3.93445591549755
1.001604	17640.1889087029	-1382.9828288241	17694.3184734408	4.4827937141716
