EC-Lab ASCII FILE
freq/Hz	Re(Z)/Ohm	-Im(Z)/Ohm	|Z|/Ohm	Phase(Z)/deg
6999984	22.7518509371145	6.65077623247075	23.7039985141553	-16.2945931075774
5969734	20.6583705528398	-3.99937034260652	21.0419399541905	10.9566719162867
5091109	12.0946625262085	-5.6492070602959	13.3489476002032	25.0364622893182
4341796	8.91540747124812	-6.19212656465699	10.8548109965636	34.7816092182229
3702781	5.84949664857912	-5.5155758882036	8.03978783428215	43.3170588951119
3157797	4.21791956144933	-5.31536716529394	6.78557098030386	51.5668375449267
2693047	3.15382442466625	-4.66626762694421	5.63210991262501	55.9461315900281
2296687	2.1274654411634	-3.78036579813244	4.33788828475724	60.6306230638618
1958656	1.78456420340514	-3.28257317046699	3.73630245236446	61.4693759801538
1670375	1.54314799544885	-2.81203268486598	3.20762116787696	61.2435160173132
1424531	1.18041597568779	-2.45674756340044	2.72561744673257	64.3366859701065
1214875	1.00354904105923	-2.30728574860527	2.5160839023228	66.4934709983174
1036062	0.86827673768383	-1.83826163205007	2.033005243739	64.7169580587348
883578.1	0.775760637839167	-1.58040153610044	1.76053218730282	63.8552868306376
753531.2	0.722515526697969	-1.37591472271868	1.5540817258155	62.2952946418349
642624.9	0.659850356202222	-1.20933264555579	1.37763853756607	61.3817134374988
548046.8	0.626204075610249	-1.04118954907046	1.2149926836835	58.9759782473035
467390.6	0.591061445408812	-0.902305939482962	1.07866104067728	56.7729326067136
398593.7	0.5586064980412	-0.784154675763388	0.962777116042668	54.535154264583
339937.5	0.533198848479058	-0.681917293340189	0.865628215214709	51.9777456868607
289906.2	0.512591033391489	-0.592293745664089	0.783301633258958	49.1259800418899
247234.4	0.495036443876421	-0.514175656500281	0.713749036078724	46.0864561274547
210843.7	0.482201956302617	-0.445440068976408	0.656456839184251	42.7305907551719
179812.5	0.46994002897563	-0.385505008470473	0.607830356587622	39.3629912072448
153343.8	0.463404029761353	-0.334191975741004	0.571338403617975	35.7979217552259
130781.2	0.457509930681093	-0.290537661727607	0.541966299278806	32.4172301216801
111531.3	0.450654775078358	-0.253396881745297	0.517010353841358	29.3484395230697
95109.37	0.443903306787337	-0.221607785363858	0.496145297579859	26.5295330076496
81109.37	0.43665054112713	-0.193734889999994	0.477699594588404	23.9260987302444
69171.88	0.430474965145253	-0.167805852703406	0.462025432003828	21.2966120618946
59000	0.420470462114445	-0.141510244306679	0.443644631157046	18.6007711512908
50312.5	0.416402285119753	-0.10648545125132	0.429802296854204	14.3446744912984
42906.25	0.444091381771334	-0.114774869630674	0.45868336144045	14.4909334276615
36593.75	0.428666304110875	-0.102948789240454	0.440855138890489	13.504437614317
31203.13	0.422491884340009	-0.0907943562173801	0.432137718157186	12.128513846778
26609.38	0.418918867887328	-0.0794481717763636	0.426386010406776	10.7386385569276
22703.13	0.4160141244039	-0.0704266806597473	0.421933251892161	9.6084563877203
19359.37	0.413535885064872	-0.0631872664248273	0.418335462128934	8.6874611095152
16500	0.410295477623795	-0.0558274318195822	0.414076177897387	7.74844630865325
14112.02	0.43631181543405	-0.0531333060569341	0.439535150471377	6.94319423464254
12011.13	0.424087330266083	-0.0238306985927624	0.424756360620572	3.21623383873603
10236.38	0.417675294104516	0.0158960572501398	0.417977673974811	-2.17953431746663
8750.684	0.885714292435525	-0.493898890501285	1.01411336736233	29.1452515001824
7449.463	0.397518633054058	-0.0342229975152341	0.398989069003268	4.92055008542761
6363.206	0.396211769721198	-0.0315310578659661	0.397464431208317	4.55008474242074
5414.761	0.394284628436207	-0.0284127607304347	0.395307036610029	4.12169794998851
4620.567	0.389357829205109	-0.0259391423779437	0.390220909576381	3.81143099068485
3941.215	0.383647303247143	-0.0241707588500712	0.384407958908493	3.60501549653764
3361.769	0.37971141558196	-0.0228735600457763	0.380399735636637	3.44729339356741
2867.244	0.359234514237996	-0.0204813628214537	0.359817901782045	3.26312355877394
2442.658	0.356467319327108	-0.0194240200584976	0.356996137659061	3.11898112850611
2083.003	0.353513762097666	-0.0186521705759289	0.35400548506999	3.02025190603814
1777.843	0.345558992282785	-0.0179925334049497	0.346027092011337	2.98057973534549
1513.548	0.340515505138437	-0.0170967544400341	0.340944435725336	2.87431840970273
1292.065	0.339729979565429	-0.0161138622423562	0.340111916245068	2.71558274439292
1101.762	0.34685114679548	-0.0160820492366694	0.347223775598662	2.6546664445724
939.101	0.357067551002932	-0.0145652646379263	0.357364495876695	2.33587673806618
801.2801	0.36030084998416	-0.0149445305273701	0.360610650829939	2.37514841126004
684.3433	0.359347861378318	-0.0140895278059098	0.359623970656802	2.24533737432181
582.9476	0.361698814905054	-0.0145986797559329	0.361993306781129	2.31128481654137
497.0677	0.361374609452622	-0.0135488457880007	0.361628510462356	2.14715761837937
423.5089	0.358328120611329	-0.0144831132869824	0.358620694594345	2.31455411372039
361.5036	0.354242825616518	-0.0114846734219368	0.354428945240627	1.85689834528169
308.1262	0.348865046169149	-0.0117959738579074	0.349064414453635	1.9365715644414
262.7298	0.334875278055313	-0.0155718385157978	0.335237131009357	2.66235954888763
224.2111	0.326551680312846	-0.0126996924341223	0.326798534426127	2.22712762967696
191.2854	0.332149845817706	-0.014381156730914	0.332461031920502	2.47919811981359
163.1722	0.340390887020644	-0.0122144912460106	0.340609967210444	2.05510392718248
139.1537	0.347126422389382	-0.0112673981777812	0.347309238838457	1.85911454603326
118.6706	0.350505772129312	-0.00879636180107654	0.350616132368294	1.43760439305818
101.1982	0.348486279900738	-0.0137210329734348	0.348756296036235	2.25475565455817
86.24196	0.359923000048915	-0.015937497262208	0.360275685806292	2.53541788458742
73.61024	0.316852238858234	-0.00336856087378184	0.316870144494295	0.609107421299012
62.69291	0.248691179217023	0.0611072919099608	0.256088663835248	-13.804971166597
53.57697	0.321262254478442	0.0120438578800301	0.321487932378815	-2.1469662504758
45.65746	0.309031934148445	-0.0150246700899062	0.309396957054912	2.78344329269042
38.96512	0.324233963892273	-0.0155896100922461	0.324608532364946	2.75273905740715
33.18414	0.313786412558929	-0.0117423089993321	0.314006042182692	2.14308503437158
28.30617	0.328575546142995	-0.017430821478131	0.329037570895133	3.03667516827777
24.17237	0.337511295311419	-0.0055295338121106	0.337556588155187	0.938607427869617
20.61345	0.320374738733332	-0.0258378329208017	0.321414944936439	4.61085551096129
17.55618	0.310188131614947	-0.0170547338678139	0.310656628678793	3.14706236300327
14.98558	0.323399145333981	-0.0187474049241787	0.323942081851279	3.3177155504518
12.76553	0.294444676539179	-0.00348733907521743	0.294465327459936	0.678567094802722
10.8809	0.311504868367692	-0.0491675225964145	0.31536126632014	8.9694938545904
9.278505	0.321696576294628	0.000868458690869328	0.32169774854696	-0.15467648851443
7.923394	0.305118837566934	-0.0650415261275317	0.311974205919649	12.0335059851895
6.75822	0.258599612653621	-0.031182320851942	0.260472833129131	6.87561386270686
5.761429	0.28000208041531	0.00776842680559647	0.280109823983265	-1.58921647410114
4.919708	0.211408075264234	-0.115280355628982	0.240796459028933	28.6035370936201
4.191257	0.268658176708169	0.0216331574560344	0.269527752585286	-4.60369411147995
3.564097	0.263343023467178	0.0968796438322702	0.280597956866942	-20.1977534953471
3.051758	0.21070605641429	0.0807519465700502	0.225649992431895	-20.9690578199963
2.604164	0.146178170746582	-0.0663988589952013	0.160551755140458	24.4290869194339
2.214424	0.266644733298829	-0.139562910319763	0.300960495302832	27.6277384023107
1.892567	0.181219889990658	-0.082958641937598	0.199305757067769	24.5973073280843
1.607507	0.190947714383569	0.0243835638424256	0.192498280028593	-7.27714841511249
1.376413	0.214950479421531	0.0806792139738293	0.229592779004439	-20.5730523103137
1.17375	0.253869518600951	-0.0188941956436569	0.254571646307477	4.25638142001652
1.001604	0.256801186702837	0.0783331716354142	0.268482653574581	-16.9635041446588
