EC-Lab ASCII FILE
freq/Hz	Re(Z)/Ohm	-Im(Z)/Ohm	|Z|/Ohm	Phase(Z)/deg
6999984	5.64528460259966	0.973557390348408	5.72861695670524	-9.78469820550254
5969734	3.816317097075	-0.475788165436019	3.84586148525865	7.10651585414458
5091109	2.11133283383045	-1.14718527797033	2.40286503932334	28.517289756719
4341796	1.24664092400941	-1.56358594374668	1.999728630814	51.4347822323049
3702781	0.641778432442539	-1.07171190839927	1.2491781181854	59.0853558903939
3157797	0.398087033430723	-0.892910774008549	0.977631288639137	65.9712199680557
2693047	0.273128381085033	-0.691391992825584	0.743385499117021	68.4439339245018
2296687	0.207537810680784	-0.523239964682245	0.562896085883398	68.3647511572147
1958656	0.168399895279399	-0.383426365797149	0.418777151619476	66.2890396570148
1670375	0.149978640513214	-0.278574498266219	0.316381642473876	61.7029135774491
1424531	0.148118945944836	-0.214479100993914	0.260653998455744	55.3710996876789
1214875	0.145156810111996	-0.159361180537973	0.215560862366865	47.6706500535237
1036062	0.148015606327016	-0.128031342295552	0.195705504077823	40.8593277850085
883578.1	0.149374154345927	-0.0995868899179227	0.179527676501662	33.6911616721078
753531.2	0.155742368381786	-0.07690052192078	0.173693337756105	26.2786634370516
642624.9	0.154981476550564	-0.060389113432826	0.166331305216414	21.2885620048731
548046.8	0.160020494479029	-0.0499137712859742	0.167624411161685	17.3238029245488
467390.6	0.162097136278767	-0.0400349404729895	0.166967895262691	13.873336490712
398593.7	0.163598388699191	-0.0338595811515701	0.167065568028638	11.6932779168628
339937.5	0.163438911064116	-0.0286056556308873	0.165923359367803	9.9275537725625
289906.2	0.165062045334642	-0.0242006052404302	0.166826700812725	8.3410049899555
247234.4	0.166178236217863	-0.0216081551494823	0.167577201795006	7.40860212204935
210843.7	0.165049564077914	-0.0198363820946975	0.166237302242657	6.85318829460544
179812.5	0.165329575412209	-0.0176673329072608	0.166270872849207	6.09955398835806
153343.8	0.164151532861113	-0.015709712657465	0.164901548847891	5.46670033123985
130781.2	0.163895907396473	-0.0138210640666325	0.16447762848864	4.82025153155878
111531.3	0.163575108564363	-0.012451422903528	0.164048328471111	4.35299012568471
95109.37	0.163223705194306	-0.0111407255908031	0.16360346482898	3.90462945155642
81109.37	0.162891992318489	-0.00992431466498132	0.163194035378308	3.48647797717641
69171.88	0.162568258146948	-0.00882366123762576	0.162807541454839	3.10677483563864
59000	0.162119125824991	-0.00774715346330436	0.162304126087549	2.73590040076605
50312.5	0.16176445699673	-0.00678979665667159	0.161906889557195	2.40348518493382
42906.25	0.161418153476505	-0.00586924981290306	0.161524822752204	2.08238760442881
36593.75	0.161154551654609	-0.00503364821623628	0.161233145269088	1.78904696430891
31203.13	0.160978603040585	-0.00429639727158791	0.161035926632579	1.52881812812742
26609.38	0.160856748178304	-0.00361583689824344	0.160897382548546	1.28771290427401
22703.13	0.160818386800843	-0.00305353933340055	0.160847373729527	1.08777297912736
19359.37	0.160702316570629	-0.00256429377620372	0.160722774222377	0.914179372274214
16500	0.160736231358359	-0.00214574396640044	0.160750552995806	0.764823026070692
14112.02	0.160710223412904	-0.00174077836108519	0.160719651003628	0.620591214386819
12011.13	0.160707970334991	-0.00146049525983679	0.160714606603122	0.520683016663811
10236.38	0.160761105736114	-0.00120664391427445	0.160765634098317	0.430043729079972
8750.684	0.160786617068687	-0.00101892695352945	0.160789845576546	0.363086391450717
7449.463	0.160817481697323	-0.000820057420387201	0.160819572545264	0.29216613393566
6363.206	0.160841136210773	-0.000694401178210847	0.160842635176649	0.247362152159358
5414.761	0.160857448361518	-0.000548335085008887	0.160858382948306	0.195310598049329
4620.567	0.160885015652699	-0.000428891186641707	0.16088558732596	0.152740120350006
3941.215	0.160922946441528	-0.000425756924803172	0.160923509657172	0.151588188702896
3361.769	0.160918640038885	-0.000325067842106955	0.160918968369382	0.115741657208331
2867.244	0.160933914705956	-0.000245734691491724	0.160934102315583	0.0874865300203518
2442.658	0.160980846153022	-0.000181170979385145	0.160980948099664	0.0644817588838336
2083.003	0.160970440950434	-0.000167959033597467	0.16097052857593	0.0597832757806428
1777.843	0.160980830616554	-0.00013242920378309	0.160980885087298	0.0471337656811743
1513.548	0.161001114038364	-0.000109562273222364	0.161001151317269	0.0389901331924855
1292.065	0.161021056957941	-0.000100078528699681	0.161021088058566	0.0356107249844008
1101.762	0.161017883602202	-8.3789270096026E-05	0.161017905403015	0.0298151422950935
939.101	0.161045232330711	-8.322852167318E-05	0.161045253837049	0.0296105791734979
801.2801	0.16104932178295	-7.25898140377546E-05	0.161049338142164	0.0258249438886655
684.3433	0.161039212418157	-7.05522497095284E-05	0.161039227872839	0.0251016247793584
582.9476	0.161028644287549	-9.72071912300956E-05	0.161028673627786	0.0345873937144074
497.0677	0.161032378733304	-8.54717111967385E-05	0.16103240141636	0.0304110756978091
423.5089	0.161013588925847	-8.13685461175056E-05	0.161013609485727	0.0289545367684952
361.5036	0.161006990047928	-9.75362432240323E-05	0.161007019591111	0.0347091415162947
308.1262	0.160999773533749	-7.57112438836704E-05	0.160999791335613	0.0269437299273277
262.7298	0.160980924250263	-5.31421231507177E-05	0.160980933021753	0.0189141618764935
224.2111	0.160986300488527	-5.43522129347212E-05	0.160986309663727	0.0193442068087848
191.2854	0.160963288255668	-6.34644154261356E-05	0.160963300767005	0.0225905111914827
163.1722	0.160968280405522	-4.32046118556047E-05	0.160968286203678	0.0153784450523191
139.1537	0.160967336520741	-2.24384283412548E-05	0.16096733808467	0.00798688269509694
118.6706	0.160954780759727	-2.93441009833263E-05	0.160954783434629	0.0104457482616347
101.1982	0.160977121663416	-4.05872591313119E-05	0.160977126780061	0.0144460192661012
86.24196	0.160958878884342	-2.51321678409039E-05	0.160958880846414	0.00894618020190653
73.61024	0.160955799359825	-1.12946772873483E-05	0.160955799756113	0.00402059037971295
62.69291	0.160970412837135	-4.38280581956484E-06	0.160970412896801	0.0015600151071145
53.57697	0.160966190557159	-1.24054727810347E-05	0.160966191035197	0.00441571754509563
45.65746	0.160974099643721	-1.12547054125541E-05	0.160974100037165	0.00400590604438154
38.96512	0.160958159240097	-9.76078607464456E-06	0.160958159536052	0.00347451691024526
33.18414	0.160956298602676	-9.09103065531248E-06	0.160956298859413	0.00323614354915903
28.30617	0.160971135846418	-3.80906642709016E-06	0.160971135891485	0.00135579232244925
24.17237	0.16096470961659	3.35630735364386E-06	0.160964709651582	-0.00119468575778318
20.61345	0.160951916265717	9.91294484034318E-06	0.160951916570983	-0.00352881726640539
17.55618	0.161000565160696	1.07191600433331E-05	0.161000565517529	-0.0038146613267338
14.98558	0.160969304802663	-1.25227648423053E-05	0.160969305289773	0.00445738131708416
12.76553	0.160978207042172	9.8224523451802E-06	0.160978207341842	-0.00349603262136801
10.8809	0.160992586972144	-7.72278542431173E-06	0.160992587157374	0.00274846823000225
9.278505	0.160982969822018	1.82287295073085E-06	0.160982969832339	-0.000648782456780641
7.923394	0.160989448984649	4.20599595081779E-05	0.160989454478923	-0.0149690437893863
6.75822	0.160986677537959	7.38089948839743E-06	0.160986677707158	-0.00262689059658005
5.761429	0.161007307177087	8.10352353823432E-06	0.161007307381012	-0.00288370575021816
4.919708	0.160986056382698	1.49690067275779E-06	0.160986056389657	-0.000532754779040981
4.191257	0.16101041781825	2.78388947306898E-05	0.161010420224939	-0.00990650903274735
3.564097	0.160997139085087	1.42205746577466E-05	0.160997139713125	-0.00506082848832508
3.051758	0.16101293199981	1.09829432889149E-05	0.161012932374392	-0.00390823450200339
2.604164	0.161011310523621	6.84843576458436E-06	0.161011310669267	-0.0024370118103159
2.214424	0.16102297290951	5.95826382941157E-06	0.161022973019745	-0.00212009109213739
1.892567	0.161013827407938	1.39902789604308E-05	0.161013828015737	-0.00497835465146277
1.607507	0.161014577111664	4.97327817672451E-06	0.161014577188469	-0.00176970219027191
1.376413	0.16100574167259	3.10548840611053E-06	0.16100574170254	-0.0011051244329951
1.17375	0.161008333036351	5.34352362768897E-06	0.161008333125021	-0.00190152488202884
1.001604	0.161009037300764	1.94240980590991E-06	0.161009037312481	-0.000691215138130235
