EC-Lab ASCII FILE
freq/Hz	Re(Z)/Ohm	-Im(Z)/Ohm	|Z|/Ohm	Phase(Z)/deg
6999984	21.2553445141557	94.6773355123125	97.0339503994681	-77.3467240325831
5969734	18.9435306653282	91.6900913305064	93.6265464612726	-78.3267110453748
5091109	16.7096412503919	99.1002372991807	100.499100212244	-80.4291796746074
4341796	16.2106208464936	107.326368946145	108.543694885483	-81.410942856564
3702781	17.2785182498592	119.535129550079	120.777458118082	-81.7750002395902
3157797	18.3518092089153	132.041641694985	133.310854932175	-82.087434125275
2693047	17.9897909407258	150.638930053972	151.709326759749	-83.1898049231067
2296687	20.8904156008254	172.818027523938	174.076075614197	-83.1074708879464
1958656	23.3602345485047	198.74082551728	200.109011005129	-83.296145889883
1670375	27.3037925340705	228.754794516455	230.378499650052	-83.1934718529955
1424531	32.2590423854952	264.373821369482	266.334682760492	-83.0431277275532
1214875	39.9722039594979	305.173818825428	307.780500983858	-82.5377789522478
1036062	44.8532625632328	357.384785514515	360.188423023037	-82.8465459080438
883578.1	44.5247233881783	407.666413329857	410.090667474917	-83.766945310142
753531.2	62.1094704003918	464.714945850751	468.847061642156	-82.387492122585
642624.9	135.102131974099	616.571140575266	631.199300898085	-77.6407659730442
548046.8	164.936281660216	700.587462616502	719.740765681177	-76.7523376159143
467390.6	199.299646028751	795.111038896019	819.708431749663	-75.9283670107367
398593.7	237.485733470561	900.379912167054	931.173163185023	-75.2240872889619
339937.5	281.673755311528	1020.41519242677	1058.57794676002	-74.5684516839937
289906.2	329.565104708751	1158.45534533478	1204.42183033039	-74.1196538430677
247234.4	384.305264046482	1314.82837904239	1369.84094051429	-73.7071242305735
210843.7	434.876230318179	1470.86637133774	1533.80742533997	-73.5291635394059
179812.5	536.399643568176	1670.30064365698	1754.31719418724	-72.1961199332545
153343.8	633.617061154771	1944.04451156982	2044.69548910129	-71.9478000248448
130781.2	689.77928309976	2172.51958187726	2279.39395301334	-72.3852533014272
111531.3	831.872141215932	2515.0108996039	2649.01700342931	-71.6977039472702
95109.37	974.290847717421	2790.11580830826	2955.33227907076	-70.7511203739346
81109.37	1117.11792682979	3160.80885886503	3352.41183399715	-70.5351725809498
69171.88	1474.73604761902	3621.1786406873	3909.95922714252	-67.8412396198037
59000	1500.42397048028	4083.88167017857	4350.78861670069	-69.8265956757115
50312.5	1839.99665690676	4473.64153514551	4837.25710319465	-67.6427670395704
42906.25	3302.94271952177	5201.22831861454	6161.34779336467	-57.5831751431199
36593.75	3645.42644780314	5962.68440581088	6988.75806632644	-58.5594952260229
31203.13	3770.98822318176	6566.70125071159	7572.44461818459	-60.1330092187907
26609.38	4687.03387773546	6888.52629533956	8331.87140398989	-55.7681708988604
22703.13	5419.58425319713	7706.25410868042	9421.15947561956	-54.882395336322
19359.37	6255.00860852448	8480.4757529295	10537.7227942635	-53.5883472377073
16500	7134.17437625265	9002.75423460043	11486.7762161277	-51.605162691843
14112.02	7945.52130606917	9786.17618576301	12605.5762725864	-50.9264139694192
12011.13	9236.52950370314	10480.0642721775	13969.4389444154	-48.6088913613622
10236.38	10674.4233160338	11243.884630947	15503.8141992199	-46.48827142918
8750.684	12200.6218334368	11590.7473084539	16828.5648910109	-43.5315857527648
7449.463	13204.8485925371	11573.6335724323	17558.9584093352	-41.2335437097423
6363.206	15508.3409602936	11765.9877727619	19466.5638367305	-37.1871438731899
5414.761	17206.0378042577	11712.0173057701	20813.9156886013	-34.2428168964157
4620.567	18797.1984215304	11418.9772950802	21993.8107422053	-31.2779665714199
3941.215	20263.4974217832	11002.5976287327	23057.8941437072	-28.5009088933563
3361.769	21719.7248397117	10422.8444187467	24091.1214535602	-25.6353808021464
2867.244	23051.3095016131	9711.78419367721	25013.6287244317	-22.8462566329173
2442.658	24013.3114637757	8823.12387805577	25582.9365480943	-20.1746632962033
2083.003	24918.7747800371	8720.56367575256	26400.6357378202	-19.2879824603486
1777.843	25307.5509405952	7928.7937923914	26520.5185773786	-17.3956461024803
1513.548	26259.7443294227	7422.81150078314	27288.6845198299	-15.783944472667
1292.065	27121.7440460896	6591.05617310262	27911.1272000718	-13.6590903823787
1101.762	27099.1063077236	6371.15074733617	27837.9798929913	-13.2302830389249
939.101	27785.9817169101	5320.71350568368	28290.8248763098	-10.8402927289398
801.2801	28099.1949667864	5292.01331294406	28593.1838501041	-10.6657697845429
684.3433	28110.1665769628	4883.46226677137	28531.2051742575	-9.85539546784373
582.9476	28646.7067651701	4483.13991945187	28995.3850125675	-8.89450513836368
497.0677	28852.3094782804	4621.01060957087	29220.0188446934	-9.09926306560958
423.5089	28972.9436044854	4050.53919551139	29254.7146436786	-7.95860722790724
361.5036	29272.3741157395	3990.52709913375	29543.1242914614	-7.76293641129211
308.1262	29608.5646299686	4214.41910937542	29906.9963031478	-8.10094140337363
262.7298	29661.5813251919	4294.50836619022	29970.8559907496	-8.23823927982084
224.2111	29892.7946892628	4579.14007628884	30241.4896817716	-8.70917620995066
191.2854	30200.2150861772	4787.82811110166	30577.3819885355	-9.00848363254905
163.1722	30398.2099625849	5171.92574350891	30835.0447514799	-9.655794160754
139.1537	30769.4134102742	5612.14573086985	31277.0360059403	-10.3367602298449
118.6706	31005.0119414388	6108.88315616632	31601.0952168505	-11.1461547887144
101.1982	31311.6579054022	6700.75548555182	32020.6190580709	-12.079210828507
86.24196	31684.4191109429	7440.32338718237	32546.2874457861	-13.2150996573539
73.61024	32015.811974771	8182.58439185659	33044.922510633	-14.336721837102
62.69291	32381.8516187434	9125.38889710778	33643.0830451339	-15.7381364969463
53.57697	32801.2296646119	10181.8843578562	34345.1806893977	-17.2449524727829
45.65746	33282.8589622966	11368.3611978078	35170.8449859817	-18.8585276745863
38.96512	33826.6419645135	12794.113928192	36165.3294994383	-20.7179189592346
33.18414	34354.5210609017	14418.9056808539	37257.7234725539	-22.7682369699543
28.30617	34895.8771339314	16250.0643099611	38493.9843485227	-24.97011950622
24.17237	35638.7805504935	18337.2250819811	40079.6270296203	-27.2271836077348
20.61345	36379.4652088992	20804.6375944186	41908.2144014822	-29.7643152090874
17.55618	37115.647241209	23413.9338509426	43883.7506203626	-32.2452568394716
14.98558	38252.8601490859	26660.3507671982	46626.7692706193	-34.8745888092167
12.76553	39132.7430158667	30247.2944668431	49459.7856698731	-37.7019006154913
10.8809	40438.2232096331	34451.0545754954	53123.6769973227	-40.4290995062227
9.278505	41703.1787225238	39136.9555479985	57191.4014964555	-43.1817892892595
7.923394	43205.1362847422	44609.3424284862	62102.1515994823	-45.9161157749623
6.75822	45059.9534198118	50860.2869991603	67949.7475774013	-48.4604838332675
5.761429	46948.7980543397	57669.7054609631	74363.8660015831	-50.8510299123138
4.919708	48911.3536268409	65717.1058172319	81921.0504730203	-53.3407492561194
4.191257	52060.0585570905	75601.0553461189	91791.9891189565	-55.4480994857665
3.564097	54597.1822515615	86650.3616703845	102416.490310002	-57.7855438363601
3.051758	58382.0790039417	97622.0878703433	113747.699708555	-59.1188166256296
2.604164	62032.8883783672	111702.393747166	127771.295717817	-60.9548025843468
2.214424	66822.4934504533	127739.530348387	144161.830054153	-62.3852490156704
1.892567	72304.065221255	145080.161632758	162099.139870965	-63.5095640970556
1.607507	78644.6148675016	166341.236606348	183995.604413222	-64.6956440287559
1.376413	85525.7803327602	188934.132249354	207390.369666347	-65.6449205037287
1.17375	94073.0377716224	215233.954640376	234894.426638259	-66.3911407361071
1.001604	103911.595497793	245566.338227482	266646.66911355	-67.0643088496063
