EC-Lab ASCII FILE
freq/Hz	Re(Z)/Ohm	-Im(Z)/Ohm	|Z|/Ohm	Phase(Z)/deg
6999984	-7.755890706903	26.2661508356231	27.3873058254573	-106.450860081387
5969734	-1.36134420616071	29.6972548465248	29.7284409861515	-92.6246436397465
5091109	3.8938622294042	29.7208926939468	29.9748832455888	-82.5359454873034
4341796	8.48914669783839	28.4851541063479	29.7232167862062	-73.404888993642
3702781	12.2798831533793	26.9753579685286	29.6389181278756	-65.5237399300585
3157797	15.8091947539235	25.3834074337537	29.9039798641489	-58.0846851011979
2693047	19.1145368774603	23.6804366018364	30.4323610272582	-51.0899876903511
2296687	21.7946378361664	21.7805777085862	30.8123320073217	-44.9815127491229
1958656	24.004520353202	19.9454983476306	31.2096123289384	-39.723393119538
1670375	25.8986451342757	18.1504627321397	31.625608566191	-35.0237984782247
1424531	27.4325040826431	16.4118329840451	31.96702272875	-30.8904924033068
1214875	28.6804684877398	14.9607424996572	32.3479997653222	-27.5481316462553
1036062	29.7289532648706	13.4563313694865	32.6325530130618	-24.3531184453775
883578.1	30.6089972642874	12.1577039108202	32.9350949278779	-21.6626690676258
753531.2	31.3280337842018	11.0566355177035	33.2219037647668	-19.4395183380048
642624.9	31.9410561183712	10.1059344835648	33.5016563432771	-17.5570196654789
548046.8	32.4558815726616	9.30968708267958	33.764693427248	-16.0050775336978
467390.6	32.9139231543528	8.69435230722374	34.0428861798287	-14.7969387268849
398593.7	33.3292984193806	8.17966400173068	34.3183483913392	-13.7889799145349
339937.5	33.7197417531006	7.79602922287101	34.6092336745507	-13.0180881194982
289906.2	34.1031887411721	7.56645037645978	34.9324870803015	-12.509536510118
247234.4	34.481452032098	7.42711875031046	35.2722642762425	-12.1554886997728
210843.7	34.8685855187109	7.41193987064544	35.647652218929	-12.0006182077489
179812.5	35.2264465950553	7.48559070717366	36.0130060943211	-11.9968538750349
153343.8	35.6671364688643	7.68288573365225	36.4852210776493	-12.1560673871459
130781.2	36.0965765621099	7.96371358309646	36.9646259758956	-12.4414290170108
111531.3	36.5707415791953	8.34351359995062	37.5104433304226	-12.8519017110205
95109.37	37.0791168749694	8.82036151689455	38.1137729110666	-13.3807990517057
81109.37	37.6487773243742	9.48246593254385	38.8245746168862	-14.1368512398486
69171.88	38.2692746942994	10.0984335094342	39.579233759286	-14.7821621453485
59000	38.98724019379	10.904248011688	40.4834228126609	-15.6256476930283
50312.5	39.9420556332622	11.6580875549446	41.6086386901731	-16.2712049703802
42906.25	39.8391916378546	12.6153618119105	41.7888566965299	-17.5707591934061
36593.75	40.9788689132999	14.0615606559455	43.3243024813355	-18.9392345096084
31203.13	42.0283435263016	15.4618396550315	44.7822525682075	-20.1981029996021
26609.38	43.1236058827248	16.9575463021031	46.3379300456608	-21.4662992425006
22703.13	21.5792586098013	19.1691805364381	28.8638508274146	-41.6151679787671
19359.37	22.9560762880972	21.0346532801357	31.1358005704119	-42.4990298622698
16500	24.5116562479142	23.1243113986321	33.6979980069561	-43.3317953696027
14112.02	26.1807587510349	25.3749260704482	36.4598272330054	-44.1045206295838
12011.13	28.0920068349106	27.928937059268	39.6129571387092	-44.8332198125871
10236.38	30.1913772954951	30.7025964436355	43.0600591195562	-45.4810001661841
8750.684	32.4546740365742	33.6887854008406	46.7786289731131	-46.0689064301898
7449.463	35.0365178991783	37.060579653187	51.000432848454	-46.6081055520316
6363.206	37.8143698886245	40.5924287757389	55.476768507071	-47.0292180722968
5414.761	40.9455928578688	44.5556163012416	60.5123501317361	-47.4177006461294
4620.567	44.3051586987836	48.8438184778862	65.9444136438038	-47.7895158777016
3941.215	48.106175422118	53.5099890142141	71.9550070394334	-48.0440466486105
3361.769	57.274824324734	65.6691884937543	87.1369486432557	-48.9059757077155
2867.244	59.9093106122603	59.8387474565576	84.6746785952327	-44.9662376943047
2442.658	61.572824611547	69.8203169301262	93.0918330836147	-48.5917198162422
2083.003	66.8979258670515	75.7982780065745	101.097534263084	-48.5690707946007
1777.843	72.6171043799321	82.6797491356709	110.041741015232	-48.7073656176114
1513.548	78.9639764943662	90.3487510666988	119.992526446921	-48.8468407336801
1292.065	85.5406087784189	98.5659500534212	130.508399193753	-49.0468717591162
1101.762	92.6853427884849	107.162685543456	141.684204979611	-49.1433693109721
939.101	100.42138760284	117.434330340725	154.51626785117	-49.465320025634
801.2801	108.718651461328	128.854396758155	168.59181694103	-49.8445837085429
684.3433	117.230323777549	140.769717487323	183.19132669002	-50.213115891949
582.9476	127.246799606798	154.658376010568	200.277211086032	-50.5538023265118
497.0677	137.660486486794	170.753740865684	219.33364894472	-51.124479749618
423.5089	148.824871595414	188.18084292596	239.918469588559	-51.6609057557313
361.5036	161.128309301104	207.09233079577	262.392007371903	-52.1152784760039
308.1262	-513.548468852565	87.4715391644699	520.944622800365	-170.33370618197
262.7298	-440.877645761008	113.506587051363	455.254702156735	-165.562400143018
224.2111	363.449051307942	222.302529526346	426.04416147913	-31.4519165580217
191.2854	-120.576903965556	610.05345125729	621.855291173798	-101.180393211317
163.1722	-63.1581534159802	447.890998500106	452.32211849559	-98.0264897322399
139.1537	-369.823698395451	238.946222443778	440.300880211522	-147.133155366856
118.6706	-41.1940961212177	290.256247879763	293.164873387796	-98.077654863345
101.1982	-313.506532403841	257.362808741023	405.613068308886	-140.616849067053
86.24196	-413.892377031204	299.674635869013	510.990985387967	-144.093958038364
73.61024	-432.851484680468	270.337394275875	510.335884035167	-148.013161244397
62.69291	-412.058666489677	284.838807435969	500.924635899249	-145.345527046048
53.57697	-435.07947416952	266.673865548816	510.302948659298	-148.494560383866
45.65746	-421.80662824025	276.136602637702	504.154990993545	-146.789151506659
38.96512	-429.718793319804	265.724135737538	505.240099008076	-148.268700421026
33.18414	-441.208361400688	298.729126717142	532.826340676834	-145.899233459262
28.30617	-410.171554962905	325.672182600491	523.739510654347	-141.550770273117
24.17237	-419.541256534288	222.541801803639	474.910222551988	-152.056696291974
20.61345	-319.569540612512	261.899551046	413.178007794931	-140.664060789372
17.55618	-357.210436395917	314.099848735745	475.665860500813	-138.674407550001
14.98558	-10.6699452799293	476.732504514882	476.851893771335	-91.2821462299754
12.76553	6.59449118899822	455.756296425158	455.804002884155	-89.1710259380364
10.8809	95.4698902019844	511.126970842997	519.966614561278	-79.4200291100434
9.278505	160.321421567942	498.68866346456	523.82567833358	-72.1781290584874
7.923394	167.666540910839	470.053332357933	499.061323087458	-70.3688429330233
6.75822	470.05583498923	220.880799252829	519.365781974506	-25.168987427332
5.761429	248.964234585864	469.76910281128	531.663615511764	-62.0776852712442
4.919708	-237.8035947183	511.045973052018	563.665269671309	-114.953840240026
4.191257	602.009157688169	346.650986797017	694.681173336204	-29.9343461643704
3.564097	372.500694875211	536.266309226384	652.945879911806	-55.2154270547418
3.051758	1081.04988602817	-708.07433969346	1292.2995498776	33.2243042014793
2.604164	587.287927126399	502.508185785039	772.930518306396	-40.551683826491
2.214424	679.887702887848	449.551781024262	815.07305952301	-33.4732658226196
1.892567	418.129595289206	394.164705001886	574.628726332002	-43.310108917057
1.607507	705.634871120183	480.327445726915	853.6012104369	-34.2432179668723
1.376413	1273.84232217241	-253.992013137163	1298.91732011513	11.276347988502
1.17375	697.184354109835	440.031835503452	824.435588673903	-32.2583030884667
1.001604	1002.88161246063	353.68315115401	1063.42056592012	-19.4260595593972
