EC-Lab ASCII FILE
freq/Hz	Re(Z)/Ohm	-Im(Z)/Ohm	|Z|/Ohm	Phase(Z)/deg
6999984	46.9401369597751	58.6295949472516	75.105298491393	-51.3184717998934
5969734	44.8295909862289	53.8021765728104	70.0311818546884	-50.1979210512222
5091109	45.4534779012098	51.5960587153362	68.7617039366549	-48.6216052948362
4341796	48.6162724703354	49.8661241772103	69.6431783405012	-45.7271084575046
3702781	53.6137456406563	46.7133945768186	71.1095981883637	-41.0654779996966
3157797	57.8662328763592	43.7239995821898	72.52785014575	-37.074867063656
2693047	61.8038740732924	40.4985470962159	73.8908057025487	-33.2358321123174
2296687	65.5004620640616	37.6321381065965	75.5413022728595	-29.8787635286648
1958656	68.8595447483032	34.3794155713075	76.9648044106411	-26.5315211711987
1670375	71.9525281252897	31.2321116809862	78.4385817291095	-23.4640025388935
1424531	74.5603041673722	27.8293411683551	79.5846165247768	-20.4678916365954
1214875	76.7021892912836	24.9157969030975	80.6475218304462	-17.9957735562562
1036062	78.1872028448168	22.0462136826566	81.2359170960597	-15.7467022159835
883578.1	79.4753658758165	19.5539718873136	81.8455349891779	-13.8224005427249
753531.2	80.5166922504998	17.3504776984409	82.3649003357971	-12.1606682382408
642624.9	81.3584537317662	15.438664598895	82.8103276060488	-10.7447520166017
548046.8	82.0537519284535	13.7677525608303	83.2007765355134	-9.52490195245637
467390.6	82.591445245032	12.3535754155909	83.5102248423019	-8.50692210826948
398593.7	83.0325676474228	11.1850121987827	83.7825267463972	-7.67192206553558
339937.5	83.4032652396424	10.2094670867055	84.025816692423	-6.97890669401304
289906.2	83.7265693352343	9.45402315634611	84.2586314064531	-6.44229161182737
247234.4	84.0289992734161	8.90214127702899	84.4992357255848	-6.04743201773501
210843.7	84.2969989160661	8.50421646361946	84.724882554745	-5.76073539620745
179812.5	84.5916778868082	8.20753755367959	84.988914808936	-5.54179676353206
153343.8	84.7700270896836	8.22816028963738	85.1684220502978	-5.54401869386157
130781.2	85.0505015613441	8.32643850716391	85.4571085050845	-5.59143496211321
111531.3	85.3337730507353	8.57941639913654	85.7639738399765	-5.74119753539348
95109.37	85.5769685224136	9.00766597286924	86.0497274124965	-6.00871725951802
81109.37	85.7770942619243	9.60271068118517	86.3129303896328	-6.38764289732779
69171.88	86.2030225746622	10.3983613255111	86.8279161287636	-6.87815206573929
59000	86.5879795792298	11.3339222254048	87.3266053423849	-7.45732645294728
50312.5	87.0247668005348	12.493942839016	87.9170554804474	-8.1699942768428
42906.25	87.4327766202751	13.8391604307014	88.5212561420003	-8.99435449332113
36593.75	87.9043592884552	15.4592240642266	89.2533696315259	-9.97427848075542
31203.13	88.4710865708294	17.3370473454209	90.1537928746238	-11.0873464006222
26609.38	89.135533640247	19.5681704883956	91.2581867757328	-12.3818815133629
22703.13	89.8430269918464	22.1026967934808	92.5218823014436	-13.8211285764197
19359.37	90.6337513523754	25.0318229039051	94.0269591239485	-15.4394364096108
16500	91.5175000303387	28.4409127903274	95.8349536033177	-17.2636881926837
14112.02	92.5242136221028	32.279214729001	97.993253899998	-19.2325086866241
12011.13	93.7048309531052	36.8584808492515	100.693311369051	-21.4720288204519
10236.38	95.0074742513251	41.9928332437973	103.874049730708	-23.845191359994
8750.684	96.4552626356041	47.8351892546823	107.665328779207	-26.3782549610012
7449.463	98.1290415376686	54.7586573176186	112.373570488482	-29.1626980650442
6363.206	99.9882900961815	62.4794427646744	117.903939393654	-31.9999277707525
5414.761	102.188542504168	71.5147049316637	124.727107080173	-34.985519167932
4620.567	104.918488716911	81.9422470553022	133.125584044213	-37.9901442230657
3941.215	107.629141959079	93.6142081817659	142.645196807837	-41.0162551955169
3361.769	110.824600532753	107.171137534467	154.167911069963	-44.0398508832474
2867.244	114.678169304092	122.675732960931	167.929800727684	-46.9298328131534
2442.658	119.091079220289	140.650221322342	184.296418597532	-49.7448088380989
2083.003	124.370404191964	161.118762890706	203.53685954712	-52.3348187143641
1777.843	130.111745433115	184.388221198646	225.672511432944	-54.7916674694631
1513.548	137.212558090485	211.435436327078	252.056005349122	-57.0181528134517
1292.065	145.60942926913	241.89006798162	282.334749685961	-58.9535183017343
1101.762	155.460625782666	276.800620662338	317.469037494673	-60.6799547300225
939.101	166.803960155626	316.985668220939	358.194744491143	-62.2457910883356
801.2801	179.796707593325	362.330568222027	404.487696635506	-63.6083420209362
684.3433	195.400603451704	413.891506143686	457.698126156508	-64.7277296652833
582.9476	213.665183429865	473.3227905295	519.31423497219	-65.7048518890994
497.0677	235.150713717984	539.768729939793	588.76662607768	-66.4596091926252
423.5089	261.011005501942	615.883312039001	668.908812201831	-67.0327961708741
361.5036	290.5723057801	700.900376062788	758.744754216674	-67.4825680400518
308.1262	325.758980751073	798.649254228463	862.530894994294	-67.8100707157485
262.7298	366.704238161775	907.993706491968	979.246939905778	-68.0080849297458
224.2111	414.410113703166	1030.52846447118	1110.73158702938	-68.0932837538817
191.2854	471.327231958562	1168.59442111776	1260.06439543909	-68.0343836925423
163.1722	536.488569472091	1323.59004267133	1428.1843670314	-67.9358922475593
139.1537	613.191973276675	1498.18856253892	1618.81850897912	-67.7412584845533
118.6706	703.120612849516	1692.08586789898	1832.35727426649	-67.4354136135125
101.1982	807.927063712518	1907.58463842573	2071.62383000316	-67.0456877212645
86.24196	929.707383506394	2147.94798127882	2340.52052954595	-66.5953428942917
73.61024	1068.64392868239	2413.15651259041	2639.19006526004	-66.1142875294998
62.69291	1231.72262943373	2709.45293270307	2976.28557608178	-65.5533618480668
53.57697	1413.50438634736	3029.50583249429	3343.03757671674	-64.987222250698
45.65746	1625.45778502749	3387.27028863534	3757.08836989206	-64.3649327894064
38.96512	1866.14885749831	3777.01833003254	4212.88250770705	-63.7069480574782
33.18414	2141.36747750146	4208.42793191967	4721.89795864572	-63.0317172959165
28.30617	2443.46869010288	4681.47643329165	5280.79168638361	-62.4379611328224
24.17237	2792.80648425839	5183.92113736894	5888.36194683854	-61.6866988718469
20.61345	3183.67598961572	5736.64447866391	6560.85990411629	-60.9709599941695
17.55618	3627.96434053544	6346.48856714957	7310.26965228759	-60.2455954255339
14.98558	4113.57437994917	7007.81700474557	8125.94568966439	-59.5871523273695
12.76553	4652.2890892387	7725.68503388447	9018.31486546328	-58.9442936812327
10.8809	5260.7887690006	8509.11006464441	10004.0418114018	-58.273417398914
9.278505	5917.03486228438	9343.94891591616	11059.8681232978	-57.6560553746606
7.923394	6650.63064538722	10253.8466557598	12221.794435401	-57.0326142682008
6.75822	7455.27592936524	11256.3662761101	13501.3673724154	-56.482838345461
5.761429	8345.93986973522	12342.3087466702	14899.2381519113	-55.9332171213258
4.919708	9321.46245141716	13484.6219069589	16392.8243511244	-55.3452077249169
4.191257	10345.6215650086	14748.7929089121	18015.5149201	-54.9520498154761
3.564097	11544.3615514784	16188.3115281275	19883.0006227169	-54.5062141663509
3.051758	12735.7562306712	17621.7399584876	21742.2447307457	-54.1432396735576
2.604164	14108.5397847229	19306.858976864	23912.4590623721	-53.842431101536
2.214424	15566.7432753902	21123.4019075689	26239.6952030811	-53.6119015326651
1.892567	17174.5555197319	23070.1363726922	28761.0248349215	-53.3341717006313
1.607507	18914.7050752853	25330.2779845515	31613.115171708	-53.2504511076068
1.376413	20714.1992485926	27614.9556866579	34520.4841809392	-53.1261421843752
1.17375	22772.5580524774	30234.0480934505	37850.8528882842	-53.01261059727
1.001604	24908.5981416847	33135.9821909569	41453.9693774113	-53.0675056836215
