EC-Lab ASCII FILE
freq/Hz	Re(Z)/Ohm	-Im(Z)/Ohm	|Z|/Ohm	Phase(Z)/deg
6999984	11.4108799682703	0.52794285241159	11.4230865052176	-2.64899301648502
5969734	6.81501590737146	-0.545943069470869	6.83684837134987	4.58011804412591
5091109	4.04627797682681	-0.495427959050638	4.07649534874783	6.98057400119687
4341796	2.21442012289355	0.965045433102827	2.41556808403913	-23.5475970812031
3702781	1.54411683818939	0.451062634041448	1.60864984064538	-16.2839761996336
3157797	1.24330858171876	0.32607424311353	1.28535623132172	-14.695616870394
2693047	1.05610598396482	0.268502189455386	1.08970329682379	-14.2645463436494
2296687	0.942939670853427	0.252173981596448	0.976077322686771	-14.9724471586894
1958656	0.879496812513074	0.234710922276276	0.910276804195535	-14.9422694716199
1670375	0.832504457094284	0.211920028326234	0.859053996840501	-14.2817293479253
1424531	0.809222327261559	0.189098497237167	0.83102287368999	-13.1528191450232
1214875	0.790430753550078	0.162865091165695	0.807035200024233	-11.6426284477733
1036062	0.777989281879424	0.135847971265906	0.789760719469083	-9.90479588893991
883578.1	0.764265466760015	0.115114016826863	0.772886110983966	-8.56552996113341
753531.2	0.754092513181722	0.0983874738517223	0.760483802225695	-7.43346849035803
642624.9	0.743668413041906	0.0844139317671914	0.748443999530134	-6.47593569355745
548046.8	0.735695895791164	0.0707330349274388	0.739088366377126	-5.49178786125745
467390.6	0.729034598973211	0.0594513787545271	0.731454655420173	-4.66204527925166
398593.7	0.724048446733896	0.0501734064063636	0.72578476418852	-3.96401137040158
339937.5	0.719748196453359	0.0429801661623725	0.721030346782442	-3.41739129919733
289906.2	0.717207001226089	0.0369378993507538	0.718157566983851	-2.9482666345735
247234.4	0.715664229174849	0.032246696808353	0.716390353351775	-2.57991206808389
210843.7	0.71525176437544	0.0283872690284524	0.715814866767291	-2.27279064707551
179812.5	0.715016635008717	0.0254377522214834	0.715468984357303	-2.0375209983655
153343.8	0.714509069233354	0.0221496986208241	0.714852305840659	-1.77559391527924
130781.2	0.714833464717341	0.0207930970967838	0.715135815888614	-1.66615152795792
111531.3	0.715591536270486	0.0184719516261628	0.715829909810168	-1.47867859147552
95109.37	0.716132032202659	0.0163646455429585	0.716318985627533	-1.30906303059397
81109.37	0.716632199774453	0.014382897229167	0.716776518509274	-1.14977904467421
69171.88	0.717026992303953	0.0126468064076097	0.717138514796663	-1.01046894045051
59000	0.717430869811902	0.0110992611558234	0.717516722144695	-0.886343363713373
50312.5	0.717668511770437	0.00972813312955939	0.71773444208912	-0.776607622000942
42906.25	0.71810069093105	0.00871833587311736	0.718153612882402	-0.695583941318107
36593.75	0.718254106860369	0.00750782447579389	0.718293344985282	-0.598884135360493
31203.13	0.718378790668755	0.00676387410715681	0.718410632490667	-0.539450764905337
26609.38	0.718766981422605	0.00598612325631365	0.718791908173014	-0.477166700236286
22703.13	0.719138651685818	0.00541873030761514	0.719159066539971	-0.431717166912211
19359.37	0.719081056570753	0.00466280624182242	0.719096174152636	-0.371523309575577
16500	0.719102326819865	0.00414295973583627	0.719114261124834	-0.330094163804155
14112.02	0.719210365928428	0.00363974544403492	0.719219575794347	-0.289957267043871
12011.13	0.719346997204206	0.00333954854597194	0.719354749043335	-0.265992161346934
10236.38	0.719367078727489	0.00289613643087165	0.719372908555186	-0.230668740319324
8750.684	0.719339602000056	0.00255148740754519	0.71934412703072	-0.203226468355297
7449.463	0.719475150296145	0.00228793437323612	0.719478788108	-0.182200235076925
6363.206	0.719538824409752	0.00201648117468897	0.719541649961485	-0.160568901071115
5414.761	0.719517042169819	0.00187052763183844	0.719519473569984	-0.148951436929704
4620.567	0.719311640812171	0.00158634153402407	0.719313390037583	-0.126357648419633
3941.215	0.719411330623622	0.00152873051564241	0.719412954878239	-0.121751869887694
3361.769	0.719367569393658	0.00151796781652508	0.719369170955797	-0.120902058885956
2867.244	0.71930939925041	0.00140197463712618	0.719310765512979	-0.111672568243091
2442.658	0.719350054244723	0.001235764760976	0.719351115698328	-0.0984277893719495
2083.003	0.719453674214722	0.00116141723352046	0.719454611654588	-0.0924927487553073
1777.843	0.719552947563898	0.00116326268832621	0.719553887855507	-0.092626935470927
1513.548	0.719378252698162	0.000937650374987259	0.719378863772968	-0.0746802930456032
1292.065	0.719483391095615	0.00090440333017163	0.71948395952087	-0.0720217688761962
1101.762	0.719426621864281	0.000940555160215183	0.719427236689757	-0.0749066113746799
939.101	0.719405160015017	0.000847114355544002	0.719405658762123	-0.0674669262922447
801.2801	0.719413883224897	0.000767071027193552	0.719414292167376	-0.061091281131147
684.3433	0.719604316363998	0.000606584053749064	0.719604572021268	-0.0482969559489592
582.9476	0.719447597396684	0.000538723396900528	0.719447799095083	-0.0429031541839094
497.0677	0.719429264302811	0.000474324387029357	0.719429420665368	-0.0377754741259641
423.5089	0.719419310106041	0.000379215809523002	0.719419410050968	-0.030201390333525
361.5036	0.719428721824043	0.000390715086549006	0.719428827920911	-0.0311168050028055
308.1262	0.719388356098765	0.000277083373756431	0.719388409460202	-0.0220683403753123
262.7298	0.71940896827501	0.000364843397558226	0.719409060788936	-0.029057164968759
224.2111	0.719353820982114	0.000293749228156432	0.719353880958584	-0.0233968175078364
191.2854	0.719427765350535	0.000235872530855473	0.719427804017272	-0.0187850687556725
163.1722	0.719450503811257	0.000200501867471674	0.71945053174994	-0.0159676175530521
139.1537	0.71942170714867	0.000173873366735462	0.719421728159954	-0.0138475247420414
118.6706	0.719598133630614	0.000148678691098544	0.719598148990126	-0.0118380815404262
101.1982	0.719606971015709	0.000112451902865521	0.719606979802054	-0.0089535255208401
86.24196	0.719527521231278	0.000203165148719321	0.719527549914042	-0.0161779847371124
73.61024	0.719476562147141	0.000123472036105487	0.719476572741888	-0.00983274071662426
62.69291	0.71948398169797	3.08854831619952E-05	0.719483982360885	-0.00245955139701855
53.57697	0.719411511676292	9.77627013934097E-05	0.719411518318905	-0.00778607244705949
45.65746	0.719419293422996	6.95257526675926E-05	0.719419296782532	-0.00553714950285575
38.96512	0.719322700686124	9.37418471550142E-05	0.719322706794324	-0.00746676306783308
33.18414	0.719350895221501	4.61438566506345E-05	0.719350896701485	-0.00367532486645153
28.30617	0.719079125791256	3.09023894771132E-06	0.719079125797896	-0.000246228325978574
24.17237	0.719088033896543	2.93512032587442E-05	0.719088034495561	-0.00233865672928815
20.61345	0.719073870587997	-4.96363318881273E-05	0.719073872301149	0.00395502108963818
17.55618	0.719195410042046	-4.12812915242175E-06	0.719195410053894	0.000328873591813188
14.98558	0.719124616429058	1.96099026516527E-06	0.719124616431732	-0.000156240605999358
12.76553	0.719032522051102	5.66407084929493E-05	0.719032524281996	-0.00451338908747379
10.8809	0.719175513589275	5.41121537533142E-05	0.719175515625027	-0.00431104503141877
9.278505	0.718957797344361	-2.34835701782394E-05	0.718957797727887	0.00187147209975864
7.923394	0.718872790660262	8.85503913649996E-05	0.718872796114058	-0.00705766547253172
6.75822	0.718899131149024	-6.18750012103063E-06	0.718899131175651	0.000493139617648943
5.761429	0.718858243287206	7.71079703328069E-05	0.71885824742268	-0.00614580314158102
4.919708	0.718736036300019	-1.00277764296671E-05	0.718736036369972	0.000799388423935344
4.191257	0.71853586571321	-3.80827242595984E-05	0.71853586672241	0.00303670209729414
3.564097	0.718556662358729	4.35145842977838E-06	0.718556662371905	-0.000346973615040268
3.051758	0.718567772210953	-1.03734168166233E-05	0.71856777228583	0.00082713562403794
2.604164	0.718587779764835	-2.59342713103711E-06	0.718587779769514	0.000206783963305264
2.214424	0.718605769452663	-2.64531934340596E-05	0.718605769939559	0.00210916249515307
1.892567	0.71847439577271	1.44917794443239E-05	0.718474395918861	-0.00115566790489257
1.607507	0.718429797092955	2.39801808341526E-05	0.718429797493168	-0.00191245290605537
1.376413	0.718450235138844	9.11272938445922E-06	0.718450235196636	-0.000726732218892599
1.17375	0.718495000158248	4.03845778034199E-06	0.718495000169597	-0.000322043419233213
1.001604	0.718321323914923	-1.54135019225532E-06	0.718321323916577	0.000122943392918448
