EC-Lab ASCII FILE
freq/Hz	Re(Z)/Ohm	-Im(Z)/Ohm	|Z|/Ohm	Phase(Z)/deg
6999984	1.72701364191892	1.74577848937514	2.45567071354019	-45.3095883826148
5969734	5.43497755609271	2.06281195539037	5.81327568575007	-20.7839466155454
5091109	5.33348042314109	-3.53124293526509	6.39653735171529	33.5081360340313
4341796	2.77351407005726	-6.9442962701799	7.47767550678953	68.2285017935326
3702781	1.81975251285254	-6.58173923519258	6.82867414423229	74.5446739354958
3157797	2.56813968550967	-5.92226327540544	6.4551176400981	66.5564390600023
2693047	0.787387824180732	-6.07320308099086	6.1240325969597	82.61283642341
2296687	-1.52785174400529	-11.1432310101203	11.2474854210426	97.8071614882638
1958656	-1.21768636389567	-6.03027000353447	6.15198475260993	101.416165344013
1670375	6.31485074416092	-14.1582957077205	15.5027312841411	65.9622818264516
1424531	15.0817563416477	8.41145554096655	17.2688146282971	-29.1494512808207
1214875	-2.68794875776223	-4.17977228562646	4.96946323902759	122.744461971979
1036062	-1.64198439837267	-3.68218191142671	4.03169646592316	114.033383542148
883578.1	5.49770048205215	-12.5729894173082	13.7224186453445	66.3820307071645
753531.2	10.8519358049527	-6.77234689401581	12.7917627076061	31.9669712383766
642624.9	10.5177624283729	-3.90696750098193	11.2199697661545	20.3782065529235
548046.8	0.237767894735879	-5.21089954677743	5.21632127637595	87.3874656175736
467390.6	5.39099444648132	-5.24763278487045	7.52332845001729	44.2279529273889
398593.7	10.2882544054014	-13.1710170385134	16.7129850277882	52.005597165282
339937.5	4.06302756346699	-8.83009650689366	9.72002043735239	65.2912336567944
289906.2	-0.493041520924044	-12.0700414350197	12.0801072091454	92.3391387704328
247234.4	-2.44031577115952	-16.5561421643151	16.7350226897959	98.3848175373147
210843.7	-15.9236717968213	-82.9702369561834	84.48445741116	100.864120508405
179812.5	-17.9209223302209	-97.2002442299077	98.8384891402105	100.446376979975
153343.8	-23.2940328262204	-110.838282088584	113.259598894122	101.868687410608
130781.2	-24.72522218119	-129.32667776508	131.669002402471	100.82344050495
111531.3	-32.0946765258766	-149.172660079706	152.586207687838	102.142160166224
95109.37	-37.9788277024584	-173.200155279517	177.315214075109	102.367905537505
81109.37	-45.4455943097397	-199.982757149998	205.081459911618	102.802895095568
69171.88	-55.6524584495135	-230.617904679315	237.237885022929	103.567163498493
59000	-67.1978821029683	-265.42959447362	273.803624851014	104.206870876757
50312.5	-82.7574139886684	-304.78383582574	315.819530983667	105.191155073012
42906.25	-100.138241579443	-344.704677091938	358.955403686419	106.198815947309
36593.75	-122.151736762609	-394.974749279922	413.432097644655	107.184990904288
31203.13	-148.326036961629	-449.302056231209	473.152143579986	108.269370827353
26609.38	-284.080654780958	-508.754520082111	582.694585631922	119.178315359305
22703.13	-326.244696929515	-571.960019940185	658.463261453977	119.700337206449
19359.37	-371.044670342775	-642.845026618545	742.242464184027	119.99317593554
16500	-433.669564431217	-715.379241368464	836.562460366756	121.224634124615
14112.02	-501.139667393252	-789.776249494934	935.354205903466	122.396504702996
12011.13	-584.588114976596	-865.724103165785	1044.61547325994	124.029549010678
10236.38	-661.782892581353	-939.335517788128	1149.0464794305	125.165552431083
8750.684	-770.762414330334	-1038.66078950751	1293.4028510115	126.578122579199
7449.463	-982.645903806304	-1067.34106063343	1450.79630271841	132.634171882173
6363.206	-1136.90747960996	-1108.86195398031	1588.12261811804	135.715481608607
5414.761	10.665063116148	0.808567581769457	10.6956698156642	-4.33556304138801
4620.567	93.48905606767	41.4061463840793	102.248093198865	-23.8884725918382
3941.215	13.8087790889406	2.94620656657261	14.1195790680912	-12.0438994395931
3361.769	20.4517587403878	-6.56261450847134	21.4788813666315	17.7905343444624
2867.244	16.353319039718	7.54566293007787	18.0102213387053	-24.7692977990267
2442.658	10.743935231789	12.9368041161165	16.8164516174978	-50.2905797858507
2083.003	17.0212715827381	4.35192872694431	17.5688067306158	-14.3419071051479
1777.843	13.3732943886391	-15.1327299683442	20.1951607842084	48.5319030224305
1513.548	11.7924569020649	-0.466881611983945	11.801695565751	2.26724441561864
1292.065	253.227014727986	45.7886420892029	257.333481561224	-10.2495044872245
1101.762	16.1446270509097	-1.41903137243736	16.2068699213922	5.02310150934689
939.101	26.810358426349	-14.3940866822159	30.4300024706612	28.2306962675946
801.2801	288.064686254262	-282.827311220882	403.69858984049	44.4743820750746
684.3433	-2797.55967908836	-722.772634821437	2889.41870273377	165.51392791355
582.9476	-2904.73394649459	-440.073245961041	2937.88082837421	171.385083736035
497.0677	-1128.45750190303	-3439.37654454497	3619.76896345158	108.164634142403
423.5089	-750.835231143621	-3354.83299173303	3437.82750392554	102.615308713443
361.5036	17.6177605256143	17.2660305715222	24.6678190692779	-44.4223116706531
308.1262	8.08575513818545	-5.3141517309895	9.67572450903141	33.3138746935921
262.7298	-2598.81243989043	-157.10375399726	2603.55673785867	176.540557976622
224.2111	-2473.6140663217	-103.082304800818	2475.7609962732	177.613707926902
191.2854	605.46046659751	-686.111529526966	915.058144361498	48.573144524524
163.1722	-2581.55703470023	-61.2916191673296	2582.28452847288	178.639932633761
139.1537	-2456.98365617352	-34.9570137900623	2457.2323210305	179.18487279271
118.6706	868.376413685481	-688.476322603845	1108.18646564167	38.4084950867584
101.1982	-2722.26055462749	-29.7028205333547	2722.4225948277	179.374865597576
86.24196	2030.67117875386	1473.91053703612	2509.19064787985	-35.9730577644636
73.61024	875.080580620295	1446.13184361237	1690.28498534669	-58.8211077552796
62.69291	2213.46108019821	-1602.32481556994	2732.55462308505	35.9007848681858
53.57697	-2390.3319611598	16.7819683901937	2390.39087159508	-179.597746179881
45.65746	875.760290949594	1010.66226850026	1337.30860618415	-49.0903764445004
38.96512	-880.062625559649	-2721.53678431062	2860.2924139435	107.919637389205
33.18414	-2687.20920272627	10.6807819487402	2687.23042895837	-179.772269124278
28.30617	948.23401348342	-402.079599476465	1029.95910047051	22.9783978892083
24.17237	-2983.96362535254	-47.9315118838554	2984.34856329795	179.079735037304
20.61345	-2616.50449049987	5.89932123854585	2616.51114096559	-179.870817865041
17.55618	516.694048855837	-677.342669870737	851.918911957386	52.6626995422057
14.98558	-768.806512247207	-2401.41398342276	2521.47825155246	107.752333713027
12.76553	450.571071773475	750.106808962124	875.028294154217	-59.0077774049332
10.8809	2117.44014297302	1534.16681799803	2614.80794409834	-35.9247746110679
9.278505	-2698.73229973557	-15.9541563414701	2698.77945759572	179.661287199361
7.923394	-2711.86569981336	-28.9384778122552	2712.02009751445	179.388616584659
6.75822	-2703.52983565528	-41.2013438960882	2703.84376823387	179.126889463843
5.761429	-2720.67797840148	-52.0655851449836	2721.1761220684	178.90366510686
4.919708	-2697.06482673905	-69.8632701202224	2697.96952468794	178.516173750013
4.191257	-2700.09266197839	-88.5857675285012	2701.5454505668	178.120890167152
3.564097	-2707.79306607324	-113.86110243744	2710.18590493763	177.592164713806
3.051758	-2701.28356612502	-143.607400319779	2705.09814795022	176.956869110564
2.604164	-2711.80496091735	-183.610443982035	2718.01378605688	176.126538673861
2.214424	-2731.5758323719	-229.731279195275	2741.21925220128	175.192617467798
1.892567	-2763.1138487076	-286.25002023261	2777.90158483033	174.085433824487
1.607507	-2805.44969620085	-363.084302372389	2828.84750535314	172.625709249832
1.376413	-2844.23038028161	-442.898667546332	2878.50754486264	171.149082420221
1.17375	-2906.25890981078	-544.681982942877	2956.85970472005	169.384945369013
1.001604	-2983.59816113592	-663.252591532442	3056.42961432259	167.466969149813
