EC-Lab ASCII FILE
freq/Hz	Re(Z)/Ohm	-Im(Z)/Ohm	|Z|/Ohm	Phase(Z)/deg
6999984	5.5369319952331	1.09827221924971	5.64480449505665	-11.2192183667495
5969734	3.82274485062687	-0.456592758646036	3.84991625106862	6.81120194737825
5091109	2.14664324503732	-1.11216623415086	2.41764160988548	27.3884712270641
4341796	1.29805357196013	-1.54108621484048	2.01491682142212	49.8926376788206
3702781	0.689250541542085	-1.04143894654715	1.24886403919774	56.5024048541647
3157797	0.452306831828203	-0.865032622835032	0.976146970843695	62.3959060306598
2693047	0.318233440976749	-0.672312489541769	0.743825656017425	64.6698609279751
2296687	0.239673217791611	-0.502455134252236	0.55669059024113	64.49866113879
1958656	0.206276343819815	-0.368224492017624	0.422065405525385	60.7428082001484
1670375	0.191970359469316	-0.270636850900288	0.331808565260156	54.6508459025758
1424531	0.18321047981041	-0.199872655317105	0.271136788827837	47.4905063931566
1214875	0.190915625586728	-0.155283018897099	0.246092649323316	39.1235063080361
1036062	0.193131410392261	-0.120789622090314	0.227793490874575	32.0229778628506
883578.1	0.194259719706917	-0.0937437377062967	0.215695913405323	25.7605205141809
753531.2	0.197425686982348	-0.0735452972849478	0.210679407235694	20.4314400616692
642624.9	0.198607963122967	-0.0569330489702144	0.206607103171451	15.9955034089411
548046.8	0.200774408001232	-0.0482670891481906	0.206494733112214	13.5176500210727
467390.6	0.202388408871655	-0.0387752807609605	0.206069382596473	10.8457816646171
398593.7	0.203960445925312	-0.0317694046725419	0.206419859934309	8.85339541656304
339937.5	0.205175225019789	-0.026472256052791	0.206875936982641	7.35183919328574
289906.2	0.206561865555954	-0.0239075526821911	0.207940797769961	6.6020608929996
247234.4	0.206616557008511	-0.0212986364231724	0.207711418905022	5.88542820116177
210843.7	0.20691558432821	-0.01942389349522	0.207825279204427	5.36284027171649
179812.5	0.206112120552934	-0.0169677322415319	0.206809357080979	4.70613839229155
153343.8	0.205426077481622	-0.0153109756133367	0.205995872006498	4.26253212194725
130781.2	0.205165571543084	-0.0134650590138996	0.205606954067337	3.75494881124086
111531.3	0.204937874531896	-0.0120877721116682	0.205294049237368	3.37554418071436
95109.37	0.204623364123731	-0.0108432719936958	0.204910462624148	3.03334456461468
81109.37	0.204305393633259	-0.00960129119660498	0.204530874589347	2.69062412987922
69171.88	0.203834419972658	-0.00851805091168006	0.204012323051633	2.3929450533346
59000	0.203397127405695	-0.00749490638296032	0.203535169095117	2.11031643215246
50312.5	0.203037084737722	-0.00652960160054909	0.203142052455554	1.84197737838089
42906.25	0.202740224892234	-0.00565513665012563	0.20281908036446	1.59776615032008
36593.75	0.202479552262733	-0.00478244366536088	0.202536023590691	1.35303983320144
31203.13	0.202321473681873	-0.00405181055220114	0.202362041602559	1.1472861053076
26609.38	0.202212368622864	-0.00335087866434721	0.202240130567333	0.949366429346583
22703.13	0.202159450166243	-0.00278435035540751	0.20217862374252	0.789087215736687
19359.37	0.20208711129215	-0.00233180275455383	0.202100563716414	0.6610838606421
16500	0.202159802418007	-0.00189942142585276	0.202168725364336	0.53831487607649
14112.02	0.202107150007895	-0.00148264604583875	0.202112588236386	0.420310895014085
12011.13	0.202186689164296	-0.00118307171128812	0.202190150437388	0.335255711397371
10236.38	0.202229928092718	-0.000946923077644855	0.202232145020767	0.268280268301789
8750.684	0.20228457581833	-0.000717010998308202	0.202285846560686	0.203087812568875
7449.463	0.202364541559607	-0.00052337536658695	0.202365218361269	0.148183730780008
6363.206	0.202413583319053	-0.000414786900359771	0.202414008310275	0.117410625969767
5414.761	0.202392553327581	-0.000279305948751707	0.20239274605151	0.0790693216436439
4620.567	0.202494392919551	-0.00023817198983892	0.202494532987324	0.0673907229054923
3941.215	0.202596426000515	-0.000155967207817808	0.202596486035548	0.0441086803031765
3361.769	0.202594118032143	-8.38405416219925E-05	0.202594135380219	0.0237109989147964
2867.244	0.202626048656469	-2.76815146581549E-05	0.202626050547307	0.00782739416324433
2442.658	0.202672939148767	4.27532085941791E-05	0.202672943658093	-0.0120863613417903
2083.003	0.202717451666956	2.56640903333837E-05	0.202717453291496	-0.00725366287509008
1777.843	0.202663314692201	2.78315707846578E-05	0.202663316603243	-0.00786837783433003
1513.548	0.202738863608806	4.65530811450135E-05	0.202738868953586	-0.0131563084579955
1292.065	0.202741873958724	3.92995461629358E-05	0.202741877767642	-0.0111062310895497
1101.762	0.202760854035237	3.80227701508277E-05	0.20276085760035	-0.0107444025123467
939.101	0.202782864350549	3.69668704583038E-05	0.202782867720038	-0.01044489455452
801.2801	0.202820726194567	1.44258736444083E-05	0.202820726707596	-0.00407523279167678
684.3433	0.202791461500886	1.6090632528493E-05	0.202791462139247	-0.00454617430546897
582.9476	0.202790040805611	1.7796026643417E-05	0.202790041586465	-0.00502804384328769
497.0677	0.202781709021131	-9.52192743791747E-06	0.20278170924469	0.00269041156253723
423.5089	0.202785623719259	-1.87771011661611E-05	0.202785624588599	0.00530534968655306
361.5036	0.202765947876796	-5.82432427040007E-05	0.202765956241798	0.016457851701722
308.1262	0.202746418404517	-3.12895103318675E-05	0.202746420818945	0.00884236024942882
262.7298	0.202728021839948	-3.00759186287393E-05	0.202728024070919	0.00850017266544284
224.2111	0.202735344892188	-1.08369016043952E-05	0.202735345181822	0.00306265651245578
191.2854	0.202746548170165	-1.1295508966755E-05	0.202746548484815	0.00319208882429142
163.1722	0.202717958049414	-1.40470125224247E-05	0.202717958536097	0.00397021822219623
139.1537	0.202746962902242	2.69246344774303E-06	0.20274696292012	-0.000760883368271372
118.6706	0.202691957443184	5.65408809905315E-07	0.202691957443973	-0.000159826462360184
101.1982	0.202726198378338	-1.47275778770053E-05	0.2027261989133	0.00416240259062798
86.24196	0.202728652165728	-6.88038340105612E-06	0.202728652282485	0.00194455458540096
73.61024	0.202732536216205	6.79592912519749E-06	0.202732536330111	-0.00192064906731472
62.69291	0.202707532025648	-7.44270299135188E-07	0.202707532027015	0.000210369819666091
53.57697	0.202733498287142	-4.90604726542238E-06	0.202733498346503	0.00138652864336904
45.65746	0.202707987742599	3.36372215935029E-06	0.202707987770508	-0.000950762154535522
38.96512	0.202726621422607	1.39612168321724E-05	0.202726621903342	-0.00394580047984114
33.18414	0.202732546175245	5.87997773254804E-06	0.202732546260516	-0.00166178501660122
28.30617	0.202743392941608	3.51681531331245E-05	0.202743395991766	-0.00993860612843058
24.17237	0.202728612220524	-1.05948709679168E-05	0.202728612497376	0.00299435478665602
20.61345	0.202688836957551	2.25021296626835E-05	0.202688838206623	-0.00636086857956132
17.55618	0.202710989282379	1.04779587409969E-05	0.202710989553178	-0.00296157014161864
14.98558	0.202696326140346	-4.96072299716163E-06	0.20269632620105	0.00140223800019594
12.76553	0.202687535609847	2.97900818357776E-05	0.202687537799052	-0.00842107011224708
10.8809	0.202713445442075	-1.7457031254466E-05	0.202713446193747	0.00493412861221441
9.278505	0.202692644792503	-2.7364419163906E-07	0.202692644792687	7.73518806527392E-05
7.923394	0.202689600172748	1.40190728369111E-05	0.202689600657564	-0.00396287576805163
6.75822	0.202697779631497	2.18413547424983E-05	0.202697780808236	-0.00617380931860701
5.761429	0.202663770709257	-8.39780907125154E-06	0.202663770883248	0.00237417381005052
4.919708	0.202651571678142	1.81571167988493E-05	0.20265157249156	-0.00513357063703709
4.191257	0.202689542935659	1.76023646302697E-05	0.202689543699989	-0.00497579295716074
3.564097	0.202668744910214	1.44540207749478E-05	0.202668745425634	-0.00408624618641479
3.051758	0.202679427986942	9.1571214200977E-06	0.202679428193803	-0.0025886416530505
2.604164	0.202669702202971	4.55176492263291E-06	0.202669702254085	-0.0012868076309577
2.214424	0.202648956534245	6.30997580665562E-06	0.202648956632483	-0.00178404561571522
1.892567	0.202653110021896	7.37245934991602E-06	0.202653110156	-0.00208440326995208
1.607507	0.202647584243409	6.64089103248768E-06	0.202647584352222	-0.0018776193639426
1.376413	0.20263179138728	-4.05813930720511E-07	0.202631791387687	0.000114747174363322
1.17375	0.202641090722065	-1.60400474307964E-06	0.202641090728413	0.000453524513552685
1.001604	0.20265342794896	-8.24276809016147E-06	0.202653428116594	0.00233046056802881
