EC-Lab ASCII FILE
freq/Hz	Re(Z)/Ohm	-Im(Z)/Ohm	|Z|/Ohm	Phase(Z)/deg
6999984	33.2864203884951	82.2366574408756	88.717831405685	-67.9636807006231
5969734	33.3045216594785	80.3698446515016	86.997144161594	-67.4913342943173
5091109	34.226324672975	83.2896325991188	90.0477884187951	-67.6607006185579
4341796	38.3183879892517	88.8354682980773	96.7472960130334	-66.6674782806987
3702781	46.7032612866541	94.182315773823	105.126130050191	-63.6240410645228
3157797	53.9973952616885	100.387879302324	113.988793334542	-61.7247432694436
2693047	64.4416238316377	108.805205656948	126.456694801458	-59.3631831252529
2296687	77.2605584060396	116.668714339277	139.931350278602	-56.4866084077529
1958656	92.8081643383401	122.622158042532	153.784098693135	-52.8792718591872
1670375	110.196234773587	127.35819577661	168.414132986958	-49.1321164198757
1424531	128.897297903288	129.529731250664	182.736051956471	-45.1402163287962
1214875	148.566979024101	129.009050255631	196.762502281831	-40.9696164309932
1036062	168.196509011576	126.94497294296	210.725157015412	-37.0433887623916
883578.1	184.121675558233	118.580526428185	219.002585962716	-32.7828917865326
753531.2	200.756131413181	114.870270834599	231.296786448927	-29.7776765848699
642624.9	213.633483845608	105.549346438071	238.28539601393	-26.2924774494922
548046.8	225.473969692988	96.7881403725136	245.37003713959	-23.2321666262497
467390.6	235.129509948877	87.5463069503152	250.898868689036	-20.421923232692
398593.7	243.127122346059	78.5529352549513	255.502174662847	-17.9053378978728
339937.5	249.267322167399	70.2203761320788	258.969301510114	-15.7329053922768
289906.2	254.641729669692	62.9233508677088	262.300893200144	-13.880045826493
247234.4	258.299960881509	56.2705008566523	264.358164349142	-12.2898358435751
210843.7	261.497464532426	50.2316307172894	266.278314328084	-10.8736216838825
179812.5	264.099753812374	45.6443672582436	268.015089549379	-9.8055653284012
153343.8	266.142384972445	41.3250306765177	269.33163059551	-8.82607105931325
130781.2	268.078034556652	37.9601946933594	270.75230191619	-8.05957385056519
111531.3	269.418360408141	35.3779507125174	271.731213373856	-7.48084064085945
95109.37	270.969638494016	33.3289955621936	273.011660796315	-7.01210386866292
81109.37	272.078341111715	31.0059704624256	273.839357847661	-6.50136356050535
69171.88	273.772750959055	31.3647243495329	275.56354095056	-6.53558632960852
59000	274.714197865956	30.9900419714661	276.456638933719	-6.43622971835488
50312.5	275.764142552094	31.5643989035136	277.56471965225	-6.52974788967614
42906.25	277.100016122194	32.9234460526581	279.049049872783	-6.77579315563916
36593.75	278.457118469481	34.0515875440399	280.531419703027	-6.97189369060064
31203.13	279.849707267959	35.5550917959209	282.099314445425	-7.24067392187446
26609.38	281.562449878506	37.601745719779	284.062148944137	-7.60665644309222
22703.13	283.502967970673	40.5001767684764	286.381209520558	-8.13005338894423
19359.37	285.461082723927	43.8653018124527	288.811693760856	-8.73600782349664
16500	287.503360699509	48.2091662084792	291.517248409127	-9.5189202730752
14112.02	289.713882095173	53.0732853898436	294.535069390264	-10.3810269490967
12011.13	292.394065043452	58.8025066322693	298.248259104513	-11.3709089430104
10236.38	295.235595936395	65.2975921799024	302.370356768667	-12.471406168852
8750.684	298.168506103063	72.6798953152038	306.89872142901	-13.6989567857639
7449.463	301.393528787097	81.2953088091638	312.164998725219	-15.0952320141859
6363.206	305.065472407584	91.0383613531223	318.359742576106	-16.6162802616536
5414.761	308.979806976623	102.229982736152	325.452746938085	-18.3074683263853
4620.567	313.553790426524	115.434006070383	334.127205190326	-20.2110518457721
3941.215	318.787919217521	129.44045928859	344.06477579066	-22.0990910201769
3361.769	323.75528665198	146.102272955154	355.194819497368	-24.2884085919954
2867.244	329.508615378366	165.257895118388	368.627317907298	-26.6350603743568
2442.658	336.068744112766	186.90690470844	384.546995563899	-29.0809197989451
2083.003	343.213876125251	211.911543565537	403.363690806755	-31.6925473728207
1777.843	351.420866616776	240.827267529898	426.021593677601	-34.4226798074632
1513.548	360.227854607843	273.703247617944	452.413057937079	-37.2277837695985
1292.065	370.938821038113	311.922223839458	484.655633081984	-40.0604584608355
1101.762	383.729113399068	354.782972432929	522.607874030214	-42.7554284755908
939.101	396.892573317077	405.116045621114	567.13554391692	-45.5874671836753
801.2801	411.945443939948	461.900963376585	618.911583952908	-48.2718890454222
684.3433	429.320313203633	526.620423851644	679.444627726904	-50.8118166808151
582.9476	449.674206087481	600.44177022704	750.158124033718	-53.1702542050223
497.0677	473.373248926457	686.735880958568	834.079374517276	-55.4211532806615
423.5089	501.195690306042	784.293883963744	930.759913406397	-57.4197675799486
361.5036	532.498897354217	893.931741904829	1040.51383213702	-59.2185112819823
308.1262	569.462842982942	1020.98937164998	1169.06254176603	-60.8491491669247
262.7298	611.898985807278	1164.55306467251	1315.5243096462	-62.2809134011771
224.2111	660.798557604921	1328.24591018934	1483.54033705439	-63.5497857342738
191.2854	717.650857655187	1514.79752846954	1676.19638042523	-64.6502657713816
163.1722	784.85408661259	1726.20775411618	1896.25661439672	-65.550153284414
139.1537	862.037419525982	1967.80983307736	2148.34449095553	-66.3432414644341
118.6706	954.714372086161	2243.93857086674	2438.59382474642	-66.9520091217606
101.1982	1058.64244774937	2553.90886016151	2764.62914297528	-67.4850890543503
86.24196	1181.24180997072	2905.87482338194	3136.78827828528	-67.8781953975896
73.61024	1322.3303927316	3301.97640042543	3556.90958790186	-68.1755604932625
62.69291	1490.68045653726	3752.11807571679	4037.39003288298	-68.3325509291283
53.57697	1677.10425073028	4253.81518048482	4572.48534798535	-68.4827231672321
45.65746	1897.90694628509	4824.14966858503	5184.05929766108	-68.5244344947177
38.96512	2151.96839582375	5457.30321774235	5866.2702279221	-68.4792854204614
33.18414	2446.88525084183	6178.93141558991	6645.78369113465	-68.3962065401674
28.30617	2763.07254824233	6993.20233305749	7519.27182497954	-68.44061076929
24.17237	3167.23799357872	7878.99740545867	8491.76051376821	-68.1006176136594
20.61345	3614.92795151322	8886.92418728682	9594.01509302623	-67.8650173683016
17.55618	4117.77144591166	10029.7093650786	10842.0990416391	-67.6790352680021
14.98558	4686.63124032731	11274.1294001315	12209.44331711	-67.4274495001602
12.76553	5346.82076410686	12687.0665496798	13767.7213045401	-67.1475596172388
10.8809	6083.10504352139	14269.2997097443	15511.8368086124	-66.9110999351883
9.278505	6909.8910206649	16027.7925938349	17453.8456893732	-66.6781925914676
7.923394	7818.51148562971	17962.0893319814	19589.9406589454	-66.4775427716128
6.75822	8854.14119669399	20144.7145883994	22004.6663728189	-66.2732260218691
5.761429	9980.87879332579	22597.4228139431	24703.4705925944	-66.169807139848
4.919708	11274.2643516348	25341.348783341	27736.1315765102	-66.0159106760759
4.191257	12757.8238555303	28394.3066538009	31128.7442708314	-65.8051767990268
3.564097	14307.7103386108	31915.9926645383	34976.2942990885	-65.8536490284948
3.051758	16098.6793991566	35712.4696541132	39173.306819731	-65.7348175817847
2.604164	18013.4890783199	40040.8461625697	43906.2085608553	-65.7780758953171
2.214424	20332.7641848764	45027.8406424152	49405.7459443386	-65.6979763955578
1.892567	22718.9707345013	50501.5264140583	55376.491414543	-65.7785915573327
1.607507	25637.0905808771	56805.2564905198	62322.5286586306	-65.709607438799
1.376413	28824.493946583	63702.5158776484	69920.3974560975	-65.6539159411122
1.17375	32279.6727026055	71631.6293007651	78568.8716100057	-65.7420368500034
1.001604	36358.8962089816	80460.0911813323	88293.8027635225	-65.6823919435302
