EC-Lab ASCII FILE
freq/Hz	Re(Z)/Ohm	-Im(Z)/Ohm	|Z|/Ohm	Phase(Z)/deg
6999984	22.2379364349109	8.65774226199424	23.8638286525498	-21.2721123865749
5969734	18.4211931322991	-6.72899541193248	19.6117244440991	20.0665175123724
5091109	12.313315464381	-4.44864700822051	13.09229536518	19.8641545487101
4341796	7.51744799749605	-8.91814274911583	11.6638456132043	49.8711632206591
3702781	6.47613885842314	-5.35607644149136	8.40404244162753	39.5923748605255
3157797	4.10627930007528	-5.18238398346966	6.61200676363459	51.608336878028
2693047	3.32483226907725	-4.12061900817783	5.29471534910554	51.1007421081657
2296687	2.75842814208893	-3.68069218221832	4.59961093521085	53.1509397977485
1958656	1.67025611239289	-3.09521302441494	3.51711517404445	61.6475658544395
1670375	1.2195286576914	-2.85472770379407	3.10430675187552	66.8680135089945
1424531	1.20633567364034	-2.39612887750773	2.68266273600014	63.2769432322325
1214875	0.919922250411219	-1.90512639559672	2.11560004017796	64.2256467494101
1036062	0.683124683358139	-1.80588605192581	1.93077284152055	69.2795355729206
883578.1	0.770180830513369	-1.59138232381707	1.76795820432715	64.1744243225254
753531.2	0.563615592484455	-1.3234818330333	1.43849459451914	66.9328723314033
642624.9	0.644353277679566	-1.1636352384136	1.33012710465364	61.0248753226913
548046.8	0.510488719772902	-0.95995963905382	1.08725399131377	61.9967836305717
467390.6	0.538599251024552	-0.920601670830151	1.06658173129839	59.670173911884
398593.7	0.475155007112596	-0.723372044306853	0.865470620684981	56.700642521702
339937.5	0.41724717760005	-0.678352848137584	0.796403034770448	58.4047966213375
289906.2	0.410013634892223	-0.583369237555167	0.71304337043635	54.8990225715367
247234.4	0.396612125935491	-0.502484549173874	0.640149904786013	51.71589251533
210843.7	0.381843596787372	-0.434839547862324	0.57869678139128	48.7128144462431
179812.5	0.369643963529369	-0.374055893166464	0.525884465435386	45.3398978499772
153343.8	0.362620547272986	-0.324654999196789	0.486718121511853	41.8381574230541
130781.2	0.355611123967532	-0.282001966566945	0.453855021606102	38.4146486534781
111531.3	0.349332146563106	-0.245319055001515	0.426865772075045	35.0785102180817
95109.37	0.341629082444677	-0.214225505788483	0.403240619608595	32.0906098009878
81109.37	0.335803845672616	-0.187793588552201	0.384747520680552	29.2154903962875
69171.88	0.329450849412311	-0.162545853759024	0.367367686048655	26.2610048778057
59000	0.31633899628824	-0.13706827246614	0.344757990320026	23.426869144191
50312.5	0.309240116565731	-0.106007573568791	0.326905269684552	18.9217249193892
42906.25	0.342061459306493	-0.10680445071483	0.358347921209799	17.3403270273604
36593.75	0.330789299996419	-0.0956261898545121	0.344334037205461	16.123782929693
31203.13	0.32348500681527	-0.0827916873929574	0.333911684634797	14.3559331119727
26609.38	0.318538152474169	-0.0695368756025367	0.326039770043809	12.3144787583437
22703.13	0.318955621378291	-0.0612622816405136	0.324785707137203	10.8724757682923
19359.37	0.316301485611191	-0.0536343625798761	0.320816574773181	9.62394343692268
16500	0.314375500860321	-0.0468271322719473	0.317843885984916	8.47208054474758
14112.02	0.312319856551395	-0.0402870395847328	0.314907507618961	7.35016042694601
12011.13	0.312536375486178	-0.0348950639173798	0.314478380000653	6.37075783110528
10236.38	0.309075425690207	-0.0288525864874303	0.31041921736999	5.33317824666256
8750.684	0.307986237303528	-0.0244727361893612	0.308957015108865	4.54320466521681
7449.463	0.304633498812733	-0.0218996594550188	0.305419651763165	4.11183677337651
6363.206	0.29880492586674	-0.0181985041375977	0.299358596460957	3.48525413932601
5414.761	0.3029629487949	-0.0218980736424392	0.303753311046565	4.13413285301623
4620.567	0.300265776733876	-0.0158308494115448	0.300682810401075	3.01799903598769
3941.215	0.297539226297582	-0.015212645529572	0.297927870078937	2.92688155782803
3361.769	0.295157511703695	-0.0143218831072521	0.295504776697187	2.77797555645148
2867.244	0.292674113082678	-0.014417703604648	0.293029020142995	2.82022317243325
2442.658	0.292687926254797	-0.0135085925612495	0.292999495303864	2.64252947959815
2083.003	0.289594516366237	-0.0111601851199018	0.289809478177138	2.2069314403564
1777.843	0.289713754066799	-0.00891505636307058	0.28985088843306	1.76254652036852
1513.548	0.286090219612157	-0.0102237403442711	0.286272839480729	2.04665509153548
1292.065	0.291265498443017	-0.0107665307642064	0.291464421101369	2.11695529412464
1101.762	0.292057505587268	-0.00334316180282108	0.292076639429957	0.655832129491931
939.101	0.292717340757192	-0.00475819399205958	0.292756011022879	0.931275286965328
801.2801	0.274349237732279	-0.0125829205618364	0.27463764150995	2.62600824157555
684.3433	0.319712040118181	-0.0138604119536358	0.320012342912041	2.48237803557657
582.9476	0.296555767374299	0.00729768745429901	0.296645545062015	-1.40965837660068
497.0677	0.301121628957664	-0.000521388104763383	0.301122080345618	0.0992067827902094
423.5089	0.299390727651479	-0.00982944931699466	0.299552042018674	1.8804314408011
361.5036	0.300185896300964	-0.00199020191485247	0.300192493646452	0.379859616311613
308.1262	0.302266744249463	-0.0207128850990642	0.302975590251586	3.92007582075535
262.7298	0.30441686989998	-0.00957669353066291	0.304567469928555	1.80188179187764
224.2111	0.289012710752938	-0.00214644409260303	0.289020681265207	0.425517362498439
191.2854	0.285082149074287	-0.00562635615599292	0.285137664303417	1.13063767065448
163.1722	0.290090911244354	-0.00357328267637513	0.290112917905537	0.705722429502947
139.1537	0.312718294289195	0.0168936364405505	0.313174275021639	-3.09222113468453
118.6706	0.322712788537623	-0.0353034853763197	0.324638075347678	6.24310283435014
101.1982	0.320107596044929	0.0265263088449229	0.321204791537423	-4.73709759379364
86.24196	0.286632403884813	-0.00549463930783664	0.286685064169569	1.09820482170331
73.61024	0.264286506259486	-0.0568749219191741	0.270337038036148	12.1449290876085
62.69291	0.207109667205673	0.127907794539182	0.243423125758261	-31.6988499085671
53.57697	0.291765325136484	0.0264096700395442	0.292958146539051	-5.17213699918514
45.65746	0.405002439493798	0.128999038196657	0.425050265088248	-17.6674171734447
38.96512	0.270833473643584	-0.034342095083352	0.273002106110124	7.22662499673785
33.18414	0.267718848133607	-0.00318504611507878	0.267737793680199	0.681614657315023
28.30617	0.260324180239129	0.0219067408197433	0.26124429967086	-4.81020815436793
24.17237	0.289058964176516	0.077187175930676	0.299187140263337	-14.9508065427673
20.61345	0.196632151399835	-0.00787682969939973	0.196789855963769	2.29396831309913
17.55618	0.0530591344244082	-0.0983477171299731	0.111747685481824	61.6528943619342
14.98558	-0.0609212223364819	-0.0930670443235732	0.111233403571486	123.208557786035
12.76553	0.250010453158132	-0.0182851896643865	0.250678229707722	4.18303365491506
10.8809	0.272763747784036	-0.0117366683741161	0.273016137782581	2.46384285090408
9.278505	0.28887806120091	-0.0443851666132762	0.292267988767989	8.73499941777721
7.923394	0.311152714543038	-0.0376513053032625	0.313422450629403	6.89958068727718
6.75822	0.274245829251487	0.0654687637702802	0.2819520063618	-13.4265268133351
5.761429	0.273882520711449	0.00417906767357652	0.273914402246172	-0.874186345216288
4.919708	0.284366578396341	0.00584645914902649	0.284426672436717	-1.17781157775878
4.191257	0.288037585876511	-0.0197651740141962	0.288714933769246	3.92548969896155
3.564097	0.299927651210945	0.00429592654381903	0.299958415360837	-0.820603332215653
3.051758	0.290982206546464	0.00181277247130445	0.290987853132535	-0.35693889808364
2.604164	0.285598175409144	0.0059917518241429	0.285661020944325	-1.20186950261853
2.214424	0.287130076747579	0.00484190553730391	0.287170898634076	-0.966093359217633
1.892567	0.284145574541651	0.0124652361173412	0.284418863022596	-2.5119088532954
1.607507	0.282965800351619	0.00852893521265305	0.283094307439224	-1.72644215786615
1.376413	0.27205279292075	0.0073533446915022	0.272152151955726	-1.54827692076565
1.17375	0.285563858426607	0.0152428472722744	0.285970385936127	-3.05543839015272
1.001604	0.266105809968631	-0.00314693570667964	0.266124416962073	0.677541500349438
