EC-Lab ASCII FILE
freq/Hz	Re(Z)/Ohm	-Im(Z)/Ohm	|Z|/Ohm	Phase(Z)/deg
6999984	11.2645784843212	-0.624114742796362	11.2818547961587	3.17123430646425
5969734	7.50035894565526	-0.958823644782115	7.56139716556828	7.28500939606168
5091109	5.12549046751324	-0.83765025108	5.19348731352099	9.28169855715719
4341796	4.01553111235137	-0.742076886014161	4.08352399515642	10.4702307482207
3702781	3.38557526632701	-0.480753919036132	3.41953859674574	8.08200514824456
3157797	2.79538298363574	0.997992262343829	2.96819045563091	-19.647301482409
2693047	2.75073048843898	0.799249261558546	2.86449255578185	-16.2016937306749
2296687	2.74348667924832	0.641674121586461	2.81752814316499	-13.1642668417699
1958656	2.7113879392211	0.504067094602631	2.75784484567475	-10.5314799365201
1670375	2.68177951208427	0.419076285366396	2.71432611975633	-8.8816651541748
1424531	2.70481181555238	0.343373849528219	2.7265202288066	-7.23495580307905
1214875	2.67869360461114	0.25259188491864	2.69057653444598	-5.38687241347545
1036062	2.66868036169051	0.187674947597372	2.67527134302827	-4.0227028751036
883578.1	2.66979478199972	0.163775205921847	2.67481335723965	-3.51033880455463
753531.2	2.63388788583489	0.123568018284751	2.63678486992978	-2.68604390526495
642624.9	2.63284841165052	0.117868048104054	2.63548546486117	-2.56332092921029
548046.8	2.61734026734963	0.0869573771876179	2.61878438603432	-1.90287018693181
467390.6	2.60828851465286	0.0861487768697492	2.60971082448347	-1.89172615781651
398593.7	2.60809079260625	0.0648697307976939	2.60889740397189	-1.42479534859024
339937.5	2.59713692855131	0.0573184541466158	2.59776935674257	-1.26430471355394
289906.2	2.59646453560918	0.0488443497128278	2.5969239217149	-1.07771355911825
247234.4	2.59315707084466	0.0415061931032299	2.59348922460411	-0.917000616457438
210843.7	2.59007482053902	0.0354715308215464	2.59031770358176	-0.784626739301593
179812.5	2.58849176489757	0.0310174140114144	2.58867759617039	-0.686531781112836
153343.8	2.58679151180601	0.0276993097904261	2.58693980937216	-0.613498569840895
130781.2	2.58589898823888	0.0248329496213087	2.58601822359429	-0.550206901593328
111531.3	2.58529175216814	0.0220173137478901	2.58538550431716	-0.487940541320147
95109.37	2.58514045109365	0.020637353507074	2.58522282448543	-0.457386420979205
81109.37	2.58429414363773	0.0203373778633396	2.5843741659788	-0.450885928314549
69171.88	2.58534737493074	0.0191387325605977	2.58541821377999	-0.424139742775826
59000	2.58592162572387	0.0179520924859217	2.58598393885403	-0.397754749831154
50312.5	2.5869468627801	0.0186936189167139	2.58701440317521	-0.41401964653621
42906.25	2.58817950562338	0.0182100093739461	2.58824356616031	-0.403117119131563
36593.75	2.58944524078581	0.0182281130453937	2.58950939738273	-0.403320633740394
31203.13	2.59142225143095	0.01862246484318	2.59148916289617	-0.411731539581355
26609.38	2.59325944179567	0.0194297142021395	2.59333222828398	-0.429274361352671
22703.13	2.59510794991374	0.0192146705144532	2.59517908346775	-0.424221045486955
19359.37	2.59618199121747	0.0188993470859938	2.59625078080724	-0.417086976092443
16500	2.59853365705732	0.0191546270302226	2.59860425355542	-0.422337962397478
14112.02	2.59978374749083	0.0200706070628783	2.5998612199472	-0.442320724939358
12011.13	2.60245087483419	0.020339137614153	2.60253035264608	-0.447779064670452
10236.38	2.60485269390702	0.0194338302161319	2.6049251871621	-0.427454418212217
8750.684	2.60675017182896	0.0193133248580628	2.60682171673618	-0.424494747425689
7449.463	2.60911052750909	0.0198034587364418	2.60918568172844	-0.434873419518248
6363.206	2.61110229679397	0.0187696472588016	2.61116975778691	-0.411857876775181
5414.761	2.61274925875458	0.0185649357860365	2.61281521466088	-0.407109317160696
4620.567	2.61599362880974	0.018299262842312	2.61605763105359	-0.400785925750514
3941.215	2.61787914915	0.0176043324405544	2.61793834000631	-0.385288506012036
3361.769	2.61920907045423	0.0168907224324077	2.61926353222695	-0.369483178754455
2867.244	2.62126957027712	0.0156965437716976	2.62131656645037	-0.343091367612021
2442.658	2.62308660994688	0.0148753583606741	2.62312878821627	-0.32491726094203
2083.003	2.62456308948468	0.0137569413918404	2.6245991435116	-0.30031949524771
1777.843	2.62563123362243	0.0125054956353667	2.62566101437233	-0.27288931269316
1513.548	2.62677579643052	0.0119925546714063	2.62680317231435	-0.261582277085151
1292.065	2.62797642914974	0.0105632685891989	2.62799765882885	-0.230301703555763
1101.762	2.62897268809634	0.0100322794569775	2.6289918298442	-0.218642241607969
939.101	2.63000369211403	0.00848877930494748	2.6300173915599	-0.184931123815857
801.2801	2.63050826049481	0.00836847205222305	2.63052157182866	-0.182275235252307
684.3433	2.63118008676711	0.00749511040764818	2.63119076193266	-0.163210809464463
582.9476	2.63207923836425	0.00647493588389156	2.63208720254911	-0.140947789489521
497.0677	2.63171580104058	0.00557768524218065	2.63172171173536	-0.121433076170483
423.5089	2.63215047988739	0.00509238314047539	2.63215540596247	-0.110849170595709
361.5036	2.63256951205178	0.00442260510775819	2.63257322694365	-0.0962543885676797
308.1262	2.63259659915943	0.00436505713671455	2.63260021796505	-0.095000928799272
262.7298	2.63282734015312	0.00372957092292926	2.63282998174151	-0.0811631386101699
224.2111	2.63406710147147	0.00301728303935487	2.63406882959638	-0.0656313986997636
191.2854	2.63396031602586	0.00249567630249756	2.63396149835173	-0.0542877109815998
163.1722	2.63405906783929	0.00232689835754065	2.6340600956171	-0.0506144384499705
139.1537	2.63417886665101	0.00214886718513622	2.63417974313466	-0.0467397999012424
118.6706	2.63412124972964	0.00197816431880656	2.63412199250743	-0.0430278011522401
101.1982	2.63422878250981	0.00155726377619828	2.63422924280967	-0.0338712537662734
86.24196	2.63418111870995	0.00143064656019348	2.63418150720819	-0.0311178305972588
73.61024	2.63468868162994	0.00106859237528425	2.63468889833289	-0.0232383545704371
62.69291	2.63494347304098	0.00115218602180132	2.6349437249501	-0.0250538171809327
53.57697	2.63512481759611	0.000981173750963851	2.63512500026334	-0.021333756915753
45.65746	2.6352282685734	0.000802558794006661	2.63522839078305	-0.0174494296507092
38.96512	2.63539869729488	0.000741368243730297	2.63539880157262	-0.0161179674080724
33.18414	2.63533696958308	0.000842666417967465	2.63533710430716	-0.0183207036514529
28.30617	2.63511490998741	0.000486901781965176	2.6351149549709	-0.0105867932820621
24.17237	2.63530520031712	0.000462943542240796	2.63530524097972	-0.0100651381279073
20.61345	2.63549907246425	0.000362653371806927	2.6354990974154	-0.00788408833707252
17.55618	2.63557104801881	0.000291249050988973	2.63557106411134	-0.00633158470665219
14.98558	2.63534858255871	0.000546627173251908	2.63534863924974	-0.011884359341539
12.76553	2.63542836110872	0.00027808539438238	2.63542837578024	-0.00604574179223937
10.8809	2.63562370394556	0.000241487072188232	2.63562371500859	-0.00524968339900933
9.278505	2.63576508052795	0.00024423365677419	2.63576509184347	-0.00530910657081573
7.923394	2.63556496359014	0.000340418269954766	2.63556498557492	-0.00740051195798211
6.75822	2.63576792899076	0.000174574000408059	2.63576793477202	-0.00379485360279833
5.761429	2.63555704971343	0.000185815627784363	2.63555705626374	-0.00403954496949147
4.919708	2.63558481069194	0.000205100762332654	2.63558481867239	-0.00445874782142555
4.191257	2.6360110754484	0.000265278929489919	2.63601108879677	-0.00576604671496831
3.564097	2.63632142876045	0.000177619836568633	2.63632143474394	-0.00386025272440795
3.051758	2.6363546279207	0.000106351679380502	2.63635463006584	-0.00231133638274293
2.604164	2.63672894138698	0.000121454247846668	2.63672894418422	-0.00263918512494797
2.214424	2.6372243471472	0.000134052328949398	2.6372243505542	-0.00291239260110477
1.892567	2.63726545858756	0.000179954863752199	2.6372654647272	-0.00390960043338698
1.607507	2.63736417814332	2.68417475503386E-05	2.63736417827991	-0.0005831272230366
1.376413	2.63801286776786	9.43112551340764E-05	2.63801286945371	-0.00204837396492087
1.17375	2.64031517574894	0.000172168325663518	2.64031518136227	-0.00373611396964152
1.001604	2.6442548967852	6.92222566356186E-05	2.64425489769126	-0.00149990954257409
