EC-Lab ASCII FILE
freq/Hz	Re(Z)/Ohm	-Im(Z)/Ohm	|Z|/Ohm	Phase(Z)/deg
6999984	-7.93332314244787	24.2875698040065	25.5504141466824	-108.089175600784
5969734	-1.69635311630375	26.8791966818172	26.9326721317252	-93.6111623714027
5091109	3.38347042062989	26.3856787062689	26.6017276295682	-82.6927640358307
4341796	7.5181149048604	24.4824330290891	25.6107707565883	-72.9292194321244
3702781	10.790906264872	22.5231657743326	24.9747203090509	-64.4007999473816
3157797	13.5930960480435	20.6035485849387	24.6835668910161	-56.5853519541658
2693047	16.087897436783	18.6160260117489	24.6044074996038	-49.1665511833631
2296687	17.9491006337521	16.6404666589166	24.4760156926546	-42.8333507357286
1958656	19.417360196137	14.9376231516431	24.4982950918432	-37.5708021423874
1670375	20.6600850009892	13.34573768244	24.5956871531697	-32.8611349030357
1424531	21.5458148762353	11.8384756698651	24.5839712997512	-28.7868549401722
1214875	22.4896253870917	10.5780358825125	24.8531304503767	-25.1900321671471
1036062	22.9319625795594	9.40652395090176	24.7862381290344	-22.3030811839774
883578.1	23.4432333466939	8.36083711185336	24.8895316741494	-19.628359497702
753531.2	23.789265175805	7.48847977786945	24.9400574776468	-17.4731672921615
642624.9	24.2642755157259	6.90925185850755	25.228809475426	-15.8943018735872
548046.8	24.5488962782106	5.82122201755468	25.2296439581696	-13.3400216454263
467390.6	24.8153314635073	5.27164492716439	25.3690937142389	-11.9933359141728
398593.7	25.0843359483603	5.29625971260064	25.6373609584434	-11.9222203926412
339937.5	24.9885534275043	4.79598984430497	25.444632459242	-10.8645173845179
289906.2	25.2523642061777	4.58909027463088	25.665962821413	-10.2999075844621
247234.4	25.8527268148673	4.29997799257241	26.2078861127861	-9.44332422158564
210843.7	26.0405759605652	3.93225217923195	26.3357969987438	-8.58706171507443
179812.5	26.2958627933351	3.8881308893071	26.5817599465929	-8.4108657339158
153343.8	26.3474717902552	3.70600863667409	26.6068368986883	-8.00663827987305
130781.2	26.6432991273512	3.74355479796881	26.9050105169076	-7.9980668312579
111531.3	26.4822450768733	4.02184244322464	26.7859015332638	-8.63548810791889
95109.37	27.2207859170067	3.97113247051392	27.5089272607618	-8.30010153296111
81109.37	27.539333878892	4.330976206057	27.8778095515146	-8.93742540679693
69171.88	27.3411118062284	4.40096955346504	27.6930483661732	-9.14419441590374
59000	28.0056499888145	4.41035551866046	28.3507965866387	-8.94949189796238
50312.5	28.5091347550864	4.60845303821703	28.8792071201605	-9.1823362163256
42906.25	28.2002548015653	4.85396764400871	28.6149501617999	-9.76633490816859
36593.75	28.7981217454923	5.44697875784042	29.3087255549702	-10.7105980024339
31203.13	29.2823838544959	5.90209302848376	29.871268910425	-11.3957294746955
26609.38	29.7845110012045	6.31239770928279	30.4460746307472	-11.9659542611435
22703.13	30.3422874713185	6.7454992804996	31.0830527705268	-12.5337898135859
19359.37	30.8967482481364	7.23907906001093	31.7334731465973	-13.1864861450651
16500	31.517872629038	7.76012788493552	32.4591416992319	-13.8318772646563
14112.02	32.1666092949077	8.33083429903537	33.2279032388326	-14.5200053061864
12011.13	32.8925411135131	8.95046988517928	34.0885636551271	-15.2223255123019
10236.38	33.6754709983914	9.61777295897926	35.0219774378029	-15.9394337591096
8750.684	34.4904941871137	10.2860681104243	35.991629394119	-16.60611026079
7449.463	35.3945265452067	11.071809901327	37.0858124334693	-17.3702755313119
6363.206	36.3799819341937	11.9306919748741	38.2863486967821	-18.1567288600644
5414.761	37.4954389348584	12.6082397639624	39.5585092093124	-18.5857653866363
4620.567	38.3587732897154	13.646448982497	40.7138926918525	-19.5834338769858
3941.215	39.507329448637	14.7342090235178	42.1654597474266	-20.4529374381425
3361.769	18.8965556502334	16.2823479574324	24.9438303083001	-40.7500590038991
2867.244	20.11802620495	17.4092112067223	26.6048043259732	-40.8714000057519
2442.658	21.4937686113979	18.6705431857304	28.4705333980686	-40.9791848261719
2083.003	22.9250754466524	20.1612786191168	30.5292685761118	-41.3297605122786
1777.843	24.4112793965367	21.6565004465183	32.6330288720773	-41.57787988546
1513.548	25.9849823807116	23.4438517795511	34.9976212847024	-42.0570215712161
1292.065	27.6183406411981	25.3720907762678	37.5035429010704	-42.5727007755677
1101.762	29.3726588088983	27.4931532587592	40.2321583017065	-43.1069724603713
939.101	31.1829240348584	30.2697098031649	43.4583718394001	-44.148621191075
801.2801	33.1688060440933	32.9475492551729	46.7515849604345	-44.8082617710312
684.3433	35.2549154834915	36.2502847183407	50.5667104715038	-45.7975192409482
582.9476	37.5309725471868	40.1258089798553	54.9422828668915	-46.9137785357339
497.0677	40.0284924576853	43.9954447146972	59.4800753536758	-47.7030508168384
423.5089	42.6597572227119	49.0182234682043	64.9818522225978	-48.9674827270228
361.5036	45.7579191783939	54.1735780167857	70.9123665003305	-49.8137643087429
308.1262	49.0257899100743	59.9368915596468	77.4335782857773	-50.7183156982277
262.7298	52.6870429185546	66.8501077709594	85.1167515856338	-51.7570480737542
224.2111	56.8520775004129	74.2963890764231	93.5527238828897	-52.5765496081298
191.2854	61.2551448332042	83.2509190136988	103.358155387769	-53.6547587757409
163.1722	66.2078304142984	92.8133303877034	114.007855456655	-54.4980667065042
139.1537	72.5990677325336	103.897561630704	126.749074743916	-55.0558353904861
118.6706	79.1086516289976	116.981869364545	141.219462265587	-55.9315899211876
101.1982	86.7657389164373	130.879813159527	157.028083292091	-56.4579261405287
86.24196	94.5507912457162	144.381364501255	172.585719398899	-56.7804784608755
73.61024	104.884456373725	163.557875257306	194.298553127645	-57.329240248318
62.69291	119.026142949591	170.432051401465	207.880510992176	-55.0703656001706
53.57697	416.005462366965	-234.345978083441	477.471027564016	29.3936172452157
45.65746	135.406116867849	167.738087416591	215.57106126613	-51.0878906648209
38.96512	-469.654824705604	80.6889120453112	476.535785535889	-170.251486738369
33.18414	637.154892654513	-62.4910755040881	640.212067795697	5.60155798043759
28.30617	696.464415902213	-215.192408090571	728.951613701369	17.1700153227578
24.17237	-391.576551759246	336.340968179363	516.195159569995	-139.33938236703
20.61345	-286.882592285386	129.055332655888	314.574157621546	-155.779203086939
17.55618	-403.271965088884	319.779299476966	514.671816015439	-141.586923909989
14.98558	-406.339958489401	320.321534925139	517.414773273788	-141.750961726735
12.76553	-276.924313199543	316.770108446045	420.749779377195	-131.160352545758
10.8809	-335.012274625383	342.161798897168	478.861066254314	-134.395100369728
9.278505	-435.211553416993	329.344647687753	545.781085407146	-142.883527400371
7.923394	-196.931333250141	321.675322559649	377.169674231018	-121.475188568425
6.75822	-452.515314837914	304.068500886748	545.185989726782	-146.100800011589
5.761429	-283.894375335893	596.252741790361	660.388785822322	-115.46056411404
4.919708	-440.480563481583	341.012009521452	557.05683502037	-142.253617600404
4.191257	-372.332283863136	220.589830696809	432.771536741484	-149.355200287932
3.564097	10.2387213353693	495.431552530779	495.537339317272	-88.8160785839528
3.051758	-492.643940614808	573.266458163192	755.865387671282	-130.674541631266
2.604164	15.7732205921677	598.390065005853	598.597915453736	-88.4900655985234
2.214424	-436.650408817894	93.1334004946254	446.472182569672	-167.959770149405
1.892567	-382.20106272051	480.362511112353	613.861380465372	-128.507557954302
1.607507	680.760781346572	65.2200632318377	683.877838555659	-5.47250095595775
1.376413	93.8342968053703	416.909164142747	427.338421398266	-77.3157270158665
1.17375	286.461363908541	666.603820120189	725.548596588245	-66.7452286534979
1.001604	618.872173589612	-505.683500283447	799.198704767751	39.2524275415184
