freq/Hz	Re(Z)/Ohm	Im(Z)/Ohm	
7.0000185E+006	3.0676092E+001	-8.4247902E+001
4.7356185E+006	3.1079569E+001	-9.2688919E+001
3.2037188E+006	4.9191128E+001	-1.1220355E+002
2.1673750E+006	8.1710617E+001	-1.3585567E+002
1.4662634E+006	1.3105017E+002	-1.5403947E+002
9.9195556E+005	1.8631406E+002	-1.5339850E+002
6.7106775E+005	2.3684067E+002	-1.3502058E+002
4.5398791E+005	2.7198602E+002	-1.1042191E+002
3.0713703E+005	2.9260153E+002	-8.3444191E+001
2.0778281E+005	3.0218845E+002	-6.4151527E+001
1.4056933E+005	3.1247092E+002	-5.3374050E+001
9.5095383E+004	3.1864914E+002	-4.5464569E+001
6.4337141E+004	3.2151978E+002	-4.3173512E+001
4.3525457E+004	3.2568097E+002	-4.8220932E+001
2.9440693E+004	3.3081070E+002	-5.4929852E+001
1.9920945E+004	3.3149750E+002	-8.8375725E+001
1.3472386E+004	3.4326508E+002	-8.9900810E+001
9.1205166E+003	3.5386139E+002	-1.1977117E+002
6.3004048E+003	3.6640918E+002	-1.5717020E+002
4.1713340E+003	3.8667487E+002	-2.1813742E+002
2.8222874E+003	4.0973032E+002	-3.0110397E+002
1.9093901E+003	4.4301733E+002	-4.0970837E+002
1.2920648E+003	4.9722119E+002	-5.6641241E+002
8.7416174E+002	5.5825043E+002	-7.7997119E+002
5.9132428E+002	6.5622205E+002	-1.0718116E+003
4.0012820E+002	8.0904962E+002	-1.4656006E+003
7.0000185E+006	3.1860415E+001	-8.4383034E+001
4.7356185E+006	3.1324516E+001	-9.2423088E+001
3.2037188E+006	4.9695610E+001	-1.1172459E+002
2.1673750E+006	8.2058929E+001	-1.3502968E+002
1.4662634E+006	1.3124570E+002	-1.5217006E+002
9.9195556E+005	1.8931839E+002	-1.5191420E+002
6.7106775E+005	2.3409889E+002	-1.3218782E+002
4.5398791E+005	2.6924515E+002	-1.1121194E+002
3.0713703E+005	2.8892337E+002	-8.1971947E+001
2.0778281E+005	3.0106219E+002	-6.4774536E+001
1.4056933E+005	3.0720630E+002	-5.1190941E+001
9.5095383E+004	3.1280405E+002	-4.2915840E+001
6.4337141E+004	3.1678970E+002	-4.4678047E+001
4.3525457E+004	3.2183765E+002	-4.7395157E+001
2.9440693E+004	3.2755722E+002	-5.6293652E+001
1.9920945E+004	3.4673386E+002	-7.2863289E+001
1.3472386E+004	3.4068127E+002	-8.6094543E+001
9.1205166E+003	3.5045914E+002	-1.1844627E+002
6.3004048E+003	3.6214212E+002	-1.5743948E+002
4.1713340E+003	3.8241568E+002	-2.1740379E+002
2.8222874E+003	4.0485596E+002	-2.9961267E+002
1.9093901E+003	4.4290033E+002	-4.1284351E+002
1.2920648E+003	4.9206030E+002	-5.6168939E+002
8.7416174E+002	5.4217328E+002	-7.7893616E+002
5.9132428E+002	6.5716083E+002	-1.0629608E+003
4.0012820E+002	7.9303314E+002	-1.4623875E+003
7.0000185E+006	3.1846252E+001	-8.4275993E+001
4.7356185E+006	3.0609432E+001	-9.1184723E+001
3.2037188E+006	5.0802780E+001	-1.1147655E+002
2.1673750E+006	8.2736977E+001	-1.3414279E+002
1.4662634E+006	1.3121178E+002	-1.5012430E+002
9.9195556E+005	1.8483302E+002	-1.4690140E+002
6.7106775E+005	2.3283757E+002	-1.2940056E+002
4.5398791E+005	2.6410129E+002	-1.0174120E+002
3.0713703E+005	2.8582587E+002	-8.0302567E+001
2.0778281E+005	2.9407477E+002	-6.4152992E+001
1.4056933E+005	3.0291940E+002	-5.0869614E+001
9.5095383E+004	3.0744812E+002	-4.3249374E+001
6.4337141E+004	3.1412662E+002	-4.2209015E+001
4.3525457E+004	3.1683575E+002	-4.5865055E+001
2.9440693E+004	3.2188370E+002	-5.5104828E+001
1.9920945E+004	3.1399231E+002	-4.1631779E+001
1.3472386E+004	3.3579730E+002	-8.9108185E+001
9.1205166E+003	3.4645520E+002	-1.1869128E+002
6.3004048E+003	3.5675952E+002	-1.5662152E+002
4.1713340E+003	3.7566815E+002	-2.1686310E+002
2.8222874E+003	3.9983765E+002	-2.9714261E+002
1.9093901E+003	4.3326141E+002	-4.0855292E+002
1.2920648E+003	4.8207306E+002	-5.5911194E+002
8.7416174E+002	5.4997034E+002	-7.9161133E+002
5.9132428E+002	6.4588422E+002	-1.0586940E+003
4.0012820E+002	7.8765967E+002	-1.4500311E+003
7.0000185E+006	3.1356247E+001	-8.4091255E+001
4.7356185E+006	3.1959730E+001	-9.2168846E+001
3.2037188E+006	5.0810741E+001	-1.1068396E+002
2.1673750E+006	8.3366440E+001	-1.3273471E+002
1.4662634E+006	1.3171501E+002	-1.4801385E+002
9.9195556E+005	1.8759763E+002	-1.4399203E+002
6.7106775E+005	2.3030005E+002	-1.2545484E+002
4.5398791E+005	2.6170709E+002	-1.0132242E+002
3.0713703E+005	2.8155280E+002	-7.8094482E+001
2.0778281E+005	2.9093442E+002	-6.0263660E+001
1.4056933E+005	2.9828839E+002	-4.7804218E+001
9.5095383E+004	3.0536563E+002	-4.5774490E+001
6.4337141E+004	3.0651645E+002	-4.2259594E+001
4.3525457E+004	3.1185443E+002	-4.6295361E+001
2.9440693E+004	3.1589114E+002	-5.4169701E+001
1.9920945E+004	3.2170047E+002	-6.7470787E+001
1.3472386E+004	3.3056970E+002	-8.7068466E+001
9.1205166E+003	3.3928683E+002	-1.1729195E+002
6.3004048E+003	3.5206516E+002	-1.5570348E+002
4.1713340E+003	3.7105655E+002	-2.1450842E+002
2.8222874E+003	3.9457333E+002	-2.9559329E+002
1.9093901E+003	4.2836856E+002	-4.0558392E+002
1.2920648E+003	4.8132672E+002	-5.6013403E+002
8.7416174E+002	5.4776880E+002	-7.6276599E+002
5.9132428E+002	6.3838257E+002	-1.0517225E+003
4.0012820E+002	7.6916071E+002	-1.4303528E+003
7.0000185E+006	3.2140305E+001	-8.3801743E+001
4.7356185E+006	3.2446476E+001	-9.2344917E+001
3.2037188E+006	5.1996792E+001	-1.1079668E+002
2.1673750E+006	8.4182358E+001	-1.3165038E+002
1.4662634E+006	1.3154074E+002	-1.4553714E+002
9.9195556E+005	1.8179887E+002	-1.4327672E+002
6.7106775E+005	2.2836980E+002	-1.2385354E+002
4.5398791E+005	2.6249164E+002	-1.0221995E+002
3.0713703E+005	2.7727432E+002	-7.5210831E+001
2.0778281E+005	2.8724988E+002	-5.8675678E+001
1.4056933E+005	2.9331357E+002	-4.8097359E+001
9.5095383E+004	2.9658936E+002	-4.6067802E+001
6.4337141E+004	3.0367206E+002	-4.1524403E+001
4.3525457E+004	3.0656329E+002	-4.5699673E+001
2.9440693E+004	3.1073880E+002	-5.3984974E+001
1.9920945E+004	3.1181400E+002	-1.0088927E+002
1.3472386E+004	3.2434717E+002	-8.8957726E+001
9.1205166E+003	3.3498700E+002	-1.1595569E+002
6.3004048E+003	3.4781308E+002	-1.5365221E+002
4.1713340E+003	3.6576401E+002	-2.1465138E+002
2.8222874E+003	3.8872726E+002	-2.9439224E+002
1.9093901E+003	4.2395718E+002	-4.0177930E+002
1.2920648E+003	4.6864056E+002	-5.4850494E+002
8.7416174E+002	5.3051227E+002	-7.6822400E+002
5.9132428E+002	6.3084430E+002	-1.0452489E+003
4.0012820E+002	7.6807599E+002	-1.4343423E+003
7.0000185E+006	3.1981508E+001	-8.3878059E+001
4.7356185E+006	3.2630589E+001	-9.1780281E+001
3.2037188E+006	5.1640289E+001	-1.1002009E+002
2.1673750E+006	8.3920113E+001	-1.3017383E+002
1.4662634E+006	1.3119249E+002	-1.4398650E+002
9.9195556E+005	1.8596732E+002	-1.3779213E+002
6.7106775E+005	2.2618803E+002	-1.2101622E+002
4.5398791E+005	2.5423421E+002	-9.2991493E+001
3.0713703E+005	2.7441428E+002	-7.3926750E+001
2.0778281E+005	2.8409991E+002	-5.6568356E+001
1.4056933E+005	2.8961417E+002	-4.6864960E+001
9.5095383E+004	2.9870746E+002	-3.1780296E+001
6.4337141E+004	2.9926428E+002	-4.1502922E+001
4.3525457E+004	3.0360559E+002	-4.5104603E+001
2.9440693E+004	3.0704575E+002	-5.2003738E+001
1.9920945E+004	3.1444449E+002	-6.8932518E+001
1.3472386E+004	3.2017841E+002	-8.4909622E+001
9.1205166E+003	3.3064630E+002	-1.1372551E+002
6.3004048E+003	3.4217780E+002	-1.5292487E+002
4.1713340E+003	3.6087036E+002	-2.1247115E+002
2.8222874E+003	3.8545856E+002	-2.9209540E+002
1.9093901E+003	4.1616147E+002	-3.9724542E+002
1.2920648E+003	4.6417523E+002	-5.5486377E+002
8.7416174E+002	5.2897028E+002	-7.5923224E+002
5.9132428E+002	6.2416058E+002	-1.0442596E+003
4.0012820E+002	7.6637531E+002	-1.4286926E+003
7.0000185E+006	3.1858980E+001	-8.3767189E+001
4.7356185E+006	3.2387287E+001	-9.1623016E+001
3.2037188E+006	5.1727280E+001	-1.1009225E+002
2.1673750E+006	8.4163322E+001	-1.2977954E+002
1.4662634E+006	1.3140765E+002	-1.4229425E+002
9.9195556E+005	1.8653596E+002	-1.3615649E+002
6.7106775E+005	2.2561717E+002	-1.1897775E+002
4.5398791E+005	2.5352466E+002	-8.8151039E+001
3.0713703E+005	2.7225067E+002	-7.2614372E+001
2.0778281E+005	2.8017062E+002	-5.6770889E+001
1.4056933E+005	2.8723102E+002	-4.6233727E+001
9.5095383E+004	2.8656781E+002	-3.6964291E+001
6.4337141E+004	2.9662158E+002	-4.0835724E+001
4.3525457E+004	2.9938034E+002	-4.4431995E+001
2.9440693E+004	3.0450500E+002	-5.2899677E+001
1.9920945E+004	3.1485983E+002	-6.2613365E+001
1.3472386E+004	3.1876099E+002	-8.5365814E+001
9.1205166E+003	3.2718149E+002	-1.1432537E+002
6.3004048E+003	3.3825125E+002	-1.5288718E+002
4.1713340E+003	3.5618231E+002	-2.1243332E+002
2.8222874E+003	3.8080908E+002	-2.9014053E+002
1.9093901E+003	4.1771127E+002	-3.9839713E+002
1.2920648E+003	4.6170520E+002	-5.4454584E+002
8.7416174E+002	5.3151123E+002	-7.4982159E+002
5.9132428E+002	6.1699683E+002	-1.0372239E+003
4.0012820E+002	7.5688190E+002	-1.4189940E+003
7.0000185E+006	3.1760168E+001	-8.3858002E+001
4.7356185E+006	3.2481197E+001	-9.1217232E+001
3.2037188E+006	5.2263393E+001	-1.0906041E+002
2.1673750E+006	8.4579720E+001	-1.2982487E+002
1.4662634E+006	1.3161453E+002	-1.4165712E+002
9.9195556E+005	1.8204149E+002	-1.3615994E+002
6.7106775E+005	2.2477829E+002	-1.1801381E+002
4.5398791E+005	2.5206303E+002	-9.3165779E+001
3.0713703E+005	2.6889886E+002	-7.1153252E+001
2.0778281E+005	2.7871249E+002	-5.3830212E+001
1.4056933E+005	2.8416510E+002	-4.6196865E+001
9.5095383E+004	2.8559531E+002	-3.9878059E+001
6.4337141E+004	2.9294632E+002	-4.0809582E+001
4.3525457E+004	2.9610815E+002	-4.3253628E+001
2.9440693E+004	3.0083875E+002	-5.1833473E+001
1.9920945E+004	3.0764185E+002	-6.4913162E+001
1.3472386E+004	3.1758182E+002	-8.4457993E+001
9.1205166E+003	3.2413599E+002	-1.1443993E+002
6.3004048E+003	3.3575067E+002	-1.5340907E+002
4.1713340E+003	3.5411014E+002	-2.0911745E+002
2.8222874E+003	3.7804025E+002	-2.8846857E+002
1.9093901E+003	4.1166855E+002	-3.9272525E+002
1.2920648E+003	4.6113165E+002	-5.4969281E+002
8.7416174E+002	5.2972705E+002	-7.4322015E+002
5.9132428E+002	6.1900293E+002	-1.0278949E+003
4.0012820E+002	7.5607446E+002	-1.4073322E+003
7.0000185E+006	3.2280186E+001	-8.3374268E+001
4.7356185E+006	3.2951126E+001	-9.1011261E+001
3.2037188E+006	5.2429668E+001	-1.0954933E+002
2.1673750E+006	8.5363876E+001	-1.2892505E+002
1.4662634E+006	1.3066313E+002	-1.4102557E+002
9.9195556E+005	1.7854214E+002	-1.3641093E+002
6.7106775E+005	2.2305942E+002	-1.1476897E+002
4.5398791E+005	2.4926346E+002	-9.0638641E+001
3.0713703E+005	2.6782968E+002	-7.1202484E+001
2.0778281E+005	2.7717587E+002	-5.5091515E+001
1.4056933E+005	2.8131079E+002	-4.5166328E+001
9.5095383E+004	2.7763422E+002	-3.9670738E+001
6.4337141E+004	2.8984244E+002	-4.0147335E+001
4.3525457E+004	2.9403879E+002	-4.2921803E+001
2.9440693E+004	2.9814981E+002	-5.1756432E+001
1.9920945E+004	3.0631238E+002	-6.4255760E+001
1.3472386E+004	3.1275308E+002	-8.6255035E+001
9.1205166E+003	3.2112381E+002	-1.1290513E+002
6.3004048E+003	3.2697809E+002	-1.4784688E+002
4.1713340E+003	3.5194833E+002	-2.0930452E+002
2.8222874E+003	3.7718826E+002	-2.8803299E+002
1.9093901E+003	4.1162497E+002	-3.9977667E+002
1.2920648E+003	4.5530246E+002	-5.4626953E+002
8.7416174E+002	5.1312396E+002	-7.6107813E+002
5.9132428E+002	6.1143781E+002	-1.0266738E+003
4.0012820E+002	7.5038953E+002	-1.4037979E+003
7.0000185E+006	-9.8790102E+000	-8.7160141E+001
4.7356185E+006	2.0216524E+002	-2.4252874E+001
3.2037188E+006	2.2852440E+002	3.7857980E+002
2.1673750E+006	3.1943869E+002	3.9847534E+002
1.4662634E+006	6.8653455E+002	1.5296687E+002
9.9195556E+005	4.5080887E+002	-1.6262143E+002
7.0000185E+006	1.6014301E+001	-1.6935259E+001
4.7356185E+006	-1.0590562E+002	4.7028248E+001
3.2037188E+006	1.5745305E+002	4.7508200E+002
2.1673750E+006	7.1621051E+002	5.3638641E+002
7.0000185E+006	2.0165386E+001	-1.3514402E+001
4.7356185E+006	1.0105213E+002	2.0791824E+002
3.2037188E+006	3.9203232E+001	9.3183636E+002
2.1673750E+006	5.7336017E+002	3.9308798E+002
1.4662634E+006	4.9028839E+002	2.0810025E+002
7.0000185E+006	1.8837740E+002	-4.4502249E+000
4.7356185E+006	1.9881195E+002	-3.7378152E+002
3.2037188E+006	-3.4216251E+000	4.5595587E+002
2.1673750E+006	2.4617986E+002	1.7760486E+002
1.4662634E+006	1.7997430E+002	7.3759888E+001
7.0000185E+006	1.6251265E+001	-3.4288586E+001
4.7356185E+006	-3.2688404E+001	-6.2321812E+001
3.2037188E+006	-5.2390583E+001	2.9483852E+001
2.1673750E+006	-1.9459793E+001	4.3885548E+001
1.4662634E+006	-7.2282014E+000	3.6913059E+001
7.0000185E+006	-2.6061991E+001	2.7011255E+001
4.7356185E+006	-1.5515559E+002	-2.4090784E+002
3.2037188E+006	1.4154597E+002	3.9821411E+002
2.1673750E+006	3.2610172E+002	1.8683260E+002
1.4662634E+006	2.9293579E+002	8.5117493E+001
9.9195556E+005	3.4178280E+001	-2.6198027E+001
7.0000185E+006	1.0891060E+002	3.6027733E+001
4.7356185E+006	-1.0595233E+002	3.5073264E+002
3.2037188E+006	-8.1341293E+001	4.0369034E+002
2.1673750E+006	2.4298787E+002	2.9011978E+002
7.0000185E+006	-1.6796272E+001	-8.7544136E+001
4.7356185E+006	2.5977905E+002	-1.1704982E+002
3.2037188E+006	5.2283124E+002	7.4476697E+002
2.1673750E+006	2.3211188E+002	4.8050284E+002
7.0000185E+006	2.4849098E+001	-4.2939861E+001
4.7356185E+006	-5.1920124E+001	-3.2468021E+001
3.2037188E+006	-5.3236710E+001	2.8182957E+001
2.1673750E+006	-1.8879555E+001	4.2790440E+001
1.4662634E+006	-6.6441417E+000	3.7282181E+001
7.0000185E+006	-1.8088608E+002	-1.9483936E+002
4.7356185E+006	-1.2859062E+002	1.5070618E+002
3.2037188E+006	4.8208591E+001	8.6982825E+002
2.1673750E+006	2.8295724E+002	5.8620093E+002
1.4662634E+006	5.2296033E+002	1.9149118E+002
7.0000185E+006	2.6662054E+001	-2.1313266E+002
4.7356185E+006	8.2030739E+001	2.5578049E+002
3.2037188E+006	-2.4159098E+001	5.5607349E+002
2.1673750E+006	1.9768481E+002	2.9133060E+002
1.4662634E+006	2.2197670E+002	8.1751030E+001
7.0000185E+006	4.8424053E+001	-1.1545310E+002
4.7356185E+006	3.4441235E+002	-3.8937466E+001
3.2037188E+006	1.9043944E+002	5.9614325E+002
2.1673750E+006	4.4241119E+002	5.5654865E+002
7.0000185E+006	2.3847677E+001	-3.6711891E+001
4.7356185E+006	-5.6709167E+001	-4.0927933E+001
3.2037188E+006	-4.9152584E+001	3.2821804E+001
2.1673750E+006	-1.6570023E+001	4.6862198E+001
1.4662634E+006	-4.9877954E+000	3.9067635E+001
7.0000185E+006	1.1360550E+001	-1.0000999E+002
4.7356185E+006	2.7641626E+002	-2.4452579E+002
3.2037188E+006	1.3093198E+002	5.7281677E+002
2.1673750E+006	4.9896616E+002	7.3264355E+002
1.4662634E+006	3.9237881E+002	1.7131081E+002
7.0000185E+006	6.4701276E+000	-1.1867750E+002
4.7356185E+006	6.1588360E+001	2.6099130E+002
3.2037188E+006	4.9795766E+000	3.7591830E+002
2.1673750E+006	1.9315990E+002	2.2061172E+002
1.4662634E+006	2.3002724E+002	1.0530347E+002
9.9195556E+005	3.2227093E+001	-2.8871710E+001
7.0000185E+006	1.2811765E+001	-1.0219781E+002
4.7356185E+006	-3.3332034E+002	3.5387616E+002
3.2037188E+006	1.7894847E+002	5.9923914E+002
2.1673750E+006	2.2308778E+002	4.4047650E+002
7.0000185E+006	-3.7643909E+001	-1.0884516E+002
4.7356185E+006	7.5418992E+000	8.5378227E+001
7.0000185E+006	1.9775291E+001	-7.9766373E+001
4.7356185E+006	1.2128458E+003	-1.1108175E+003
3.2037188E+006	3.4210243E+001	8.0198749E+002
2.1673750E+006	4.4278967E+002	7.1625397E+002
1.4662634E+006	3.6389822E+002	1.9822597E+002
7.0000185E+006	2.7603416E+001	-3.9274540E+001
4.7356185E+006	-4.4270672E+001	-4.2104027E+001
3.2037188E+006	-5.3219742E+001	2.9085424E+001
2.1673750E+006	-2.2004805E+001	3.8442463E+001
1.4662634E+006	-3.4247079E+000	2.4724604E+001
7.0000185E+006	-3.3891516E+000	-1.1235612E+002
4.7356185E+006	2.9306674E+002	2.0578937E+002
3.2037188E+006	1.5990408E+002	6.7376666E+002
2.1673750E+006	5.6217090E+002	7.1658881E+002
1.4662634E+006	5.3798413E+002	3.1771225E+002
7.0000185E+006	-4.2763962E+001	-8.0043816E+001
4.7356185E+006	-3.3302792E+002	5.0268024E+002
3.2037188E+006	-7.7739273E+001	6.4778625E+002
2.1673750E+006	3.4135223E+002	5.1332648E+002
1.4662634E+006	3.9757538E+002	1.9177707E+002
7.0000185E+006	1.2869952E+002	-1.4795477E+002
4.7356185E+006	3.8453836E+002	3.7386166E+002
3.2037188E+006	-1.6848943E+002	6.7032666E+002
2.1673750E+006	2.2747314E+002	8.7397955E+002
7.0000185E+006	4.2410503E+001	-8.3278015E+001
4.7356185E+006	1.2533270E+002	2.4426250E+001
7.0000185E+006	3.5165913E+001	-3.3413784E+001
4.7356185E+006	-4.6870033E+001	-3.6314346E+001
3.2037188E+006	-5.4933277E+001	3.0843019E+001
2.1673750E+006	-1.7827229E+001	4.8081829E+001
1.4662634E+006	-3.9745357E+000	3.9079498E+001
7.0000185E+006	7.2883606E+001	-1.4170219E+002
4.7356185E+006	9.2200150E+001	-9.2371597E+001
3.2037188E+006	4.1331644E+002	3.9518561E+002
2.1673750E+006	1.2987212E+002	4.5377454E+002
1.4662634E+006	3.3614240E+002	1.7406439E+002
7.0000185E+006	1.0683791E+002	-6.8628571E+001
4.7356185E+006	4.6529984E+002	-9.7635551E+001
3.2037188E+006	1.8850537E+002	4.9933826E+002
2.1673750E+006	1.8937828E+002	4.1296329E+002
1.4662634E+006	1.8040375E+002	8.8867798E+001
7.0000185E+006	3.1749695E+002	1.5341150E+002
4.7356185E+006	3.1154086E+002	-7.9128105E+001
3.2037188E+006	3.2876587E+002	6.1733044E+002
2.1673750E+006	3.5533093E+002	3.2549655E+002
1.4662634E+006	1.3706685E+002	4.7810574E+001
7.0000185E+006	-6.5301104E+000	-6.9611267E+001
4.7356185E+006	2.6726196E+002	1.1206307E+002
3.2037188E+006	1.8789240E+001	1.3747806E+002
2.1673750E+006	-1.6160676E-002	4.2135567E+001
7.0000185E+006	8.3928490E+001	-5.3660587E+001
4.7356185E+006	2.2958109E+002	-2.2398489E+002
3.2037188E+006	6.2678101E+002	8.8447382E+002
2.1673750E+006	4.6242017E+002	6.0141180E+002
1.4662634E+006	3.5820395E+002	1.3237485E+002
7.0000185E+006	8.7457027E+000	-1.2886722E+002
4.7356185E+006	2.7367603E+002	2.2920615E+002
3.2037188E+006	3.3105625E+001	6.9828485E+002
2.1673750E+006	3.1228644E+002	5.6812048E+002
7.0000185E+006	1.0403430E+002	1.1253323E+002
4.7356185E+006	-1.3361891E+002	1.6559703E+002
3.2037188E+006	2.2308107E+002	4.3960028E+002
2.1673750E+006	2.3661417E+002	3.4774084E+002
1.4662634E+006	1.1485604E+002	5.3288773E+001
7.0000185E+006	1.7089310E+001	-4.0964958E+001
4.7356185E+006	-5.6233860E+001	-5.7629261E+001
3.2037188E+006	-5.3757652E+001	3.2317341E+001
2.1673750E+006	-1.7753294E+001	5.0558674E+001
1.4662634E+006	-2.3625510E+000	4.1376591E+001
7.0000185E+006	-5.9853516E+000	-1.0301990E+002
4.7356185E+006	9.0373367E+001	-1.8116679E+002
3.2037188E+006	8.0915082E+002	3.3884344E+002
2.1673750E+006	2.6575943E+002	2.9328027E+002
1.4662634E+006	3.0876376E+002	7.4284897E+001
9.9195556E+005	2.5908194E+001	-3.0254885E+001
7.0000185E+006	1.7451967E+002	5.0048500E+001
4.7356185E+006	-4.2237097E+002	4.0860413E+002
3.2037188E+006	3.6680118E+002	9.2476239E+002
2.1673750E+006	5.9829193E+002	4.2660013E+002
1.4662634E+006	3.1388907E+002	8.8658554E+001
7.0000185E+006	4.4467381E+001	-5.4913715E+001
4.7356185E+006	-4.8810539E+001	-3.4368771E+001
3.2037188E+006	-5.1733528E+001	2.6827723E+001
2.1673750E+006	-1.8795147E+001	4.3326366E+001
1.4662634E+006	-9.4630795E+000	3.4183559E+001
7.0000185E+006	-8.1835297E+001	-6.2398697E+001
4.7356185E+006	-2.4689294E+002	2.9950009E+002
3.2037188E+006	3.2607047E+002	6.9096674E+002
2.1673750E+006	5.4168463E+002	6.3144769E+002
1.4662634E+006	6.1436456E+002	3.5076364E+002
7.0000185E+006	1.7313177E+002	5.8532879E+001
4.7356185E+006	7.0640356E+002	8.8973930E+001
3.2037188E+006	2.9680500E+000	5.4315668E+002
2.1673750E+006	4.6146194E+002	4.5980704E+002
1.4662634E+006	5.2753735E+002	2.0935658E+002
7.0000185E+006	5.4232239E+001	-1.0294851E+002
4.7356185E+006	-2.4942137E+002	1.0579205E+002
3.2037188E+006	-4.1436497E+001	4.9346399E+002
2.1673750E+006	1.5112802E+002	3.1984866E+002
1.4662634E+006	1.5912686E+002	6.6344826E+001
7.0000185E+006	4.4428238E+001	6.4346153E+001
4.7356185E+006	-2.7676298E+001	-4.3960815E+002
3.2037188E+006	4.5580551E+002	8.2340143E+002
2.1673750E+006	2.6371567E+002	6.3629156E+002
7.0000185E+006	2.6934494E+001	-4.1728939E+001
4.7356185E+006	-5.0236603E+001	-3.6918598E+001
3.2037188E+006	-5.6701168E+001	2.9344419E+001
2.1673750E+006	-1.4729690E+001	4.9593647E+001
1.4662634E+006	-3.7239454E+000	3.9884552E+001
7.0000185E+006	-3.9258845E+000	-7.7930389E+001
4.7356185E+006	-5.1736230E+002	-4.9309561E+002
3.2037188E+006	6.8737103E+002	4.5197046E+002
2.1673750E+006	4.5948837E+002	5.7814825E+002
1.4662634E+006	4.7206277E+002	1.4777286E+002
7.0000185E+006	1.7348804E+001	-6.1104912E+001
4.7356185E+006	2.6138202E+002	-3.5340564E+002
3.2037188E+006	7.4098999E+001	4.8969437E+002
2.1673750E+006	2.9457434E+002	3.4232584E+002
1.4662634E+006	1.8748143E+002	9.3712830E+001
7.0000185E+006	-2.7763325E+001	-8.0082298E+001
4.7356185E+006	-5.0844247E+002	1.1102631E+002
