EC-Lab ASCII FILE
freq/Hz	Re(Z)/Ohm	-Im(Z)/Ohm
1000031	-15.89200079086	164.815724589674
869749.9	-15.1058708607643	189.345772375025
756468.7	-14.1145019531621	217.213356396243
657937.4	-13.1795767088879	249.221954175743
572234.3	-11.4266195668752	285.858852040742
497703.1	-9.89141833695466	327.792779730424
432875	-7.81474232205911	375.967860310124
376500	-6.06179846703764	430.874281617304
327453.1	-3.09882028208712	493.776444265944
284796.8	-145.811978492299	471.320948208511
247703.1	-152.999048118248	560.701347059075
215437.5	-157.972066392265	663.272225755055
187375	-160.814125259634	779.607180857052
162968.7	-160.9580946708	911.342486849429
141750	-158.149573893667	1061.17456307866
123281.2	-154.03778013536	1230.43591648655
107234.4	-147.235252521087	1422.64773130109
93265.62	-137.636360954284	1641.49161803222
81109.37	-125.286455926377	1890.24674162353
70546.87	-110.796680795006	2173.00419446143
61359.38	-93.170856938555	2495.8039242274
53359.37	-72.3013552385021	2863.64274379581
46421.88	-51.0860547795729	3284.0249348668
40375	-15.9685629639335	3766.43824038166
35109.38	19.8346235240305	4313.41325009594
30531.25	59.6935653951245	4938.69309634784
26562.5	106.667932705941	5651.11113887894
23093.75	161.708261856919	6470.26417468305
20093.75	227.248735323623	7399.8344582717
17468.75	302.970707583166	8469.59422850752
15195.91	388.172432842881	9688.62898481419
13219.16	496.625437792479	11076.9007279779
11516.7	620.675089549972	12646.2747161055
10019.53	764.27417031255	14463.2672255041
8712.634	928.357775168242	16537.0097936758
7560.961	9.57870800425881	18880.7436918855
6594.21	252.615301409837	21558.1373399819
5719.863	551.567596748586	24737.2778330995
4977.963	911.464250107008	28280.4523399804
4330.843	1340.87412934747	32342.1285414151
3766.388	1870.06395551484	36983.8393022858
3276.855	2512.19517571893	42278.5334958057
2847.269	3329.52769401874	48373.4065185708
2478.965	4284.59218329176	55247.8172688425
2152.935	5515.79264074718	63208.9687081022
1873.203	7042.02209530615	72197.0658098859
1628.436	8987.32161901193	82489.2858097298
1417.264	11385.6583706272	94076.0656352277
1233.816	14479.7802622347	107120.601520356
1071.714	18303.1420403906	122370.120228651
931.7174	23179.570817732	139322.573914798
811.3011	29343.6841055178	158307.781284538
706.1287	25652.6613782447	178062.131000173
612.843	35696.7764927723	202273.309041074
533.1233	48082.2769489425	228711.75472233
464.5541	63435.8497656007	257247.184142587
403.5793	83031.958593147	288855.212537547
351.4618	106801.303132679	322012.339426789
305.4887	136252.775557979	357163.817562981
265.4247	172103.738193595	393168.082757603
230.9605	214256.71042993	428485.871227079
200.8356	263777.920890875	461934.927223276
174.8323	319433.968637619	491718.760343552
151.7974	382609.447969265	516650.606199424
132.2426	448949.007582189	534497.287556339
114.8894	519872.279839832	544441.359711797
99.90408	591605.878921366	545754.249501953
86.91921	661590.74719315	538294.876624594
75.70236	727091.584423436	522869.350275777
65.77879	789469.172965138	501421.020143217
57.29168	851233.307938805	476275.645749919
49.82464	892288.332299909	447769.751913331
43.29585	935530.85394836	416801.052575278
37.65061	969526.269698537	382616.464163235
32.70782	1000706.6685305	355485.263971948
28.51278	1026581.01864791	327894.182738479
24.78584	1047873.16805169	305398.067315481
21.52205	1065657.80404643	282987.40221147
18.73501	1083102.91444153	261559.607393107
16.27602	1094037.59868185	248249.495070056
14.18732	1107226.11598804	230524.70981765
12.32259	1117312.67862241	221880.825859302
10.73144	1125645.08668125	211620.314717597
9.322762	1134147.58753461	202846.268497206
8.104219	1141865.91200548	199290.215174019
7.051006	1152471.37767147	197052.312590357
6.141901	1158048.18031815	195351.173972338
5.336404	1167519.78525518	193808.453838581
4.639253	1172897.2608842	200818.700292253
4.035383	1179600.92756453	208272.761460386
3.512815	1192060.32831426	204884.601531865
3.051758	1200286.06635293	210875.432198993
2.657316	1209002.82176291	215766.417020233
2.308659	1218437.63737255	224280.092473597
2.00732	1226864.31226366	231534.779444123
1.74386	1239960.6227589	241280.892488699
1.514047	1248629.35979601	250229.420518463
1.325048	1253574.08616177	256524.882044615
1.146875	1267620.7532905	263187.610597919
1.001604	1280112.33001557	280621.673538544
