EC-Lab ASCII FILE
freq/Hz	Re(Z)/Ohm	-Im(Z)/Ohm	|Z|/Ohm	Phase(Z)/deg
6999984	25.321777687651	92.3760848117579	95.7837850077554	-74.6708392419836
5969734	18.1897590336365	96.7266560690575	98.4221180833023	-79.3497271885809
5091109	14.8685041384738	102.591321662375	103.663164604158	-81.7535716180523
4341796	13.7816584146124	113.447330150637	114.281366928142	-83.0736090822542
3702781	17.021416309596	124.848327659603	126.00330762557	-82.2363458562295
3157797	16.3016030587547	138.775799187041	139.729970665878	-83.3003284817874
2693047	15.5274354886797	158.050375752232	158.811279600276	-84.389062884095
2296687	16.403856899306	182.117889964713	182.855167732203	-84.8531014023715
1958656	17.8341774516161	209.282758098068	210.041259571804	-85.1292670596245
1670375	19.4352097409324	242.159197815046	242.937861322809	-85.411391477947
1424531	20.5664928287814	281.285022716348	282.035892453093	-85.8181915124898
1214875	26.5403794671605	321.954055570152	323.046135467257	-85.2874607068602
1036062	24.7854867016929	385.245421601752	386.041908626707	-86.3188420338751
883578.1	40.1394499500114	440.442445595354	442.267705495559	-84.7927689465442
753531.2	38.2598825636349	500.873113067262	502.332254595973	-85.6318656375133
642624.9	85.5708900555178	692.326630572683	697.594825543465	-82.9540327904104
548046.8	104.253535402856	793.837098496236	800.653569649769	-82.5182410914339
467390.6	107.810367141161	875.617843870277	882.229949484342	-82.980789919443
398593.7	189.224317244317	1016.47094097973	1033.93375807776	-79.4546357608693
339937.5	139.557521058073	1165.21126554736	1173.53891927041	-83.1702097665132
289906.2	220.578173102258	1397.50808923014	1414.80867608055	-81.0306134721562
247234.4	185.794227161335	1530.61566661675	1541.8507754446	-83.0789948855284
210843.7	295.06433386862	1767.92583387323	1792.37962362823	-80.5247490348352
179812.5	227.156073499123	2115.19791511257	2127.36036012333	-83.8703641921631
153343.8	276.995905988004	2471.87839695227	2487.34990326119	-83.6061733528283
130781.2	384.960528407502	2855.70346734807	2881.53377593523	-82.3225760043967
111531.3	336.500218485172	3180.42622510979	3198.17813300114	-83.9603758617781
95109.37	416.595001180071	3859.26566236477	3881.68556785786	-83.8389661049899
81109.37	409.875427390433	4323.4518119239	4342.83702618536	-84.5843841964551
69171.88	1146.88985827544	5738.39497564155	5851.88288019192	-78.6976439219425
59000	1313.63255630215	6546.34763034462	6676.84789330231	-78.6533542843789
50312.5	1496.49156196192	7283.30766793253	7435.45947341441	-78.3891061492645
42906.25	1539.64498881402	8519.45305860383	8657.45846708687	-79.7560115611082
36593.75	1933.88377925972	9471.86220187788	9667.26848923969	-78.4604393947584
31203.13	2527.11579052776	11318.0079426171	11596.7072054044	-77.4133017283772
26609.38	2744.80456619245	13170.5805093178	13453.5550342284	-78.2278185299352
22703.13	3220.17365762315	15068.8814783707	15409.1111811952	-77.9375008151424
19359.37	3623.12963812802	16973.2931720003	17355.6834920827	-77.9504496613124
16500	4380.05312268919	20019.6834004883	20493.2327565312	-77.6588714393703
14112.02	4430.61459566428	22573.8568578656	23004.5508353178	-78.8956008401602
12011.13	5104.54209716632	26572.9865701523	27058.8241666048	-79.1262163527004
10236.38	6641.69419036506	30205.7812056315	30927.3555280889	-77.5990546455587
8750.684	7886.25010904709	35519.5937927032	36384.5363304397	-77.4819420722339
7449.463	16680.6287331765	45519.8689781996	48479.9117854657	-69.874781426282
6363.206	20087.8118123137	50579.5784429016	54422.5499114896	-68.3393691268904
5414.761	25264.4776712743	57575.7837760771	62874.99271914	-66.3079472642541
4620.567	30216.7649511735	65498.4803755216	72132.5433879678	-65.234453539297
3941.215	36837.8266862394	69413.5854175313	78582.8945476197	-62.0450839727012
3361.769	41564.5879657296	81334.9867909433	91339.9969840365	-62.9316215691071
2867.244	48656.5455228006	88720.0608227217	101186.504112949	-61.2584129199866
2442.658	62526.7108270585	96197.7804924089	114732.743968391	-56.9769055817802
2083.003	70122.6268680256	103008.630976658	124611.238877389	-55.7551131907094
1777.843	85394.2522698506	112703.099569263	141400.731869556	-52.8490769833838
1513.548	100043.36505098	114107.14403812	151753.468531233	-48.7573561852365
1292.065	118278.355751294	122226.852752123	170085.781219121	-45.9405696136585
1101.762	131559.360199737	122260.089965801	179597.869849868	-42.9017733556231
939.101	149699.400321584	126899.929702919	196248.573536848	-40.2878883280348
801.2801	164140.320502064	123162.414676024	205209.710304725	-36.8826683712794
684.3433	180678.371672564	125442.126085426	219955.452278594	-34.7716340230096
582.9476	194848.684582792	121173.020617197	229453.504678268	-31.8767647631112
497.0677	204342.180493168	120452.215823247	237201.313287748	-30.5177890871522
423.5089	216150.058864764	118186.646798267	246351.23589838	-28.6689803329799
361.5036	225665.760578938	115397.908520249	253459.489442629	-27.0836805983663
308.1262	234531.577248209	110996.396257284	259471.117291764	-25.3267169787535
262.7298	260881.286028856	95393.4251227284	277775.000597094	-20.0853620942542
224.2111	266043.439473812	97226.1797508189	283252.611137116	-20.0749457215388
191.2854	271596.177098436	100029.890399852	289431.274032181	-20.218941474611
163.1722	276714.046419671	104315.177780097	295723.383927009	-20.6553519680063
139.1537	282735.303116587	110380.116836331	303517.745479948	-21.3257183178873
118.6706	289057.920848544	117435.077875371	312002.370377017	-22.1103496408512
101.1982	295743.394542485	126254.056778235	321565.300162305	-23.1178328982313
86.24196	303429.721139279	137295.704376264	333046.10208023	-24.3457731264439
73.61024	309627.946077674	149733.728542582	343932.630693197	-25.8080588224429
62.69291	320454.57997535	163686.165979256	359839.26795191	-27.0576568553115
53.57697	328185.694183007	180407.199444293	374503.147487061	-28.7980677242229
45.65746	337800.281048102	198697.150815374	391905.074754492	-30.4644237981137
38.96512	349331.89396594	220163.45300355	412922.169640087	-32.2208316486652
33.18414	360694.430150832	243239.332333958	435046.945439344	-33.9943079119336
28.30617	376297.41974462	269283.773382535	462723.998419787	-35.5880473148695
24.17237	389031.608908105	300919.336046794	491831.31207404	-37.7222635355303
20.61345	407820.707406638	336070.327058106	528451.505928967	-39.4907034997795
17.55618	424206.198658114	377397.208657492	567784.776198195	-41.6580538697327
14.98558	447069.293610342	419202.665178424	612863.629025205	-43.1575187970577
12.76553	472492.53787693	469011.814888565	665748.66192464	-44.7881796003119
10.8809	496306.244369402	526991.061864566	723905.703448455	-46.7175691387913
9.278505	531183.390618252	589970.075321347	793864.273187412	-48.001504532322
7.923394	564480.564259737	664225.790159479	871684.695139232	-49.6410404518227
6.75822	595950.449484871	741691.515416921	951453.226534373	-51.2180609462967
5.761429	639204.500067636	834144.501753966	1050894.59162805	-52.5370728160453
4.919708	693733.776805282	932261.31898343	1162057.53728172	-53.3455563720206
4.191257	740108.362527596	1041627.37068763	1277790.26747307	-54.6050321972771
3.564097	814275.896299598	1179548.83872267	1433311.09610807	-55.3815848153298
3.051758	862721.466594438	1312977.06717248	1571049.68344216	-56.6921742054899
2.604164	966961.906217038	1461671.26935288	1752569.03650799	-56.5135546128579
2.214424	1040992.17228461	1674736.33387343	1971904.28032236	-58.1355064576261
1.892567	1115872.5065376	1840602.37336354	2152437.81505483	-58.7734949625042
1.607507	1258621.65578982	2042274.20358033	2398960.69059766	-58.3551211804997
1.376413	1411602.92986426	2299763.72047703	2698432.13767248	-58.4582535836233
1.17375	1531858.1681779	2604502.9909627	3021593.16873516	-59.5377633654292
1.001604	1656849.91710797	2881311.10780786	3323718.60237862	-60.099663075114
