EC-Lab ASCII FILE
freq/Hz	Re(Z)/Ohm	-Im(Z)/Ohm	|Z|/Ohm	Phase(Z)/deg
6999984	26.6848803011228	93.3392454000517	97.0788214212365	-74.0452266254802
5969734	18.6422422694749	95.0093496589814	96.8210189961683	-78.8987521080334
5091109	15.2956787914326	100.68234833897	101.837581750258	-81.3616684861828
4341796	14.7715179584009	111.116487472703	112.094029863622	-82.4276564640237
3702781	17.9651781992433	122.135153159232	123.449355060931	-81.6322191570436
3157797	17.4613326143801	135.667264278961	136.786347029254	-82.6659496110186
2693047	17.297814561399	154.030979505856	154.999216243612	-83.5924796615246
2296687	18.5674571604546	177.556644635221	178.524823258626	-84.0301621212251
1958656	20.5762970994233	203.842591978379	204.878467162334	-84.2359685612361
1670375	22.7888512111594	235.914037841213	237.012162114246	-84.4824550047013
1424531	25.9461701625675	272.901401292102	274.132045870777	-84.5689143359866
1214875	30.0271645608026	316.291827223374	317.713944578865	-84.5768784493389
1036062	34.761946835095	366.894963746636	368.538067735765	-84.5875927601079
883578.1	39.8800023809654	426.697303831717	428.556885007303	-84.660530287428
753531.2	46.9728882285675	496.526176527352	498.743116449144	-84.5957287607987
642624.9	112.445844803492	661.145351841028	670.639429406419	-80.3476477803602
548046.8	136.178221997837	756.817456457777	768.971501777349	-79.7996136493176
467390.6	166.023066962742	864.90536749957	880.695721287029	-79.1339512829346
398593.7	199.407120216824	989.578359339778	1009.46942938693	-78.6070592945323
339937.5	238.364590451045	1133.98054434516	1158.76207779433	-78.1291551976137
289906.2	283.612091681348	1298.78537359306	1329.39056157592	-77.6818470469551
247234.4	337.914658279549	1490.39834424614	1528.22561842544	-77.2254288673539
210843.7	405.285754092706	1711.41725487007	1758.75113723844	-76.6770509616342
179812.5	487.011559609347	1969.25188538193	2028.57912028923	-76.1090206035414
153343.8	590.33343846107	2262.82500030187	2338.56164138482	-75.3783848231906
130781.2	723.70441133693	2598.00544553559	2696.92053461371	-74.4342076725945
111531.3	897.599767032971	2978.25637509279	3110.5781420113	-73.2280169222851
95109.37	1123.38942790106	3393.49075625595	3574.60254007554	-71.6832654108329
81109.37	1393.19027349075	3876.83553757055	4119.56707962367	-70.2334530060339
69171.88	1760.80034354913	4379.85987209426	4720.54979308812	-68.098784148715
59000	3005.3240938765	5169.00213478999	5979.17686464434	-59.825731953262
50312.5	3400.5842437793	5654.70211319486	6598.45657620102	-58.9784419658225
42906.25	4402.08591210763	6143.71777278519	7558.01749463529	-54.377711192059
36593.75	5086.45788455081	6431.39876690881	8199.69169605207	-51.6602697725787
31203.13	5943.92057805039	6748.19250057516	8992.680015601	-48.625862371254
26609.38	6810.00248447878	7039.03853577482	9794.08991926917	-45.9474737550898
22703.13	7758.32566051567	7198.61572606872	10583.5573143542	-42.8569107602644
19359.37	8720.03679459673	7256.69137015024	11344.5410370245	-39.7667488358956
16500	9685.27023149558	7241.85649922866	12093.3430040049	-36.7861479011117
14112.02	10579.8186615733	7131.70931066733	12759.0689552033	-33.9833644180466
12011.13	11417.1943833945	6961.94139607652	13372.3952824697	-31.3738739767469
10236.38	12155.0072969566	6715.87681278883	13886.9436433516	-28.9215000220279
8750.684	12842.3609431336	6488.50802947593	14388.431847922	-26.8048506873659
7449.463	13455.9318615777	6247.00413610707	14835.3349453243	-24.9033928413991
6363.206	13989.9709670802	6090.85957821502	15258.3700984502	-23.5270221667799
5414.761	14468.2863981352	5942.6012511455	15641.1579152114	-22.3295690228463
4620.567	14913.8298608447	5826.80554731087	16011.6827349406	-21.3404948994237
3941.215	15307.7966660857	5767.00728744998	16358.0870465872	-20.6432281810613
3361.769	15679.7449018849	5785.51325529198	16713.0656617913	-20.2530553817331
2867.244	16000.4631703159	5946.37265712676	17069.6856866803	-20.3869556184552
2442.658	16384.472936658	6123.39556781104	17491.3386192128	-20.4923053682459
2083.003	16737.3620090222	6405.3614388981	17921.1590636315	-20.9417678402142
1777.843	17109.1317356445	6775.43284914283	18401.8716178785	-21.6041929950547
1513.548	17476.4974969062	7214.35895714544	18907.0076934959	-22.4310054708962
1292.065	17865.6674873051	7766.77147496041	19480.8832939169	-23.4961110937326
1101.762	18316.0934451525	8437.13328887981	20165.9241599754	-24.7327087142296
939.101	18796.5123728341	9205.5980719	20929.6897550698	-26.0933173199047
801.2801	19308.8255524585	10110.7267564517	21795.8147303307	-27.6380115355774
684.3433	19890.402190486	11226.9242448291	22840.1385131181	-29.4420894746838
582.9476	20499.1531810844	12297.9000734024	23905.0962632857	-30.96048492756
497.0677	21162.1332217921	13626.901222079	25169.9884666874	-32.7786404396927
423.5089	22063.414101504	15141.0294691032	26759.0174557793	-34.459881957101
361.5036	22936.7249088027	16652.9537181785	28344.5623900226	-35.9811078214852
308.1262	23879.5415500769	18697.9202560174	30328.9420610451	-38.061299851643
262.7298	24897.3807604546	20965.6507152997	32549.0104096423	-40.1001472473043
224.2111	26059.2754445716	23485.540390962	35080.7132788311	-42.0262938446632
191.2854	27311.8381611573	26291.7374465386	37910.3147137948	-43.9097665454409
163.1722	28728.5470508905	29564.7894777417	41223.8546538095	-45.8218756768192
139.1537	30407.8449739568	33242.5967793846	45052.2727128937	-47.5500538968046
118.6706	32237.3440319796	37380.5469957941	49361.4388358056	-49.2251991432727
101.1982	34354.6376453851	42041.2835045549	54292.8231579099	-50.7455311934964
86.24196	36741.0173386736	47251.7237933449	59855.0562318946	-52.1328167141128
73.61024	39382.5431030591	53104.1734837936	66113.8256544057	-53.4390287067182
62.69291	42461.3407994681	59754.7228440595	73304.7908711221	-54.6026315041156
53.57697	45813.6483729097	67010.1146548704	81174.1698035495	-55.6402638006754
45.65746	49858.2100864275	75333.0825597457	90337.7796991702	-56.5019407583506
38.96512	54214.2197533265	84558.0154455445	100445.206951606	-57.3341103895766
33.18414	59421.8947618376	95039.0768458034	112086.518836073	-57.9848758532862
28.30617	65002.7241454501	106691.797526323	124933.957776608	-58.647845318032
24.17237	71512.7412211959	119178.223746476	138987.48566808	-59.0341907592887
20.61345	80037.2153425355	133101.989782884	155312.895549437	-58.9805619096645
17.55618	88373.5494467558	149295.669258761	173490.867486561	-59.3771632954541
14.98558	98048.503334246	167072.069083239	193717.798030641	-59.5928819053208
12.76553	108663.955227464	187128.004342104	216390.261275166	-59.85655708264
10.8809	121014.503646956	209083.607473931	241579.107141392	-59.9383754557847
9.278505	134505.326142288	233512.495435105	269480.552702738	-60.0576652687309
7.923394	150069.287257136	260363.046676339	300515.735116234	-60.0415078589083
6.75822	167826.199680531	290299.529064059	335319.921677827	-59.9671952328798
5.761429	187990.360130285	323589.829183877	374233.554151903	-59.8454417014145
4.919708	210196.418903419	359419.576120335	416371.188026193	-59.6799714901807
4.191257	234926.159090755	400423.563835482	464251.365856734	-59.6001011735395
3.564097	264144.51253672	445083.712821597	517563.363195579	-59.3120752899272
3.051758	294139.928409833	493289.816290214	574328.425502843	-59.193129251658
2.604164	329976.632285331	545524.967842568	637559.462633881	-58.8311345166944
2.214424	369571.543281505	606801.405589905	710486.503340745	-58.656554276518
1.892567	413196.858625914	669212.883980501	786496.998127662	-58.3072792046063
1.607507	464923.583957321	743591.457485223	876973.314625205	-57.9847039659476
1.376413	517254.485221589	819955.636186523	969473.79943756	-57.7549478901002
1.17375	579303.307280435	904413.978420909	1074037.69309517	-57.3592632367828
1.001604	646956.821784972	998342.539953065	1189639.00252726	-57.0555153912722
