EC-Lab ASCII FILE
freq/Hz	Re(Z)/Ohm	-Im(Z)/Ohm	|Z|/Ohm	Phase(Z)/deg
6999984	1.98203365736042	1.71337160609531	2.61994268629738	-40.8418181947893
5969734	5.6598659635765	1.41049943109132	5.8329744874087	-13.9936748164233
5091109	6.68574312610267	-3.7430236106364	7.66220509370577	29.2423506577232
4341796	2.9130226390061	-5.20115503759262	5.961351744398	60.7480221160841
3702781	2.19612400573928	-5.13677596885912	5.58653989539437	66.8518560991718
3157797	1.95582041119582	-6.92193829092521	7.19294537614647	74.2221559926166
2693047	3.04974849533135	-8.59413564899634	9.11921780845954	70.4620631662911
2296687	-1.51373216357861	-8.55215423595923	8.68508647848067	100.037399705811
1958656	-2.68633967665626	-7.95934586265263	8.40045281039678	108.649929394878
1670375	-4.36590532136968	-8.8336474042702	9.85365189856704	116.300233762804
1424531	-3.53095466530322	-10.6175221101738	11.1892545153131	108.395020471825
1214875	-10.2348542724876	-13.9449824002865	17.2978257628916	126.276632187401
1036062	-2.61989363429708	-8.73342686756612	9.11792671094455	106.698435144663
883578.1	13.342813550675	-12.1080162103495	18.0176227621227	42.222360002157
753531.2	20.4375795920958	-4.55139118784642	20.9382382575053	12.5547371505759
642624.9	2.99058344436768	6.62607002790688	7.26969004514305	-65.7086334105472
548046.8	7.63079703938418	-2.58923998921621	8.05811560962181	18.7428188478596
467390.6	9.45205901979138	4.55120859870334	10.4907063357303	-25.7110226902596
398593.7	6.64401712576067	-4.69737872611305	8.13685015616857	35.2606477715759
339937.5	2.55695238647413	-16.8890100996439	17.0814714721118	81.390946629514
289906.2	2.22765469433261	-20.6435812731163	20.7634268177712	83.8410287530524
247234.4	25.6632375609383	-46.0774248629776	52.7421164166978	60.8839850008686
210843.7	-13.3183319360907	-78.6221791473395	79.7422411237372	99.6144422614449
179812.5	-7.32157065011257	-104.61087904311	104.866779348642	94.0035238695083
153343.8	-12.7992600514571	-109.631699210273	110.376313263293	96.6590113626011
130781.2	-4.80319110191662	-138.718313249724	138.801444789347	91.9831027965385
111531.3	-11.036086223492	-156.691832302707	157.079997165496	94.0287913082736
95109.37	-22.3007361895801	-211.595346575654	212.767275507932	96.0163818995824
81109.37	-24.5236066924224	-245.78213139643	247.002557474567	95.6979892528282
69171.88	-30.7468794850629	-284.095442347204	285.754424218633	96.176924673778
59000	-33.568179669141	-329.722924743072	331.427261684107	95.81309647387
50312.5	-41.9708523294934	-384.795427287298	387.077606309741	96.224823945451
42906.25	-43.9954763775933	-441.475104038858	443.661886381749	95.6910564635071
36593.75	-162.416723578097	-528.27204200241	552.675802310215	107.089994501855
31203.13	-162.306378580573	-609.45109210366	630.693264744664	104.912640288799
26609.38	-193.583779393664	-701.374073977779	727.598976973251	105.429849290464
22703.13	-184.825640980338	-817.863462020831	838.487423920295	102.734140160153
19359.37	-210.818007929465	-935.037904380808	958.509319253705	102.705721453514
16500	-229.7500064457	-1086.39969576116	1110.42755928144	101.940880092794
14112.02	-250.649030728163	-1256.03961606927	1280.80461185163	101.285416375164
12011.13	-276.817147634017	-1455.70407087991	1481.79015896333	100.766832274792
10236.38	-347.841610723235	-1683.97837600467	1719.52812044522	101.670845083949
8750.684	13.3191414928973	18.1091293352764	22.4797708037602	-53.6657710245633
7449.463	-2375.24524057645	-2511.31987839971	3456.66276696564	133.404914708183
6363.206	16.9676878134927	-3.06511174472323	17.2423124824888	10.2397126385057
5414.761	-500.913978339896	-3002.96540390813	3044.45660681269	99.4701141928515
4620.567	-534.575524225137	-3487.75088801155	3528.48086971234	98.7140390863968
3941.215	-188.076072187419	-254.73049783322	316.638967052078	126.439695975895
3361.769	3.68362182625049	38.2029305075445	38.3801116351048	-84.4924244703366
2867.244	82.1161556696868	9.52713331902981	82.6669782394808	-6.61788025772316
2442.658	-1569.53683501383	-6264.19488066047	6457.83116683598	104.066267033832
2083.003	-1726.29049453879	-7231.04996204177	7434.25601019223	103.427075317584
1777.843	-1868.35234514044	-8341.31822866256	8548.00153705006	102.625163587519
1513.548	-2040.50698269727	-9713.19962918641	9925.21615799189	101.863931860908
1292.065	-2314.41786862499	-11187.6672355921	11424.553743799	101.688033817803
1101.762	-2510.26126490026	-12992.928217487	13233.2004928071	100.934938091883
939.101	-2744.88535463073	-15054.2540578872	15302.4495048826	100.333389702775
801.2801	-3164.24169608416	-17326.1212385225	17612.6915229677	100.349776295716
684.3433	-3485.1818081743	-19884.5236254302	20187.6390904513	99.9413146835671
582.9476	-3928.62920227332	-22905.3951190432	23239.8634455636	99.7324142714624
497.0677	-18422.7332717521	-39246.5569377965	43355.3841255481	115.145838397174
423.5089	8349.97521108089	-18384.5435764967	20191.9174062735	65.5731861877783
361.5036	-5639.2138608112	-35718.3143380741	36160.7343968764	98.9718127984262
308.1262	-21459.2164626776	-59975.6311388092	63699.0918435307	109.687154891404
262.7298	-7370.1370112804	-48195.317743422	48755.5901610723	98.6944439298034
224.2111	-24076.4371739772	-79058.6679929727	82643.4983033485	106.937530432571
191.2854	-23299.74107315	-86077.8127404317	89175.4886740334	105.146005998756
163.1722	-6562.01071676968	-99422.505250637	99638.8204213596	93.7761169206209
139.1537	-30362.571095546	-119872.786805537	123658.282132891	104.213517187181
118.6706	-31095.8955892587	-132301.149630563	135906.397627436	103.226654680847
101.1982	-36475.9865847389	-158325.020923625	162472.489510675	102.973808405856
86.24196	-38193.5218733347	-176079.514544073	180174.195031267	102.238474371585
73.61024	-44696.3868722873	-209486.504675099	214201.68682909	102.044127087477
62.69291	1023268.19949542	1334535.95285065	1681684.87462711	-52.5204684991424
53.57697	-218075.664153241	-350326.154047103	412656.527278209	121.901984830018
45.65746	-228266.365156461	-407597.138729961	467162.67077175	119.250106971035
38.96512	-485945.812682498	-1604250.57409993	1676234.83956265	106.852159721097
33.18414	-251383.947031029	-544164.722341855	599424.00174358	114.795188226554
28.30617	-268044.051805758	-627918.24179983	682736.356211853	113.11653647838
24.17237	888937.333847782	-440781.347994137	992218.615148865	26.3746052198463
20.61345	-308014.844867391	-838714.54074069	893484.877045241	110.165574650338
17.55618	-307024.741208861	-1227890.16882452	1265692.87681107	104.038535876548
14.98558	-363733.050603565	-1114242.06545775	1172107.97819012	108.078747768913
12.76553	768194.818817903	-1545835.83908947	1726189.94350914	63.5751677645981
10.8809	-435820.700657373	-1475790.25905402	1538797.11847931	106.452578954772
9.278505	-486211.836498453	-1691669.43821171	1760155.51532549	106.035465679917
7.923394	-533216.45801797	-1943845.7458513	2015652.76641723	105.339493846172
6.75822	-607376.597190917	-2218161.57944846	2299814.58456035	105.313366970714
5.761429	-673721.077954979	-2569513.74492806	2656369.88694253	104.692108833453
4.919708	-764312.469105567	-2912101.23153949	3010731.99291535	104.706203595214
4.191257	-857977.016389505	-3350789.70634127	3458889.44847551	104.362142439237
3.564097	-964809.707782455	-3840024.24257043	3959374.18738869	104.103681177854
3.051758	-1043930.28591301	-4414698.67702977	4536447.38212788	103.304175870528
2.604164	-1314538.30600421	-5329559.64390556	5489282.0073211	103.855475861003
2.214424	-1323171.38688522	-5744206.93985526	5894632.80340287	102.971745757793
1.892567	-1377034.368911	-6506774.40307589	6650889.92433988	101.949245276603
1.607507	-1565466.03260969	-7665909.53441598	7824119.94342524	101.541757692706
1.376413	-1695729.67682582	-8667744.04568556	8832060.12085432	101.069353990621
1.17375	-1712352.13050636	-9961120.37023487	10107228.544421	99.7540147803388
1.001604	-1879747.70165665	-11693816.9895962	11843935.461157	99.1320117979448
