EC-Lab ASCII FILE
freq/Hz	Re(Z)/Ohm	-Im(Z)/Ohm	|Z|/Ohm	Phase(Z)/deg
6999984	23.9816514985316	90.2643293395048	93.3957641422116	-75.1212413647359
5969734	18.1266446584173	89.2668831558097	91.0887022353788	-78.5215166957193
5091109	12.9425277154071	94.3097545383765	95.1936910974299	-82.1858682744785
4341796	9.78120875887444	103.800597827977	104.260424678927	-84.616870903439
3702781	10.4282405743871	116.167109979742	116.634238723125	-84.8703474320049
3157797	10.4250184063579	130.711739425645	131.126808214227	-85.439982071924
2693047	10.333714352616	148.023290811406	148.383557967045	-86.0065800355289
2296687	10.1380129824706	170.425885351793	170.72715573445	-86.5956952404824
1958656	11.1929614674971	196.561700514025	196.880127223085	-86.7408827457685
1670375	12.5274047752376	228.392912978352	228.736220501126	-86.8604590376123
1424531	15.0954942866441	265.132182047342	265.561570836111	-86.7413411120046
1214875	18.0797888119179	307.957898561216	308.488161928012	-86.640099469605
1036062	21.6547994727427	357.972257537289	358.62664082099	-86.5382275736307
883578.1	25.7145903128513	416.297746673723	417.091181926179	-86.4653473420901
753531.2	31.3151731040548	484.725129868815	485.735619028372	-86.3036013565247
642624.9	92.6092161533339	638.334072735844	645.016941895378	-81.7451491384638
548046.8	113.466133879686	731.92339116638	740.666196119478	-81.1878903869196
467390.6	135.758128128552	838.785726077221	849.70098483164	-80.806357791142
398593.7	159.640426428225	960.919793943392	974.090301841876	-80.5674343905724
339937.5	187.196232584746	1101.10652868798	1116.90555420465	-80.3515438933671
289906.2	214.838154090971	1264.02030855968	1282.14771883138	-80.3539503161067
247234.4	246.350650124063	1454.13603139476	1474.85600674	-80.3846035581462
210843.7	281.82227132414	1674.03353294401	1697.59007479289	-80.4439046899422
179812.5	317.553116998895	1932.73698419852	1958.65061514414	-80.6695354696647
153343.8	367.867227538869	2228.11523998838	2258.27895083083	-80.6249020574241
130781.2	425.267555635953	2573.17048013502	2608.07569171504	-80.6155628453634
111531.3	491.000590485546	2974.5628498618	3014.81437697831	-80.626907409707
95109.37	574.489560846686	3440.66413609738	3488.29585226777	-80.5207383302693
81109.37	677.035659074989	3993.45835433428	4050.4428043686	-80.3777853603841
69171.88	800.576633591116	4598.96978662821	4668.13089411289	-80.1250536769519
59000	1556.73844724188	5690.88091828779	5899.96273032747	-74.701034117787
50312.5	1698.82489132202	6571.6177445999	6787.6480309836	-75.5058106368277
42906.25	2229.92195479278	7452.98465294575	7779.43006662518	-73.3428949602089
36593.75	2542.91157161731	8442.87731048527	8817.51532694853	-73.2382155710385
31203.13	2945.22617174372	9643.52793773835	10083.2528624777	-73.0168246789999
26609.38	3431.17569529148	10992.9100208678	11515.9470899642	-72.6654869590257
22703.13	4030.53479205224	12559.5695044861	13190.4509721222	-72.2078655680547
19359.37	4813.65779494507	14342.0038561242	15128.2641428525	-71.4465192498849
16500	5766.80347758125	16359.6179445541	17346.2711163184	-70.582327007489
14112.02	6959.96934295299	18552.0935525035	19814.6750777218	-69.4360103467708
12011.13	8493.64942066907	21079.9188192629	22726.7476315452	-68.0542080322538
10236.38	10382.2205203593	23779.3484644279	25947.0213382203	-66.4136006816762
8750.684	12736.6163146818	26635.8436937008	29524.3893149829	-64.4440009651345
7449.463	15710.6479176456	29580.0251701933	33493.3179464426	-62.0261763654619
6363.206	19158.3948042606	32650.1124846069	37855.9630274202	-59.5964915394301
5414.761	29080.0664828853	35950.9490563629	46239.8205522278	-51.0312365980384
4620.567	33650.7669873903	38407.9926233641	51064.1558844952	-48.7771117700127
3941.215	39262.0161742307	39722.2021249301	55851.2242991983	-45.3338187677709
3361.769	44530.3150535941	40677.0543809473	60312.2849167804	-42.4107256068842
2867.244	50337.4377478622	40765.3281951881	64773.9887754437	-39.0019762301109
2442.658	55074.9187199758	39745.1858715456	67918.5281935323	-35.8163538074953
2083.003	61022.8789776554	39300.614059386	72583.2626999255	-32.7827829245515
1777.843	65566.7931376	37801.5591318573	75683.3022214817	-29.9649592993643
1513.548	70821.5842588078	36155.7774612852	79516.8978315766	-27.0451835641115
1292.065	74354.1466935613	33570.9127245256	81581.5255538001	-24.2991859281218
1101.762	77858.3847111929	32115.6198705825	84221.9752173259	-22.4155413400056
939.101	78277.8093288811	27261.1116960133	82888.9838532912	-19.2012366501658
801.2801	86672.9301137174	28309.7900838517	91179.1699298096	-18.0884781275084
684.3433	83980.7119983048	28409.0019805911	88655.6900671099	-18.6896540940494
582.9476	88329.9606095052	26941.2737989141	92347.2477943159	-16.9620832093268
497.0677	87236.8143070607	22498.1301136363	90091.2183792332	-14.4613057800752
423.5089	92357.8532068872	23180.3467539509	95222.379326597	-14.0892957428527
361.5036	93062.2767123392	21198.7428880295	95446.184035386	-12.8324956304994
308.1262	92107.706436297	21343.1049104752	94548.1766729249	-13.0462719134407
262.7298	93091.7874012138	22135.7750047574	95687.3733395061	-13.3756424315496
224.2111	96317.7512300285	23198.4532133463	99072.0820085128	-13.5419548907422
191.2854	97388.9940507105	23328.3445888595	100144.035386367	-13.4706904001838
163.1722	96877.1079004715	25106.5589897324	100077.536637672	-14.5290637689274
139.1537	99283.272321661	26888.5820531882	102859.924206311	-15.1537252754908
118.6706	100249.474982986	28677.3157440905	104270.540770875	-15.9636813329996
101.1982	100398.537519693	31905.7017119912	105346.286777597	-17.6297623871487
86.24196	101441.289365428	34479.7622886041	107140.978134415	-18.7728303771685
73.61024	102988.529312265	38062.7414461723	109797.128634138	-20.2834221448751
62.69291	105030.582285377	42399.9229840283	113265.955539415	-21.9834967850093
53.57697	105974.282982619	48062.3126461274	116363.802578699	-24.3956261841982
45.65746	108106.07952302	54455.9291829231	121046.985311543	-26.7356201969802
38.96512	109467.035480822	61206.0342445374	125416.149218922	-29.2107577648997
33.18414	112073.127931965	69559.3964984266	131904.873472059	-31.8262528038924
28.30617	113393.375309784	78826.8666185914	138100.443391941	-34.805593231527
24.17237	116504.917877329	89404.9812951975	146855.870056317	-37.5023566041811
20.61345	120324.176356316	101146.576012758	157189.494734637	-40.050987468482
17.55618	123489.381811983	115968.655192671	169405.892481644	-43.2010865077995
14.98558	127680.649467151	133182.984497409	184499.473191635	-46.2083471687908
12.76553	132031.947528623	152297.274296623	201561.144386467	-49.0768145334897
10.8809	137069.754288868	175035.182670743	222318.3139406	-51.9355645339831
9.278505	142783.042042858	200686.31294617	246296.555596989	-54.5691478505681
7.923394	149390.742274829	230434.78124116	274622.982073761	-57.0446807593662
6.75822	156508.018594895	264800.388144665	307593.896958417	-59.4151503972712
5.761429	166669.267581192	304426.321921009	347064.878998732	-61.2998950643541
4.919708	176174.877041888	348805.035690187	390771.723930426	-63.202516014645
4.191257	188627.344290561	400749.115178718	442922.259917737	-64.7942500652979
3.564097	202204.835217667	462249.340070099	504540.630455711	-66.3736655233556
3.051758	218255.617584732	528023.124332276	571352.723312763	-67.5424994254224
2.604164	240065.073256851	605510.2482381	651363.109270998	-68.3732882283621
2.214424	262715.651091261	696281.751570885	744196.070198523	-69.3278932108296
1.892567	286560.495209405	798079.874100156	847967.218032855	-70.2486936833843
1.607507	321380.21711684	915458.133379548	970231.332170238	-70.6558947883838
1.376413	360112.356715444	1048789.21642753	1108891.21646527	-71.0495740894182
1.17375	409715.132707545	1197199.15039772	1265366.46695042	-71.107614714065
1.001604	460976.002297061	1366565.28408626	1442220.35430219	-71.3594869608045
