EC-Lab ASCII FILE
freq/Hz	Re(Z)/Ohm	-Im(Z)/Ohm	|Z|/Ohm	Phase(Z)/deg
6999984	20.5213835585439	27.7910993762072	34.546669704837	-53.5572585477435
5969734	25.0073512984507	0.00416878301697607	25.0073516459235	-0.0095513382251237
5091109	17.0149714256543	-18.2987391589558	24.9870587989731	47.0819702964945
4341796	4.01760009026405	-4.02618310461342	5.68781688147256	45.0611366939122
3702781	5.95998381169342	-6.77045225231591	9.02000170379902	48.6427531670545
3157797	16.9476990312878	-97.0316123664702	98.5005497491869	80.092566969968
2693047	26.9578139296	-3.65122322049031	27.2039549122693	7.71332399581173
2296687	27.9768824177965	-77.3767045200246	82.2791611053394	70.1216689402038
1958656	-21.2426433814164	-47.9582432189011	52.4522925187575	113.890487868043
1670375	-24.9224261756995	-57.6458369305044	62.8026260748824	113.380612726156
1424531	71.3160584080658	-21.6882959510973	74.5410113167579	16.9153126645103
1214875	-10.9620769427547	-47.8327833615689	49.0728264420713	102.907860963636
1036062	52.0455771325055	-27.2274363198962	58.7373423607979	27.6161360069593
883578.1	4.52075823010571	-62.8397557613563	63.0021599560045	85.8851702787406
753531.2	38.7252154974354	-34.5060485689374	51.868195487839	41.7025898791482
642624.9	-1.1030811302846	-0.677853316171788	1.29470965789054	148.428899420544
548046.8	-0.499128936037527	-0.148827232916484	0.520844736987455	163.396791564762
467390.6	-0.236039157291106	-0.395969035871852	0.460983688587763	120.799384849069
398593.7	-0.176742375815553	-0.162569398819312	0.240138869909473	137.391841525601
339937.5	-0.105366999270972	-0.156902582209745	0.188999007509179	123.883100998242
289906.2	-0.0809845718680048	-0.117106784159417	0.142381528917217	124.665589459052
247234.4	-0.0646654894947585	-0.0916725269817967	0.112185015643021	125.199013166319
210843.7	-0.0490806486592119	-0.0728114200640143	0.0878089571999767	123.983082133493
179812.5	-0.0393528619064607	-0.0594283920600486	0.0712767951234609	123.512110825895
153343.8	-0.0249012779768991	-0.0467406126711944	0.0529599709003076	118.046666418142
130781.2	-0.0169749851199096	-0.0392414498058811	0.0427556020035813	113.392243769397
111531.3	-0.0132363433099546	-0.0332111601389422	0.0357516704783629	111.729806726825
95109.37	-0.0104864489123478	-0.0270403412392184	0.0290025113589264	111.196669498455
81109.37	-0.00865168887485561	-0.0227678996605061	0.0243562923150913	110.806542535751
69171.88	-0.00511534479869113	-0.018966307162674	0.0196440209681826	105.093924135179
59000	-0.0007876673898151	-0.0150786941572114	0.015099252875679	92.9902480088194
50312.5	-0.00154279094028715	-0.0137555824048469	0.0138418297627866	96.3994041856273
42906.25	-0.00124950455516582	-0.0126877459975917	0.0127491238966756	95.6244214719334
36593.75	-0.00100088374917983	-0.0106060286769448	0.0106531503591918	95.3909984661971
31203.13	-0.000714968703447892	-0.00974444668518672	0.0097706407900074	94.1963814633493
26609.38	-0.00047063243832982	-0.00773984404383735	0.00775413958572663	93.4796685574202
22703.13	4.73054247447512E-07	-0.00654051167757204	0.00654051169467929	89.9958559799067
19359.37	0.000252377207979862	-0.00546589290305658	0.0054717163196562	87.356354009298
16500	0.000427556702497332	-0.00474323682362834	0.00476246787903859	84.8492625851441
14112.02	0.000520816269160324	-0.00405523667085131	0.0040885442449409	82.6815340630461
12011.13	0.000608149490965808	-0.003518375394234	0.00357054774763106	80.1933502461315
10236.38	0.000586002631236877	-0.00296403362701928	0.00302140603460006	78.8165899602117
8750.684	0.000627724070159094	-0.00247167038761634	0.00255013568526786	75.7500052491125
7449.463	0.000688190916693285	-0.0021341938037838	0.00224240717309063	72.1275941809569
6363.206	0.000713851196331838	-0.00180673325764359	0.00194264474229845	68.440725360849
5414.761	0.000699714064573023	-0.00157274183301728	0.0017213705718072	66.0156814929578
4620.567	0.000787845411797339	-0.00137058441867018	0.0015808864733407	60.1086585124976
3941.215	0.000779441810022201	-0.00115603630570689	0.00139425588588434	56.0107153926952
3361.769	0.000766944871425973	-0.00102212223040965	0.00127786473842273	53.1174332258892
2867.244	0.000752100508728454	-0.0008899922685583	0.00116522161554064	49.8000476991274
2442.658	0.000695394662870519	-0.000756743954402413	0.00102773301478225	47.4191674180849
2083.003	0.000685481466624765	-0.000601884544148102	0.000912222475918242	41.2846343563341
1777.843	0.000717393731664946	-0.00052164417542536	0.000886998541141619	36.0223206756889
1513.548	0.000664407012000986	-0.000631332604008979	0.000916524704784785	43.5378138039979
1292.065	0.000745540675310591	-0.000378040936144938	0.00083591019131478	26.8881759395118
1101.762	0.000595666916913947	-0.000390087835946004	0.000712030614270765	33.2198179419435
939.101	0.00074254494077633	-0.000345676260388953	0.000819063529934653	24.9633471450816
801.2801	0.000653385913447695	-0.000207261799160999	0.000685471082747721	17.5996477254366
684.3433	0.000787416840306057	-0.000147284936487632	0.000801073113338439	10.5946485334333
582.9476	0.000630998501540583	-0.000248831620940984	0.000678289233680278	21.5215896697307
497.0677	0.000635294711161037	-0.000212021414288004	0.000669740584215912	18.455766992499
423.5089	0.000668636400528336	-0.000136018160876234	0.000682330987277907	11.4985639397656
361.5036	0.000524246374240295	-0.000256780188170161	0.000583755364806867	26.095993032808
308.1262	0.000595435125615143	-0.000170054085204684	0.000619242586319064	15.9391472802121
262.7298	0.00055826433916689	-0.000237361909406699	0.000606629828167589	23.0341466826745
224.2111	0.00052494428483204	-0.000177401655069503	0.000554109961469039	18.6723622277924
191.2854	0.00062566528544855	-0.000159838753430154	0.000645759612017909	14.330837560546
163.1722	0.000788264765461308	2.95126795388028E-05	0.000788817050222249	-2.14415589249068
139.1537	0.000528721119648812	-0.000140459813554215	0.000547060308911529	14.877530970348
118.6706	0.000743486101034504	-0.000160083069599126	0.000760524931612217	12.1510826543283
101.1982	0.000468210085248262	-0.000121319397907496	0.000483672492743615	14.5266115095643
86.24196	0.000498780400610466	-0.000126390372664118	0.000514544861343801	14.2193800806592
73.61024	0.000472061365884119	-0.00012749225847561	0.000488974650806759	15.1136125002537
62.69291	0.000514110689578557	-0.00021658996356572	0.000557871861144062	22.845231038464
53.57697	0.000479244767913406	-9.73194203276135E-05	0.000489026192698588	11.4788713803469
45.65746	0.000501413181825531	-7.47391083119916E-05	0.000506952772178705	8.47791325510201
38.96512	0.000518796262806693	-0.00010830765825357	0.000529981236591036	11.7921131365229
33.18414	0.000460092878992257	-2.37844994166033E-05	0.000460707238614591	2.95927086198678
28.30617	0.00033329698965881	-4.71847093402503E-05	0.000336620379821467	8.05779195182233
24.17237	0.000474116615301687	-9.86063137961887E-05	0.000484262088156404	11.7488319046787
20.61345	0.000433863071136926	-8.48601783344602E-05	0.000442084171129574	11.0668860777581
17.55618	0.000477496620383833	-5.76979692498465E-05	0.000480969934750124	6.88989197096152
14.98558	0.000430487530821082	-6.61556879374616E-05	0.000435541145288147	8.73664953622719
12.76553	0.000407555140845769	-3.33398604071923E-05	0.000408916542978864	4.67664137908262
10.8809	0.000366682997599845	-2.82146167692298E-05	0.000367766889929262	4.39998412404134
9.278505	0.000423212379220222	-0.000141487519744443	0.000446236973108095	18.4857097668726
7.923394	0.000426815735978216	0.000255596931692178	0.000497495189895422	-30.9151181293415
6.75822	0.000353433697984383	-6.73596363095282E-05	0.000359795357772537	10.7903881049839
5.761429	0.000378674001927863	-7.8306747282311E-05	0.000386685849761791	11.6836235780149
4.919708	0.000388355046940914	-2.46272087405482E-05	0.000389135120356451	3.62850504726462
4.191257	0.00038012997623044	-3.31176904050626E-05	0.000381569889072396	4.97915163575579
3.564097	0.000367970625592315	-0.000120676433239048	0.000387253383249388	18.1569695023383
3.051758	0.000409712817132151	-3.7293537019329E-05	0.000411406612034585	5.2009361497996
2.604164	0.000342542111529839	5.81558027841266E-05	0.000347443802029604	-9.63563177594335
2.214424	0.000311938043156326	-0.000109844563607148	0.00033071312481098	19.3989930331552
1.892567	0.000253778745007922	-0.000117859375082825	0.000279811514617804	24.9109959913405
1.607507	0.000383539021581489	-0.000157679138548605	0.000414686498223798	22.3483620385265
1.376413	0.000496923606124734	-1.69389548384971E-05	0.000497212226835816	1.95232217422955
1.17375	0.000430325290385905	0.000109618388240898	0.000444067614881164	-14.2912289881686
1.001604	0.000250906200600316	0.000144666065920593	0.000289624225728145	-29.966643795282
