EC-Lab ASCII FILE
freq/Hz	Re(Z)/Ohm	-Im(Z)/Ohm	|Z|/Ohm	Phase(Z)/deg
6999984	41.7803946683506	27.5125320230599	50.0254015172595	-33.3650398246973
5969734	3.45594256320339	6.38160999419432	7.25730563764278	-61.5623670303035
5091109	6.12000463752587	11.1953459268317	12.758927352437	-61.3365070674629
4341796	1.62213593437576	0.522886921717902	1.70432852540135	-17.8664512523172
3702781	7.49604252286369	6.23594536948311	9.75077782311537	-39.7570142829563
3157797	12.4786753473823	-3.83559813254903	13.0548516444953	17.085973873368
2693047	5.42261171623535	-18.5647889009575	19.3405301055107	73.7173801751064
2296687	15.1615481002726	-27.1626890089867	31.1076231010312	60.8308145174805
1958656	26.1666221690857	-14.0741034978697	29.7114877616123	28.2742410600245
1670375	15.2342651082612	-26.9880738915622	30.990949739645	60.5560812547152
1424531	27.6402718444566	-8.3227190935387	28.8661095533398	16.7574914398415
1214875	7.15033257412018	-13.5794898305281	15.3469801582572	62.2307795941031
1036062	12.418333372398	7.61671998384957	14.5680962057637	-31.5226539274085
883578.1	8.92909571368811	-25.0220540898781	26.5674978336498	70.361108002789
753531.2	-2.05161830551708	-22.5901533300618	22.6831251186258	95.189317322311
642624.9	0.387666008260561	-1.46986583327441	1.52012844910822	75.2251186129931
548046.8	0.483024259084997	-1.02789958920169	1.13573324348001	64.8305182937297
467390.6	0.395727155702966	-0.914827180708443	0.996749091960318	66.6081198531231
398593.7	0.374496370439568	-0.760573910286989	0.847773675270499	63.784984909175
339937.5	0.349031392968143	-0.653761406791039	0.741098434950905	61.9030477352883
289906.2	0.327405100898078	-0.562574657270905	0.650910397134319	59.801610430087
247234.4	0.311578451070834	-0.493944924606173	0.584005753153081	57.7564375803675
210843.7	0.291685716409993	-0.430220426684417	0.519778965228618	55.8630698984679
179812.5	0.287602646843995	-0.381764531433543	0.477974308862249	53.0074253292241
153343.8	0.274598089932655	-0.333459062255518	0.431971130048053	50.5291021159637
130781.2	0.267292330521909	-0.29676304010442	0.399391401920285	47.9908647060664
111531.3	0.258292748259369	-0.266526172274452	0.371148682215966	45.8987895312376
95109.37	0.248743832302487	-0.240132046534363	0.345741079250513	43.9908114255622
81109.37	0.238921002504353	-0.215843497713163	0.321980839403119	42.0949571068317
69171.88	0.229722837823967	-0.196882029504303	0.30254770823728	40.5979501684478
59000	0.220856130478119	-0.172922195625977	0.280498691814911	38.0596325444592
50312.5	0.214332577388214	-0.150512672780564	0.261901734239054	35.0780232039559
42906.25	0.222313986224704	-0.166817340414224	0.277941600941624	36.8833960276792
36593.75	0.203838725733146	-0.156495184975693	0.256984375067997	37.5148986503165
31203.13	0.191807411305645	-0.147554474037809	0.241996706259295	37.5705271226458
26609.38	0.181231749875698	-0.141616756386298	0.230000549678438	38.0045140045676
22703.13	0.169896641813839	-0.135253671423731	0.217159905445776	38.5230809162067
19359.37	0.15920778050788	-0.130331064206599	0.205750586078072	39.3045265938297
16500	0.148051805552228	-0.126735507006229	0.194887726302609	40.5642316022043
14112.02	0.137167142297784	-0.123789413126417	0.184766457259761	42.0653466479794
12011.13	0.125616489334743	-0.120840331414161	0.17430401053639	43.8897875071247
10236.38	0.113666615673387	-0.116940753852382	0.163080469186856	45.813424549341
8750.684	0.102311956587366	-0.113014569345705	0.152446808248419	47.8454938542858
7449.463	0.0907419267811532	-0.108558076040115	0.141488349871951	50.1082989929078
6363.206	0.0797909848722243	-0.103586247901593	0.130754395800714	52.3934609446958
5414.761	0.0687284925734155	-0.0975970340564768	0.119368282001691	54.8465339079248
4620.567	0.0588615218892194	-0.0911756073098382	0.108524974671422	57.1543563405102
3941.215	0.049030701918505	-0.0844336156889634	0.0976373145315501	59.8562133079629
3361.769	0.0407821016827992	-0.0772475393344036	0.0873519441734779	62.1686136733314
2867.244	0.0336884508258425	-0.070307259804897	0.0779616732780826	64.3981070457445
2442.658	0.0271893970207226	-0.0633076779077942	0.0688993860090747	66.7574326545342
2083.003	0.0218599890368899	-0.0566004415759545	0.0606751111023786	68.8826477082334
1777.843	0.0175725953584868	-0.050330946931417	0.0533104148046724	70.7538132755717
1513.548	0.0138885221117597	-0.0441880573674427	0.0463192774161822	72.5518121324717
1292.065	0.0109385186023316	-0.0390029455629409	0.0405077887794346	74.3336535795491
1101.762	0.00860216422633226	-0.0340530409069846	0.0351227394203465	75.8230573679917
939.101	0.0069149081811493	-0.0295085571054371	0.0303079345650371	76.8115241561514
801.2801	0.00550243989557274	-0.0256800591351442	0.0262629450364748	77.9061600237488
684.3433	0.0043918821176236	-0.0222431390961233	0.0226725795926399	78.8306847219719
582.9476	0.00343757340011246	-0.0191347898853024	0.0194411186621509	79.8154272844632
497.0677	0.00283838624647265	-0.0166737666259761	0.0169136314841515	80.3391107092128
423.5089	0.00211983165248608	-0.0140159741784563	0.0141753736601909	81.3995409964409
361.5036	0.00187898436629306	-0.0122617757695675	0.0124049073866726	81.2878142263904
308.1262	0.00155898562293268	-0.010431320731727	0.0105471744263887	81.4999232021478
262.7298	0.00137437279477906	-0.00896713157647356	0.00907184376457278	81.2862099445641
224.2111	0.001146202043563	-0.0077171675945629	0.00780182381288117	81.5518331783867
191.2854	0.00104581545889945	-0.00658513044330845	0.00666765872922879	80.9759532985007
163.1722	0.000811062880523521	-0.00565738443609022	0.00571522717430191	81.8414633438253
139.1537	0.000853625789522616	-0.00490597929803942	0.00497968973544833	80.129522747754
118.6706	0.000597949583731871	-0.00420787820178073	0.00425015089916894	81.9122809273035
101.1982	0.000776785010789186	-0.00359016292793293	0.00367323628454401	77.7913965773841
86.24196	0.000583128308116694	-0.00300317201858534	0.00305926147900779	79.0115674978947
73.61024	0.000490264566800502	-0.00274390435343787	0.00278735904509545	79.8696290918826
62.69291	0.0011726255759478	-0.00246177725459876	0.00272679262002572	64.5300019301836
53.57697	0.000575534111474457	-0.00187977510282061	0.00196590792018724	72.9768895206793
45.65746	0.000493522755338082	-0.00157194028864815	0.00164759248029109	72.5699175987979
38.96512	0.00051699166608983	-0.00152102874835617	0.00160648960038099	71.2273055974678
33.18414	0.000496542711142891	-0.00123954846543788	0.00133530335959981	68.1697736195317
28.30617	0.000822681925845169	-0.00112583000237353	0.00139438113346269	53.8431415692019
24.17237	0.000655035756297762	-0.000997778866073318	0.00119358054089832	56.715344618725
20.61345	0.000518456445287216	-0.000745253270559726	0.000907854351170838	55.1745064090136
17.55618	0.000649529856664032	-0.000581086537551441	0.000871522001341056	41.8166543170028
14.98558	0.00653676018616244	-0.0051353319642458	0.0083126931926063	38.1534658425678
12.76553	0.00043455014133877	-0.000410050888162396	0.000597474314276618	43.3384932462278
10.8809	0.000369605598812489	-0.000502196676558001	0.000623546149550649	53.6477572314844
9.278505	0.000493871648207956	-0.000348797006632265	0.00060462265648855	35.2316618367202
7.923394	0.000372648718282288	-0.000231653408095244	0.000438782826372652	31.8667437312743
6.75822	0.000443753071487312	-0.000506512925628356	0.00067340339491498	48.7785842715461
5.761429	0.000294326733628558	-0.00027778113254961	0.000404710493722364	43.3434436015777
4.919708	0.000329598076834686	-0.000320915312956931	0.000460023401951866	44.2352867871665
4.191257	0.000407887669324051	-0.000343898820867298	0.000533515463487727	40.1349544333585
3.564097	0.000527232223941226	-0.000193581878567903	0.000561647364163573	20.1615311035389
3.051758	0.000146347428433324	-0.000305269628860788	0.000338536727865456	64.3867624814009
2.604164	0.000366748713619623	-0.000230240360849258	0.000433030302294937	32.1200999387032
2.214424	0.000391749305711761	-7.0376184965516E-05	0.000398020509441344	10.1843248084504
1.892567	0.000331000576322198	-7.50868195434234E-05	0.000339410388754931	12.781124234588
1.607507	0.000488732325427042	5.38432488837222E-05	0.000491689313863622	-6.28687680989813
1.376413	0.000299389289565437	6.17878114140482E-05	0.000305698675734513	-11.6609573676395
1.17375	0.00022330542704958	-0.000284303638051587	0.000361516074828164	51.8522450114152
1.001604	0.000185599287372999	-0.000331894255700581	0.000380264240286156	60.7855508516651
