EC-Lab ASCII FILE
freq/Hz	Re(Z)/Ohm	-Im(Z)/Ohm	|Z|/Ohm	Phase(Z)/deg
6999984	22.6666148366529	81.9137251215713	84.9919630991396	-74.532527230239
5969734	25.9804111977874	82.9434016888116	86.9171424387484	-72.6078474048355
5091109	26.5692828030032	86.1131720837238	90.1188392900563	-72.8529587495925
4341796	30.558256545222	93.1181135730551	98.0040311338671	-71.8318906628898
3702781	37.3831542815878	99.1456275648796	105.959217103916	-69.3408993527791
3157797	43.4804566733017	107.865063336038	116.298847806014	-68.0456136653268
2693047	52.1164911864882	118.921309133927	129.839926138758	-66.3348762806252
2296687	64.4082908926187	131.049032672827	146.021494651273	-63.8266962366605
1958656	79.2648821188702	142.275420496622	162.865640375154	-60.8768230284295
1670375	97.6808454375438	153.690078870037	182.104881616259	-57.5611735637869
1424531	117.742797902549	163.211254012791	201.249297872932	-54.1928119819923
1214875	140.421843789034	169.826052334394	220.361480900352	-50.4141209456368
1036062	165.266349312718	175.386382849355	240.984127079221	-46.7016294529308
883578.1	190.669061797616	177.09798011211	260.227565193567	-42.8866701881435
753531.2	216.232320065246	175.157909495966	278.274521830146	-39.0090293405689
642624.9	240.615402488548	170.050817356423	294.640547783759	-35.2501053481454
548046.8	263.384160867352	162.525369725444	309.492668734158	-31.6773181546261
467390.6	283.219614941318	152.460541073794	321.648203588987	-28.2941169659376
398593.7	300.718422553335	141.830722738499	332.486877298174	-25.2504219187539
339937.5	315.417529949917	130.686219603482	341.419252816762	-22.5055816575104
289906.2	327.77230318987	119.560544967203	348.897415655729	-20.0403046932451
247234.4	337.960333469573	108.911630450751	355.075949968885	-17.8621368801199
210843.7	346.036283204715	99.6476615910668	360.098272357285	-16.0647510880607
179812.5	351.887301906284	89.6260040801108	363.121871897373	-14.2894585485817
153343.8	358.038921596505	84.2353581336368	367.814443623263	-13.2391409664376
130781.2	362.805665418487	78.4003975463495	371.179974130039	-12.1938195762671
111531.3	366.509811978487	73.9517137975236	373.89610622484	-11.4075667827429
95109.37	369.653522234226	70.3063874234869	376.280101271262	-10.7687704073736
81109.37	373.087770965001	68.1298767498007	379.257386150324	-10.3488038026986
69171.88	375.776777863815	67.7972475897858	381.843755432064	-10.2272221585718
59000	378.584818975354	67.789675321779	384.60616900777	-10.1518381014665
50312.5	381.631119419543	69.6283486313184	387.930945198417	-10.3398484723607
42906.25	384.180829298612	71.8499712262062	390.841819622435	-10.593153113588
36593.75	386.802554714364	75.6871206986946	394.137991791222	-11.0713952556058
31203.13	388.510769340916	80.6338608637379	396.790167987644	-11.7250484266028
26609.38	393.545848702547	87.1650361651183	403.083215429115	-12.4886235505957
22703.13	396.798627693838	94.9307964184239	407.996332150608	-13.4546475819201
19359.37	400.53795587005	104.894930036018	414.045408668928	-14.6753398940243
16500	405.164481817094	115.508038055653	421.307920862616	-15.9122812891984
14112.02	409.657642903637	128.38095252198	429.302985500701	-17.4002584127311
12011.13	415.554565986136	140.791388223458	438.757122232579	-18.7165659216867
10236.38	421.380688180213	158.272897399664	450.124421046575	-20.5864537931418
8750.684	427.947804784393	178.224191260674	463.576515766602	-22.609894353692
7449.463	435.301016174205	201.418582509842	479.641970705827	-24.8305011507025
6363.206	443.585043080167	227.611833826068	498.572800443525	-27.1632128699084
5414.761	453.489393480963	258.1037668829	521.79515566827	-29.6463947652715
4620.567	465.17158374676	292.5139554083	549.498877554884	-32.1629228043113
3941.215	476.05718168822	330.388298627399	579.471196960503	-34.7610228446438
3361.769	489.594330517522	374.282294513666	616.270918072007	-37.3969839360786
2867.244	504.101170005439	424.092366573263	658.765758814591	-40.0733729295378
2442.658	522.004320385257	481.600985891047	710.230962512971	-42.6946204647936
2083.003	541.681148376206	546.532804619373	769.491113029438	-45.2554438709749
1777.843	563.545818835088	620.124665165206	837.937044337323	-47.736626143633
1513.548	588.561453836427	704.858070951399	918.275277423592	-50.1378808038704
1292.065	617.51722255325	801.413376669735	1011.72670245233	-52.3844826960461
1101.762	650.084978839507	912.358709355315	1120.27179481109	-54.5289032950381
939.101	686.312226597773	1037.30234771617	1243.79284165614	-56.5101111365092
801.2801	730.802591949518	1181.93751737101	1389.62179148475	-58.2711255677335
684.3433	779.869280515539	1343.7489700725	1553.65935431894	-59.8704799570617
582.9476	839.436925014213	1529.73534139514	1744.9196445082	-61.2443754540059
497.0677	908.699424541127	1743.96089378151	1966.50304937485	-62.4780108827021
423.5089	991.193567327436	1992.59011961704	2225.5067002161	-63.5524213401314
361.5036	1083.83091208819	2254.10073831319	2501.13166076118	-64.3205285602838
308.1262	1198.27323913013	2568.0019971213	2833.81245195133	-64.9854460815331
262.7298	1327.58654844016	2917.19850874963	3205.07927874652	-65.5302143531435
224.2111	1476.96585271124	3308.75576810028	3623.43660949269	-65.9449212052592
191.2854	1653.20425794717	3750.6014933324	4098.79200256391	-66.2128935660419
163.1722	1856.58389428881	4247.61172438847	4635.63470494548	-66.3903958909734
139.1537	2089.28267514772	4795.87783472269	5231.20887580078	-66.4600675588613
118.6706	2361.42396687773	5421.10197454774	5913.09307975023	-66.4621302069238
101.1982	2677.01671518622	6105.2923034443	6666.40927365569	-66.3237608993997
86.24196	3039.11538877761	6882.05923368226	7523.2281397161	-66.1737605486344
73.61024	3449.08037037125	7724.21000137005	8459.28930505072	-65.9378738243791
62.69291	3926.94593743042	8689.26595862717	9535.42066692698	-65.6803292954678
53.57697	4444.38539592717	9736.03749546567	10702.4757724857	-65.4638658404673
45.65746	5045.72419175118	10902.285891439	12013.29140069	-65.16466727985
38.96512	5715.97373174403	12197.2583702305	13470.1695405866	-64.8909080453365
33.18414	6477.70251516408	13652.7305016068	15111.5081982067	-64.6174352897206
28.30617	7405.87684256505	15312.4299587936	17009.3363494935	-64.1892066336398
24.17237	8264.77288886805	17008.5039251241	18910.200334093	-64.0839542866743
20.61345	9320.72612315617	18989.599327837	21153.7424134519	-63.8566619293459
17.55618	10496.2899015553	21225.6183142279	23679.0830590793	-63.6871237177667
14.98558	11800.95121405	23641.3278735378	26422.9981868164	-63.4731812770648
12.76553	13256.5283269408	26395.0498427985	29536.9971304939	-63.3325774341397
10.8809	14869.7097485848	29458.9720974444	32999.0803666581	-63.2171837342004
9.278505	16694.1382372504	32862.3776370136	36859.6000445219	-63.0693606230566
7.923394	18668.870313493	36627.2762866959	41110.6322861127	-62.992125912273
6.75822	20927.5196287716	40827.5660109538	45878.657611044	-62.8610904645265
5.761429	23430.0966821204	45526.998148853	51202.3143127259	-62.7677556396997
4.919708	26073.6624053601	50781.2194755446	57083.8691983307	-62.8217282640011
4.191257	29171.1138328699	56821.6651289131	63872.1810358202	-62.8249368276538
3.564097	32627.6565388563	63377.5821756202	71283.1108583588	-62.759963413686
3.051758	36240.013543223	70658.6307827355	79410.2051735413	-62.8472248858844
2.604164	40407.07397072	78764.8903315428	88524.7963895721	-62.8417817868306
2.214424	45324.2512110374	88456.5667408908	99392.4139329904	-62.8698567187921
1.892567	50273.2636456583	98251.9958930536	110366.91412989	-62.9022288342169
1.607507	56173.0559583433	110272.42717169	123755.486383573	-63.0055904204585
1.376413	62270.780428962	122867.313890138	137746.241029691	-63.1235051346965
1.17375	69464.7009314249	137197.122874207	153780.347250396	-63.1463088549427
1.001604	77390.2701562775	153556.769067863	171956.201520686	-63.2525925259394
