EC-Lab ASCII FILE
freq/Hz	Re(Z)/Ohm	-Im(Z)/Ohm	|Z|/Ohm	Phase(Z)/deg
6999984	6.90887962509893	-0.653571237873824	6.93972427673341	5.40402619690387
5969734	10.3849483507728	-1.02780718006615	10.4356858829506	5.65220515769597
5091109	12.6302557811439	-2.45988095529836	12.8675706880265	11.0210150766799
4341796	2.53178361325859	-2.14867526284753	3.32065259392452	40.3206156772926
3702781	0.37848262955861	-0.85299212460491	0.933190583704957	66.0725762020143
3157797	-2.73091114653927	-12.1227644593926	12.4265559922371	102.695179030084
2693047	-2.61160044954665	-7.77689498925546	8.20369139972847	108.562839810019
2296687	-1.31120489110133	-5.9939654140805	6.13570531003904	102.339314943528
1958656	-2.32862845709871	-4.80866739238295	5.34282627284258	115.838888146164
1670375	4.16873702648746	-4.7641629550436	6.33053055108474	48.813431564646
1424531	-1.39816755383648	9.11840207412977	9.22497311075188	-98.7175341289471
1214875	-0.0674124990825599	-6.06602235650649	6.0663969268973	90.6367092737605
1036062	10.2462962185684	0.711424144388882	10.2709644392272	-3.97180474233095
883578.1	0.00204477326964522	-0.381959445936729	0.381964919119567	89.6932769682981
753531.2	0.163807879435544	0.327405604779744	0.366097598198021	-63.4202399767947
642624.9	-0.146022405660777	0.998909741838568	1.00952623308904	-98.3166928554736
548046.8	-0.305477846757963	0.710843285187192	0.773702068599795	-113.255134969022
467390.6	-0.307489760120684	0.304909395004036	0.433035439358955	-135.241416328916
398593.7	0.391635189539957	-0.303382852383926	0.495398099316707	37.7633961756427
339937.5	0.224479059726256	-0.161099286119762	0.276303869397229	35.6654309946799
289906.2	0.14947446554689	-0.334637263779786	0.366503361731581	65.930826443499
247234.4	0.257078511859382	-0.386718525781361	0.464371165601767	56.3852693625281
210843.7	0.230876821703295	-0.575719044066359	0.620287453121936	68.1480585190962
179812.5	0.148451854421263	-0.288716315408138	0.324646059369221	62.7887258950015
153343.8	-0.412658263898493	-0.19742883741443	0.457454903358279	154.432064719027
130781.2	0.132475516352395	0.0243387385191076	0.134692748971632	-10.4104311431429
111531.3	-0.000737639406060995	-0.0395966626591073	0.0396035327418213	91.0672297610218
95109.37	-0.00135575295991273	-0.0294856876892112	0.029516840017082	92.6326077530988
81109.37	0.000517657077342305	-0.0261404486539887	0.0261455737110804	88.8655248416726
69171.88	0.000480918179896821	-0.023197690050617	0.0232026745436868	88.8123543582845
59000	-0.00349241018338389	-0.0301692371191157	0.0303707062354242	96.6032052733554
50312.5	-0.00073873086594253	-0.0174109456425774	0.017426610440963	92.4295515105044
42906.25	-0.000966586241706132	-0.015703000587346	0.0157327212016499	93.5223539131574
36593.75	-0.000898575941375976	-0.013212947754347	0.0132434673360689	93.8905365923085
31203.13	-0.00117864686907836	-0.0108083275677813	0.0108724032878867	96.2235061425222
26609.38	-0.00104890304140064	-0.00877820032831724	0.00884064469336532	96.8139391504045
22703.13	-0.000665168777909894	-0.00736588800629555	0.00739586070882861	95.1600391789799
19359.37	-0.000446159869827522	-0.00622991422390743	0.00624586982466722	94.09628573654
16500	-0.000234067268696665	-0.00519894668890753	0.00520421311634888	92.5778329878843
14112.02	-0.000317754297340193	-0.00452009592197433	0.00453125092411876	94.0211709695983
12011.13	-0.000288209103602946	-0.00385452886452676	0.00386528876733285	94.2761371884315
10236.38	-0.00023997185396271	-0.00324907403076379	0.00325792396290613	94.2241126206336
8750.684	-0.00016686741839056	-0.00274745868094396	0.00275252137844825	93.4756005570747
7449.463	-9.73860741597035E-05	-0.0023553238774118	0.00235733633895259	92.3676720686303
6363.206	-6.9731236093141E-05	-0.00202906491240731	0.00203026275739116	91.9682631896446
5414.761	-6.62875392068901E-05	-0.00173786197800511	0.00173912572646429	92.1843828699679
4620.567	-3.65753301596768E-05	-0.00148676371558561	0.00148721353569627	91.4092282689354
3941.215	-1.70414909933587E-05	-0.00124340243835108	0.0012435192142113	90.7852199342585
3361.769	-3.34059238203314E-06	-0.00106466837078175	0.00106467361162965	90.1797754321437
2867.244	-1.66927187426291E-06	-0.000884768962179616	0.000884770536865342	90.1080984119728
2442.658	1.62332494241067E-06	-0.000743508652386102	0.000743510424511227	89.8749045893546
2083.003	3.81514152847605E-06	-0.000617796135927465	0.000617807915837754	89.6461798375384
1777.843	-1.15766419207016E-05	-0.000534444846773805	0.00053457021323792	91.240893268726
1513.548	3.24717554141439E-06	-0.000432353288683768	0.000432365482415822	89.5696899718884
1292.065	2.0660374315396E-05	-0.000394778991467222	0.000395319242095207	87.0042141484106
1101.762	5.17987362054088E-05	-0.000308038042354001	0.000312362841275596	80.4546190007112
939.101	4.55929251589159E-05	-0.000244335140512508	0.000248552561269872	79.4301704630173
801.2801	2.56640143064249E-05	-0.000221246403209196	0.000222729909449374	83.3834073620814
684.3433	3.72538110044576E-05	-0.000188555702989641	0.000192200675244062	78.8237519326508
582.9476	4.91485097400933E-05	-0.000156790755931171	0.000164313472226535	72.5955861080197
497.0677	5.76555643538332E-05	-0.000143100413130391	0.000154278619189593	68.055353947844
423.5089	5.16877657153957E-05	-9.08804819580029E-05	0.000104550882949732	60.3711877742265
361.5036	4.42705350388409E-05	-9.7059048000841E-05	0.000106678672055171	65.4813410532188
308.1262	5.16087833986806E-05	-9.27924345056817E-05	0.000106178634505173	60.918305172797
262.7298	4.72299468850156E-05	-8.18106092685313E-05	9.44650394148528E-05	60.0018018837057
224.2111	4.14480375825376E-05	-5.66455809413187E-05	7.01901820742968E-05	53.8067587492111
191.2854	5.75625517819963E-05	-5.75906418613838E-05	8.14256065231397E-05	45.013976537795
163.1722	4.76340975040216E-05	-4.82184445180727E-05	6.77792419311775E-05	45.3492886282394
139.1537	5.05338658865564E-05	-3.62156245470905E-05	6.21710789899636E-05	35.6276730759808
118.6706	3.41206330654011E-05	-5.25693626712143E-05	6.26718077961806E-05	57.0140389764826
101.1982	7.26948029980909E-05	-2.30005526763156E-05	7.62467035769234E-05	17.5573118739544
86.24196	5.59616710875399E-05	-1.69181141513115E-05	5.84630756747095E-05	16.8209121381846
73.61024	3.21215282653889E-05	-3.48180069475949E-05	4.73717868135343E-05	47.3067588282582
62.69291	6.04898230498003E-05	-6.7220821882393E-06	6.08621810448952E-05	6.34111872436317
53.57697	5.4775973458965E-05	-8.95641589228123E-06	5.55033751587482E-05	9.28625357162848
45.65746	4.63180192246262E-05	-1.20912832362605E-05	4.78702207556255E-05	14.6305116761333
38.96512	5.83789378192957E-05	-1.15697958176451E-05	5.95143726856899E-05	11.2098734251109
33.18414	5.37093949097735E-05	-3.85881209231784E-06	5.38478368399124E-05	4.10941889148106
28.30617	5.58813875325297E-05	1.93185967425644E-07	5.58817214604094E-05	-0.198074832931937
24.17237	6.43909946673416E-05	-4.59021232347849E-06	6.45543975529493E-05	4.07752118511053
20.61345	4.78996033791967E-05	-4.40643080640504E-06	4.81018568907271E-05	5.25602031222348
17.55618	5.73579401008654E-05	-1.76875248538257E-05	6.00231774239682E-05	17.1382448130178
14.98558	6.92825078279191E-05	1.6305585764224E-05	7.11754031814372E-05	-13.2435126344144
12.76553	5.74544064880902E-05	6.71730645059529E-07	5.74583331376591E-05	-0.669845531245241
10.8809	5.63895603753594E-05	-3.26583091254469E-06	5.64840523588352E-05	3.31461241103337
9.278505	7.60513289096118E-05	7.1923748432019E-06	7.63906727605084E-05	-5.40254452804567
7.923394	4.45931531815594E-05	2.0128219019521E-05	4.892539740842E-05	-24.2932099783186
6.75822	4.5037527722692E-05	6.6954870666756E-06	4.55324988379978E-05	-8.45592313492489
5.761429	4.0191447333978E-05	4.70602654301619E-06	4.0466024324407E-05	-6.67836741215512
4.919708	6.73959973369425E-05	9.38446782101906E-06	6.80462246809101E-05	-7.92710600833094
4.191257	5.24213598050989E-05	1.18468993316914E-05	5.37433529619326E-05	-12.7345656841556
3.564097	4.28495954968566E-05	8.98562959866697E-06	4.37816099924235E-05	-11.843404318343
3.051758	5.57005978856896E-05	-6.42026394337367E-06	5.60693890989181E-05	6.57511468789459
2.604164	4.15803822402954E-05	-2.89698364700914E-06	4.16811792239628E-05	3.98546462912466
2.214424	3.64465437083856E-05	6.86865959235535E-06	3.70881252273948E-05	-10.672696844286
1.892567	4.54790326565426E-05	-9.8230102451202E-06	4.65277760230446E-05	12.1880785391598
1.607507	3.74031494122166E-05	1.93647470910357E-05	4.21187489825182E-05	-27.3719757721423
1.376413	7.99849121452447E-05	-7.78438240039467E-05	0.000111612038358055	44.2227791184988
1.17375	4.54673199361794E-05	3.12769644468467E-06	4.55747700732433E-05	-3.93517669640382
1.001604	4.04541512389334E-05	3.08024197110656E-06	4.05712489709531E-05	-4.35418818043433
