EC-Lab ASCII FILE
freq/Hz	Re(Z)/Ohm	-Im(Z)/Ohm	|Z|/Ohm	Phase(Z)/deg
6999984	37.2745562614552	75.9415810207706	84.5961953779404	-63.8567192251254
5969734	37.3878393487096	72.3129343206915	81.4064555255513	-62.6597530953176
5091109	38.5845682392046	73.2629627733463	82.8023587860549	-62.2260813401831
4341796	43.5668705065691	76.1313110819534	87.7157268270253	-60.2192393669578
3702781	50.7249947295659	78.329100661422	93.3192000648402	-57.0733859449023
3157797	58.2462374744069	81.685278212881	100.325016105859	-54.5089758229235
2693047	67.5683173324126	85.4125514332031	108.907214864136	-51.6531192592954
2296687	78.8846925172344	88.4786992146114	118.538073749527	-48.280855834916
1958656	90.9918959223903	89.2929023739854	127.486264114693	-44.4600638597743
1670375	103.699932244813	88.8150970415112	136.534967719159	-40.5788133780904
1424531	116.135868481219	86.5163602825955	144.819268553721	-36.6845682136129
1214875	127.737382354675	82.5785902527336	152.105431917973	-32.8815207413864
1036062	138.308585104077	77.6269486574752	158.603933971898	-29.3037144375818
883578.1	147.504877929149	72.0356973044523	164.154898492344	-26.0291002102265
753531.2	155.463325789432	65.9168474733696	168.860523646998	-22.9770686271236
642624.9	162.068197027346	59.5881780583361	172.675567038324	-20.1871365874033
548046.8	167.365095959673	53.3525574181289	175.663231009352	-17.6812139971514
467390.6	171.706107891421	47.7436686081687	178.220215967176	-15.5388331279101
398593.7	175.165834699681	42.6027253122348	180.272188232311	-13.6697072903225
339937.5	177.750220177098	37.9491901103686	181.756105270331	-12.051559885314
289906.2	179.918099642375	33.9142799905559	183.086594173909	-10.6749084613752
247234.4	181.702856748717	30.5029332303676	184.245371953547	-9.52953718101898
210843.7	182.919065943629	27.4012119570751	184.960025687731	-8.51953863891826
179812.5	184.040269099016	25.3000309754611	185.771128589449	-7.82739416324433
153343.8	185.18073844088	23.4034178739423	186.653759291615	-7.20293892148714
130781.2	185.903314820885	21.9852889033004	187.198812468335	-6.74458414453839
111531.3	186.72055621327	20.9724134465449	187.894673257029	-6.40859023431777
95109.37	187.39257189464	20.4342521174546	188.503407557761	-6.22323838759295
81109.37	187.963648724024	20.3801884824951	189.065293812033	-6.1881905592648
69171.88	188.727425937488	20.6237742401786	189.850945125116	-6.23642787603686
59000	189.454756740606	21.1741060130128	190.63432958702	-6.37710620347533
50312.5	190.20486023173	22.184488863664	191.494230727492	-6.65261868884194
42906.25	191.030246177489	23.5261809236202	192.473468674212	-7.02086439335047
36593.75	191.839364728571	25.3827857080922	193.511311477559	-7.53717958085466
31203.13	192.841667237365	27.6157260433427	194.808975531898	-8.14958552018024
26609.38	193.860970239854	30.4515901377867	196.238057278035	-8.92704914112711
22703.13	195.031685487173	33.7871975940426	197.936689537908	-9.8283461303356
19359.37	196.301707965768	37.6080809563236	199.871779657597	-10.8454837265636
16500	197.776524128856	42.2386689717044	202.236640233646	-12.0554158912753
14112.02	199.401979800942	47.4152493651797	204.961838938124	-13.3757971301542
12011.13	201.270952147199	53.5386590619463	208.269979095384	-14.8959057268379
10236.38	203.308757804268	60.5546830067598	212.135147097231	-16.5859478759794
8750.684	205.546344801202	68.578133214974	216.684702312797	-18.4506733977003
7449.463	208.164355148337	77.8684725313901	222.25187911173	-20.5094196175865
6363.206	211.126087563601	88.3202868039125	228.855189827626	-22.7010003726957
5414.761	214.433401851601	100.636346793753	236.874139841484	-25.1412677292035
4620.567	217.999291335593	114.476575356344	246.228709390553	-27.7050246792959
3941.215	222.205358554855	130.375803818154	257.629717990222	-30.401667730813
3361.769	226.898778335526	148.970419689665	271.431835923256	-33.2869055701753
2867.244	232.081422090257	169.722248880901	287.519439768212	-36.1781823846984
2442.658	237.981046830633	194.101733442336	307.100083972512	-39.2013197061928
2083.003	244.593719878017	221.822845305072	330.199125533372	-42.2049879218087
1777.843	252.223791813744	253.317297399211	357.47236860846	-45.1239328682585
1513.548	260.461571832613	290.473907024435	390.147819503782	-48.118118632365
1292.065	270.187038094999	332.111537916789	428.134452213324	-50.8701609730933
1101.762	281.117207113049	380.505442350712	473.086964303131	-53.5430320056904
939.101	293.228740801021	435.93990889955	525.382430809311	-56.073815234673
801.2801	307.699425841698	499.889099313213	586.999189331201	-58.3862327887753
684.3433	324.347856838151	572.204709143672	657.738368503538	-60.4537509925049
582.9476	343.257141749698	657.566278158214	741.767399885583	-62.4349244565082
497.0677	365.108667306148	754.427061518988	838.131570873122	-64.1751118718796
423.5089	389.920235484222	865.052572551536	948.86971883294	-65.7366510467291
361.5036	420.470437124762	992.979432475682	1078.33368760121	-67.050099496287
308.1262	454.478483451092	1139.85071680685	1227.11464359493	-68.2619625287682
262.7298	495.549183653456	1308.2620124265	1398.97050954544	-69.2540962468168
224.2111	542.207402205409	1499.50470557867	1594.52288445758	-70.1204657288341
191.2854	597.199050706085	1718.38432433658	1819.20075645596	-70.8358608318344
163.1722	661.964407515207	1970.08195000864	2078.32138192504	-71.4272105721889
139.1537	736.710743680311	2255.59823477935	2372.86032386943	-71.9122193457672
118.6706	825.29389416331	2583.56958296576	2712.18395426437	-72.2844700252637
101.1982	930.000642686149	2958.33333577433	3101.07035085474	-72.548603568819
86.24196	1053.09371918269	3386.11057671645	3546.0895672745	-72.7241005414676
73.61024	1194.45281070637	3867.51412248148	4047.76271594544	-72.8370878186674
62.69291	1367.2080067942	4421.70170937527	4628.25061341047	-72.8181802114281
53.57697	1557.75278905098	5039.35517302155	5274.62740974708	-72.8227065780096
45.65746	1789.52805425874	5749.67710954625	6021.72712110232	-72.7117819488723
38.96512	2059.59957418016	6545.5942455524	6861.97890067959	-72.5335920745866
33.18414	2378.25666176001	7457.90626210613	7827.92888084503	-72.3130033234612
28.30617	2740.665626537	8467.90705014908	8900.37627780118	-72.0656574433032
24.17237	3161.48063049	9608.04217268288	10114.812611661	-71.786455109736
20.61345	3641.83524678881	10898.6241023984	11490.9952262688	-71.5226653408577
17.55618	4202.58277614787	12355.3960420252	13050.5752112949	-71.2147005259749
14.98558	4833.0684948232	13964.0940126767	14776.8221438348	-70.9089129507136
12.76553	5544.23800043177	15803.3921321381	16747.7096310975	-70.6678123105226
10.8809	6354.10804398955	17864.7688815825	18961.1354150286	-70.4206383177031
9.278505	7251.47008679402	20179.8963620326	21443.2281991786	-70.2345416258446
7.923394	8272.1045089955	22773.2917113698	24229.1256214269	-70.0371003696425
6.75822	9407.98288411172	25708.1114949112	27375.4842620642	-69.8997050903702
5.761429	10711.3469614315	29072.1379435414	30982.6105797505	-69.774170037457
4.919708	12148.4714901041	32736.6622742414	34918.1101493711	-69.6402698007349
4.191257	13744.8516989638	37045.7198095487	39513.3686799051	-69.6439367306238
3.564097	15659.7169907449	41932.0224913169	44760.7109689126	-69.5216102413633
3.051758	17604.8447787517	47178.3456794418	50356.0012385103	-69.5366790313753
2.604164	19999.1408986219	53341.6439521546	56967.5049146561	-69.4476986857915
2.214424	22638.2457508999	60415.9415373056	64518.0297476392	-69.458699475458
1.892567	25643.4524331153	68136.4974181341	72802.25912086	-69.3759643698411
1.607507	29169.1229562471	77306.7077566958	82626.6591253442	-69.3276640277116
1.376413	32929.9762856167	87052.6073982687	93072.766118819	-69.2795355729206
1.17375	37417.582642494	98396.9922242375	105271.285589113	-69.1796117334497
1.001604	42357.7690146495	111124.546442507	118923.695779905	-69.1344626591934
