EC-Lab ASCII FILE
freq/Hz	Re(Z)/Ohm	-Im(Z)/Ohm	|Z|/Ohm	Phase(Z)/deg
6999984	1.97925698205521	1.69834791883357	2.60803448106435	-40.6320182389462
5969734	6.26456963353269	1.00833510750605	6.34520073617921	-9.143810534181
5091109	6.02059083193378	-3.67897375290943	7.05566168691226	31.4276517953979
4341796	3.81575118803549	-5.0728154832056	6.34770935500711	53.0496637778812
3702781	1.97710418444942	-5.59155390604122	5.9308023100026	70.5270365802589
3157797	2.33256360774325	-7.65373646218682	8.00128332311613	73.0508010762512
2693047	1.61769595914811	-8.73509423589411	8.88362603480103	79.507978131596
2296687	0.312669024578325	-8.04440607747632	8.05048017563355	87.7741548335074
1958656	1.27337510271585	-8.63399298966732	8.7273890195087	81.61027487349
1670375	-0.193881882614333	-9.32228815828492	9.32430408612382	91.1914470110062
1424531	-5.1229180900223	-9.05822369969301	10.4065222985759	119.490520061872
1214875	-7.89854329500085	-16.4445609591787	18.2430965387773	115.655598947502
1036062	13.3921661327479	-3.19758174116702	13.7686107766384	13.4288129149377
883578.1	10.4640588069256	5.53045720615017	11.8356446222356	-27.8573168612417
753531.2	5.3267723771605	-11.4645792862753	12.6416408021021	65.0790673852575
642624.9	8.0219338749919	0.434428137259845	8.03368849913821	-3.09982714941489
548046.8	3.75633790896439	7.61966592200504	8.49525651462555	-63.7576548223473
467390.6	4.11588769796479	4.28336869148648	5.94035174795773	-46.1423252420579
398593.7	4.96635070028066	-5.98128738733441	7.77434486552172	50.2966531384791
339937.5	2.72830224329468	3.09007172705126	4.12215676668032	-48.5579038471736
289906.2	0.394459861227093	2.73882988129012	2.76709011431991	-81.8043356787009
247234.4	2.18939698391907	2.29523343876502	3.17199553776783	-46.3519189330947
210843.7	6.70162987127066	1.50438297320147	6.86840673384779	-12.652031113767
179812.5	0.0498135256325347	5.02676883880988	5.02701565008167	-89.4322373968365
153343.8	3.21654396939219	0.0584903235602915	3.21707572571481	-1.04176389522056
130781.2	12.4911393414864	8.80955238612162	15.2851815590215	-35.1939440250667
111531.3	10.2421743863111	-0.640131272203847	10.2621588472047	3.5763085921282
95109.37	19.1180704803835	12.5349774354512	22.8610209352115	-33.2513019727859
81109.37	22.3163354955974	2.70434307260656	22.479597447606	-6.90953869375655
69171.88	52.1878900583834	-235.257205749528	240.976199500742	77.4924271998848
59000	-79.7251949181041	-379.4485594799	387.733563154005	101.865708030073
50312.5	0.362750143262341	8.9657855788922	8.97312090150959	-87.6831118398612
42906.25	8.98759151260643	-8.72133084816338	12.5235144013412	44.1386001592382
36593.75	17.3711457165356	12.0721561408961	21.1540458871415	-34.7975431745055
31203.13	-4.57612722497504	24.6501116242804	25.0712772604158	-100.516850788776
26609.38	19.2314563569535	19.2624915934924	27.2193404769251	-45.0461939546152
22703.13	19.7633707895845	-5.58596623247284	20.5376202057816	15.782540726069
19359.37	16.5699045955135	-7.14670834198147	18.0454198740225	23.330852876883
16500	15.0743122953313	2.90147009464115	15.3510071294125	-10.8949242547055
14112.02	13.2330819509216	-1.1124749033567	13.279761230173	4.80542567565197
12011.13	6.31966527187012	16.276965761418	17.4607497991024	-68.7808904038182
10236.38	6.00872527188541	-5.4929390214422	8.14107845965611	42.4323203861827
8750.684	11.3788734593202	6.69376180515538	13.2017123248228	-30.4666927109824
7449.463	25.7720701063741	3.57283132226503	26.0185457169539	-7.89271708146719
6363.206	14.7297115240439	-14.4881397385117	20.6608469009427	44.5262920513135
5414.761	12.9456176893121	4.13783521757565	13.590831381694	-17.7255494713387
4620.567	14.5891356799274	2.34357294343056	14.7761704791367	-9.12592852139497
3941.215	14.4517662778648	-10.8411753634675	18.0661183382453	36.8758616326732
3361.769	0.80473933574949	-10.267910068527	10.2993971946838	85.5186491771954
2867.244	8.67145682998668	-5.73382107872694	10.395713910895	33.4738445099927
2442.658	10.1697012627194	-1.06050101278819	10.2248465108813	5.95331224072887
2083.003	11.6183583364202	0.238044201120279	11.6207966798818	-1.17374758811792
1777.843	11.5282368796672	1.42726382376466	11.6162527338358	-7.05764255421992
1513.548	6.53799745936708	5.85641514532934	8.77741471807806	-41.8524126129969
1292.065	9.81410925084334	-0.919795521273794	9.85711743809742	5.35422069464654
1101.762	5.90227891319056	-0.65946926600134	5.93900632108556	6.37528992726477
939.101	0.648557476723667	-2.97262751774817	3.0425550381033	77.6922748788264
801.2801	3.99257347496132	-3.77815299604983	5.49682481206424	43.419417805212
684.3433	7.19425602036963	7.72921746553187	10.5592671296879	-47.0530015503727
582.9476	9.1893633231296	-1.43658225847344	9.30097666214899	8.88518884461485
497.0677	8.43392195561475	3.12896664690992	8.99563626603895	-20.3547439312129
423.5089	9.93198157480178	2.16524858275547	10.1652623885135	-12.2984932358595
361.5036	-4.947090396972	-11.6460671431848	12.6532439832393	113.015122948642
308.1262	10.5517366952111	0.918803034400094	10.5916640005755	-4.97653493750543
262.7298	7.66196491974768	7.08868797384419	10.4381609310245	-42.7743475419861
224.2111	12.7781731260048	9.65500523415923	16.0156434310269	-37.0741737847239
191.2854	36.7608404421457	-3.98878107382439	36.9766110462789	6.19272265542428
163.1722	30.7909602902922	-12.4833090951192	33.2252350113981	22.0686784204114
139.1537	23.3093416488044	-6.34261431067771	24.1568657816924	15.2219874672027
118.6706	-2.95726039908781	-16.1724590065089	16.4406149333054	100.362495958768
101.1982	38.6154828429264	11.9560179269211	40.4240260224189	-17.2034244917919
86.24196	8970.66105771023	4931.28154066483	10236.7132149739	-28.7981307495804
73.61024	179207.641446963	-105726.176439525	208070.668614066	30.539103117131
62.69291	304721.807305752	-33088.7016703803	306513.03728539	6.19727194031762
53.57697	397105.875325729	261190.986928446	475303.911062038	-33.3343751235019
45.65746	345456.981589537	488484.747865706	598295.80896608	-54.7320053742561
38.96512	181862.016661426	210777.071595348	278389.59573675	-49.2118205787564
33.18414	587770.986868023	-200182.311681735	620924.867366457	18.8077521547818
28.30617	605766.881399288	83087.3211644708	611438.48221919	-7.80998770542825
24.17237	814487.503289299	80432.0915762554	818449.274158006	-5.63977483833061
20.61345	605292.751095735	-142982.447056286	621951.199609139	13.2907931116686
17.55618	445360.744786953	-541312.078479667	700974.292898939	50.5543982026187
14.98558	5037541.28451279	1679160.53328358	5310028.46411467	-18.4347451709957
12.76553	4352908.73135953	3400024.49990086	5523403.02924493	-37.9931293331784
10.8809	3316016.60140241	1813315.56898163	3779428.45592923	-28.6714039444533
9.278505	4667749.77909674	-130913.485389182	4669585.24292194	1.6065180806407
7.923394	2334647.74249466	1032536.58502283	2552785.12236068	-23.8582032315214
6.75822	3711961.55024139	510212.935249737	3746862.12580162	-7.82632273216743
5.761429	1849105.73152965	458808.613345745	1905176.46165809	-13.9350669635594
4.919708	3861098.59835523	-3037776.24578328	4912857.30564871	38.1944208657637
4.191257	3328426.01816985	1031022.00882759	3484454.92740498	-17.2110276417332
3.564097	8157569.45998174	-3733998.09998923	8971548.43408594	24.5951873842423
3.051758	380805.585176781	-9481525.88856263	9489169.93573122	87.700071390597
2.604164	39877459.685243	-19948899.1835477	44588904.1083489	26.5767390003905
2.214424	8106871.95762051	-8033086.59982414	11412793.402911	44.7380687115497
1.892567	11367691.059418	-5016741.41532322	12425461.5387353	23.8126244389188
1.607507	10473999.4862876	-2293046.65818391	10722067.3480146	12.348793200694
1.376413	2499203.01085818	5536149.63623885	6074122.85719594	-65.7039924524067
1.17375	37010078.3170808	3012646.56550272	37132491.653067	-4.65365660417315
1.001604	9611994.2780611	-14146157.0358889	17102753.9561764	55.8047771723913
