EC-Lab ASCII FILE
freq/Hz	Re(Z)/Ohm	-Im(Z)/Ohm	|Z|/Ohm	Phase(Z)/deg
6999984	8.85430092960226	90.0593564973934	90.4935706980145	-84.3849375879701
5969734	15.0147188271741	85.272669103681	86.5844667219529	-80.0137852731375
5091109	15.7935964909884	84.9015015963299	86.3579913119322	-79.4621415079856
4341796	16.1799599620236	90.2632384786907	91.7019265066643	-79.8374861595758
3702781	20.3658581405807	97.5484951285668	99.6517791093078	-78.2073639366491
3157797	21.1912231090355	105.381288619467	107.490855089893	-78.6299776063375
2693047	19.5087847880175	117.948877075357	119.551370913272	-80.6082862813653
2296687	19.7825242866835	134.950450496468	136.392713721639	-81.6603513847845
1958656	21.7101832128907	153.464783583461	154.992812270297	-81.9479761979402
1670375	23.2294440416742	176.163850227353	177.688798739287	-82.4881608071895
1424531	25.7005195471135	202.24398016973	203.87041035885	-82.7578520413576
1214875	26.812293639668	233.808940185264	235.341283247917	-83.4581210585665
1036062	32.3044960240406	270.407782904871	272.330588658151	-83.1873985003672
883578.1	32.5570011735121	313.807929775113	315.492274255891	-84.0768581815282
753531.2	35.3226988732744	361.260936238338	362.983687109342	-84.4155908300096
642624.9	50.633180205255	422.54895552033	425.571778609696	-83.166943907081
548046.8	58.8865366502446	490.885459638251	494.404853013113	-83.1594954557443
467390.6	151.941037380583	668.853998309505	685.89485338126	-77.2015365272969
398593.7	168.282513488158	794.132317206193	811.766679272542	-78.0355911896688
339937.5	206.464322876477	859.955952139446	884.393439731946	-76.4995486367026
289906.2	252.306884311912	1009.73534783052	1040.78059000425	-75.9705367044583
247234.4	251.659198915249	1114.47297252727	1142.53330756369	-77.2754480828688
210843.7	269.437303194319	1312.25552721489	1339.63093016646	-78.3970702626169
179812.5	331.16973810269	1467.97921357799	1504.87088048512	-77.2871364218894
153343.8	363.61017871195	1699.67629670498	1738.13459652689	-77.9247811520905
130781.2	385.070126042171	1983.19397857696	2020.23200614039	-79.0117966810127
111531.3	390.420754867062	2243.35763444698	2277.07747823005	-80.1274600996915
95109.37	465.015316495043	2628.31160792238	2669.13116068029	-79.9667454381573
81109.37	475.526571297691	3006.8188642647	3044.18875934266	-81.0131382594047
69171.88	637.327475673719	3520.32390967167	3577.5503826298	-79.7381925736796
59000	698.714177308676	4092.51560464166	4151.73282808608	-80.311322256149
50312.5	486.291300923099	4707.3135010943	4732.36511978293	-84.101953732955
42906.25	1989.96313343012	6127.47766416184	6442.51005410261	-72.0082470722311
36593.75	2100.04492760919	6912.34298931558	7224.311337416	-73.1006484044275
31203.13	2450.982174061	7960.10157427492	8328.89732739808	-72.885961118592
26609.38	2713.36380400771	9040.61952468068	9439.02243470884	-73.2939070687252
22703.13	2970.634551673	10381.1583696426	10797.8293529392	-74.0311891594995
19359.37	3248.34585865291	11891.2863846293	12326.9802749375	-74.7212595279551
16500	3767.20599706548	13750.7589300997	14257.4616316525	-74.6789752426744
14112.02	4191.54517735873	15541.7490111009	16097.0498321244	-74.9066686704594
12011.13	5074.46436541373	17846.3518282943	18553.7721818265	-74.1273314775225
10236.38	5865.98582441316	20625.6580348438	21443.5901626228	-74.1241229138697
8750.684	7242.51522466964	23582.0126939961	24669.117322664	-72.9272140798414
7449.463	8919.66184770571	26815.8434251081	28260.3932399627	-71.6015043334677
6363.206	10488.3740301061	30784.1241209711	32521.8124908616	-71.1856515657618
5414.761	13435.3785822543	35832.0731568745	38268.0919875567	-69.4462662913036
4620.567	28212.6907811712	42554.9092051551	51057.5774843752	-56.4567573066266
3941.215	31193.4930322681	47264.0998642348	56629.7549308711	-56.5758752322343
3361.769	36444.0569064756	49529.3291769151	61492.4689089456	-53.6540826855426
2867.244	41230.0575054206	53350.8746241236	67425.7626212655	-52.3028132919281
2442.658	48520.3150773865	58212.4753870512	75782.0114928134	-50.1886677828308
2083.003	53943.8255814858	61583.7430428465	81868.7591547173	-48.7835002494284
1777.843	62245.5540095205	64607.2341649331	89714.0106136976	-46.0665802215416
1513.548	69791.9843849006	68537.1849704067	97817.5178996582	-44.4802778107865
1292.065	79012.9914050292	69893.234506914	105489.890703373	-41.4952994784478
1101.762	86835.7875345518	72103.2107702124	112868.627173894	-39.7041990334011
939.101	95573.4028197373	72260.5876968669	119815.974981804	-37.0919870425746
801.2801	103663.929901995	73080.0611447571	126834.166136917	-35.1827255114381
684.3433	111794.758875121	72693.611842708	133350.775455881	-33.033600928948
582.9476	119196.633157852	72951.1186738825	139748.714026063	-31.4676041424523
497.0677	125718.146271577	72917.7859993779	145334.289887187	-30.1141632387943
423.5089	132940.031981927	73303.5789068456	151810.628033441	-28.8724892122324
361.5036	138771.18431824	73967.7899571327	157253.539064243	-28.058499531846
308.1262	144857.934688764	75380.7184959718	163297.501399326	-27.4914260132712
262.7298	150372.556446584	76874.5267560469	168883.38756742	-27.0773494147301
224.2111	156498.119540561	79142.8275566984	175371.743942407	-26.8262277427022
191.2854	162726.96821019	82175.8315552896	182299.022144068	-26.7934144497751
163.1722	169202.401427082	87316.0829393092	190403.652771042	-27.2957781149678
139.1537	175220.442167648	90782.8363349464	197341.649750993	-27.3889639707679
118.6706	181931.546956868	96222.8926410826	205810.429391555	-27.8741904683083
101.1982	189032.575332274	102605.443117543	215084.149797466	-28.4927728926654
86.24196	207081.715009607	99785.8033464348	229869.622266217	-25.7278733790144
73.61024	216543.44556766	111439.235577155	243535.966633955	-27.2316011123352
62.69291	223358.366405067	115575.978094496	251489.098283881	-27.3591415175314
53.57697	235790.229152752	128067.238015681	268324.895633767	-28.5081797277765
45.65746	247963.645818423	145495.975670594	287497.910573107	-30.402848023871
38.96512	260645.664886803	151537.454849659	301495.875339276	-30.1734013452329
33.18414	275529.558416837	165047.304068463	321180.868268402	-30.9223889637618
28.30617	291699.119119427	170829.631288753	338040.144097267	-30.3547940535933
24.17237	317240.558095274	183822.099720528	366649.882103165	-30.0897495071438
20.61345	335326.682526958	197148.876073229	388987.998981296	-30.4525807604883
17.55618	359355.468417128	202448.525707559	412458.189690128	-29.3954163326924
14.98558	383104.20247881	199246.214851339	431819.272485042	-27.4782021473595
12.76553	405569.829184013	197103.872646726	450928.844671403	-25.9194017107707
10.8809	428213.777085987	191678.873383399	469156.508414598	-24.1144471462378
9.278505	447629.605357332	181669.335959711	483090.065329855	-22.0896486757132
7.923394	463712.672392768	169771.786761248	493813.630955798	-20.1083949976185
6.75822	476473.116593972	154659.344590862	500945.250208092	-17.9830137861587
5.761429	485490.952665285	141888.195730165	505800.084230329	-16.2913788143467
4.919708	492456.23399045	126840.491651104	508528.910405644	-14.443567006738
4.191257	486262.574191286	107422.44377339	497986.81959002	-12.4573858916052
3.564097	478350.809781617	92840.2481024832	487276.93243828	-10.9836410397035
3.051758	479545.664781506	88077.5207820001	487567.117715951	-10.4074460330302
2.604164	470881.1931058	76038.6266643598	476981.101057205	-9.17302565215472
2.214424	459033.628870818	69720.5309233949	464298.206831075	-8.63638765165724
1.892567	450524.597229144	66962.8404488236	455473.857328231	-8.45415269533793
1.607507	445417.833635311	67078.3801834749	450440.401838481	-8.56418923989281
1.376413	439047.993348846	67806.6655177699	444253.175961959	-8.7794093764778
1.17375	434033.618143777	72469.924901944	440042.124908822	-9.47914554293722
1.001604	427456.429806916	77698.8614914154	434460.714518973	-10.3021879564867
