EC-Lab ASCII FILE
freq/Hz	Re(Z)/Ohm	-Im(Z)/Ohm	|Z|/Ohm	Phase(Z)/deg
6999984	7.74627890912973	6.7966334272765	10.3052929547296	-41.2639162024622
5969734	12.4195425857537	1.58508363616048	12.5202846682084	-7.27323511337174
5091109	21.0210385187734	1.99430267804698	21.1154280936812	-5.41952986188232
4341796	0.483772660347706	-4.02299104904705	4.05197395939467	83.1429942712445
3702781	21.2529256318852	5.67130346036402	21.9966027116458	-14.9411235560296
3157797	33.123806069886	-29.3749230182709	44.2727075169879	41.5673202732957
2693047	0.501031445309953	-4.12982202925191	4.16010366487227	83.0826618154172
2296687	2.07725889382632	-3.55045234291342	4.1134798347968	59.6694290667503
1958656	1.3279465024019	-3.31645196773921	3.5724355232198	68.1782533948996
1670375	11.6338516730372	-6.31902014817105	13.2392039180315	28.5089532207999
1424531	47.9433389974308	5.10285428850492	48.2141356462218	-6.07540954687125
1214875	17.0622317415827	-32.7623399519375	36.9390128607925	62.4900429963998
1036062	34.3169700078784	9.20983414002522	35.531330898355	-15.0227872305696
883578.1	29.1499327614686	24.5498293932279	38.1105327073072	-40.1038027180372
753531.2	14.9770242815246	28.2061788993876	31.9358698712534	-62.0324216054288
642624.9	11.5882535405492	-25.6389283217942	28.1361380720623	65.6780374642872
548046.8	11.4464005240344	-23.9692267693256	26.5620766672331	64.4733937000247
467390.6	-1.46473937722394	30.7022918941818	30.7372117961069	-92.7313856769793
398593.7	-23.7411921886903	-24.8835234305533	34.3923529997472	133.654208644844
339937.5	-13.1323427437296	18.120725634253	22.3789884367158	-125.931367820055
289906.2	3.1250175398401	-1.09300439887852	3.31064846220134	19.2777666228614
247234.4	0.477473956467059	-0.509621425879111	0.698351900419384	46.8653349541555
210843.7	0.415611490499766	-0.457884380239473	0.618377729792013	47.7706712958197
179812.5	0.359334517797808	-0.380267846534819	0.523187280798389	46.621237744696
153343.8	0.378249623374925	-0.340526135785088	0.508950711499647	41.9957036279812
130781.2	0.369996199757318	-0.291694780482043	0.471150753788343	38.2512697381966
111531.3	0.361111798615896	-0.260773053592274	0.445425994503516	35.8345337583348
95109.37	0.35532599688778	-0.230717881747306	0.423659421023844	32.9961982440819
81109.37	0.342974985182752	-0.216856487010988	0.405781439225423	32.3043803543511
69171.88	0.339787017219005	-0.183047206070114	0.385955304045253	28.3118614688528
59000	0.327647464002964	-0.160831144404907	0.364992489892828	26.1448720623106
50312.5	0.321101760554474	-0.124772262316121	0.344491593619736	21.2349045073591
42906.25	0.34856356634518	-0.138896278036711	0.375218250936335	21.7263877040223
36593.75	0.330569281060217	-0.129246925631684	0.354937765482783	21.3546469569635
31203.13	0.322507008045242	-0.119807627603055	0.344041622293242	20.379449871339
26609.38	0.316227607649093	-0.111277059996153	0.335234968225059	19.3864166095521
22703.13	0.312122183552745	-0.106371367393275	0.329750095173373	18.8191310965931
19359.37	0.306197713909591	-0.102743782374374	0.322975734104054	18.5490330623904
16500	0.300751268934324	-0.0996353777422048	0.316825715912452	18.3294297986727
14112.02	0.294118735884007	-0.0988770452475323	0.310294216631392	18.5816515496672
12011.13	0.287698639882166	-0.098746593733996	0.304173301201988	18.9437207691443
10236.38	0.281024833259056	-0.0993402393322001	0.298066167249587	19.4681318502937
8750.684	0.273795446116687	-0.101271968565441	0.291924575757772	20.2985195827768
7449.463	0.265459030511091	-0.103724721622589	0.285004060945756	21.3424372263492
6363.206	0.257194119933046	-0.107522981348555	0.278765146397852	22.6879312053888
5414.761	0.247550839073754	-0.111598954161949	0.271543264501553	24.2664356605521
4620.567	0.235491976916897	-0.118386219632812	0.26357497641312	26.6895314719399
3941.215	0.225469906780014	-0.119384858300001	0.25512628883496	27.9009304086071
3361.769	0.211055900371665	-0.128591993509583	0.247144682071986	31.3530870679395
2867.244	0.194420035416014	-0.131615737173154	0.234780434540012	34.0966610924558
2442.658	0.177535413247656	-0.134023060950253	0.222443259784358	37.0494793037538
2083.003	0.159415121183591	-0.135979021121371	0.20953156098093	40.4637462640943
1777.843	0.140777533432699	-0.135902055338008	0.195672385799554	43.990473380463
1513.548	0.12170474816222	-0.133476814795027	0.180632515935131	47.6413031552571
1292.065	0.104028695602754	-0.129503365728129	0.166111683044041	51.2254521018539
1101.762	0.0870504126589062	-0.123513097522218	0.151106782123169	54.8243203342076
939.101	0.0704638932162857	-0.115471117662195	0.1352728326803	58.6072226103573
801.2801	0.0557619145905676	-0.107695777871291	0.121275602204682	62.6261204727434
684.3433	0.0467762287508868	-0.0954835178534021	0.106325527310314	63.9003213133348
582.9476	0.0367712932692635	-0.0864710389339239	0.0939647198846799	66.9626661367501
497.0677	0.0282286495628062	-0.0765198944437677	0.0815607191105195	69.7506787678566
423.5089	0.0211847913492897	-0.0693808210029698	0.0725430472723546	73.0204343131092
361.5036	0.0178014707946125	-0.0600850639957774	0.0626666360819544	73.4969633113195
308.1262	0.0143473061898187	-0.0523671477896573	0.0542969922051693	74.6783449890998
262.7298	0.0101923038311898	-0.0452845620384133	0.0464173956227424	77.315669720087
224.2111	0.00833197377973681	-0.0393585271588571	0.0402307773623716	78.0472795286895
191.2854	0.00592353960187609	-0.0340338374555821	0.0345454832556729	80.1266579587783
163.1722	0.00558613889223694	-0.0286081757377115	0.0291484590804239	78.9512350420674
139.1537	0.00427854731261858	-0.0249919493367478	0.0253555417760474	80.28530997225
118.6706	0.0032484638803133	-0.0221064367225678	0.0223438372297731	81.6404124535139
101.1982	0.00275241719197263	-0.0186228804235731	0.0188251819558104	81.5926850691795
86.24196	0.00270065212589664	-0.0161418274432178	0.0163661881668191	80.501945314589
73.61024	0.00232003148878079	-0.0131311057235766	0.0133344847531759	79.9802672421224
62.69291	0.00154344125363077	-0.0140395772179439	0.0141241615454517	83.7263798982467
53.57697	0.00194372504126729	-0.010497433835984	0.0106758692469003	79.5098115965404
45.65746	0.00198446935233608	-0.00830549306677927	0.00853928180192454	76.5620010363719
38.96512	0.00119607608628357	-0.00748641328342477	0.0075813575205512	80.9227828151126
33.18414	0.00158638675932546	-0.00634383055600921	0.00653917495357933	75.9601088725869
28.30617	0.0013369223187065	-0.0052205356512013	0.00538900304061144	75.6358720563224
24.17237	0.000782610046225205	-0.00488045471531571	0.00494280453919634	80.8898377418925
20.61345	0.00145063681404088	-0.00415470072551406	0.00440066873154953	70.753068430438
17.55618	0.0012954815490325	-0.00384674655622964	0.00405903085868391	71.3878483716635
14.98558	0.000948244262503909	-0.00303269360403368	0.00317748291534642	72.6368963650486
12.76553	0.000983432729483583	-0.00262458937523334	0.00280278599290194	69.4590432501351
10.8809	0.000930153492024473	-0.00232888855269782	0.00250776940917866	68.228329906194
9.278505	0.000962922194206423	-0.00196454235065661	0.00218784044199268	63.8881746080781
7.923394	0.0010905156999008	-0.00206868404609559	0.00233852050970278	62.203850577732
6.75822	0.000806097027006199	-0.00149635274465177	0.00169966583579688	61.6883031536733
5.761429	0.00101049153339395	-0.000973006178070103	0.00140279512460781	43.9173181291807
4.919708	0.000788129907016845	-0.001226959182215	0.00145827898056445	57.285580864329
4.191257	0.000771083803437729	-0.000947057431266947	0.00122126492213686	50.8478958331745
3.564097	0.00068090084453536	-0.000930523692576278	0.00115303959278715	53.805595644887
3.051758	0.000486229099873977	-0.000612412110870532	0.00078196376585182	51.5519234535194
2.604164	0.0007140468416091	-0.000628877899370157	0.000951498977575989	41.371133794665
2.214424	0.000749703615429975	-0.000513253538326654	0.000908561888697521	34.3958768418069
1.892567	0.000505392943741399	-0.00054613985477469	0.000744104003857603	47.2191020151811
1.607507	0.000673098863040134	-0.000434651665700295	0.000801239134042991	32.8522368684773
1.376413	0.000564053096401281	-0.000258878606188098	0.000620623902457652	24.6532967638245
1.17375	0.000651737648996473	-0.000329439452953206	0.000730268660344641	26.8156222939144
1.001604	0.000662765170382254	-0.000283236823439552	0.000720750143408897	23.1397428043171
