EC-Lab ASCII FILE
freq/Hz	Re(Z)/Ohm	-Im(Z)/Ohm	|Z|/Ohm	Phase(Z)/deg
6999984	16.5441617074367	91.5389885807362	93.0220173775326	-79.755324011754
5969734	12.3145383701503	89.1610721872567	90.0074699613932	-82.1363074251996
5091109	7.57323011953023	93.4748539597158	93.7811395603271	-85.3680758686351
4341796	4.27152903188467	103.384765461983	103.472970817985	-87.634066652598
3702781	5.44490976022538	115.379495142972	115.507899910543	-87.2981414973128
3157797	5.44837527909104	129.850213108459	129.964466826491	-87.5973400579301
2693047	5.13807712466041	147.525504084501	147.614952467307	-88.0052860080632
2296687	5.03682866755966	169.77295845435	169.847658404138	-88.3006457514531
1958656	5.99614437078492	196.087945546176	196.179601732279	-88.2485065920962
1670375	7.08456554444683	227.848318974028	227.958433773011	-88.2190565614265
1424531	9.59762403525699	265.060819055559	265.23452298961	-87.9262751281147
1214875	12.5556221098262	308.122057738117	308.377765267433	-87.6665533595819
1036062	15.7477555757516	358.682002919513	359.027535189193	-87.4860716541157
883578.1	20.1720982525547	417.599895085872	418.086816251891	-87.2344858862737
753531.2	25.7901600584222	486.479134471474	487.1622734079	-86.9653676099008
642624.9	88.001295211778	642.00663722257	648.00983804012	-82.1949783034211
548046.8	110.511130868614	737.32701153627	745.562761936825	-81.4759162705319
467390.6	134.015450678672	845.818945158136	856.37014719631	-80.9966370749049
398593.7	161.703425485797	971.258794197559	984.627667252925	-80.5476100508609
339937.5	193.655092892682	1116.92724441263	1133.59109219968	-80.1637283281233
289906.2	227.892723599272	1281.75003684909	1301.8518542569	-79.9182732086892
247234.4	270.840397692011	1476.34112344769	1500.97889185849	-79.6044642242961
210843.7	322.245720565544	1701.13743737878	1731.38987096334	-79.273581097608
179812.5	381.125996465328	1964.62375679686	2001.25049180563	-79.0213077804119
153343.8	460.545678643202	2264.9821931796	2311.33006243972	-78.5065624972664
130781.2	559.236003803693	2615.43558348663	2674.5557012929	-77.9306826173804
111531.3	688.959814495184	3017.00243459892	3094.66788466308	-77.1365631133291
95109.37	850.988522713247	3477.0470964385	3579.67009326852	-76.2475045026246
81109.37	1083.88952195484	3989.86060766837	4134.4654024949	-74.801760098171
69171.88	1330.89382652073	4580.30004446273	4769.74075551034	-73.7977661537632
59000	2341.68422877551	5509.22266451234	5986.23582850462	-66.9721772361492
50312.5	2747.54420787821	6276.23993763747	6851.29089508253	-66.3576800008714
42906.25	3578.74564243379	6862.50768743669	7739.60154874697	-62.4583011345496
36593.75	4233.20567523107	7527.49810343468	8636.15990970647	-60.6480982766133
31203.13	5038.20841884351	8236.80618574106	9655.49171265596	-58.547119337648
26609.38	5989.39376228403	8945.82313575187	10765.7135952913	-56.1969610535804
22703.13	7065.87685973237	9610.09376218855	11928.1397508143	-53.6746003041862
19359.37	8266.02797770445	10193.4133439749	13123.7530504547	-50.9607627892373
16500	9574.25596659865	10700.9605556161	14358.8625638245	-48.1806856235933
14112.02	10910.5048233494	11067.0544300078	15540.8754340637	-45.4081199346434
12011.13	12330.0953181776	11320.0450953134	16738.4190267562	-42.5544979064164
10236.38	13678.3673302617	11473.5812672258	17853.3134156438	-39.9903341562895
8750.684	14985.5821098289	11527.9474760323	18906.6455031183	-37.5699770831624
7449.463	16273.3530557672	11496.4756897774	19924.6323168909	-35.239683245852
6363.206	17380.3848958928	11482.6747447956	20830.976895579	-33.4514876968267
5414.761	18464.9579974298	11471.4334624169	21738.1797657832	-31.8507925862579
4620.567	19512.0226675008	11515.4313536504	22656.6587968681	-30.5478751009745
3941.215	20417.6045626946	11699.6636514378	23532.120721162	-29.8135036357994
3361.769	21311.8082387641	11745.7947299559	24334.2734480426	-28.8609269239267
2867.244	22195.9666212174	12031.2955160792	25247.039550122	-28.4598507377572
2442.658	22896.9523658188	12451.3960554429	26063.5318284394	-28.537412034484
2083.003	23895.5681928114	13108.5361053086	27254.9426358134	-28.7481172636434
1777.843	24719.1593813072	13802.6382312077	28311.6524183959	-29.1780361452198
1513.548	25549.6936965604	14652.1667298221	29452.89184217	-29.8332878684653
1292.065	26596.6028523944	15604.79231121	30836.4853114617	-30.4010546659722
1101.762	27513.2815184858	16947.6951660425	32314.1614676376	-31.6323352381304
939.101	29261.7133819713	17441.9785928432	34065.6790227619	-30.7978279391003
801.2801	30333.2471837849	19107.3295833395	35849.6294056013	-32.2073900587914
684.3433	31457.4923687863	20950.602590166	37795.5232140437	-33.6635049993369
582.9476	32768.1765560614	23089.3131120662	40085.7802069044	-35.1695245638382
497.0677	34232.1323122858	25490.8558576881	42680.4711197436	-36.6731033281324
423.5089	35818.0106027811	28261.3435536252	45624.9210738712	-38.2743599373404
361.5036	37514.8307092686	31298.7761669511	48856.6874920311	-39.8383800194428
308.1262	39361.7707952285	34839.2997032898	52565.443058646	-41.5122017334042
262.7298	41468.4186976815	38707.0495233311	56726.2323099977	-43.0274230000953
224.2111	43827.6796777721	43022.3773650754	61414.9042177903	-44.4687498999485
191.2854	46515.4868786272	47840.8212647023	66726.5666645373	-45.8047270500109
163.1722	49476.0541361334	53332.0263371228	72747.4052190534	-47.1479578457597
139.1537	52837.366446429	59210.1050115813	79357.56944663	-48.2552102440059
118.6706	56759.2082686443	65958.6131662307	87018.0807309366	-49.2870957738807
101.1982	60980.2859071257	73502.734788579	95505.2212746244	-50.3197834446685
86.24196	65691.8900976244	81911.5707191171	104999.665915046	-51.2708933845857
73.61024	70912.4440790417	91348.8723315012	115642.51467994	-52.1784699912288
62.69291	77338.1488307792	101870.114934183	127901.171148959	-52.7948178801849
53.57697	83982.3981736014	113122.797918276	140889.355921051	-53.4097964000106
45.65746	91186.3815495219	125934.117554328	155481.053972123	-54.0924526945972
38.96512	100306.312382921	139212.079272089	171584.845831788	-54.2261638552469
33.18414	111480.955565592	154031.28704376	190141.1077126	-54.1046624252114
28.30617	122568.148381025	170458.085103823	209949.779173056	-54.2819183782911
24.17237	134844.218509295	189799.000862888	232823.160346932	-54.6078053130056
20.61345	147697.804741344	211197.13702967	257718.591131765	-55.0335129547878
17.55618	163017.459649709	234284.3540821	285418.728744824	-55.1694070846369
14.98558	179908.543821425	258418.527413823	314876.5146064	-55.1547279059257
12.76553	199108.82928253	285974.600353309	348462.046635634	-55.152567855038
10.8809	220113.022432005	316296.992481397	385348.582580668	-55.1657057772804
9.278505	244091.485930421	349399.750323622	426216.892004447	-55.0617597740877
7.923394	268501.484634733	387322.003331742	471286.941805064	-55.2693137353739
6.75822	299425.125551309	424956.534744309	519849.461126303	-54.8314078221333
5.761429	329726.357625561	469006.226505973	573311.705282904	-54.8915569314662
4.919708	367467.949913558	515556.750621283	633112.515533257	-54.5202688210655
4.191257	408928.789626761	565764.979196189	698077.908739757	-54.1410051381566
3.564097	454428.680772091	627230.559331717	774547.351985559	-54.0766619777634
3.051758	500451.125463722	684054.230440445	847573.901887839	-53.8109585298494
2.604164	552830.106860706	750408.027701702	932058.654318911	-53.6207021643983
2.214424	606640.843713539	829760.951756044	1027869.81195119	-53.8293447454952
1.892567	668653.170454759	909231.885300225	1128627.34487775	-53.6690712614632
1.607507	747150.794364652	989354.139521934	1239780.59466541	-52.940246027745
1.376413	822381.35979466	1091241.78254633	1366425.8958731	-52.9975991030376
1.17375	925258.155067252	1195901.9439538	1512046.33297758	-52.2712146695267
1.001604	1008596.89024985	1294516.89661587	1641048.95802826	-52.0767757121711
