EC-Lab ASCII FILE
freq/Hz	Re(Z)/Ohm	-Im(Z)/Ohm	|Z|/Ohm	Phase(Z)/deg
6999984	22.0162735537055	-8.62803856043141	23.6465505009057	21.3998991636229
5969734	20.1836008925459	-0.795444488434223	20.1992692175672	2.25688361980929
5091109	12.2900308772973	-5.61000460995526	13.509885665269	24.5351757847803
4341796	10.5784839425146	-5.77683538705247	12.0530556130444	28.6386422177278
3702781	5.38293940640547	-5.22315328467361	7.50049110980272	44.1368755562749
3157797	4.1265642233986	-5.03514307476825	6.5100843368746	50.6635810400589
2693047	2.85840882547071	-5.39153344734076	6.10238755958051	62.0689763127582
2296687	2.4161588333345	-3.991934042444	4.66619340652781	58.8151489942102
1958656	1.72493947744118	-3.24503064670764	3.67500205427246	62.0065239130889
1670375	1.42092392858402	-2.70186339482245	3.05271856139804	62.2598858500958
1424531	1.14505895428542	-2.42426032167905	2.68108151984542	64.7170726502938
1214875	0.886355356374512	-1.84544600926091	2.04726568643906	64.3453376328129
1036062	0.741238744599136	-1.79100666172194	1.93833426911544	67.5169455077596
883578.1	0.690644413872737	-1.56177900500885	1.70767191430323	66.1441959264057
753531.2	0.645660640516578	-1.36133990205388	1.5066930648398	64.6258004735295
642624.9	0.609187666788173	-1.15898195943968	1.30933143079721	62.2725482173682
548046.8	0.545431011406357	-1.01682047504745	1.15387125221121	61.7905188243246
467390.6	0.51318313924824	-0.884006944290482	1.02216691981421	59.8640055339767
398593.7	0.480231366668226	-0.7661829149263	0.904244670792697	57.9211629464676
339937.5	0.45448205768735	-0.667825052998065	0.807802105822705	55.7631231406853
289906.2	0.433260913331086	-0.57900687317085	0.723162483954727	53.193120950626
247234.4	0.415281771180656	-0.500514234273942	0.65036408894232	50.3171592979668
210843.7	0.400804895039752	-0.432419190027068	0.589602340388411	47.1728815098479
179812.5	0.390493459023087	-0.372318644148466	0.539542689988815	43.6351249559229
153343.8	0.381978086047594	-0.324756740110751	0.501372315218885	40.3710989886216
130781.2	0.376094502897559	-0.282389977090897	0.470309657854439	36.9009972911456
111531.3	0.36858622062706	-0.245984894499374	0.443130195719055	33.7181193363687
95109.37	0.362019510601423	-0.214818987539115	0.420957626683998	30.6844968872234
81109.37	0.35460279648736	-0.186695079914391	0.40074704757602	27.7663884591544
69171.88	0.348285703602756	-0.163105693874799	0.384586009506907	25.0941648688658
59000	0.338541419547985	-0.137737602388909	0.365488631644556	22.1392439024597
50312.5	0.331603932794445	-0.107950258807197	0.348732600456688	18.0321277283573
42906.25	0.361258450054824	-0.108379781693503	0.377165540334672	16.6995711363318
36593.75	0.345425641697261	-0.0982978812753626	0.359139732423453	15.8847793150321
31203.13	0.338594762230525	-0.086177719978754	0.349389485289244	14.2795005421023
26609.38	0.333814388349188	-0.0741951463580188	0.341960473756881	12.5311255598385
22703.13	0.333566074167078	-0.0661417457098182	0.340060371641241	11.215517059393
19359.37	0.330612635690584	-0.059207008866592	0.335872274499107	10.1530585015701
16500	0.327716393003018	-0.0524741960037956	0.331890909018541	9.09702280063062
14112.02	0.325381684012445	-0.047178742301132	0.328784236264288	8.25011096533594
12011.13	0.323140509048756	-0.0424054095809452	0.32591104208053	7.47614811651733
10236.38	0.320814653839132	-0.0381767143352235	0.323078169543154	6.78624390582235
8750.684	0.319092832495926	-0.0344647664822875	0.320948681067475	6.1645388614818
7449.463	0.317249094191403	-0.0315912951798373	0.318818126361105	5.68670008175182
6363.206	0.314196724339027	-0.0315909009896135	0.315780883858903	5.74150693260286
5414.761	0.31603631185627	-0.0219657360026072	0.316798743636792	3.97588248295889
4620.567	0.310423835139485	-0.031445804400444	0.312012493399058	5.78430687989913
3941.215	0.307034283109048	-0.021669526205856	0.307798017164297	4.03706406223855
3361.769	0.30934160250645	-0.0215075959104442	0.310088380503213	3.97720372363446
2867.244	0.297729165993989	-0.028434871777647	0.299083931725674	5.45553395677054
2442.658	0.302732128966759	-0.00920055676151826	0.302871907171114	1.74078271852048
2083.003	0.298816969632418	-0.0267663333442261	0.300013362937379	5.11857117491836
1777.843	0.304629941775465	-0.0238590069277806	0.305562847279742	4.47833667548328
1513.548	0.303378855900722	-0.00928370136323656	0.303520868011794	1.75276212010107
1292.065	0.28938925908567	-0.0243147903669369	0.290408939781028	4.80277116218713
1101.762	0.281826051189088	-0.0209938088393594	0.282606905680696	4.26021336175036
939.101	0.291969202930608	-0.0247075401325461	0.293012760813136	4.83706154031012
801.2801	0.285748355751934	-0.00687056828538953	0.285830942207974	1.37736131864695
684.3433	0.282293075602259	-0.00791182663569105	0.282403926200922	1.60540826139153
582.9476	0.280286493041218	-0.00473849832334431	0.280326544493569	0.968545045622998
497.0677	0.282318212545214	-0.00410637927334366	0.282348075051808	0.833320703436377
423.5089	0.280425611925083	-0.0209421677626556	0.281206504572986	4.27091735927899
361.5036	0.287641877238879	-0.0151952947087044	0.288042959509152	3.02396066184602
308.1262	0.27006050497921	-0.0109245749462107	0.270281376878581	2.31648440853218
262.7298	0.268731926605069	-0.00842977463317934	0.268864109685987	1.79670569115643
224.2111	0.280961540284829	-0.0191310482777721	0.281612116442866	3.89533378428822
191.2854	0.267960027518426	-0.0064296481839906	0.268037155490513	1.37453720967475
163.1722	0.277773678081237	-0.00419277316642147	0.277805319570385	0.864768637937722
139.1537	0.266121809257612	-0.0144428216875864	0.266513437674059	3.10647861645856
118.6706	0.264557739386099	-0.0208075254027893	0.265374736142066	4.49706838467949
101.1982	0.266543835776274	-0.00545888511155674	0.266599729589117	1.1732680224434
86.24196	0.267506236129441	-0.0065520746953182	0.267586464625835	1.40307451857683
73.61024	0.245527566341975	-0.0176517896937392	0.24616127135113	4.1121083553714
62.69291	0.194486180002201	0.00202118675657401	0.194496682253845	-0.595421751404517
53.57697	0.245928447747996	0.00364291923080526	0.245955427409645	-0.848655918823053
45.65746	0.237790018021006	-0.0228988979307205	0.238890042063021	5.50055468848074
38.96512	0.262278190780213	0.00174281439540553	0.262283981136779	-0.380719568666325
33.18414	0.250517386254317	-0.0176512929199671	0.251138465706552	4.0303627478667
28.30617	0.268464618490382	-0.0108676276194668	0.268684492874565	2.3181058790924
24.17237	0.240814599949561	0.0022084608680953	0.240824726405478	-0.525433008672784
20.61345	0.236571703787183	-0.0261461247875965	0.23801216539114	6.30678709327893
17.55618	0.242564912684516	-0.0198097016361721	0.243372474089739	4.66884915306884
14.98558	0.256272993199015	-0.0141286825029117	0.256662164551869	3.15560058006631
12.76553	0.257118932501187	-0.0148868589895661	0.257549537023706	3.31365327968433
10.8809	0.253881258927181	-0.0164760626237778	0.254415318473619	3.71310169275789
9.278505	0.246640370776999	-0.00862910176904036	0.246791275968896	2.00376576282316
7.923394	0.261016891306299	-0.00626036419761593	0.261091956419747	1.37394820906135
6.75822	0.222117267542659	0.00882206599275798	0.222292396156499	-2.27448144552894
5.761429	0.219690064051135	-0.0306379801846133	0.221816162784826	7.93926417274362
4.919708	0.265991797487398	-0.0351911447734686	0.268309621521562	7.53655505685797
4.191257	0.284123766557611	0.00902265658781972	0.284266992552399	-1.8188780119124
3.564097	0.256852660183758	0.0323050175168118	0.258876231431614	-7.168595831247
3.051758	0.221661413065289	0.032242887274104	0.223994164704957	-8.2762034633262
2.604164	0.213678927456876	0.016006204866828	0.214277583133094	-4.28389657221209
2.214424	0.218020892563425	0.00972276556963416	0.218237581008575	-2.55344600161121
1.892567	0.223801143487949	-0.0195836615643509	0.224656341167527	5.00091429168825
1.607507	0.220037645607343	-0.034190111126337	0.22267808420061	8.83216160067549
1.376413	0.206705714876956	-0.04104478408413	0.2107413743509	11.2309238945041
1.17375	0.218435742338842	-0.0338886774734278	0.221048899549442	8.81870855164582
1.001604	0.217109738239896	-0.0508220482880612	0.222978741208193	13.1748379130901
