EC-Lab ASCII FILE
freq/Hz	Re(Z)/Ohm	-Im(Z)/Ohm	|Z|/Ohm	Phase(Z)/deg
6999984	47.9846532406478	49.2317393079474	68.748026167381	-45.7349465201419
5969734	48.760469007093	42.4741231353021	64.665558637535	-41.0583733230369
5091109	48.5789896307671	38.1102875452139	61.7439248049965	-38.1142354223352
4341796	50.2978883053117	33.3973791671295	60.3760093348892	-33.583829488346
3702781	51.6825228156659	28.9278270705445	59.2275471686542	-29.2366841051294
3157797	52.6510797910224	25.9004957951811	58.6768428393757	-26.1938255763266
2693047	54.197397263717	23.6153005424397	59.1188657694894	-23.5440848499189
2296687	55.5930778872612	20.857203637848	59.3768747288854	-20.564899120889
1958656	56.5173471105817	18.5310985955611	59.477828974975	-18.1534572710542
1670375	57.4166571733611	16.5548087888311	59.7556207816306	-16.0837331798133
1424531	58.123218465957	14.4723440344068	59.8978903359007	-13.9819922069806
1214875	58.6451464065059	12.9574503136332	60.0595430857643	-12.4591448720362
1036062	59.0473230678798	11.6041836804955	60.1767682779098	-11.1182746624034
883578.1	59.3688809347344	10.4637674218587	60.2839485443797	-9.99572429102717
753531.2	59.7133289228458	9.55851379588515	60.4735217846133	-9.09437573561712
642624.9	59.9992208837501	8.78226682497101	60.6385580076078	-8.32742016063295
548046.8	60.2701847526972	8.19543771381769	60.8248334929519	-7.74349022372537
467390.6	60.4643879947755	7.774747608594	60.9621925127377	-7.3271103348479
398593.7	60.6977826341281	7.50078565062215	61.1594849722955	-7.04466506016021
339937.5	60.8071278523074	7.44302199854474	61.2609612568859	-6.97850562355645
289906.2	61.075869114095	7.66266589046312	61.5546768051862	-7.15104613398215
247234.4	61.096211823291	7.72888532694701	61.583137038913	-7.20982014460667
210843.7	61.7055710460067	7.87937080000508	62.2066072239738	-7.27689058410468
179812.5	61.9347879409355	8.37124084873354	62.4979650119599	-7.69757338602358
153343.8	62.1402391351246	8.84899030812336	62.7671406808032	-8.10463125157428
130781.2	62.4467909768667	9.80394885783045	63.21170078803	-8.9224253717204
111531.3	62.7985255025821	10.6637473128964	63.6974906260188	-9.6374022155303
95109.37	63.1238023552756	11.7388459378808	64.2060349791295	-10.5346942297508
81109.37	63.4831922373454	13.1296620609049	64.8267207444377	-11.6852221302633
69171.88	64.0006362817281	14.671286771765	65.6607043824952	-12.9112143019724
59000	64.5144934683252	16.5356951893583	66.5999180395137	-14.3759923643803
50312.5	65.1424393421866	18.6662043851228	67.7640361076407	-15.9893613013773
42906.25	65.8081461267796	21.0714740796673	69.0993423741042	-17.7548333442478
36593.75	66.6170156518482	23.9612546683436	70.7952576069881	-19.7829836178739
31203.13	67.5346877442512	27.2262920786987	72.8162415197882	-21.9565964165279
26609.38	68.4701972579264	30.920663749482	75.1282593918419	-24.3036034327223
22703.13	69.5537930798921	35.1644793854879	77.9376080095665	-26.819902288644
19359.37	70.8520634821625	40.082443573801	81.4040366476216	-29.4977179470131
16500	72.2591537810425	45.6944356319284	85.4948346560936	-32.3079842588825
14112.02	73.8646330079185	52.0080830943828	90.3372830925677	-35.1493736381835
12011.13	75.7269618011494	59.5118527664538	96.3132045117844	-38.1628852687197
10236.38	77.7940649199145	68.0017082537077	103.325451183076	-41.1575064807505
8750.684	80.1385524155047	77.6090479480529	111.558737473386	-44.0813330276149
7449.463	82.8519531515779	88.8758045496867	121.504546315705	-47.0089926621287
6363.206	85.9637276096887	101.456533964961	132.978158916177	-49.7255230787148
5414.761	89.5597710842075	116.350569065443	146.82781588823	-52.4130561012893
4620.567	93.7552886614226	133.123070004598	162.824463516499	-54.8439097612231
3941.215	98.5844598831312	152.336225515522	181.453083012564	-57.0910559633041
3361.769	104.155189388801	174.328567068068	203.073269468492	-59.1431673319226
2867.244	110.654086627935	199.480878298787	228.116083813303	-60.9824191500721
2442.658	118.487719050149	228.599347928025	257.482041002524	-62.6013686959937
2083.003	127.420100485746	261.492305434921	290.88504225805	-64.0209289292099
1777.843	138.081511953953	298.764624112645	329.130376241179	-65.1948048598739
1513.548	150.258393445202	341.878886117284	373.441772668147	-66.2741427543413
1292.065	164.3095841099	390.422049112045	423.588262187724	-67.1761502112158
1101.762	181.505663431829	445.990426209325	481.509881651668	-67.8550479026663
939.101	201.242013508741	509.281598425462	547.600305419788	-68.4386054170071
801.2801	224.149871856511	580.974332445433	622.715296113486	-68.9025293437245
684.3433	251.304270886296	661.394119257879	707.528103720692	-69.1951388896978
582.9476	283.544421457113	753.898709570128	805.456828905778	-69.3885121455544
497.0677	320.759305600148	858.310489066076	916.287852025735	-69.5087759867524
423.5089	365.221765121275	977.164110810258	1043.18581143241	-69.5064268597924
361.5036	417.070584425442	1108.13611694254	1184.02429285276	-69.3751049331484
308.1262	476.73680569991	1257.44655542399	1344.78616205575	-69.2367356256243
262.7298	547.90756495379	1425.12325146743	1526.81989167246	-68.9700810677704
224.2111	630.330926812676	1611.04222210952	1729.96361774348	-68.6317494897457
191.2854	726.596171214816	1820.7451325132	1960.37109588836	-68.2447737949143
163.1722	839.192613866339	2050.90551698498	2215.95525288018	-67.7465296962685
139.1537	971.850064836608	2311.96416676251	2507.92162096761	-67.2002144386113
118.6706	1122.79525338755	2600.7374955606	2832.75567281127	-66.649086335475
101.1982	1296.9715335499	2917.21124596128	3192.53138001833	-66.0304065082927
86.24196	1497.82058221071	3268.10119116576	3594.98983200135	-65.3772919176231
73.61024	1727.91561763664	3649.67914056315	4038.05029819273	-64.6651053782755
62.69291	1992.51109971399	4072.30787948058	4533.62900420436	-63.9282816537372
53.57697	2290.06986380284	4526.71465270553	5073.02331239636	-63.165101870623
45.65746	2629.18501863819	5026.1007361542	5672.2396345889	-62.385650086127
38.96512	3012.97717312497	5569.32507425057	6332.09390552984	-61.5868323281556
33.18414	3445.72793136457	6161.16184376821	7059.24615253579	-60.7832017247051
28.30617	3929.04575440952	6794.70219246205	7848.90937802776	-59.9612937675899
24.17237	4458.69477189009	7474.10954614984	8703.00365257468	-59.1817273915349
20.61345	5049.42229865118	8212.14753140973	9640.33363674488	-58.4137920587211
17.55618	5706.92469792339	9016.10027129873	10670.475791167	-57.6673999390042
14.98558	6422.39978221111	9869.65394586263	11775.2829254174	-56.9470659398098
12.76553	7210.61341852529	10799.4040237592	12985.3792066233	-56.2695089695999
10.8809	8060.13731009131	11806.7418005944	14295.6274924688	-55.6797234040261
9.278505	8985.31837470259	12893.9019710786	15715.8726876541	-55.128681244559
7.923394	9979.09648435582	14064.9632801587	17245.450377311	-54.6442855358216
6.75822	11055.0737226559	15353.2920584567	18919.2555890983	-54.244383913132
5.761429	12241.8099011092	16747.487277459	20744.6436403122	-53.834541472697
4.919708	13472.9045805431	18231.0522634296	22669.1513839473	-53.5352798867222
4.191257	14772.860578084	19997.5356991353	24862.398188785	-53.5454556171638
3.564097	16271.8290945052	21862.5795730148	27253.3448895212	-53.3405143434234
3.051758	17722.9309747803	23897.0696412393	29751.8439726863	-53.4380317601547
2.604164	19428.4590688493	26144.5268757076	32573.0150177191	-53.3833085611417
2.214424	21207.9248158154	28793.7649794823	35761.109835783	-53.6266551958897
1.892567	23107.9431678015	31510.0193980998	39075.0349956974	-53.7454579947101
1.607507	25270.3159255228	34787.2534980716	42996.9984175038	-54.0044234589533
1.376413	27431.4622841432	38225.2724990305	47049.5120131071	-54.3357821406113
1.17375	29919.3801326534	42109.1049319378	51656.0357140496	-54.6054275381558
1.001604	32648.2822838331	46555.7867707996	56862.5678098783	-54.9590857372003
