EC-Lab ASCII FILE
freq/Hz	Re(Z)/Ohm	-Im(Z)/Ohm	|Z|/Ohm	Phase(Z)/deg
6999984	10.6416347731237	-2.35756078051346	10.8996551999763	12.4916201198643
5969734	7.02268628948755	-1.85580335471713	7.26375445702398	14.8025136062316
5091109	4.99048696992733	-1.28378273051095	5.15296597079513	14.4263152475266
4341796	4.0267956239136	-0.994189374401618	4.14770967028104	13.8685981297463
3702781	3.51540547385097	-0.658108563760412	3.57647627243299	10.6034377060106
3157797	3.30819418464009	-0.433368192557316	3.33645871450658	7.46315916330171
2693047	2.99573310079112	0.844585114724672	3.11251358666754	-15.7447025932785
2296687	2.97023364729195	0.71994240044594	3.05624033404853	-13.6249134498992
1958656	2.99994776331736	0.572817991269981	3.05414587630575	-10.8100863939805
1670375	2.99130811767403	0.46178746057183	3.02674278946922	-8.77583984941414
1424531	3.0073747935892	0.391443751219905	3.03274320698024	-7.41599900718449
1214875	3.00313052845058	0.318997079193864	3.020025183247	-6.06330867823808
1036062	3.01116177815022	0.219023601313338	3.01911685632158	-4.16021045410381
883578.1	2.99973030004739	0.182177551182967	3.00525714925984	-3.47537921172693
753531.2	2.97035969724591	0.143148307642981	2.97380701609971	-2.75907768949468
642624.9	2.96433088206074	0.128940809675076	2.96713385453684	-2.49064982726487
548046.8	2.9449831651173	0.102501447964575	2.94676642943738	-1.99340038335145
467390.6	2.94973031559411	0.097198742761112	2.95133131490337	-1.88731266392062
398593.7	2.94496563236677	0.0791698449104167	2.94602960612492	-1.53991803949249
339937.5	2.93752141348718	0.0674249571622527	2.93829511444035	-1.31487969813014
289906.2	2.9358297151386	0.056131447143397	2.93636626728499	-1.09533029244514
247234.4	2.93170583372454	0.0468406536558652	2.9320800027164	-0.915352216880847
210843.7	2.93091284551923	0.0408874794772889	2.93119803050009	-0.799248622233332
179812.5	2.92834884374501	0.033320542468813	2.92853840835546	-0.651918254793392
153343.8	2.92674225372476	0.0292025281773787	2.92688793898739	-0.571668410908661
130781.2	2.92549081795279	0.0246920623295949	2.92559502048184	-0.483582910809279
111531.3	2.92479533472027	0.0205712349575068	2.92486767661533	-0.402977088246433
95109.37	2.92398224333561	0.0187409711025691	2.9240423019067	-0.367226527182553
81109.37	2.92371066787561	0.0165318157419573	2.92375740621231	-0.323969531453104
69171.88	2.92399260242682	0.0144642848189254	2.92402837786881	-0.283426063841396
59000	2.92377611207787	0.0122422378922954	2.92380174190142	-0.239903616765463
50312.5	2.92423467555827	0.0114142407229278	2.92425695222371	-0.223642959948091
42906.25	2.92480029704613	0.0109489533126637	2.9248207906092	-0.214485031733838
36593.75	2.9250240962085	0.00938694350369219	2.92503915838894	-0.183872125923116
31203.13	2.92522288609664	0.00873929903603593	2.92523594068773	-0.171174464450545
26609.38	2.92573050377263	0.00895417935175181	2.92574420584464	-0.175352816467316
22703.13	2.92657433987999	0.00785878115682224	2.92658489152207	-0.153856986980055
19359.37	2.92640706135405	0.00630360761578721	2.92641385046815	-0.12341740090236
16500	2.9276832391688	0.00621914047530253	2.92768984467586	-0.121710559630665
14112.02	2.92735396213534	0.00573740448797688	2.92735958458125	-0.112295487957957
12011.13	2.92734974436725	0.00415107254034359	2.92735268754044	-0.0812471342229361
10236.38	2.92740461451509	0.00382330676918998	2.92740711120932	-0.0748305225794865
8750.684	2.928041655216	0.00406533371087902	2.92804447739754	-0.0795502051210972
7449.463	2.92845193808968	0.00336995562519277	2.92845387710002	-0.0659338631198132
6363.206	2.92888789802346	0.00331607365062295	2.92888977524467	-0.0648699950858142
5414.761	2.92776827562673	0.00271469808235887	2.92776953419356	-0.0531260275928162
4620.567	2.9280196576146	0.00181857069743438	2.92802022236475	-0.0355859674780732
3941.215	2.9282637035043	0.00218729479863702	2.92826452041465	-0.0427976268172022
3361.769	2.92830444740866	0.0020638725374077	2.92830517471851	-0.0403821284261779
2867.244	2.92845965584242	0.00162247546120006	2.92846010529823	-0.0317439875236675
2442.658	2.92905496157023	0.001916911799012	2.92905558882893	-0.0374970567445761
2083.003	2.92865907287984	0.00176049859748508	2.92865960202218	-0.0344420858879842
1777.843	2.92824552983797	0.00234424259866615	2.92824646819379	-0.0458688238385522
1513.548	2.92902165267821	0.00237311143639332	2.92902261403283	-0.0464213843361764
1292.065	2.92851623334222	0.0021451891879437	2.92851701903635	-0.0419701497103184
1101.762	2.92922216393543	0.00217364142260459	2.92922297041512	-0.0425165623708008
939.101	2.92898615994079	0.0020066888592529	2.92898684734583	-0.039254123496592
801.2801	2.92906706066987	0.00227752730722594	2.92906794612755	-0.044550934966082
684.3433	2.92973903394762	0.0022327867771782	2.92973988476335	-0.0436657438204947
582.9476	2.9301420074904	0.00262514862350878	2.9301431834409	-0.0513319477672348
497.0677	2.93132561124889	0.00216993675129592	2.93132641440512	-0.0424136419620614
423.5089	2.93162197272703	0.00176199120746003	2.9316225022313	-0.0344364479832802
361.5036	2.93179295381767	0.00163197626635774	2.93179340803568	-0.0318935696152423
308.1262	2.93168689299028	0.00172344716112438	2.93168739957061	-0.0336823954178423
262.7298	2.93209893360648	0.00168517097664636	2.93209941786725	-0.0329297122215349
224.2111	2.93259495977327	0.00163419692175564	2.93259541510369	-0.0319282335618478
191.2854	2.93286815692161	0.00154408483844505	2.93286856338342	-0.0301648528149295
163.1722	2.93261941210649	0.00138034300254293	2.93261973696056	-0.0269683212758947
139.1537	2.93247284792391	0.00135180087228593	2.93247315949807	-0.0264120021751344
118.6706	2.93245655389909	0.00122755395025676	2.93245681083191	-0.0239845518845037
101.1982	2.93269351531671	0.001067079938416	2.93269370944875	-0.0208474475279798
86.24196	2.93270462047094	0.000856499048194028	2.9327047455416	-0.0167332839729973
73.61024	2.93274472439743	0.000743132014188002	2.93274481854902	-0.0145182520553333
62.69291	2.93343912613245	0.000506451816592671	2.93343916985135	-0.00989199028221873
53.57697	2.93300136187331	0.000607903256570996	2.93300142487129	-0.0118753066083759
45.65746	2.93303415655005	0.000600375381936297	2.93303421799676	-0.0117281194803847
38.96512	2.93329643784746	0.000627494010182254	2.93329650496457	-0.012256776178796
33.18414	2.93308033154157	0.000460486869750666	2.93308036768926	-0.00899530560326104
28.30617	2.93329887542871	0.000391567829186183	2.93329890156403	-0.00764844798466907
24.17237	2.93292958246744	0.000315250630072914	2.93292959941005	-0.00615852853421087
20.61345	2.93299015794405	0.000278483632776351	2.93299017116488	-0.00544016035321159
17.55618	2.93326539623511	0.000285061771940493	2.9332654100866	-0.00556814136295217
14.98558	2.93312021479282	0.000229793397169949	2.93312022379433	-0.00448880060369575
12.76553	2.93295024071654	3.94038638618709E-05	2.93295024098123	-0.000769762495222515
10.8809	2.93261461209752	1.48228243089933E-05	2.93261461213499	-0.000289600027858607
9.278505	2.93281626612453	0.000101109808644069	2.93281626786742	-0.00197529090632075
7.923394	2.93266760684727	0.000586630893758343	2.9326676655201	-0.0114610581224963
6.75822	2.93262442236256	0.000300232998274686	2.93262443773102	-0.00586576428963288
5.761429	2.93244194586804	2.85252674480503E-05	2.93244194600678	-0.000557343492002139
4.919708	2.93277192625112	-6.74754275002167E-05	2.93277192702734	0.00131822634461149
4.191257	2.93286224243448	-3.06970372905408E-05	2.93286224259512	0.000599690859936037
3.564097	2.93287160485763	0.000160408192076177	2.93287160924425	-0.0031336906739805
3.051758	2.9328076143568	-3.9087286763416E-05	2.93280761461727	0.000763615231038556
2.604164	2.93262955994364	9.09475877309969E-05	2.93262956135389	-0.00177687390299356
2.214424	2.93256501900422	3.38052605606693E-05	2.93256501919906	-0.000660479390168237
1.892567	2.93267616977786	9.82382291634911E-05	2.93267617142325	-0.00191928313593112
1.607507	2.93277635027588	3.13254241149405E-05	2.93277635044318	-0.000611984815346159
1.376413	2.93278599336017	8.18799242684178E-05	2.93278599450317	-0.00159963055498543
1.17375	2.93273308653368	-1.04183495277703E-05	2.93273308655219	0.000203539647086116
1.001604	2.93275595738362	-4.07647212590662E-05	2.93275595766693	0.000796399876075942
