EC-Lab ASCII FILE
freq/Hz	Re(Z)/Ohm	-Im(Z)/Ohm	|Z|/Ohm	Phase(Z)/deg
6999984	26.1816011138958	1.79511867259506	26.2430693314607	-3.92229660516928
5969734	12.9236322661174	5.26441174694536	13.9547232860852	-22.1634112622583
5091109	11.6307855444278	-5.78921204736038	12.9919262817249	26.4617807483754
4341796	5.46536233478337	-7.79780432421227	9.52239138710295	54.9739711807178
3702781	4.83712200298439	-5.87326348168227	7.60874320745669	50.5256987466606
3157797	4.21781193863007	-5.10134415115915	6.61918799387176	50.4159200331136
2693047	2.62080045292046	-3.23436695920584	4.16289858642155	50.9822257882429
2296687	2.50202756737696	-4.15699596306059	4.8518818395357	58.9569560485051
1958656	1.66665498863966	-3.26922905667759	3.66955003729102	62.9874849541324
1670375	1.06491059201764	-2.79420283703741	2.9902515050576	69.1374420397281
1424531	1.09170733840149	-2.58985080745248	2.81054302895045	67.1429759548777
1214875	1.03178818475481	0.750029761793305	1.27559064820002	-36.0142362411996
1036062	16.4717994040595	-11.9159695731373	20.3300395099347	35.8825934581904
883578.1	21.0469412818169	17.5500520475974	27.4039789846954	-39.8231336125144
753531.2	-6.72966412011761	15.8268520181389	17.198186647832	-113.035462950369
642624.9	36.0830213179723	-27.1037161619441	45.1286589344341	36.9119980808122
548046.8	13.6276655447313	-0.742705634233623	13.6478892088916	3.11952486545369
467390.6	1.79876516377639	7.75892792109382	7.96470455190553	-76.9476016324949
398593.7	0.190715238214347	-4.67141775211523	4.67530920013473	87.6621415845594
339937.5	4.2595174692988	-2.28484834569943	4.83363435047657	28.2095598545322
289906.2	0.706997528852897	-5.24363924213074	5.29108665657798	82.3211436099088
247234.4	2.35689901108967	-4.0500899459769	4.68595790836608	59.8032720076929
210843.7	6.21607183557295	5.90839756124175	8.57605450114974	-43.5463566047233
179812.5	2.43211677363157	-1.01732550337073	2.63631242086148	22.6989778316789
153343.8	4.59695678562736	-3.48787700666921	5.77038107082862	37.1889028536209
130781.2	1.12917950882791	-0.113444927193977	1.13486391900655	5.73706650969059
111531.3	0.520774528393407	-0.283565405219952	0.592971709663227	28.568603856851
95109.37	0.368087305884374	-0.180471635233608	0.409949113765488	26.1185160037346
81109.37	0.385396265102143	-0.166801872093218	0.41994421735331	23.4032575534537
69171.88	0.350153818877093	-0.154358668834974	0.382667343156843	23.7893738115924
59000	0.363638918839117	-0.135454217703238	0.388047817141236	20.4301852840978
50312.5	0.357097584491372	-0.104496773316717	0.372072923609308	16.3109567822063
42906.25	0.386830793190237	-0.117379149232996	0.404247358970779	16.8797892812122
36593.75	0.369202015932399	-0.102657871578079	0.383208516561792	15.5387701025526
31203.13	0.364419719037187	-0.0934889639455359	0.376220570945758	14.3884771147362
26609.38	0.35739542038446	-0.0768436573248769	0.36556317399712	12.1344382303797
22703.13	0.356129920149798	-0.0698180822657623	0.362909196131994	11.0919701700289
19359.37	0.352257484575529	-0.0629720582881569	0.357841886263369	10.135537452195
16500	0.35004768727922	-0.0567734925144723	0.354621788419468	9.21246233719358
14112.02	0.347377798049258	-0.05147890701413	0.351171485808459	8.42947540310165
12011.13	0.345349472883897	-0.0444415280938232	0.348197225492248	7.33284564237716
10236.38	0.344045685947022	-0.0408068982770579	0.34645726571361	6.76419076028777
8750.684	0.342210568540699	-0.0363852522369909	0.344139448191134	6.06912419985866
7449.463	0.340964549135162	-0.0272746192549752	0.342053692601685	4.57349637088758
6363.206	0.33924684735496	-0.0318914805112399	0.340742556733787	5.3704050334856
5414.761	0.338316620225467	-0.029656120692419	0.339613929359952	5.00962210425864
4620.567	0.336695497044875	-0.0267179681327024	0.337753915671507	4.53711355089677
3941.215	0.336245152517351	-0.0252742412976234	0.337193697842334	4.29861757684239
3361.769	0.333738532525143	-0.0231098709858927	0.334537702253454	3.96114830029931
2867.244	0.332867606736768	-0.0223190200545819	0.333615021051002	3.835982805164
2442.658	0.331606038142361	-0.0214617283766297	0.332299819917774	3.70305029415791
2083.003	0.32986358543054	-0.0199776188229166	0.330467986720234	3.46578675232085
1777.843	0.328332276879509	-0.0191027842450203	0.328887519384355	3.32978662527962
1513.548	0.326542814965529	-0.0179424655839776	0.327035383524236	3.14505414593133
1292.065	0.325726341425684	-0.0165723741554512	0.326147655339893	2.91259542816424
1101.762	0.324534742718884	-0.0160366345855694	0.324930720124219	2.82892582838349
939.101	0.322885506953133	-0.0157948885833061	0.323271602689968	2.80055811498877
801.2801	0.32158505284038	-0.0155893756223861	0.32196269169369	2.77533651284711
684.3433	0.320456644075727	-0.0149954385044592	0.320807300272637	2.6791426286226
582.9476	0.319178288107814	-0.0145369056970229	0.319509156718049	2.60772172058615
497.0677	0.318456118461189	-0.0146439820274318	0.318792637297329	2.63285164948059
423.5089	0.316389485879099	-0.0130656490028043	0.316659151073682	2.36474808136282
361.5036	0.315592958830309	-0.0133567563952351	0.31587547958756	2.4234676609968
308.1262	0.314315796100074	-0.0132042515228848	0.314593025886307	2.40555298961645
262.7298	0.313426785541304	-0.0125834806154203	0.31367928506542	2.29908024254729
224.2111	0.310917397399926	-0.0120359760919214	0.311150273543876	2.21687970655325
191.2854	0.311326049173664	-0.0106141044275156	0.311506931073582	1.95264073876364
163.1722	0.309193497272181	-0.0123263635613315	0.309439102238305	2.28295491836113
139.1537	0.308797860304103	-0.0111547977639524	0.308999268674777	2.06881308834657
118.6706	0.307054825146361	-0.0133281046052877	0.307343950677465	2.48543591132918
101.1982	0.303710286961436	-0.0116812044174309	0.303934843252365	2.20260560900316
86.24196	0.302262264160975	-0.00875491642376179	0.302389029062409	1.65908753130175
73.61024	0.316879006762817	0.00340525267160744	0.316897303037982	-0.615689560449475
62.69291	0.363821067005553	0.0472269256531828	0.366873481330704	-7.3961001829596
53.57697	0.305312883225985	-0.00187796201061024	0.305318658789596	0.352418604854735
45.65746	0.321323852909612	-0.0401480567112838	0.323822304522667	7.12195706672335
38.96512	0.302914492776368	0.00440808351999784	0.302946564816774	-0.833722919808559
33.18414	0.309408866059483	-0.0112180962708148	0.309612163973182	2.07643743772638
28.30617	0.29166704258228	0.0183414841013587	0.292243175741939	-3.59830730667225
24.17237	0.295576916953122	-0.000863459185025757	0.295578178147977	0.167375811564607
20.61345	0.313793804634803	-0.0189749236620531	0.314366982291661	3.46042787806299
17.55618	0.310759666315064	-0.025474381134455	0.311802043454551	4.68631691736899
14.98558	0.299369187108076	-0.00912492375268301	0.299508220961032	1.7458637082477
12.76553	0.296078699898385	-0.0121791907430443	0.296329089393319	2.35553262818594
10.8809	0.301861695328058	-0.0192615930523584	0.302475605749032	3.65105552016537
9.278505	0.29072255513076	-0.00930122313699539	0.290871306274102	1.83246570602393
7.923394	0.291189381751436	-0.0105707085606632	0.291381186634034	2.07902892583375
6.75822	0.288686849577321	-0.000182980084755271	0.288686907566987	0.0363161162442981
5.761429	0.287253923773954	0.0077213656658391	0.287357679923955	-1.53973583891364
4.919708	0.280403498891473	0.000542663045261252	0.28040402399709	-0.110884006429653
4.191257	0.280983740861615	-0.00791490363372606	0.281095194423737	1.61351217644586
3.564097	0.299211872393124	-0.00893076191287571	0.299345123710649	1.70963501390378
3.051758	0.279889691351534	-0.0117732975749102	0.28013719828085	2.40867331776873
2.604164	0.291860282280508	0.00243952311442952	0.291870477516798	-0.478897376552258
2.214424	0.278129948370663	-0.00620169551472392	0.278199081968157	1.27736012987379
1.892567	0.287670123949344	0.00281477312491052	0.287683894510582	-0.560605569912936
1.607507	0.266383267140522	-0.00476266235454645	0.2664258395223	1.02428123401773
1.376413	0.274944162790496	-0.0279306161435966	0.276359208224961	5.80057888128084
1.17375	0.248362183487105	0.0193095830990662	0.249111690183223	-4.44567063270948
1.001604	0.27812194343598	0.0359617679086514	0.280437273149847	-7.36758980307389
