EC-Lab ASCII FILE
freq/Hz	Re(Z)/Ohm	-Im(Z)/Ohm	|Z|/Ohm	Phase(Z)/deg
6999984	19.1554572983394	4.57452512121313	19.6941063364935	-13.4312766334568
5969734	13.3668037226469	-7.1669703283556	15.1669675758636	28.1991778592845
5091109	12.1909876700512	-4.62696618825383	13.0395167271868	20.7837518098951
4341796	7.17217298402941	-6.7696328604328	9.86245377063401	43.3461651511046
3702781	5.93263587729933	-5.68281791405692	8.21526554025769	43.7679079249445
3157797	4.36020232155569	-4.99033780144439	6.62682696751805	48.8553491569378
2693047	3.33028417346069	-3.76448377484933	5.02614472206149	48.5021321353955
2296687	2.55709193881126	-3.51802495811638	4.34916299872323	53.9883061561763
1958656	1.78203298903091	-3.2834706212347	3.73588288019122	61.5100559836081
1670375	1.41162961193921	-2.75394601022908	3.09465939782722	62.861033168747
1424531	1.16490014155801	-2.42208449873703	2.68765430418871	64.3147989823325
1214875	1.17359029645228	-2.20257134724568	2.49572328667154	61.9500875702685
1036062	0.829390809565576	-1.8169812189689	1.99732567827021	65.4648971644986
883578.1	0.710631124667836	-1.57407358995403	1.72705074098518	65.7027319452574
753531.2	0.644863160298784	-1.36569568890701	1.51028911477562	64.7239481438354
642624.9	0.584962721096753	-1.18789830766663	1.3241162239132	63.782750373774
548046.8	0.545250760203958	-1.01870637941127	1.15544843197618	61.842600687902
467390.6	0.506771762014378	-0.883282869502939	1.0183350363866	60.1555264601393
398593.7	0.475707843484474	-0.766726869377037	0.902312609120232	58.1828900672834
339937.5	0.449788355683045	-0.668691882330719	0.805889817780978	56.0736777248021
289906.2	0.428714129505178	-0.578637729204431	0.720150974793649	53.4651613117541
247234.4	0.410196080779898	-0.500824972250939	0.647368888283445	50.6811250077457
210843.7	0.396408619233704	-0.433875287051318	0.587696825001323	47.5837266264244
179812.5	0.385462405584562	-0.373955460886456	0.537051164085731	44.1319022826131
153343.8	0.376754469724942	-0.324967521081646	0.49754177735711	40.7792340148272
130781.2	0.369739487012036	-0.282633439135807	0.465391178659047	37.3947436710996
111531.3	0.362798981726592	-0.246379824029119	0.438550018618711	34.1807541080471
95109.37	0.356534724517365	-0.215572340699269	0.416639465078904	31.1585048711352
81109.37	0.349369355214384	-0.187502632078863	0.396504960119562	28.2219586612189
69171.88	0.342656326409359	-0.163368590412073	0.379608554120668	25.4904511278681
59000	0.332890244259688	-0.137930485608987	0.360334197077665	22.5062921251764
50312.5	0.327283658018869	-0.108585880124268	0.344826748046862	18.3547659923734
42906.25	0.354937906724554	-0.109044600586985	0.371310708904528	17.078089974107
36593.75	0.34007925986929	-0.0990168495533772	0.354200846256358	16.2333496488559
31203.13	0.333920420889793	-0.0867175885229171	0.344996793675602	14.5578663572886
26609.38	0.329390719588068	-0.0748531438362811	0.337788749506137	12.8028794420691
22703.13	0.328882379791151	-0.0662941155160562	0.33549743589057	11.3966175592779
19359.37	0.32602555299883	-0.0594408720858286	0.331399877010413	10.3326578520318
16500	0.323259696836593	-0.0528825919688684	0.327556712848678	9.29081431567772
14112.02	0.321127906851846	-0.047381929596301	0.324604651555268	8.3933446845407
12011.13	0.319423699783849	-0.0425587367504308	0.322246405809894	7.58916404160688
10236.38	0.3177052378629	-0.0380665142964144	0.319977620586504	6.83244149284375
8750.684	0.315920616590137	-0.0344477905618977	0.317793150117004	6.22291180164973
7449.463	0.314672724277186	-0.0314510343231511	0.316240558695468	5.70766575339125
6363.206	0.312370174931932	-0.0285408410272397	0.313671334032212	5.22054276554897
5414.761	0.308904333499743	-0.0236075024505546	0.309805102325435	4.37024016602271
4620.567	0.306471292336417	-0.0263643183794778	0.307603202697839	4.91678804454478
3941.215	0.306441710968381	-0.0272990348129804	0.307655260840684	5.09069563226966
3361.769	0.312479871179809	-0.0254777169809895	0.313516800116219	4.6612402735495
2867.244	0.304683529101988	-0.0287780487738266	0.306039587304111	5.39570856859196
2442.658	0.298627707464932	-0.0205984230662027	0.299337272484693	3.94583714914003
2083.003	0.299555645949534	-0.0213278923376503	0.300313942419943	4.07249749116283
1777.843	0.305834882707902	-0.0206549075430578	0.306531565563105	3.86366869878252
1513.548	0.293538546588245	-0.0159483795674336	0.293971476752365	3.10990604998903
1292.065	0.301587375133228	-0.0161274588822789	0.302018277211413	3.06099035118753
1101.762	0.293888148865746	-0.0148766710176323	0.294264437851912	2.89784921339096
939.101	0.297869673718345	-0.0161258469136337	0.298305858909535	3.09881129524412
801.2801	0.294622552418865	-0.0136163179365641	0.294937031428671	2.64610702807094
684.3433	0.296356572429271	-0.0131989965921886	0.296650352322505	2.5501285759774
582.9476	0.294692431628858	-0.0113404304979414	0.29491055359754	2.20378361022995
497.0677	0.292399404244367	-0.0114051566526214	0.292621751072493	2.2337126336164
423.5089	0.291484189763346	-0.0113201520853671	0.291703923054233	2.22403537645664
361.5036	0.289861093508347	-0.0198275596203813	0.290538440916782	3.91314532326545
308.1262	0.292650446348099	-0.0162691799372126	0.293102319955969	3.18194231469745
262.7298	0.281257217443311	-0.0140149884347438	0.281606182930666	2.85267722082285
224.2111	0.288934774639088	-0.00759581603437254	0.289034600726225	1.50590382702675
191.2854	0.289909349348131	-0.0132001949104242	0.290209710356373	2.6069992208065
163.1722	0.281737701495555	-0.00757276293946302	0.281839456397673	1.5396693758094
139.1537	0.279494332883042	-0.014375694681529	0.27986379314108	2.94439401283621
118.6706	0.286128085666926	-0.00705432013591815	0.286215032519257	1.41230773344536
101.1982	0.288279801550107	-0.00884372617483649	0.288415421700062	1.75714467427603
86.24196	0.276511818778038	-0.0161518906691877	0.276983157423205	3.34302080443155
73.61024	0.268394198251675	0.00326532949879283	0.268414060793944	-0.697035816370969
62.69291	0.225641129520514	0.0476744209038934	0.230622569883815	-11.9302360721951
53.57697	0.269432592161896	-0.00751707651955371	0.269537433686824	1.59811794640629
45.65746	0.267164137423413	0.0145341358251281	0.267559184909394	-3.11390816018802
38.96512	0.276825059207693	-0.0239096873663697	0.277855693760809	4.93644909128469
33.18414	0.272464849684819	-0.00742073037024796	0.272565884793015	1.56009646712141
28.30617	0.262711364135293	-0.0149020055330073	0.263133674421828	3.24655934891671
24.17237	0.274983954446344	-0.0125601546656819	0.275270653517905	2.61522173812442
20.61345	0.282460443912223	0.00041918233999402	0.282460754953541	-0.0850291140370357
17.55618	0.273023018391224	-0.00810060980492108	0.273143164751868	1.69947074261816
14.98558	0.27225635479653	-0.0106549571428351	0.272464769903945	2.24116967932003
12.76553	0.271870919932694	-0.0109268593005238	0.272090413942173	2.30155599318005
10.8809	0.263985848953282	-0.0106200006230783	0.264199380886518	2.30373437871714
9.278505	0.27583534784859	-0.0119066811340007	0.276092209557567	2.4716895079084
7.923394	0.271751812202882	-0.00303197108947311	0.271768725728767	0.63923010442022
6.75822	0.258734872387751	-0.00614319645016766	0.258807791714491	1.36013018591618
5.761429	0.254604859415807	-0.00782039812055381	0.254724936087747	1.75933394601122
4.919708	0.285270179338765	0.0182378730872894	0.285852576050522	-3.65805133484392
4.191257	0.244056954118314	0.000341352677980247	0.244057192836351	-0.0801372576779882
3.564097	0.257036983693725	0.00516490212456331	0.257088870238142	-1.15114669493119
3.051758	0.232033116245504	-0.0174379520791808	0.232687449612813	4.2978624184684
2.604164	0.281697175628797	-0.0288080405618061	0.283166385643233	5.83911029300339
2.214424	0.263747980803242	0.0133521073054308	0.264085736357121	-2.89809558524287
1.892567	0.250342791589839	-0.0165265044453179	0.250887701273248	3.77692919113546
1.607507	0.277856649675588	-0.0293582449213762	0.279403336261051	6.03147514314061
1.376413	0.289038692398	0.000871659228449658	0.289040006734286	-0.172787397939618
1.17375	0.271859670847508	0.0355367294283564	0.27417246355493	-7.44731688026634
1.001604	0.242793331277726	0.0122119050246184	0.243100251619092	-2.87940971267026
