EC-Lab ASCII FILE
freq/Hz	Re(Z)/Ohm	-Im(Z)/Ohm	|Z|/Ohm	Phase(Z)/deg
6999984	6.56111758727268	9.2818589235829	11.3666692162354	-54.7444500175663
5969734	3.74648904705106	17.8452920948558	18.2343256011951	-78.1433645509329
5091109	-3.73679042856311	73.5874706505556	73.6822871486314	-92.9069972411869
4341796	-22.3462025365298	-68.9461277326562	72.4770397928293	107.958082857258
3702781	50.0963223777087	-53.3049668529515	73.1509467263792	46.7773744734471
3157797	49.8442055223043	-4.36405794286969	50.0348860883927	5.00371319051746
2693047	158.43288824193	-421.200100433243	450.011671717139	69.3863922017125
2296687	125.80082514508	-10.5101128987884	126.2390988574	4.77572297059459
1958656	9.4594159187101	-41.5618600097859	42.6247434830544	77.177987961917
1670375	107.377447512666	60.4630485160545	123.230257932823	-29.3833784894167
1424531	31.065732680837	-34.0642125860243	46.1026065001001	47.6359459998726
1214875	995.481750688075	308.972369176142	1042.32808696078	-17.2430216050133
1036062	36.3529023744207	19.5398932102187	41.2715511909949	-28.2582841854302
883578.1	6.55974036122511	-37.5212071174614	38.0903029281485	80.0833423494664
753531.2	7.51968756709933	-31.9153434417714	32.7892489714694	76.742138967161
642624.9	65.9559130803165	-53.8597578880555	85.1531325907522	39.2351585935732
548046.8	3.43997049045401	-38.9045909953752	39.0563771680455	84.9470091849934
467390.6	-4.34864151232962	-43.2961760280936	43.5140154623591	95.7355179884093
398593.7	-4.51488749704951	-51.9505001840895	52.1463198940069	94.9669524020208
339937.5	-11.3580570757221	-62.9606518222555	63.9769422402997	100.226132003527
289906.2	-12.8924417606398	-69.7083953639857	70.8905878010137	100.478348024943
247234.4	-20.1474539204445	-82.637918334432	85.0584825054191	103.701636693011
210843.7	-11.7713630603527	-94.2799241621266	95.0119418195154	97.1168619366902
179812.5	-11.0496636326058	-114.944822477719	115.474704073351	95.4909796014474
153343.8	-13.6090244238363	-129.579792132747	130.292471290303	95.9954689400601
130781.2	-21.3562150978388	-169.55093198909	170.890627190827	97.1790278574618
111531.3	-22.2278764772335	-179.287289174532	180.659930677058	97.0674156789704
95109.37	-21.1927702398834	-203.647557656087	204.74731072649	95.9411525410817
81109.37	-25.6185074531499	-238.689192209407	240.060072485422	96.1261033173499
69171.88	-38.4949020773476	-282.961802438364	285.568274017112	97.7471155113341
59000	-38.5104161262424	-325.400884102608	327.671767970595	96.7494241026728
50312.5	-40.8770088391165	-378.846891029676	381.045793434968	96.1583035454363
42906.25	-55.910614429126	-435.988326625374	439.558662477986	97.3076568824687
36593.75	-155.765882937894	-509.101747608909	532.397971169939	107.012129537497
31203.13	-163.809217749087	-589.08078203247	611.432439096548	105.539971778688
26609.38	-176.411838774146	-679.046255358727	701.587452693094	104.563136033769
22703.13	-189.150049882394	-788.275642211329	810.651731308948	103.493251942922
19359.37	-202.998858280625	-912.802029738592	935.102177282317	102.538016706879
16500	-223.515003051653	-1056.95330526584	1080.32830477664	101.940479022338
14112.02	-240.47052964635	-1220.60217552096	1244.06420514171	101.145099011137
12011.13	-269.66520605427	-1422.90821255111	1448.23585948619	100.731251595714
10236.38	-305.133522050937	-1611.08970140605	1639.73061575853	100.724547989511
8750.684	-344.439671472129	-1889.75599630146	1920.88948480675	100.329722772886
7449.463	-378.327234675666	-2247.61465461518	2279.23301400674	99.5546827634128
6363.206	-475.154530095872	-2548.4250818187	2592.34299912517	100.561541496796
5414.761	-504.198012207586	-2933.50256505858	2976.51691322582	99.7524677942919
4620.567	-577.466196706433	-3391.02038940199	3439.83814876203	99.6643468854008
3941.215	-1251.74952428209	-3900.49783537629	4096.43262306553	107.792498054465
3361.769	-1357.73291621184	-4548.82447704692	4747.12995342937	106.619309673155
2867.244	-1479.01075545125	-5226.91966127444	5432.14156297107	105.799407068323
2442.658	-1582.74137646648	-5989.12749664432	6194.73312063078	104.80309075837
2083.003	-1777.9833326188	-7037.501961336	7258.62649451522	104.178738649016
1777.843	-1962.33049013505	-8152.95977534098	8385.79120005034	103.533072509683
1513.548	-2209.86778982646	-9317.7246767193	9576.1949019251	103.342220268125
1292.065	-2597.01659490996	-10688.9406742061	10999.9067237379	103.656143844077
1101.762	-2718.7967750802	-12476.1107877086	12768.9152354993	102.293707503036
939.101	-3364.70650557568	-14206.7456407885	14599.7558736688	103.324343984917
801.2801	-3757.69338320658	-16595.4980077469	17015.6050050336	102.758261683328
684.3433	-4794.99495063674	-19029.4807858747	19624.2991099455	104.142814195261
582.9476	-5297.54608724299	-22344.4265786607	22963.8279403853	103.337751197323
497.0677	-6304.0089530511	-24977.3726069757	25760.6224930192	104.164987661933
423.5089	-20341.1605091979	-38629.3878116716	43657.6730205067	117.770042394653
361.5036	-22456.0279034745	-44207.4544002376	49583.9915068434	116.929169534519
308.1262	-26102.3697502676	-49600.7911947153	56049.7296489594	117.755546562436
262.7298	-29117.5506873916	-56699.8372908396	63739.3387700289	117.182244992628
224.2111	-32946.6729920782	-63639.6098970787	71662.28582106	117.370919994565
191.2854	-36310.7889511336	-70248.487075835	79077.9572997275	117.334021512558
163.1722	-43904.0766217327	-82496.0203383759	93451.3847713169	118.021742754054
139.1537	-54050.405816686	-88886.163391046	104029.786173616	121.303186638327
118.6706	-61346.1670173377	-95224.3510718445	113274.133167167	122.790756961825
101.1982	-76733.7292758213	-96791.5523423916	123517.892685331	128.406430903462
86.24196	-235564.647769046	-123279.461656738	265873.144459777	152.375318121846
73.61024	430612.568302646	-401359.963252762	588656.949404711	42.986278900827
62.69291	-659147.877767897	-808375.680702162	1043047.05834234	129.193732209751
53.57697	-678879.527751595	-780457.523910642	1034403.86688612	131.018316308345
45.65746	-689246.111302434	-665331.925200921	957980.570072844	136.011414309792
38.96512	-575023.975812348	-880506.503876618	1051638.85251928	123.146964823058
33.18414	65450.4631442124	-352076.467610611	358108.366519071	79.4690170015271
28.30617	-274842.511753464	-95428.5355760982	290938.157808754	160.852400588145
24.17237	304519.523147549	-57970.9617254399	309988.342331422	10.7783502617082
20.61345	-402539.880031889	-141418.217762849	426658.490283867	160.642869922466
17.55618	-255463.094627705	-115883.604571017	280518.096608998	155.599924592843
14.98558	-350851.270449176	-210923.31371109	409371.784863915	148.986731129884
12.76553	-384015.243220104	-217058.346945796	441114.535018103	150.523403936424
10.8809	-379064.377652397	-247582.766173548	452754.932067167	146.849770441384
9.278505	-412969.911188377	-276554.577554782	497017.687726946	146.190868976984
7.923394	-417767.291622311	-303425.582227182	516329.927371391	144.008988397346
6.75822	-473170.357458119	-391054.388143736	613851.546926059	140.42777299466
5.761429	-460010.497793515	-628204.963204846	778621.303250456	126.213893308834
4.919708	-512082.672819289	-368815.858369062	631073.530728595	144.237541261824
4.191257	-589889.140412221	-486796.962552038	764814.017082688	140.469369730587
3.564097	-584184.694062734	-407442.34986718	712236.635706462	145.105973391903
3.051758	316972.455342146	-891991.293590411	946636.152535241	70.4371395022029
2.604164	-620719.803471421	-568254.965007915	841550.224097021	137.526601199015
2.214424	-942759.099331319	-961173.539324807	1346346.64632485	134.445864430376
1.892567	-820994.473744711	-889797.660786756	1210690.63061582	132.696968056519
1.607507	-824913.8618282	-889610.379113177	1213214.53422806	132.839004293932
1.376413	-444595.923372267	-760918.738742369	881284.77919939	120.297244637416
1.17375	-676013.474765538	-1037447.69860806	1238261.66274004	123.088752311073
1.001604	-1215393.42661808	-947640.120009719	1541169.35426269	142.056520118879
