EC-Lab ASCII FILE
freq/Hz	Re(Z)/Ohm	-Im(Z)/Ohm	|Z|/Ohm	Phase(Z)/deg
6999984	24.0643837091856	88.8608763686406	92.0616636407672	-74.8471956513248
5969734	19.0449591654973	87.8668278637033	89.9071182301219	-77.7704263220823
5091109	14.9025909227885	92.9029364000207	94.0906095631136	-80.8868010655784
4341796	12.4930387920944	101.820633613671	102.5841968714	-83.0049687383975
3702781	14.2045778526504	113.774050843748	114.657335907336	-82.8835016858298
3157797	14.7761634495869	127.357948497126	128.212253906113	-83.3820895591526
2693047	16.1763707891319	143.757140629745	144.66440631319	-83.5797599984727
2296687	17.4774932518897	164.912411860789	165.835962191897	-83.9503491003633
1958656	20.5336707614502	189.623324714236	190.731845559729	-83.8197147230735
1670375	24.5996370377224	219.395364442902	220.770170270853	-83.6024491271599
1424531	30.3232686362007	254.030779434634	255.834199279438	-83.1928988952004
1214875	37.9398245782796	293.792668427268	296.23227763133	-82.641656200505
1036062	47.6320011325463	340.94768487324	344.258814487463	-82.0469833049388
883578.1	59.5306766674237	393.931954598807	398.404676577118	-81.4065310815415
753531.2	75.9222268086022	455.472552991431	461.756896052576	-80.5364373738559
642624.9	154.489764173928	589.949574714209	609.842264802951	-75.3255008187001
548046.8	193.551357737783	669.041596993044	696.47597703664	-73.8650313989116
467390.6	240.553457830851	758.101262654128	795.351174332548	-72.3952227670625
398593.7	296.788235806746	855.997790811375	905.988672549075	-70.8777440466585
339937.5	364.310531928975	965.015218434529	1031.49238265952	-69.3175799705172
289906.2	444.87328506216	1084.67946413544	1172.36588984802	-67.6993752697293
247234.4	543.62567965173	1213.37262776958	1329.58715900736	-65.8662540999877
210843.7	665.100739451563	1352.37980101105	1507.0799978109	-63.8120285171052
179812.5	809.166369491785	1495.59655964592	1700.4585507272	-61.5851707505497
153343.8	984.462442075784	1642.58777169206	1915.00937009982	-59.0642137477536
130781.2	1188.27483775259	1782.53498090437	2142.29504228145	-56.3117531478349
111531.3	1426.15723950507	1910.93006849389	2384.44505041881	-53.2654396835274
95109.37	1689.55168760147	2017.69621281467	2631.66922546957	-50.0583141548606
81109.37	1977.47164540672	2094.03754865647	2880.17141218553	-46.6399104392393
69171.88	2277.49188685531	2138.71308049329	3124.26998439074	-43.2000781020801
59000	2579.35566392347	2144.39905654553	3354.32898725325	-39.7391208110144
50312.5	2883.37015943771	2135.39261859348	3587.9973678752	-36.5232462168159
42906.25	3178.88203165057	2036.6723765034	3775.35764403359	-32.6472096510677
36593.75	3424.04662079476	1951.13987384081	3940.94431179477	-29.6759823058121
31203.13	3652.88060564284	1848.28059803638	4093.8585574198	-26.8384489324724
26609.38	3844.33889450833	1735.94242431493	4218.1083006919	-24.3019418551164
22703.13	4013.34682031273	1630.21469123862	4331.8070870763	-22.1069061645025
19359.37	4161.32714347888	1520.4169372538	4430.38500111924	-20.0707001042768
16500	4385.73130960578	1260.57144696215	4563.29699810923	-16.0360057954789
14112.02	4471.2782229222	1200.04194508449	4629.51721205791	-15.0235091573915
12011.13	4547.40153024691	1150.4558468472	4690.67258853534	-14.1974701745734
10236.38	4619.1133187607	1114.554817506	4751.67762929876	-13.5657039913504
8750.684	4681.21940594823	1098.9467258561	4808.48198841341	-13.2113295950619
7449.463	4745.67000891065	1090.80364504449	4869.4184894622	-12.9447323329876
6363.206	4805.54993033185	1100.73330832364	4930.00242890057	-12.9013078616946
5414.761	4873.95753272969	1126.14275293427	5002.36539357521	-13.0100552512104
4620.567	4936.01353014678	1166.10551470589	5071.88639869029	-13.2920994554415
3941.215	5004.1858098552	1220.76163784068	5150.93531273492	-13.7094304542589
3361.769	5075.30945146778	1294.3256332751	5237.75189113718	-14.3068420880859
2867.244	5152.56172881429	1377.95503894591	5333.6340761809	-14.9722981896627
2442.658	5236.70189158305	1482.20366344171	5442.42357789519	-15.8037115165991
2083.003	5329.40868763883	1604.25446832556	5565.62928688416	-16.7528046450774
1777.843	5428.3987884614	1736.51706253123	5699.38636302465	-17.7392087851746
1513.548	5536.05345659769	1906.04232936636	5854.9880645176	-18.9983924019556
1292.065	5658.92531059293	2089.01307796768	6032.19788392169	-20.2618101768427
1101.762	5793.17442108732	2292.62583977581	6230.32929421457	-21.590986317877
939.101	5947.53486062789	2529.21110705684	6462.97762199776	-23.0378021534075
801.2801	6108.5064229444	2785.09294563025	6713.46359452052	-24.5099885601064
684.3433	6302.64686024779	3069.72488587962	7010.46134858327	-25.968550030437
582.9476	6510.3111620553	3396.43494941817	7343.01857497385	-27.5510881084781
497.0677	6748.14335309566	3761.60938534962	7725.74552272333	-29.1365540008523
423.5089	7015.87462427514	4162.39354227653	8157.69677938162	-30.6799017657065
361.5036	7311.87188076161	4599.34854763695	8638.14085688132	-32.1709098359754
308.1262	7649.15357022919	5095.05820013467	9190.71098466868	-33.6673610052981
262.7298	8036.7513667672	5622.7308227623	9808.38796319128	-34.9776868348725
224.2111	8464.58366593716	6206.60987059807	10496.2461253276	-36.2505297654895
191.2854	8947.25482135821	6840.43992046984	11262.5479863073	-37.3989778292056
163.1722	9490.26385501924	7528.87985604518	12114.0059404248	-38.4259072741525
139.1537	10107.1003999972	8286.73467403633	13069.9445313857	-39.3480656566817
118.6706	10787.5812868262	9091.25297662396	14107.5437516549	-40.1225728154057
101.1982	11553.0756117535	9965.84453758116	15257.5100667878	-40.7815143868518
86.24196	12394.1004135283	10910.5002628461	16512.1997639983	-41.3573942667378
73.61024	13344.0030327384	11896.327870944	17876.9413980897	-41.7173607311067
62.69291	14362.6166541894	12971.9777152637	19353.4741842517	-42.0876060583202
53.57697	15521.3113628641	14074.5998375487	20952.4573024287	-42.2014871496804
45.65746	16761.8065586821	15309.7427186057	22701.2418431367	-42.4076602826803
38.96512	18127.3876558757	16568.9817927339	24558.7731956289	-42.4282581154152
33.18414	19610.279819532	17954.6661640982	26588.2137734854	-42.476415218096
28.30617	21220.7241559019	19421.4990416755	28766.5388729107	-42.4651795157335
24.17237	22967.5097012569	20947.2053929795	31085.2362972038	-42.3659546847727
20.61345	24804.113628245	22600.5867731739	33556.379056368	-42.338618868367
17.55618	26871.670360158	24375.8440235857	36280.4139971855	-42.2118175787266
14.98558	29095.9148973161	26202.0739706044	39155.0883548089	-42.0043438315318
12.76553	31450.4414356331	28203.6192939249	42244.22336572	-41.8846071115053
10.8809	34044.693401664	30311.3048695506	45583.0708894009	-41.679906480039
9.278505	36712.8286303134	32565.72360457	49075.0256233046	-41.5742874400845
7.923394	39679.2695813009	34960.4500442432	52883.62224547	-41.3825012773204
6.75822	42897.4366463097	37437.5633450517	56936.4665222466	-41.1119391473037
5.761429	46204.5736555515	40146.7753294483	61209.6903769695	-40.9871088324786
4.919708	49655.4436791322	43006.2144488635	65690.1634051332	-40.8955960134403
4.191257	53720.499203638	46206.6566738901	70858.6420676182	-40.6998392531559
3.564097	57816.2840116808	49585.4183461178	76167.1609650698	-40.6176312687105
3.051758	62117.3670462923	53244.2470852814	81813.9177429018	-40.6017145011618
2.604164	66676.3690835155	56987.8731324128	87711.7773067971	-40.5203029280516
2.214424	71870.0535632103	61495.8293331524	94588.8028497609	-40.5520505194798
1.892567	77240.1726156842	66057.3474031916	101634.725422203	-40.5377265746016
1.607507	83122.1269416382	71401.1878795193	109578.362909419	-40.662293328841
1.376413	89365.9937077266	76886.9240470499	117889.269744054	-40.7073851073177
1.17375	96162.325276553	83413.2688978131	127298.728315771	-40.9390720509348
1.001604	103426.287426006	90180.9031829639	137220.96133471	-41.0862820972378
