EC-Lab ASCII FILE
freq/Hz	Re(Z)/Ohm	-Im(Z)/Ohm	|Z|/Ohm	Phase(Z)/deg
6999984	22.3276393093532	2.4145404115016	22.4578156223473	-6.17205606775391
5969734	9.0507785213376	-12.1970804008187	15.1883298010789	53.422934322253
5091109	12.0204516980041	-6.27209239102291	13.5584070592964	27.5548810890819
4341796	8.92009123950813	-6.71654991039152	11.1660230350797	36.9786044244961
3702781	5.11415125705579	-5.31403650258912	7.37519674523296	46.0980986298518
3157797	4.20016601844202	-5.03488923346798	6.5567906917765	50.1647238765723
2693047	2.71714192015398	-4.27268884521375	5.06347017195441	57.5463912526725
2296687	2.48179709621094	-3.57572099343353	4.35259663300453	55.2366837889412
1958656	1.67011671535993	-3.35599417228594	3.74859796821983	63.5426810576142
1670375	1.50343282546056	-2.95939456659522	3.31938645858924	63.0685011863639
1424531	0.415564959913738	-2.58582523848794	2.61900484915727	80.8701279937401
1214875	0.776513430789236	0.218772317052987	0.806743103413226	-15.7344752966354
1036062	9.04614585071601	-11.630419166745	14.734293493297	52.124205158452
883578.1	-7.8545372438851	21.4143174344527	22.8093565560075	-110.142484451194
753531.2	-7.58220149000282	7.25830775983717	10.4963236883927	-136.250280414582
642624.9	15.8322688754667	-2.70650798121915	16.0619402065092	9.7008744800749
548046.8	4.05843302427282	4.33344546168313	5.93713973070285	-46.8769831861306
467390.6	-0.904984804184633	6.96634390114698	7.02488041498593	-97.4017365524292
398593.7	4.61628008934035	-2.44419353804441	5.22342071009585	27.899990757823
339937.5	-2.55461843291632	-2.37493788474182	3.48803745595969	137.087486344827
289906.2	-1.14862960653951	-2.2345786040513	2.51250701704552	117.204303867741
247234.4	2.3551555581267	1.23541376203681	2.65951214819655	-27.6795796236142
210843.7	1.16601296359696	-0.965977582326296	1.51416608099413	39.6398787913198
179812.5	0.303498484680614	-1.89120306282788	1.9154008340431	80.882962248351
153343.8	-0.811694545633726	-1.72330260048401	1.90489366848821	115.220953164116
130781.2	13.4774730993119	3.52097181884277	13.9298070227753	-14.6412087981684
111531.3	0.910960956929558	-0.185480199103668	0.929651961386385	11.5086422673819
95109.37	0.908638871851765	-0.233290371447067	0.938109267009957	14.3995008227145
81109.37	0.875882563395135	-0.18248605377578	0.894690686596373	11.7689484528658
69171.88	0.879959118296431	-0.169555913746894	0.896145779301324	10.9064349768097
59000	0.873484580699456	-0.137345102696567	0.884216596742243	8.93591852779574
50312.5	0.852335911359262	-0.0957524871124678	0.857697525110599	6.40980490484345
42906.25	0.888077245147426	-0.109562224241037	0.894810077239458	7.0330512056529
36593.75	0.865880412106277	-0.0999776242963514	0.87163318742994	6.58640768603662
31203.13	0.856286894002681	-0.0849360411578747	0.860489033008748	5.66470194016557
26609.38	0.848092078582822	-0.0769346867314533	0.851574494555467	5.18340020352182
22703.13	0.844038257751357	-0.0678681350539752	0.846762460376965	4.59719619712537
19359.37	0.839324584957003	-0.0619580586938768	0.841608317419902	4.22185670215532
16500	0.834625869556597	-0.0551911574895555	0.83644868700844	3.78327985533669
14112.02	0.831042369943132	-0.0486946122129735	0.832467768684931	3.35339019460783
12011.13	0.823615047559425	-0.0455782533411969	0.824875217074648	3.16747570332819
10236.38	0.818074251128938	-0.040932690935874	0.819097653242532	2.86442973111657
8750.684	0.801880586322245	-0.0381669290202867	0.802788383816898	2.72503769392817
7449.463	0.790887868740022	-0.0319968802132607	0.791534851578575	2.31674682320235
6363.206	0.784502680607747	-0.0307688401788388	0.785105838347093	2.24603638283187
5414.761	0.774014708731576	-0.0294875570146299	0.774576197253387	2.18173619427331
4620.567	0.766034377770285	-0.0264400952621882	0.766490539121901	1.97681039039344
3941.215	0.768723686608922	-0.0249532043521295	0.769128577522023	1.85920048970253
3361.769	0.763838669727848	-0.0240181102642997	0.764216188648393	1.80101261490242
2867.244	0.755550642706926	-0.0237307592432936	0.755923225353681	1.79898663613884
2442.658	0.725834878735527	-0.0234170273946771	0.726212522861607	1.84784675803421
2083.003	0.729861482016738	-0.0211705890401721	0.730168457804072	1.66147332756067
1777.843	0.711707899716121	-0.0212563989625267	0.712025258691844	1.71072993625028
1513.548	0.701972607197305	-0.0201023785500127	0.702260383959362	1.64033003900476
1292.065	0.704245379886606	-0.0193884615738157	0.704512219577367	1.57700215982454
1101.762	0.707087459303755	-0.0192852871769342	0.707350406380131	1.56231266787297
939.101	0.700798091839112	-0.0192634959274822	0.701062798756779	1.57454646271461
801.2801	0.693131335940668	-0.0186222359430845	0.693381450959293	1.53898526420202
684.3433	0.691115672409346	-0.0191262404580564	0.691380275770058	1.58522410418466
582.9476	0.687866872497296	-0.0188428601864206	0.688124907018498	1.56912112535251
497.0677	0.682497510325468	-0.0184840997292105	0.682747767146302	1.55136401736582
423.5089	0.677542720161056	-0.019030781305931	0.677809935218094	1.60889757436388
361.5036	0.673785710085645	-0.0164140379715049	0.673985610942954	1.39550173539858
308.1262	0.673529472930768	-0.0184359854744744	0.67378174245583	1.56792020581392
262.7298	0.663278253104382	-0.0158398596176198	0.663467363322346	1.36803012799545
224.2111	0.665851191266791	-0.0138378334209231	0.665994965855741	1.19055931574265
191.2854	0.656570416578797	-0.0131269918044126	0.656701629235293	1.14537758289202
163.1722	0.656679516345423	-0.0155683150946202	0.656864034349989	1.3580927479967
139.1537	0.65270310158954	-0.0132879006554445	0.652838346858113	1.16628137508957
118.6706	0.665513565396976	-0.0216997204373776	0.66586724171899	1.8675232746346
101.1982	0.650728566411151	-0.0134288178094815	0.650867114157162	1.18222163390791
86.24196	0.640024185227428	-0.0203159706865228	0.640346543943956	1.8181010811422
73.61024	0.659943205519809	0.0168543557953349	0.660158392979319	-1.46296465098626
62.69291	0.816809765225601	-0.0359533800656922	0.817600659311163	2.52035195936445
53.57697	0.657599023051299	-0.0378547991440068	0.658687680874826	3.2946052977852
45.65746	0.646342832335763	-0.0474801969203898	0.648084428150696	4.20138835788207
38.96512	0.656938899221248	-0.0220847983539831	0.657310014854758	1.92542925419949
33.18414	0.59326557224991	-0.0129826750616077	0.593407607862226	1.25362707208388
28.30617	0.625087820258213	-0.0254230862461584	0.625604600646002	2.32900582818697
24.17237	0.681016296671716	0.00512916713392153	0.681035611908765	-0.431522819628102
20.61345	0.634038146313831	0.0433344625655912	0.635517306315829	-3.90990123622942
17.55618	0.614508810415199	0.0527456603185153	0.616768338000857	-4.90589325207037
14.98558	0.571113808160427	-0.155794422385606	0.59198216520261	15.2584906083305
12.76553	0.590953425790593	0.0060686194884988	0.590984584905676	-0.58836119249512
10.8809	0.593663533423081	-0.00540470004892891	0.593688135049873	0.521605134939294
9.278505	0.606850786240058	0.122827809828738	0.619156319217935	-11.4422020814585
7.923394	0.575210243545985	-0.0350859495421011	0.576279314339412	3.49053108061916
6.75822	0.664693632315182	-0.0593803464552152	0.667340730351064	5.10496170841062
5.761429	0.615108916892511	-0.111814346698114	0.6251891136034	10.3027150776583
4.919708	0.645561629406265	0.00163235253930382	0.645563693167828	-0.144876503794954
4.191257	0.668484146804327	0.0282194960143939	0.669079512826402	-2.41725794441318
3.564097	0.6242698100481	-0.198497817682518	0.655068072311736	17.6389984668062
3.051758	0.493926901246326	-0.168238538683865	0.521793052534508	18.8095741605703
2.604164	0.749575552155267	-0.374928885867845	0.838114060165427	26.5736794057645
2.214424	1.12438555909324	0.407971208713599	1.19611178099568	-19.9427586286241
1.892567	0.945096683668511	0.014216762853689	0.945203606545836	-0.861815613461618
1.607507	1.05643387560121	-0.609539064264173	1.2196681533851	29.9839986868965
1.376413	1.63141700970603	2.08778798131304	2.64959999140877	-51.9955990517569
1.17375	2.19101795302891	-1.0209293635346	2.41720012324634	24.9836928763867
1.001604	2.05945194383706	-0.640795981108295	2.15684069842415	17.2834666957716
