EC-Lab ASCII FILE
freq/Hz	Re(Z)/Ohm	-Im(Z)/Ohm	|Z|/Ohm	Phase(Z)/deg
6999984	5.57787804043263	7.78962108150639	9.58075780026765	-54.3948598188673
5969734	8.62338695793067	-0.37437437714904	8.63150964782375	2.4858690674223
5091109	1.08179322365409	-11.7109207315152	11.760779776808	84.7222951377431
4341796	9.27809453887043	-4.64719039237293	10.3768693166668	26.60526656901
3702781	3.74203409843426	-7.01101119370368	7.94714396195784	61.9095221583733
3157797	5.56099628937193	-25.5643701325883	26.1622189427116	77.7276836705655
2693047	63.8166756577855	-36.7990174134937	73.6663815767382	29.9693137786073
2296687	20.0332121939739	-14.4620385621382	24.7078965147087	35.8256357237764
1958656	59.3350960085486	-47.234492186737	75.8402984598729	38.5220094851298
1670375	19.1879625368049	-22.7061284003876	29.7278686294312	49.8002998005573
1424531	-0.105496332350728	-28.677691816378	28.6778858598623	90.2107724488603
1214875	10.1728470687328	-16.0587330240777	19.0097270843752	57.6466588668204
1036062	-0.414659303189853	-35.1459188326001	35.1483648684464	90.675956882727
883578.1	-0.026870431686413	-37.2335107242181	37.2335204200538	90.0413488288401
753531.2	-1.72224540951556	-43.8522207896652	43.8860273599256	92.2490698050382
642624.9	-14.9247556041812	-54.0395880037585	56.0626917072352	105.439188502524
548046.8	-14.714708471359	-61.4299231931922	63.1676983031563	103.470620110014
467390.6	-15.8886144224594	-72.6859002078022	74.4022053254079	102.330491393483
398593.7	-17.0038255657375	-84.8117783395362	86.4995250217286	101.336867985167
339937.5	-18.7177172205487	-95.3499237375639	97.1697529826421	101.106252472627
289906.2	-22.2995995931738	-114.097920889774	116.256645803089	101.058639679852
247234.4	-24.3570353300326	-132.259268932443	134.483379599907	100.434745936734
210843.7	-30.2101803742646	-154.183230992174	157.115001567106	101.0859124709
179812.5	-36.0544562626254	-177.987746515045	181.602758034941	101.451287656855
153343.8	-44.4563129631989	-204.840455819287	209.609103100354	102.24494879467
130781.2	-50.9174908545615	-238.509648948098	243.884078029439	102.050716102121
111531.3	-63.6617850067565	-281.992749219466	289.089490439551	102.721649680219
95109.37	-77.0780553071884	-322.620127161584	331.699823725751	103.436815600101
81109.37	-90.2130164737034	-362.175517686536	373.241870578309	103.986969674986
69171.88	-109.336460537747	-414.076823954072	428.268698060942	104.79128782779
59000	-133.69242646253	-473.05905679914	491.587770508107	105.78095782732
50312.5	-275.332292456998	-528.41402085398	595.843308852836	117.521951669361
42906.25	-333.5238303044	-637.367006388493	719.35724519431	117.622333875068
36593.75	-388.391218202268	-694.618769334792	795.828482205068	119.211432319864
31203.13	-449.099117994405	-770.374022551594	891.720893781051	120.240579111477
26609.38	-518.399446267221	-863.865582547335	1007.47294286249	120.967662553498
22703.13	-604.77520937264	-964.295675344081	1138.25269749692	122.094613240741
19359.37	-720.45302848804	-1062.95167968882	1284.10234779431	124.128842596574
16500	-848.863057540729	-1167.67172829715	1443.61551512924	126.016050982176
14112.02	-988.081118101015	-1260.60023137834	1601.69199264368	128.089986313211
12011.13	-1166.10504633055	-1335.76472485371	1773.15210268072	131.120531978996
10236.38	-1357.23583294683	-1394.72952565142	1946.11396273669	134.219431509741
8750.684	-1559.61687108575	-1430.09770953714	2116.03030304357	137.480592688066
7449.463	-1733.18909857543	-1297.30079167365	2164.93274618353	143.184960496389
6363.206	-1982.01646103572	-1423.73381299925	2440.37030429686	144.309332873554
5414.761	-2177.8282170883	-1399.22977602637	2588.58643071172	147.27971797085
4620.567	-2362.75415096512	-1304.17010208109	2698.78988308929	151.102606971522
3941.215	-2490.55782541476	-1226.43579718349	2776.15256179263	153.782788945585
3361.769	-2673.90406042203	-1117.28350507005	2897.94502277787	157.322522203903
2867.244	-2773.67486245772	-1015.16702936633	2953.6141149687	159.897337239442
2442.658	-2853.90334840539	-902.277184076178	2993.13688944291	162.455364611583
2083.003	-2937.74647108653	-814.385310263678	3048.53698713902	164.505865968797
1777.843	-2985.13455661862	-731.799026534819	3073.52535964094	166.225713382441
1513.548	-3008.57850848932	-658.151623767886	3079.72534515858	167.660456997228
1292.065	-3041.62996255951	-583.870277538693	3097.16278715422	169.133703375848
1101.762	-3065.03447333316	-511.431255168088	3107.41021615807	170.526907550488
939.101	-3093.95354398227	-473.501610675248	3129.97640688113	171.298910883648
801.2801	-3105.27242918294	-359.937154536339	3126.06327745608	173.388258779372
684.3433	-3112.80508085666	-359.091113003942	3133.44888243697	173.419484979206
582.9476	-3112.32159182283	-350.532327021983	3131.99913844402	173.574011696553
497.0677	-3167.19266256978	-302.899663798846	3181.64384684479	174.537039158609
423.5089	-3153.41268987096	-388.405550235863	3177.2425881719	172.978250181176
361.5036	-3143.23507092612	-425.555957655348	3171.91181847729	172.289726798767
308.1262	-3171.56314237111	-432.708597189818	3200.94509420716	172.230884033207
262.7298	-3141.50608131368	-457.20322106099	3174.6015882752	171.719519201053
224.2111	-3100.0147765699	-453.016807569765	3132.94044675165	171.686001170038
191.2854	-3170.5429117237	-535.429021285535	3215.43567684322	170.414550526863
163.1722	-3192.61156005671	-659.790185483689	3260.07540745123	168.323541053533
139.1537	-3212.11980500652	-687.274410589022	3284.82263709407	167.922928963178
118.6706	-3292.79782899531	-804.84871463915	3389.73435479722	166.26467451251
101.1982	-3333.96968573948	-960.078801580975	3469.45315153195	163.935257300626
86.24196	-3527.35478468571	-950.599051506432	3653.20001283397	164.917478848819
73.61024	2975.82989699356	-902.121236531311	3109.56368341951	16.8646517362649
62.69291	12351.6976230711	-10491.1677238703	16205.833344267	40.3435912848774
53.57697	6102.80619083696	-2665.25701028939	6659.41726683459	23.5921674680863
45.65746	-2217.64085826995	-2560.94243455991	3387.67724693453	130.890833198928
38.96512	4309.78743418962	-1373.88506920877	4523.47520290468	17.6813744253341
33.18414	3930.19669148948	-386.459116774995	3949.15138766969	5.61588249827365
28.30617	-752.017505305687	-5103.77614867594	5158.88178814746	98.381952748339
24.17237	769.201209694398	-3971.14378104842	4044.9540702899	79.0376943733526
20.61345	-2317.6837141989	-3944.4963239559	4575.0091856481	120.437390114105
17.55618	-3014.84437915656	-3984.93454303398	4996.89803205922	127.109712821521
14.98558	-4800.1639826191	-4302.88488130904	6446.42478912394	138.126831785194
12.76553	4464.39033138436	-4165.76984749169	6106.09690827366	43.0182442162173
10.8809	-4850.12997993359	-4241.40366007335	6443.07890918109	138.830538549174
9.278505	-6374.79856307572	-7703.65409081243	9999.21712288934	129.607866104071
7.923394	-7385.12299089658	-7926.16554024263	10833.4732086252	132.976227685866
6.75822	8340.9401333929	9058.33990456033	12313.6024028468	-47.3610580385027
5.761429	20197.0129900355	-21222.293694488	29296.8442562466	46.4179924260292
4.919708	2687.60159363756	-15567.2515246633	15797.5479856291	80.2047521062546
4.191257	17465.6393376199	1591.85431584265	17538.031749164	-5.20766725797679
3.564097	2038.17946609422	-13716.7409629119	13867.341424355	81.5482235442774
3.051758	24447.9620410697	-18385.7638151151	30589.8538575584	36.9445077061079
2.604164	-9215.89129855016	-17428.0432674831	19714.698693106	117.869737051006
2.214424	-13685.5683628353	-10783.9558021333	17423.790751619	141.762592769977
1.892567	-17374.7225721453	-21752.5969253399	27839.8358015151	128.615846977582
1.607507	-5906.7114846507	-29331.6962613345	29920.5221567086	101.385741285092
1.376413	-25983.1438857984	8099.53824778908	27216.287146073	-162.686553081918
1.17375	14577.4377710263	-44453.7010269739	46782.8304719127	71.8444384386032
1.001604	-31023.7690071775	-40927.6734789587	51357.0705921878	127.162654121791
