EC-Lab ASCII FILE
freq/Hz	Re(Z)/Ohm	-Im(Z)/Ohm	|Z|/Ohm	Phase(Z)/deg
6999984	49.4215663840971	49.656623549413	70.0590571317216	-45.1359306044886
5969734	46.5142338420763	44.3916447315461	64.2976832544312	-43.6624263948609
5091109	46.046913576074	41.8532064351898	62.225470177324	-42.2684945638209
4341796	48.2345848858339	39.2244239265443	62.1701746135394	-39.1180517498264
3702781	51.0679735042733	35.2275191743436	62.0396326956559	-34.5985434731006
3157797	53.2630442142265	31.948301697564	62.109949769141	-30.9562221215642
2693047	55.0993093868809	29.1168834752966	62.3195538994401	-27.8539306806725
2296687	57.151114221025	26.4375334622809	62.9697787218112	-24.8247887614851
1958656	58.8190131222603	23.9086515780619	63.4925186534429	-22.1206743403195
1670375	60.4827887953331	21.4998758569016	64.1904385584259	-19.5688234532099
1424531	61.8661380022284	19.1943806309008	64.7753292474432	-17.2368508495598
1214875	62.967440903022	17.1244794087622	65.2544742442745	-15.214069190474
1036062	63.854235191107	15.2559424502525	65.6514061683878	-13.4371150733891
883578.1	64.5962896651574	13.6866479839625	66.030333722781	-11.9628946665175
753531.2	65.2352197069704	12.2989052105678	66.3844632394902	-10.6767476558976
642624.9	65.7941185562155	11.1000699596804	66.7238906966548	-9.57614729765287
548046.8	66.2882107658897	10.0595209335057	67.0471539139034	-8.62904233272367
467390.6	66.6907910778906	9.25922301940921	67.3304895683821	-7.90430801766269
398593.7	67.0472079442269	8.5800090291691	67.5939690213337	-7.29248649528814
339937.5	67.382916011089	7.99902289054763	67.8560368527442	-6.76989741992727
289906.2	67.7137428447592	7.60384481907069	68.1393383155332	-6.40712919194019
247234.4	68.0198414143806	7.3388411580735	68.4145994330224	-6.1579727651496
210843.7	68.2871867084753	7.17645404264022	68.6632460722932	-5.99932075167787
179812.5	68.5989139973175	7.16899674969073	68.972498258425	-5.96609492913824
153343.8	68.8764086615162	7.24673326110172	69.2565867846932	-6.00619624521944
130781.2	69.1875818283371	7.46992029928149	69.5896629430727	-6.1621381683202
111531.3	69.5046319321319	7.81017317925582	69.9420664915693	-6.41138053878006
95109.37	69.8585205835819	8.24358498833664	70.3432270484278	-6.73000809823026
81109.37	70.2051597064521	8.81775949547677	70.7567476070552	-7.15885554872978
69171.88	70.6209590997486	9.52622689859146	71.2605701850035	-7.68239000445262
59000	71.0526487662499	10.3994283481914	71.8096581712324	-8.32681855494806
50312.5	71.5492212029726	11.4197456614355	72.4548248615907	-9.06831188551661
42906.25	72.0194056558411	12.5800856877656	73.1098717474742	-9.90825082444455
36593.75	72.5711806045031	13.9628455065403	73.9022145065418	-10.890741662801
31203.13	73.1570442049178	15.5870358548055	74.7991230131697	-12.0277420297704
26609.38	73.8270635510582	17.440536001479	75.8591300279068	-13.2915895230039
22703.13	74.557603391593	19.537167184758	77.0748799876021	-14.6837108074112
19359.37	75.3562081044483	22.0064431931322	78.5037683292559	-16.2795071288316
16500	76.2373195160684	24.8250734449572	80.1773855806151	-18.036745768186
14112.02	77.1774611899915	28.0440764688859	82.1147413119311	-19.9696933745732
12011.13	78.1937780926724	31.7294181499978	84.3861535356571	-22.0862968726117
10236.38	79.3986284441557	36.1573220515401	87.2438773596857	-24.4840335719869
8750.684	80.805824607267	40.9328536664176	90.5818955406473	-26.8648680164058
7449.463	82.3572961395857	46.4375643323641	94.5471924942559	-29.4166902556257
6363.206	83.9736912770028	53.1606806806171	99.3863109140887	-32.336408695099
5414.761	85.9792913029187	60.5573958737859	105.164807459371	-35.1580081121561
4620.567	88.1714744718215	69.1582580186501	112.058348920146	-38.1092506895175
3941.215	90.7862869491581	78.9435307942161	120.308898059421	-41.0087036117771
3361.769	93.7086012230804	90.199888804668	130.066605566382	-43.9070106184463
2867.244	97.1680420600584	103.080378965876	141.658719906449	-46.6911672435917
2442.658	101.19066743726	117.920577051333	155.386015035194	-49.3662613524339
2083.003	105.847074914006	134.829491967628	171.413520972238	-51.8665288492478
1777.843	111.302896477421	154.057983569785	190.058404354692	-54.1528653645158
1513.548	117.814012942291	176.28479667146	212.029411127476	-56.244545198466
1292.065	125.35052216317	201.141713933544	237.003676112213	-58.0690433533909
1101.762	133.966024104686	229.784908986731	265.984962004354	-59.7575499756414
939.101	144.523627805479	262.347527285111	299.521792306785	-61.1502384882659
801.2801	156.600472737697	299.115864835199	337.629987794004	-62.3659403379745
684.3433	170.696832600422	340.760707427623	381.123691714895	-63.3923942279514
582.9476	187.452266419223	388.363698796729	431.236263234876	-64.2346994825732
497.0677	207.51034586711	441.803486875779	488.109480196282	-64.8410607171601
423.5089	230.547980359221	502.400778852597	552.773836066264	-65.3499618307953
361.5036	257.262700199633	569.57580325214	624.980553748936	-65.6925332965041
308.1262	288.633642809539	645.832452083948	707.395883453014	-65.9193099918168
262.7298	325.50264802807	730.81494338276	800.026534150482	-65.9919610402394
224.2111	367.796650687752	825.668555942163	903.882149690293	-65.9892681386023
191.2854	416.85685285873	931.033341869769	1020.09446594346	-65.8802342701889
163.1722	473.164894591081	1048.67566761316	1150.48062709343	-65.7149932420732
139.1537	537.175134213757	1178.83989896378	1295.46155180558	-65.5021394211821
118.6706	610.531377988711	1322.89951266557	1456.9871942195	-65.2262029470471
101.1982	694.185638679644	1483.07149158616	1637.49648857781	-64.916977625015
86.24196	787.741355383768	1659.86312151251	1837.30292144195	-64.6118203033283
73.61024	892.640978638329	1855.40855369766	2058.96790112882	-64.3076943056729
62.69291	1010.5804725599	2073.39283312521	2306.56253589066	-64.0151993512586
53.57697	1141.4052576418	2310.46580843941	2577.02507052995	-63.7099274380129
45.65746	1287.63148634238	2577.27475124021	2881.03106335225	-63.4528412753377
38.96512	1447.79531430449	2871.59624261248	3215.92541155857	-63.2437689758944
33.18414	1626.40884953365	3202.69288473859	3591.99769763241	-63.0773820321884
28.30617	1823.47245924112	3568.91053111508	4007.76423816509	-62.9360333441297
24.17237	2036.29278540399	3974.54867846014	4465.81745096434	-62.8724350288701
20.61345	2277.26470421204	4430.86240960618	4981.81455153752	-62.7988672479753
17.55618	2541.50381029257	4946.706547272	5561.39796117445	-62.8069459528867
14.98558	2836.76374992158	5516.6813393454	6203.30569718685	-62.7870643173956
12.76553	3164.43602221223	6164.75833298621	6929.49497747111	-62.828088095527
10.8809	3526.98173505683	6885.07381357828	7735.88014241727	-62.8755290009639
9.278505	3934.40209721848	7695.53286095386	8642.95932401732	-62.9212510330153
7.923394	4382.22633677286	8594.792959796	9647.50608646942	-62.9843336862592
6.75822	4887.58413704072	9607.77610315749	10779.5102089592	-63.0370458034112
5.761429	5440.54269906749	10758.7297932933	12056.1093071303	-63.1748994489197
4.919708	6076.37386478836	12020.8980388193	13469.3841360461	-63.1841240694213
4.191257	6771.98148982263	13438.5830011776	15048.43003034	-63.2555146106946
3.564097	7554.67243250999	15105.9565302701	16889.7305560786	-63.4298083719734
3.051758	8409.6075586464	16833.6593779433	18817.374613454	-63.4546174445026
2.604164	9366.9868414147	18882.8323927228	21078.4677255938	-63.6159050638319
2.214424	10460.5868182656	21165.8295538956	23609.6636419715	-63.7004736343932
1.892567	11667.5087858664	23722.7621992509	26436.7208184086	-63.8107680099559
1.607507	13014.769579584	26680.255614116	29685.3544166856	-63.9966355186963
1.376413	14497.7061287287	29817.2217184685	33154.9422259078	-64.0700887080321
1.17375	16193.288243503	33468.1776361318	37179.8533942893	-64.1803830835948
1.001604	18013.4355752595	37532.8635037803	41631.7151222169	-64.3618961130922
