EC-Lab ASCII FILE
freq/Hz	Re(Z)/Ohm	-Im(Z)/Ohm	|Z|/Ohm	Phase(Z)/deg
6999984	2.73151880239169	0.852257883077539	2.86138750732702	-17.3283808573319
5969734	2.22864747155553	-4.66361567173226	5.16876974589676	64.4578092479971
5091109	4.86518833722839	-1.8242182713594	5.19594359652456	20.5536977959942
4341796	-1.29565563414477	-6.81208063134237	6.93420262540697	100.769009514413
3702781	-0.353754907358679	-7.91816727178341	7.92606557368928	92.5580659439522
3157797	-18.6181741732816	-75.8830772729889	78.1337175997984	103.785403122659
2693047	-43.3526446562396	-56.8797005346687	71.5174952833485	127.313972275486
2296687	1.0918689335541	-10.6622558808196	10.718016525278	84.1530042725011
1958656	-5.15273203457069	-16.984913778176	17.7493082533423	106.876281244272
1670375	1.61700143234445	-20.0257452744618	20.0909225131609	85.3836030248831
1424531	1.46095553245291	-20.6986434342761	20.750138098025	85.9626341726423
1214875	1.01097849197414	-29.3941398163511	29.4115204138519	88.0301523763719
1036062	0.0830322211631607	-30.1023108417815	30.1024253568543	89.8419595161346
883578.1	-1.13094111320195	-38.6263103853601	38.6428632710842	91.6770860381591
753531.2	-2.38012068627198	-44.6517610327951	44.7151510990521	93.0512107182213
642624.9	-18.5334368963186	-53.1652331978202	56.3030221583924	109.218590006546
548046.8	-3.48772633812272	-60.0993402809217	60.2004562874041	93.321303022846
467390.6	-17.3269050808196	-71.1138048631358	73.1942271070055	103.693328804981
398593.7	-22.4227544234984	-85.7778225794998	88.6601080668001	104.649595365055
339937.5	-27.0470645636558	-100.032059348181	103.624112053849	105.130077772051
289906.2	-29.7370645427697	-115.994324907639	119.745465126659	104.379044694194
247234.4	-34.8438383869964	-132.466350322579	136.972358676207	104.73720061193
210843.7	-40.4587364254158	-151.92999736103	157.224786376907	104.911723556327
179812.5	-50.5054364439096	-177.468873917543	184.515582864837	105.88569451227
153343.8	-59.3583255354837	-202.329271964128	210.856693286959	106.350363284121
130781.2	-76.7944768829274	-231.211550748023	243.631223120166	108.373362667169
111531.3	-98.1295167842341	-268.488811712309	285.859483101392	110.076766192093
95109.37	-107.817711419806	-294.48385066969	313.60069706723	110.1089091244
81109.37	-139.287008579274	-336.956876507814	364.610487211853	112.458609042231
69171.88	-169.426442578952	-380.600856673761	416.608127075985	113.996485060142
59000	-206.810082209422	-420.215711381905	468.349927079816	116.20420603634
50312.5	-349.987296172115	-426.550963646973	551.757946993089	129.369057295061
42906.25	-430.862050819599	-507.752409877189	665.923881965922	130.316844079766
36593.75	-494.602107413728	-517.763494253507	716.037904471336	133.689388253465
31203.13	-570.901636504104	-542.833459165415	787.77969188889	136.443653670439
26609.38	-633.412007311691	-568.470677580574	851.099102499552	138.092855387943
22703.13	-710.614806999794	-583.038172719257	919.188182460569	140.632147040183
19359.37	-795.940005129915	-589.782261305319	990.637980049536	143.461985590335
16500	-879.683602499014	-595.778386528192	1062.44770523531	145.891613120587
14112.02	-945.240042590389	-581.271414774239	1109.66445187269	148.410736658439
12011.13	-1032.75301528134	-560.550358877406	1175.07254899869	151.508089203136
10236.38	-1102.29348582326	-525.579897475902	1221.18186914119	154.507924331103
8750.684	-1161.85745875038	-494.533070914361	1262.72550963457	156.943453326645
7449.463	-1234.3742282502	-527.456135695242	1342.34485526293	156.862666277531
6363.206	-1257.54592372864	-433.218928433657	1330.07533254313	160.991400149244
5414.761	-1289.80056699673	-399.326432271886	1350.20261521599	162.797305823717
4620.567	-1329.8404492499	-375.451918326827	1381.8247947683	164.234112086567
3941.215	-1356.58108337883	-361.579522747496	1403.94158961532	165.075500608716
3361.769	-1372.98067127274	-336.64571223087	1413.64997762953	166.223249663922
2867.244	-1391.43645186432	-315.025705242045	1426.65223321594	167.243114539255
2442.658	-1407.72960152941	-308.625294365807	1441.16348945723	167.63433012177
2083.003	-1428.53113252723	-307.526529342245	1461.25759633571	167.851080055668
1777.843	-1441.37189665065	-305.824949128872	1473.45914227846	168.020847450366
1513.548	-1445.03949938694	-306.085203120976	1477.10098042011	168.040499902739
1292.065	-1470.4169485923	-327.05977478565	1506.35125352301	167.460036360492
1101.762	-1484.3414696874	-334.858382046629	1521.64376076026	167.28723228948
939.101	-1525.3529238803	-368.566213717798	1569.2490548936	166.416164553543
801.2801	-1507.97307611345	-409.763256619941	1562.65438429579	164.798017148534
684.3433	-1524.04006976285	-420.14468044715	1580.89205411084	164.587627046162
582.9476	-1535.31364720678	-453.710883741919	1600.95020576071	163.536707858333
497.0677	-1560.62351456186	-519.710392251169	1644.88438682398	161.581489382449
423.5089	-1589.96026689848	-578.719463606292	1692.00764415314	159.999323726975
361.5036	-1622.47706738644	-597.395897512273	1728.96318426952	159.786298018745
308.1262	-1629.1226066101	-691.90786286489	1769.96524204921	156.988487809342
262.7298	-1672.28496128179	-799.934570005507	1853.76166429753	154.435960832034
224.2111	-1615.59549588113	-971.534166150431	1885.21283740298	148.979511861665
191.2854	-1742.21673260244	-986.445310868651	2002.09727403407	150.481406130041
163.1722	-1827.7360337189	-1070.82958675909	2118.32363269477	149.634918283515
139.1537	-1789.16995501222	-1248.85721291601	2181.91967454596	145.084602066145
118.6706	-2073.38614977175	-1457.83554313035	2534.60343976716	144.888249429754
101.1982	-2043.0006944844	-1359.41704175658	2453.94917043568	146.360120709665
86.24196	-1906.43279506287	-1929.73585050039	2712.63091016779	134.651957349285
73.61024	1670.28738008519	-2413.59715883089	2935.18503287074	55.3155113223953
62.69291	11102.9303732719	-6751.90936600441	12994.7428970512	31.3046033793156
53.57697	4858.43614063727	-1014.73249161912	4963.2734925851	11.7972010017436
45.65746	-1084.04333418315	-3456.05686035496	3622.08213219876	107.414804275915
38.96512	2691.35832775893	-5090.23490242342	5757.94242852834	62.1332621773719
33.18414	-2931.76731079543	-3722.01151742406	4737.99844876357	128.226923226247
28.30617	-5108.92192103957	-4828.84612254139	7029.85334629832	136.614337797608
24.17237	-4081.59429389424	-4789.86954898401	6293.03283610012	130.435331751799
20.61345	-2896.36905891816	-4655.61203905579	5483.03539872393	121.886744152668
17.55618	-1926.52761603704	-5233.64264675976	5576.9636908748	110.20889025965
14.98558	-3757.99692902362	-6013.12477352371	7090.85400078971	122.003971317552
12.76553	-337.826344340449	-10279.3704195132	10284.9201679203	91.882319520375
10.8809	-4451.82621433924	-9636.65879329787	10615.269631108	114.795417409672
9.278505	-2979.31604638615	-9368.20459397086	9830.54329214569	107.641924745905
7.923394	-4848.37288176973	-10815.2398364291	11852.2627510599	114.146256227789
6.75822	-488.247461316991	-17394.5186011762	17401.3695711041	91.6078154407278
5.761429	23000.6343586078	-2790.75941602893	23169.3228001279	6.91811014237171
4.919708	6268.60938156077	-16776.7520706705	17909.6307505023	69.5118699588461
4.191257	-19626.1958389762	-26719.0513549853	33152.605756112	126.298748358293
3.564097	-7685.25538563246	-16115.9271085425	17854.5864390707	115.495228060645
3.051758	-23980.43609304	-21019.6463683036	31888.6633250896	138.764361923837
2.604164	-20432.515629342	-28965.0740490613	35446.6247985744	125.199872603012
2.214424	-13118.4242555365	-29677.9727321952	32448.0372355736	113.846656596715
1.892567	-13111.9351627219	-30593.0040134448	33284.4518999198	113.199615358674
1.607507	-11778.4161439331	-44460.5097572066	45994.2171879284	104.837869296535
1.376413	3149.17898115271	-28159.1280467687	28334.6752338834	83.6188357201007
1.17375	5649.88607680432	-57757.6553336137	58033.3349232782	84.413069815711
1.001604	3122.34470025599	-63399.0380223414	63475.8777693189	87.1805132619724
