EC-Lab ASCII FILE
freq/Hz	Re(Z)/Ohm	-Im(Z)/Ohm	|Z|/Ohm	Phase(Z)/deg
6999984	5.52574725288269	1.43651755299925	5.70941900571464	-14.5724996993763
5969734	3.89865834436922	-0.34041074190015	3.91349158160852	4.99011632908121
5091109	2.22169596693109	-0.990123359874524	2.43233986877802	24.0206711439087
4341796	1.36361223510397	-1.44614688843335	1.98765669838901	46.682538499197
3702781	0.72829764912951	-1.00558427614638	1.24161878294443	54.0859438940445
3157797	0.492027992815116	-0.835427859286289	0.969552089258408	59.503901559737
2693047	0.342498287638463	-0.663556392278733	0.746734332121704	62.6992298874021
2296687	0.259011379098462	-0.493334240131584	0.557194370923374	62.2995345295188
1958656	0.231176481945788	-0.36907381397184	0.435497469527151	57.9382370887625
1670375	0.209126469204468	-0.271821378843442	0.342958805278823	52.4270248123345
1424531	0.213227037280231	-0.209952130766962	0.299241819672473	44.5566072482538
1214875	0.205976087890891	-0.160469321237785	0.261106399464569	37.9210054059273
1036062	0.201726272604897	-0.125306304280632	0.237476649276377	31.8473090028635
883578.1	0.206515309025033	-0.0879006618604398	0.224443977903637	23.0564232817492
753531.2	0.210133747588043	-0.0750529226748248	0.223134786793607	19.655070790111
642624.9	0.20728365089768	-0.0583348426891641	0.215335704891318	15.717939734668
548046.8	0.210016128601272	-0.0463425006580181	0.215068365037503	12.4435718791646
467390.6	0.21490598780685	-0.0337746842615967	0.217543818326811	8.93156404855274
398593.7	0.216287207041331	-0.0273844287570869	0.218013905217286	7.21590495639096
339937.5	0.215427673960979	-0.0233708033566031	0.216691663793906	6.19155382152222
289906.2	0.217821047797474	-0.0200249293169013	0.218739586398385	5.2526049108067
247234.4	0.21871844244763	-0.0193821881004054	0.219575559391925	5.0641556542414
210843.7	0.218689903847986	-0.0169980714149234	0.219349512141851	4.44448289120018
179812.5	0.219351385214522	-0.0144977533009189	0.219829968489976	3.78139253235953
153343.8	0.218790972085096	-0.0134030141268505	0.219201118276404	3.50552710499112
130781.2	0.218555088035707	-0.0122449931993204	0.218897844586801	3.20675998159354
111531.3	0.218261929450424	-0.011099188088454	0.218543958561304	2.91113209395548
95109.37	0.217957181422702	-0.0100951879001065	0.218190847086827	2.651890464055
81109.37	0.217562029744477	-0.00900696524327226	0.217748391978977	2.37066444355534
69171.88	0.21701809891528	-0.00809107064295458	0.217168875948999	2.13516561172729
59000	0.216529099073883	-0.00718487945892848	0.216648270795284	1.9004941309554
50312.5	0.216160847599814	-0.00627614475728146	0.216251941096686	1.66309307924751
42906.25	0.215786626834999	-0.0054392701825852	0.215855168992883	1.44393213894761
36593.75	0.215535222048824	-0.00465109892559709	0.215585399934345	1.23621087398529
31203.13	0.215360232967758	-0.00394335913317064	0.215396332432054	1.04899863329968
26609.38	0.215230348148496	-0.00328160664060728	0.215255363943076	0.873518276427165
22703.13	0.21518206552045	-0.00281201942175567	0.215200438602889	0.748704004420276
19359.37	0.215090915543437	-0.0023440524958212	0.215103687861034	0.6243824761172
16500	0.215120152260185	-0.00196391934228806	0.215129116782522	0.523061937429194
14112.02	0.215084537337931	-0.00155459250560622	0.215090155422628	0.414116419107808
12011.13	0.215137426579031	-0.00130235182600156	0.215141368489016	0.3468404023529
10236.38	0.215148430547254	-0.00112106040643299	0.215151351246933	0.298544815773072
8750.684	0.215148078282352	-0.000906452186375826	0.215149987785626	0.241394567539953
7449.463	0.215151202575573	-0.000761152190828903	0.215152548956253	0.202697571014612
6363.206	0.215212221877382	-0.000642728692025854	0.215213181625967	0.171112642304451
5414.761	0.215215052074218	-0.000544342439836691	0.21521574047453	0.144917642164644
4620.567	0.21524380495503	-0.000408532586638274	0.215244192651958	0.108747217628492
3941.215	0.21524336755102	-0.000367907021465214	0.21524368197529	0.0979333267947516
3361.769	0.215232953335688	-0.000296565799890645	0.215233157652059	0.0789468232670449
2867.244	0.215248925175626	-0.000236382159674951	0.215249054970719	0.0629210791456768
2442.658	0.215254660297199	-0.000205511435796162	0.215254758401789	0.0547023433492022
2083.003	0.215274137028764	-0.000161220984103345	0.21527419739877	0.0429093822351425
1777.843	0.215275913156026	-9.79090635683464E-05	0.215275935420905	0.0260585387817403
1513.548	0.215265640151372	-0.000117635644865999	0.215265672293389	0.0313102699319094
1292.065	0.215320313513173	-8.28940399235657E-05	0.215320329469451	0.0220577349265244
1101.762	0.215317119613066	-9.2989311672498E-05	0.215317139692779	0.0247444085124062
939.101	0.215280359456453	-9.23825343710622E-05	0.215280379278354	0.0245871430567987
801.2801	0.21528321618002	-5.34268153278961E-05	0.215283222809484	0.0142190878721837
684.3433	0.215297864109467	-6.70459961487687E-05	0.215297874548877	0.0178425016164808
582.9476	0.215264244937653	-7.71564347186562E-05	0.215264258765112	0.0205363314452238
497.0677	0.215240740695894	-8.67244810731253E-05	0.215240758167343	0.0230855295377419
423.5089	0.215267814851476	-7.6164597607799E-05	0.215267828325496	0.0202720030960181
361.5036	0.215224793349775	-7.85636604632917E-05	0.215224807688849	0.0209147185027061
308.1262	0.215225494777395	-8.32924858625788E-05	0.215225510894532	0.0221735239673424
262.7298	0.215190395204322	-5.5912620377623E-05	0.215190402468171	0.0148870821767929
224.2111	0.215196679155255	-5.97186509343249E-05	0.215196687441436	0.0158999970740708
191.2854	0.215183347243105	-4.05017025047026E-05	0.215183351054711	0.0107841829720626
163.1722	0.215186936522303	-3.23885607335239E-05	0.215186938959763	0.00862379403932027
139.1537	0.215186778366141	-1.60159904295782E-05	0.215186778962163	0.00426442861224913
118.6706	0.215157868104748	-1.7596370000112E-05	0.215157868824294	0.00468585110268155
101.1982	0.215167437430628	-7.25893816042416E-06	0.215167437553073	0.00193294359568263
86.24196	0.215166974096828	-4.48693722263344E-05	0.215166978775196	0.0119480493300457
73.61024	0.215142424925037	-3.902956861836E-05	0.215142428465266	0.010394182060073
62.69291	0.215173049794232	-3.19183616117944E-05	0.215173052161587	0.00849914707098956
53.57697	0.215157533267829	-2.78853416450362E-05	0.215157535074859	0.00742577939674738
45.65746	0.215167190308559	8.1002486003398E-06	0.215167190461032	-0.00215697410428335
38.96512	0.215162172021304	-6.03272128395759E-06	0.215162172105876	0.00160646021190339
33.18414	0.215195366690819	-2.29750751775991E-05	0.215195367917272	0.00611711514477882
28.30617	0.215165409408725	-3.3360019937511E-05	0.215165411994853	0.00888334392051453
24.17237	0.215124976592736	-1.60831950424888E-05	0.215124977193943	0.00428355279753501
20.61345	0.215154724567083	7.93947613198754E-06	0.215154724713571	-0.00211428531079933
17.55618	0.215182167054076	-5.30124723501175E-06	0.215182167119377	0.00141154398070445
14.98558	0.215145660391589	-1.12232863787116E-05	0.215145660684326	0.00298889106112166
12.76553	0.215162250890373	-5.56718984243524E-06	0.215162250962397	0.00148249277151771
10.8809	0.215148525591984	-6.18366122921114E-06	0.215148525680848	0.00164675862546612
9.278505	0.215139580713479	5.64995479347594E-06	0.215139580787668	-0.00150469087537446
7.923394	0.215139311554349	-1.12537287125401E-05	0.215139311848685	0.00299708664942321
6.75822	0.215133480872143	2.04185919504071E-05	0.215133481841121	-0.00543801519922662
5.761429	0.21513431515257	-1.37667783035927E-05	0.215134315593049	0.00366644573950038
4.919708	0.215138222715477	2.45975276078433E-05	0.215138224121639	-0.00655083273653695
4.191257	0.215127674798761	-4.85976859495864E-06	0.215127674853652	0.00129432082652525
3.564097	0.215107905720631	1.06776875638599E-05	0.215107905985644	-0.00284409087530502
3.051758	0.215116919337834	1.50888923186296E-05	0.215116919867022	-0.00401888353844126
2.604164	0.215094702827297	1.13462692450812E-05	0.215094703126555	-0.00302235867185084
2.214424	0.215078199008071	-1.01909879385484E-05	0.215078199249509	0.00271482930489232
1.892567	0.215075673375604	7.6045338230334E-06	0.215075673510043	-0.00202583437821822
1.607507	0.215064340926247	6.42992699698308E-06	0.215064341022367	-0.00171301145419049
1.376413	0.215061045182685	1.85613876093968E-06	0.215061045190695	-0.000494505720919874
1.17375	0.215030806212828	1.33346344426031E-05	0.215030806626286	-0.00355306426733753
1.001604	0.215021436320958	-1.87117631482475E-07	0.21502143632104	4.98603801549547E-05
