EC-Lab ASCII FILE
freq/Hz	Re(Z)/Ohm	-Im(Z)/Ohm	|Z|/Ohm	Phase(Z)/deg
6999984	20.405340536659	94.3829350683628	96.5635353253795	-77.8005639021062
5969734	18.6932844724014	92.9093589255579	94.7712396263986	-78.6240188452682
5091109	16.1104162455029	98.3658263330438	99.6763828686911	-80.6986417256574
4341796	15.4488604937297	107.337429840044	108.443492821012	-81.8097787777546
3702781	18.164432483635	118.660907767804	120.043149074539	-81.296809663774
3157797	19.0526041739777	132.482115293241	133.845106740523	-81.8162532008396
2693047	19.3366830565469	148.721236775643	149.973042843393	-82.5919807596672
2296687	21.0047916349057	172.029803585787	173.307399130534	-83.0386586567512
1958656	24.3284892243128	197.323489158544	198.817591680514	-82.9713361158233
1670375	28.2413170567766	229.280532817185	231.013278228836	-82.9780397220263
1424531	30.7873590474761	258.950518677661	260.774294363052	-83.219770615792
1214875	44.8997041277915	299.763770926302	303.107739575749	-81.4813593695856
1036062	51.7114826198714	353.282112525831	357.046675471792	-81.6724980900412
883578.1	57.1872438694038	406.053963605336	410.061217650466	-81.9833849896792
753531.2	69.7243587546932	469.771012346278	474.917140398828	-81.557677347897
642624.9	139.497641961901	614.472767335598	630.108223966327	-77.2095006406492
548046.8	172.561644057108	698.134759914519	719.145092453947	-76.1161825759806
467390.6	209.159534568894	791.1834331043	818.363571843092	-75.1918870608755
398593.7	252.829407007014	896.475854917427	931.446008900919	-74.2501736287985
339937.5	301.636263342313	1013.23352131937	1057.17860557635	-73.4219058401574
289906.2	358.966356718829	1146.55568420034	1201.43530089144	-72.6155823350698
247234.4	424.364855140752	1298.70770144569	1366.28226368967	-71.904713598651
210843.7	500.579140235441	1468.36953463372	1551.35056189093	-71.1753383254494
179812.5	590.615574354633	1656.33576616841	1758.486544435	-70.3748016940927
153343.8	700.138842430874	1876.10106585226	2002.4858571217	-69.5350174537694
130781.2	835.392216405567	2162.14387037845	2317.91852131306	-68.8748554822197
111531.3	1008.33695064046	2373.25185295453	2578.57863242117	-66.9805424199581
95109.37	1034.66728671436	2649.20255535894	2844.08343293884	-68.6664707321306
81109.37	1229.64449345106	3118.89440948516	3352.54051695014	-68.4828377587912
69171.88	1343.77932561134	3365.14668689504	3623.5279908207	-68.2320541318624
59000	1669.41342517312	3589.93307426028	3959.11109490706	-65.0603316653567
50312.5	3304.1996137671	4000.42776990023	5188.56024633111	-50.4446023003378
42906.25	3378.24804119961	4550.1244393064	5667.11498392634	-53.4078941801308
36593.75	3767.1733373458	4865.14329274213	6153.14669193924	-52.248697428178
31203.13	4242.07499483971	5240.15025981462	6741.98598391301	-51.008684979222
26609.38	4811.34662036352	5627.58674861029	7403.9711583999	-49.470969389494
22703.13	5427.68184400407	6019.79806316835	8105.41170583314	-47.9609620387386
19359.37	6136.33960735216	6392.06272265533	8860.7634900791	-46.1693287429424
16500	6898.6274776094	6741.91714220044	9645.95810830234	-44.3417824525475
14112.02	7733.11454520711	7056.76163853462	10468.9514944137	-42.3816422692034
12011.13	8638.34038225993	7306.69818629889	11314.0957634911	-40.2260489932063
10236.38	9591.7194993819	7485.90665737451	12167.1640671829	-37.9704402044912
8750.684	10562.4262694323	7589.2238991114	13006.1972954449	-35.6976770593898
7449.463	11587.7995706424	7589.65878691053	13852.0763566734	-33.2235880042354
6363.206	12573.8858803327	7527.25324323067	14654.7653519037	-30.9065008441028
5414.761	13557.447607704	7379.54050225589	15435.7378722261	-28.5601756476846
4620.567	14454.7834552811	7133.48235273602	16119.1604997241	-26.2664880839051
3941.215	15320.9425627836	6823.77734848949	16771.8579267138	-24.0076592723813
3361.769	16104.8564192833	6479.5252155973	17359.454118874	-21.916581044116
2867.244	16780.2649640878	6092.97309750548	17852.2159249747	-19.9561371931404
2442.658	17370.977190648	5687.51982363775	18278.3678238043	-18.1292268858981
2083.003	17888.8991596478	5296.9422782013	18656.6425340318	-16.4941371188876
1777.843	18319.9709907913	4933.71786545352	18972.6885042508	-15.0726230995901
1513.548	18661.7877735801	4615.83290555496	19224.1576231092	-13.8927884078567
1292.065	18940.7989711517	4323.66226826603	19428.0189694062	-12.8587199087825
1101.762	19193.357097422	4094.54699474959	19625.2457758208	-12.0424727746833
939.101	19402.3201090861	3964.26114214875	19803.1662119621	-11.5476721523862
801.2801	19608.1019183931	3817.42166640494	19976.2451181705	-11.0168725918211
684.3433	19698.3594041276	3844.72419711366	20070.0589776426	-11.0441396532914
582.9476	19913.9764049466	3796.63005817571	20272.6627766412	-10.7939920095152
497.0677	20049.7755369989	3868.07565803656	20419.4884456084	-10.9195557103182
423.5089	20231.3714613438	4010.09766857711	20624.9672610263	-11.2113860336901
361.5036	20364.4919321955	4210.08393575263	20795.1277563409	-11.6805754425448
308.1262	20518.4062799612	4486.60829259215	21003.2057134312	-12.3343088276331
262.7298	20719.0718427814	4846.09532866959	21278.2653889101	-13.1645590502454
224.2111	20832.7285324066	5245.84803964566	21483.051453646	-14.1336999719753
191.2854	21057.4663853472	5734.8027864896	21824.4095812454	-15.2344951358704
163.1722	21227.2776044914	6340.22464322024	22153.9107839821	-16.6299854121131
139.1537	21525.6203471404	7044.93131256845	22649.1365956416	-18.122299826155
118.6706	21860.580062932	7769.97929784176	23200.3779921093	-19.5669097741742
101.1982	22143.8538525195	8732.00610954267	23803.323174272	-21.520850554175
86.24196	22502.5711735451	9844.86573030252	24561.9032379038	-23.6293581585682
73.61024	22890.2559867502	11088.5259585544	25434.60687867	-25.846532938386
62.69291	23347.6916084883	12555.919486531	26509.7306209875	-28.2704709977326
53.57697	23809.264111913	14181.8645711889	27712.9273131939	-30.7799230080025
45.65746	24355.2091939262	16102.5255805638	29197.0468532799	-33.4708135632564
38.96512	24946.7383817756	18257.9042224416	30914.2495054402	-36.1994792259434
33.18414	25631.0360763819	20819.3557880628	33021.1384688465	-39.0859661132991
28.30617	26367.2379650514	23726.1571761193	35470.5761477251	-41.9819812887878
24.17237	27180.6630333273	26945.8518944124	38273.5858948034	-44.7514415464881
20.61345	28133.2833893534	30714.62558894	41651.7689820545	-47.511648535797
17.55618	29220.197497621	35097.3837208396	45668.8765555694	-50.2210513574116
14.98558	30483.8363567664	40067.0636128154	50345.1473885965	-52.735384968096
12.76553	31880.1032612064	45826.3648416681	55824.6961348367	-55.1747585104434
10.8809	33530.7219372811	52441.1585351584	62244.5533532443	-57.4052717477318
9.278505	35467.5455794881	59999.238910898	69698.3174784017	-59.4112542842643
7.923394	37615.6288432565	68509.1259536692	78156.4832384963	-61.2305671711433
6.75822	40206.6256380627	78517.3646508567	88213.0902809494	-62.8842379594498
5.761429	43503.2907749132	89641.4364314953	99639.9690573439	-64.1125448806513
4.919708	46977.3054344124	102679.939484854	112916.06262393	-65.4153363152198
4.191257	50996.7116186063	117221.587122885	127834.131136873	-66.4887727443974
3.564097	55635.5575254996	134779.728882488	145811.146963496	-67.5697149206912
3.051758	61300.9831750658	153496.363311983	165284.433895736	-68.2299914837999
2.604164	67771.9682196573	175564.664493867	188191.368280297	-68.8922733991916
2.214424	75514.4612410939	201013.127117062	214729.39046603	-69.4103418375489
1.892567	84645.5567183538	229455.138546403	244570.093996607	-69.7510798383132
1.607507	95637.3254778879	263434.563456108	280257.501679926	-70.0470698352778
1.376413	107814.814514686	299112.238586311	317949.94181624	-70.1783344661423
1.17375	122802.492740182	342005.528219916	363384.415675997	-70.2485217960458
1.001604	139601.343684124	390249.883407474	414467.738983337	-70.3167037736664
