EC-Lab ASCII FILE
freq/Hz	Re(Z)/Ohm	-Im(Z)/Ohm	|Z|/Ohm	Phase(Z)/deg
6999984	1.21040620658824	-0.946419530730189	1.536487264215	38.0219376511175
5969734	0.547355266170001	0.201941290631655	0.583419293703946	-20.2510385702943
5091109	-0.276377992325746	-0.297757469350368	0.406256452497613	132.867423000571
4341796	-0.129385813851604	-0.143930227517613	0.193537074534348	131.953899092014
3702781	-0.220788672906024	0.0320975982533385	0.22310960063887	-171.728457342657
3157797	-0.335265629334179	0.318606905772939	0.462507732496495	-136.459410009805
2693047	-0.755397275832418	0.567078737296388	0.944565158487599	-143.104345334614
2296687	-1.17248071774295	0.79123673987704	1.41448457468093	-145.986953297697
1958656	-1.71552332289371	1.04234645124037	2.00736304534224	-148.717269078834
1670375	-2.4645478251195	1.41755569737099	2.84314265161813	-150.093399111179
1424531	-3.11412981747878	1.99270712466135	3.69711863547635	-147.385142205154
1214875	-3.94738718118017	2.64561258955549	4.75196080919867	-146.169268468107
1036062	-3.85312436981216	3.07443007914776	4.92936991113559	-141.413432289624
883578.1	-4.60124367835355	3.78274886338843	5.9565621251738	-140.575882584702
753531.2	-5.22752439113354	4.83477946607741	7.12054097281238	-137.235194864412
642624.9	-5.76311739074476	6.03742906868445	8.34650057322832	-133.668360702384
548046.8	-6.06380946650489	7.46296532023146	9.61590539767586	-129.094553215414
467390.6	-6.16610750724442	9.03291188253898	10.9368358709734	-124.318491626762
398593.7	-5.92003462095745	10.620006160569	12.1585912326988	-119.137119693835
339937.5	-5.35151857045581	12.1438655015763	13.2707279502787	-113.781969661645
289906.2	-4.46691572596303	13.4641280812563	14.1857703735585	-108.353996693693
247234.4	-3.33358789526752	14.3422914034961	14.7246097047858	-103.084962218111
210843.7	-2.33719378675932	16.538148558171	16.7024798317196	-98.0438503534323
179812.5	-0.411630033288464	19.9931225015914	19.9973594918916	-91.179472193088
153343.8	-62.2876304562499	23.1780690163228	66.4603023705112	-159.589085945661
130781.2	-154.649072143466	172.336768863936	231.551932441293	-131.903707989161
111531.3	6.73818255459709	29.4594549480659	30.2202347769868	-77.1165095904995
95109.37	9.03952258347622	39.5344142857719	40.5546900056729	-77.1207494781835
81109.37	14.9017438368109	45.7914704065053	48.1551734642061	-71.9737550129642
69171.88	20.486543518269	48.0085736383125	52.1969501801705	-66.8907599334611
59000	25.7543648494812	46.6516168337472	53.2884665007632	-61.0987868782632
50312.5	30.7619098667303	44.6879353185045	54.2522502913905	-55.457576207698
42906.25	34.0441571953955	38.4115231294757	51.3268910832426	-48.4494085590876
36593.75	-211.711878088093	200.674803241499	291.705838096535	-136.533092382259
31203.13	-254.893506792556	197.191661921333	322.265808512637	-142.273613827454
26609.38	-326.406239989036	591.502629761536	675.585963825917	-118.891034320826
22703.13	-368.074176973424	1531.45775544587	1575.06871484071	-103.514279494003
19359.37	-303.116430216329	1883.49657503434	1907.73135384235	-99.1423823340366
16500	-158.839395903492	2222.52533091947	2228.1940670125	-94.0878632569515
14112.02	781.848946304431	2020.69673382806	2166.68019443127	-68.8475253953919
12011.13	1173.11333002735	2180.77551974993	2476.28284988376	-61.7226806213811
10236.38	1415.05799204349	2410.77421540926	2795.39289519886	-59.5882409471803
8750.684	1702.9941650778	2707.96893165513	3198.95058747372	-57.8349327983004
7449.463	2059.97376574383	3074.12778684886	3700.50720380722	-56.173951068528
6363.206	2856.33560703746	3320.2033003222	4379.77203236658	-49.294939566096
5414.761	3254.78780719112	3811.1116779393	5011.80764710352	-49.5018174371839
4620.567	3686.02841373981	4421.35618376073	5756.31791778186	-50.1824626499095
3941.215	4081.18442865177	4996.00735103535	6451.05850169326	-50.7549849971161
3361.769	4817.00885401351	5027.99533330794	6963.06766959872	-46.2277074126883
2867.244	6142.6970573176	4171.80649496239	7425.40884863511	-34.1823469307176
2442.658	7368.11616133945	3181.46617984073	8025.63784508508	-23.3541206929433
2083.003	8423.95874537621	2496.23292928839	8786.02639314634	-16.5058942128437
1777.843	9439.37038453687	1958.7521820663	9640.45763266564	-11.7230029672742
1513.548	10400.3042658026	1534.16317775801	10512.8485900473	-8.39126484774437
1292.065	11225.5315814224	1246.64806872743	11294.5425180826	-6.33699915781617
1101.762	12074.4144238282	1033.72908235003	12118.5840548327	-4.89334203861023
939.101	12876.9293266341	916.098242490084	12909.4750037724	-4.06931471061088
801.2801	13675.1513428846	804.782629287814	13698.8116028801	-3.36797197049391
684.3433	14265.2726838134	961.96077585076	14297.6702045413	-3.85782853997675
582.9476	14838.3753768889	1048.14447520472	14875.3484216796	-4.04051441408083
497.0677	15329.1152295196	1155.42697788052	15372.598518829	-4.31049957559781
423.5089	15799.9113844206	1385.44557028712	15860.5377961711	-5.01127279566642
361.5036	16220.0396574671	1579.50884020641	16296.7645459489	-5.56193107341075
308.1262	16585.2837542419	1829.66013253157	16685.9010367824	-6.29531647822041
262.7298	16937.7870030986	2155.03799975354	17074.3321199606	-7.2509298664073
224.2111	17330.9976359043	2465.67913523859	17505.5149211233	-8.09712550445806
191.2854	17666.101615247	2824.43177106997	17890.4600586363	-9.08349526708758
163.1722	18002.8201547068	3280.20916073048	18299.2159848683	-10.3263152092397
139.1537	18330.8278010978	3659.07883438192	18692.4612020387	-11.2886322036296
118.6706	18685.6810887137	4187.32485348594	19149.1087828582	-12.6308947007047
101.1982	19045.1243954777	4737.59710765865	19625.5341225077	-13.9691636819476
86.24196	19379.3615604658	5355.97339714825	20105.8724138551	-15.4494746301815
73.61024	19730.4739741634	6043.76267142887	20635.3742508756	-17.030671986982
62.69291	21571.6946481341	14628.1101541563	26063.7606011579	-34.141821625868
53.57697	26075.1859960719	23621.0731015251	35183.3827139651	-42.1729022852813
45.65746	31407.7729148488	33886.9459218448	46203.6070386366	-47.1744170367389
38.96512	40233.5427306117	49037.0784759417	63430.0640557112	-50.6320855500605
33.18414	46419.3136631624	61762.6933892597	77261.7821154467	-53.0723815544581
28.30617	62435.465704081	78881.3488521306	100600.470050676	-51.637993173504
24.17237	67679.7500292233	93781.3195830604	115652.429575683	-54.1829112712925
20.61345	86565.6875386675	124006.476101863	151232.352273725	-55.0821112349708
17.55618	132355.569806208	141023.873305144	193405.609279336	-46.8161236091318
14.98558	175903.035006897	164711.041929559	240980.507631133	-43.1180362753953
12.76553	319611.805111336	179310.683866521	366475.138740961	-29.2935788141859
10.8809	269910.370238506	277746.470464517	387291.504964651	-45.8197557329772
9.278505	298833.731114209	240524.56634237	383606.133769814	-38.829808142252
7.923394	227060.890598766	231629.70858015	324359.322259173	-45.5706795202779
6.75822	295936.596102777	174994.905396794	343804.720484945	-30.5969145586597
5.761429	314114.373452283	168144.568338052	356287.012773284	-28.1600219235652
4.919708	458621.988699519	408776.670206625	614355.348820142	-41.7110983024059
4.191257	373165.552901329	194458.196617165	420792.728197333	-27.5242163878865
3.564097	391751.364802775	331356.013023373	513094.473943719	-40.2256250044379
3.051758	635854.814454827	495437.825416837	806083.112290009	-37.9245863921469
2.604164	510287.046537209	223262.96004796	556991.220032277	-23.6305441812042
2.214424	785959.056450344	805026.719271454	1125077.62272533	-45.6866461780124
1.892567	694087.663548172	279924.938568796	748408.749228992	-21.9641766481575
1.607507	378543.387307138	752032.490286447	841931.091313534	-63.281125824137
1.376413	1210258.03016046	961970.435568235	1545998.58294735	-38.4793413181264
1.17375	935516.572845297	360827.521662067	1002690.26047778	-21.0915619261732
1.001604	1585331.61082802	1503570.70653464	2184948.78334473	-43.4837781543391
