EC-Lab ASCII FILE
freq/Hz	Re(Z)/Ohm	-Im(Z)/Ohm	|Z|/Ohm	Phase(Z)/deg
6999984	24.8672923818861	90.8352859857846	94.1776587653647	-74.6896895534434
5969734	23.5974743384104	89.6789246085087	92.7316036423965	-75.2577772073156
5091109	22.2965772315495	94.5028458372242	97.0975037144447	-76.7246637544095
4341796	23.2998468985031	103.178108978915	105.776202607007	-77.2748178292941
3702781	28.6013786179495	113.185945120744	116.743723735897	-75.8185882971896
3157797	30.9778235983184	125.073365229312	128.852521297309	-76.0890816722709
2693047	36.0572798285382	141.070310768964	145.605494433025	-75.6622854106779
2296687	43.6034248952368	160.783175841541	166.590780946265	-74.8266837622591
1958656	53.8982685429578	182.24724902252	190.050212123547	-73.5248090601629
1670375	67.2260852796826	206.696594606354	217.354155156727	-71.9833807039225
1424531	85.0005796017961	233.999776943819	248.959824354048	-70.0364128202884
1214875	106.650002572054	262.806679530119	283.622237940303	-67.9121144990613
1036062	134.354836526594	293.372443587603	322.674158795912	-65.3937931021228
883578.1	169.040112536302	324.455405400378	365.849517889268	-62.4806464885597
753531.2	207.6662357692	354.564908963327	410.903322141257	-59.6427865292767
642624.9	254.366909800921	382.13436061524	459.052496305693	-56.3503647736488
548046.8	310.792845693308	401.056772324374	507.384201134987	-52.2266500122214
467390.6	447.722333822349	432.109173143631	622.232774545188	-43.9833572446475
398593.7	510.599822843711	427.207348904677	665.746421729919	-39.9184623304683
339937.5	570.11440465233	415.046428885909	705.190734853363	-36.0548245714067
289906.2	624.413180061909	397.535358523056	740.220359562664	-32.4830457836068
247234.4	673.576909211494	374.754061761626	770.808964289951	-29.08999545042
210843.7	715.4325719824	351.409060699433	797.077218966274	-26.159534052288
179812.5	752.180164336518	324.972768594665	819.37921620541	-23.3663304235575
153343.8	782.104814849676	300.640021331295	837.897585530074	-21.0266916446085
130781.2	807.758411304786	277.699852052846	854.160909234205	-18.9724947096157
111531.3	829.323068510609	256.703895401205	868.143791015063	-17.1990872012827
95109.37	847.766803761545	240.228601082327	881.146034626519	-15.8209460870766
81109.37	863.635676172922	224.08925060087	892.234595492419	-14.5458743506366
69171.88	877.535106830293	212.018528240698	902.784426115673	-13.5827552153334
59000	890.800042616366	202.378205271599	913.499673724229	-12.799596393903
50312.5	902.985851257452	197.50412202566	924.332908528238	-12.3376319828449
42906.25	915.274916443042	187.697551296173	934.322505044375	-11.5891027305521
36593.75	924.229762588747	187.998975902995	943.1565453282	-11.4977560692744
31203.13	934.810439923418	189.824040078472	953.888738156357	-11.4784989577801
26609.38	945.722755224837	192.868792626029	965.189049315769	-11.5267190858183
22703.13	956.886936983556	198.729621734555	977.305516573262	-11.7326000103426
19359.37	967.985785778075	206.801206199832	989.829894655694	-12.0594208662632
16500	981.705958340896	217.017418091068	1005.40695660858	-12.4654187598929
14112.02	994.013254713849	229.791363277397	1020.22861221576	-13.0167072912119
12011.13	1008.06753290992	245.091563387248	1037.43434748937	-13.6651866533189
10236.38	1023.02991283639	264.666582460251	1056.71121997887	-14.5048849499729
8750.684	1038.49133023525	284.592308876633	1076.78086222105	-15.3253146759766
7449.463	1055.56617345986	310.28306276	1100.22521584829	-16.3806685571399
6363.206	1074.45880341197	337.718948506681	1126.28407092081	-17.4487363717771
5414.761	1093.9050713222	370.336216723822	1154.89273029219	-18.7032790304176
4620.567	1114.65669189922	405.66203103188	1186.17925467301	-19.998192295303
3941.215	1137.78516315564	447.021681139951	1222.4497784802	-21.4492480185175
3361.769	1163.56837043359	494.179824179136	1264.16179791164	-23.0114460948314
2867.244	1191.52350413185	546.854944647758	1311.02196449348	-24.6529644483033
2442.658	1221.86702783651	606.688368860907	1364.19566434773	-26.405579318251
2083.003	1254.79142690978	675.400121545181	1425.01468386453	-28.2916647065745
1777.843	1290.49077681548	752.390173545709	1493.80635234088	-30.2433136553947
1513.548	1331.83020288407	838.757910866443	1573.93980900009	-32.2018380977566
1292.065	1374.43863646993	939.733355152724	1664.98658979822	-34.3612587318251
1101.762	1426.28999668619	1049.66118731531	1770.90139838537	-36.3507687317477
939.101	1484.30290687896	1175.71833367003	1893.53339540055	-38.3827922000689
801.2801	1544.92136625489	1320.87896811296	2032.60996659812	-40.5298254866067
684.3433	1616.64246555762	1478.13386218048	2190.52792175056	-42.4374025218255
582.9476	1697.91341280629	1666.33276592834	2378.98609583871	-44.4621723444604
497.0677	1791.69274526017	1871.55742269839	2590.92456082291	-46.2489412285759
423.5089	1898.30853189669	2108.3698366863	2837.04047389536	-48.0011435689111
361.5036	2025.23272576446	2366.38421464216	3114.69771323236	-49.4419548067486
308.1262	2166.35253712384	2661.23300523753	3431.50760209977	-50.8530008871291
262.7298	2328.59718789542	2988.34490721491	3788.47860597783	-52.0733379654003
224.2111	2513.47759216392	3350.3469874039	4188.36418453751	-53.1222518009463
191.2854	2725.18307915495	3755.05029290386	4639.72256898511	-54.0301779118444
163.1722	2970.11096001607	4207.7002866628	5150.36899815827	-54.7826834912354
139.1537	3246.34642528476	4702.48393508758	5714.20338041234	-55.380851429352
118.6706	3564.38539495532	5244.89676121272	6341.43400813653	-55.8003195607452
101.1982	3923.93081860033	5857.92066152168	7050.70688270645	-56.183828860916
86.24196	4335.91717457701	6525.52927850526	7834.71187149989	-56.3977713016179
73.61024	4792.96305086152	7255.64775674403	8695.79893838792	-56.5518969485081
62.69291	5327.8091409148	8067.60407484364	9668.0807687177	-56.5594084252022
53.57697	5903.39368144622	8924.08318863029	10699.9681175101	-56.5148609566308
45.65746	6561.4100206733	9889.85379353693	11868.5007274267	-56.437769485296
38.96512	7293.33704266466	10933.1056127246	13142.5097891116	-56.2932466110522
33.18414	8118.60611528022	12075.0764048542	14550.5750896015	-56.0853202271992
28.30617	9046.86581569595	13321.7759788608	16103.2759498855	-55.8194334327908
24.17237	10044.9383331708	14633.8197196262	17749.6328329271	-55.5335389521764
20.61345	11156.434934675	16110.4519466229	19596.2420472927	-55.2975261772061
17.55618	12407.1361558748	17715.3848236679	21628.034747546	-54.9941622134182
14.98558	13750.7505045575	19474.1623333521	23839.5918174859	-54.7739974510612
12.76553	15232.2429222428	21367.7480850132	26241.2248697884	-54.5163956263704
10.8809	16859.2002516835	23424.6406489888	28860.8111920061	-54.2566509395258
9.278505	18654.1752637241	25663.2923634642	31726.6895484287	-53.9872862913009
7.923394	20568.6763467305	28097.2687165165	34821.3577561916	-53.7939130354443
6.75822	22699.4170391973	30807.1199085852	38266.7240691093	-53.6163304964214
5.761429	25029.9885109604	33702.6250305796	41980.5581050403	-53.3997696385958
4.919708	27524.4121341388	36776.9695406908	45936.2466025123	-53.1882909164131
4.191257	30112.0900268578	40443.3372372801	50422.2321270484	-53.3304703932748
3.564097	33286.8325671486	44388.8500654735	55483.1797258274	-53.1340719202598
3.051758	36193.4458561614	48447.0880682993	60473.8444721388	-53.2376340417297
2.604164	39896.4766623762	53232.4648839481	66523.8616414614	-53.1493068680324
2.214424	43512.0129341304	58559.201915725	72955.2972619986	-53.3860587585584
1.892567	47711.801172867	63955.6054144186	79791.8256156858	-53.2765321464412
1.607507	52229.1697119223	70787.8463280852	87970.4800291859	-53.5790996988938
1.376413	56651.1921755579	77418.5209776219	95932.1894114508	-53.8051086307611
1.17375	62269.5711274971	85126.2536804029	105470.273319371	-53.814654107628
1.001604	67947.3601258569	94010.0178256412	115994.513661855	-54.1418301973816
