EC-Lab ASCII FILE
freq/Hz	Re(Z)/Ohm	-Im(Z)/Ohm	|Z|/Ohm	Phase(Z)/deg
6999984	-0.450866200189472	1.29792652121204	1.37400639916228	-109.155908423759
5969734	-0.509616307048841	-0.0667765284675944	0.51397265021038	172.534895439304
5091109	-0.120250917099723	-0.242317060813528	0.270514031104916	116.393110221394
4341796	2.64786876870885	-4.13485261670454	4.91001172892409	57.3653938851907
3702781	-1.70204919946038	-14.218026611502	14.3195409215087	96.8264296303383
3157797	18.6014276391317	5.92605684429231	19.5225833315071	-17.6708778385273
2693047	1.62236067471108	-6.54822579403578	6.74620746853553	76.0848417845869
2296687	3.76463730814582	-11.5485853056095	12.1466998243483	71.9449352358692
1958656	0.75829056070696	-9.12837454276667	9.15981584790261	85.2513643657669
1670375	10.4841434277677	-10.3205658722474	14.7116057362003	44.5495197603281
1424531	8.62705402730771	-6.02669499756058	10.5236454607568	34.9374136314528
1214875	-6.60114768305172	-5.15057675131816	8.37278875910997	142.036695779167
1036062	10.8488192469541	2.0731553193145	11.0451279771257	-10.8185088735689
883578.1	4.31288299095587	-4.98752901386578	6.59366403131289	49.1489327311628
753531.2	4.65157719476599	-2.86783797693137	5.464582789271	31.655087392175
642624.9	1.67392728255344	2.12281473655354	2.70340062754406	-51.7427585063437
548046.8	0.277797449292124	4.76724215301224	4.77532922093231	-86.6650231336932
467390.6	2.68634374123924	0.383611108361788	2.71359543383935	-8.12691930980487
398593.7	2.91517384732012	1.42378997365157	3.24428982200573	-26.0311857766007
339937.5	2.59537286107356	1.55959063063176	3.0279173078457	-31.0021618775778
289906.2	5.25676884450689	-2.51910841688708	5.82919599092445	25.6043150304944
247234.4	-0.00213834215138418	-1.43255774669586	1.43255934261918	90.0855238748447
210843.7	-1.14379794044558	-1.43744969198449	1.83699083981218	128.509735193924
179812.5	-1.37743066646522	-1.96813214000834	2.40226130165988	124.986904190562
153343.8	-1.59104353275148	-2.572140103787	3.02445437006739	121.739608590878
130781.2	-1.77472654451174	-2.74844522574954	3.27163651201352	122.851146713432
111531.3	-2.07477036257543	-3.1455159795782	3.76814846246843	123.408691943874
95109.37	-2.44375453294239	-4.57008717894048	5.18243504931733	118.134672735474
81109.37	1.51703782825841	3.91550534619496	4.19911727491008	-68.8214558157135
69171.88	-2.24714375780242	3.36614760326812	4.04729598067872	-123.725938675038
59000	65.0332796796826	9.56410576024804	65.7327892675263	-8.36622086251921
50312.5	66.4941355956738	1.79470006617078	66.5183509788341	-1.54605785522511
42906.25	74.7926208108639	1.69768831416157	74.811885909725	-1.30031110027334
36593.75	81.6879941272479	1.96656242171885	81.7116622783541	-1.37907618132777
31203.13	87.5413174232853	1.93326412635522	87.5626619421009	-1.26511544883405
26609.38	92.3766249083567	2.85283242060118	92.4206658831198	-1.76888171470928
22703.13	96.9174871823248	4.68886643164009	97.0308445297157	-2.76980918899748
19359.37	107.94877577616	32.8408201207058	112.833761161154	-16.9211224565529
16500	111.111336121691	44.118107946086	119.549723811851	-21.6561545374951
14112.02	107.108870736362	18.5645702075165	108.705811516259	-9.83306157298953
12011.13	109.87626255585	22.2863479770389	112.113667228379	-11.4658308609297
10236.38	112.137000758382	28.3861256844444	115.674020724009	-14.2053311555226
8750.684	124.112788902814	34.5193546549677	128.823795220564	-15.5427865366965
7449.463	140.378195209089	210.092496745233	252.675473441343	-56.2502117510599
6363.206	129.369990038652	150.566942626614	198.511960683801	-49.3301993888083
5414.761	126.054842558704	121.062258772355	174.773836232899	-43.8425929735398
4620.567	194.513564053237	158.685651992317	251.03119875609	-39.2078285067455
3941.215	250.94430046385	243.668923709022	349.782198398953	-44.1572843129374
3361.769	220.775295057674	223.056895158088	313.840898203802	-45.2945367813367
2867.244	220.890841025074	450.758078937431	501.971721689706	-63.8931593408957
2442.658	220.636587323135	443.890466076097	495.700766126959	-63.57024032756
2083.003	561.780134881154	1475.2920311064	1578.63342704795	-69.1535421537713
1777.843	398.492180194405	742.007585575991	842.241814877653	-61.7621574134656
1513.548	446.906697420354	893.101662916036	998.677213369043	-63.4166876384649
1292.065	438.161188767641	914.637257229695	1014.17283519868	-64.4030344827826
1101.762	605.694636854145	1262.31566170237	1400.10957531651	-64.3669954374689
939.101	716.88365442762	1492.44260128601	1655.68931026291	-64.3430458016324
801.2801	872.877395513486	1792.05693978089	1993.33464902792	-64.0301535497115
684.3433	1050.53296149982	2141.11185043653	2384.94852340199	-63.8651990004933
582.9476	1311.33156422252	2587.77813996707	2901.06638548961	-63.1268282899082
497.0677	1511.67227319339	3030.35113180172	3386.47029273159	-63.4879635881792
423.5089	1950.08614027348	3797.88716518535	4269.28364880648	-62.8210407146469
361.5036	2427.49915536436	4606.16245891507	5206.67693900948	-62.2102677050374
308.1262	3214.47515575229	5904.1461790348	6722.48411157363	-61.4341963715327
262.7298	4334.5136171585	7621.10913234119	8767.51462527362	-60.370901295329
224.2111	5635.11577587172	9618.74001909	11147.8558190498	-59.6361975146327
191.2854	8496.34247915504	13548.7653388919	15992.4006244045	-57.9084432834157
163.1722	11238.0503697538	17775.8154048404	21030.2969408443	-57.6985115472798
139.1537	20215.1516868927	28966.7807671652	35323.175759508	-55.0898289764712
118.6706	31754.3449805993	49322.2356994903	58660.2195660994	-57.2259989832133
101.1982	55307.2971225852	81744.7205199449	98696.9931046019	-55.9182858411847
86.24196	63303.0305048606	107495.26408623	124749.771430923	-59.5065371655946
73.61024	89567.5066211002	152442.168835523	176807.672575595	-59.5636037619896
62.69291	144970.805525709	243897.883592431	283729.99854728	-59.2731141598583
53.57697	150797.56687413	306592.632328253	341670.81873219	-63.8097366859247
45.65746	161085.184218683	334491.375747894	371258.558183492	-64.2853489516627
38.96512	182497.375921731	378486.746075325	420187.469081367	-64.2577323859374
33.18414	198353.472126434	422818.718459042	467032.941647544	-64.8677032546337
28.30617	219470.822918705	464137.907081465	513411.568726861	-64.6925500566622
24.17237	215443.098776619	635951.025247851	671453.226460537	-71.2850024474375
20.61345	237679.05375315	694765.682689891	734296.048223428	-71.114203728709
17.55618	269357.92949011	823929.378020279	866840.99703699	-71.8964630064011
14.98558	267530.548494984	1011008.39620697	1045806.182607	-75.1782506653514
12.76553	346947.578383273	1021597.67874536	1078904.27720161	-71.2418587254641
10.8809	370951.105465344	885683.409728062	960229.048151266	-67.2745843604193
9.278505	400011.28646108	1132532.70448255	1201099.22821506	-70.5467463284114
7.923394	483910.31561869	1199284.30172773	1293233.16920528	-68.0259612129538
6.75822	404115.86480565	2858239.32091116	2886666.18225772	-81.9525025645217
5.761429	548372.761537088	1059535.68437254	1193033.34071374	-62.6357461637016
4.919708	643890.565057632	1332198.49269902	1479644.51261774	-64.2041608320927
4.191257	776816.505809609	4786624.49176485	4849249.21084299	-80.7818924932899
3.564097	839934.521380078	1690328.88293844	1887512.0483594	-63.576943933763
3.051758	1164716.08453203	2341262.80528299	2614971.33463623	-63.5508743540845
2.604164	1223148.4240504	6818520.60289007	6927359.9068688	-79.8300950040186
2.214424	1286418.10359786	2571912.06695951	2875691.78067404	-63.4267143998797
1.892567	1468937.54603722	2941700.3832154	3288066.09708009	-63.4647587974764
1.607507	1771321.72322119	3562091.56138599	3978200.21352025	-63.5602135661452
1.376413	1894984.6927056	5312658.83204026	5640506.25841723	-70.3690721161413
1.17375	2493236.82633325	4098407.84043877	4797205.09242145	-58.6860616029673
1.001604	2956468.66032721	5176821.57827926	5961559.24174496	-60.2694304698113
