EC-Lab ASCII FILE
freq/Hz	Re(Z)/Ohm	-Im(Z)/Ohm	|Z|/Ohm	Phase(Z)/deg
6999984	20.0295192842219	92.4610534188842	94.6056448743244	-77.7770726325058
5969734	17.9319646110926	94.0257566401708	95.7204171876099	-79.2025916267913
5091109	15.0342275567703	99.9010257342314	101.025951819225	-81.4417106901626
4341796	14.4655987883923	109.59626101839	110.546795419486	-82.4809988347504
3702781	17.3732384864899	120.919657839065	122.161340314459	-81.8239308352943
3157797	17.4261858555045	134.307784064023	135.433573436053	-82.6072787327972
2693047	17.5500317846809	152.740449615574	153.745401766723	-83.4454013955146
2296687	19.1293849514684	175.835276456038	176.872772961224	-83.7911241290965
1958656	21.8621129571877	201.800655682323	202.981419388003	-83.8169645256569
1670375	25.4780985857092	232.548071315544	233.939605411573	-83.7475793366665
1424531	32.2907109569649	270.616342623352	272.536043320779	-83.1954772052785
1214875	26.3497050873695	310.080481112743	311.198026544677	-85.1428461593691
1036062	35.4203552600986	366.149532823879	367.858779905953	-84.4745481871285
883578.1	46.1471009108626	422.364298884376	424.877812899859	-83.7646534789614
753531.2	56.9942276075419	486.338578084255	489.66677905857	-83.3159702295945
642624.9	122.747860072331	639.353981454874	651.030376214916	-79.1321751137697
548046.8	151.394829268036	730.091680185832	745.623400790016	-78.2849424221098
467390.6	183.50677734369	832.265292088561	852.255979002978	-77.5657657976616
398593.7	220.902592755576	947.472975369443	972.883854600107	-76.8759819081036
339937.5	262.921229149357	1078.25466112612	1109.84714577171	-76.2964350983287
289906.2	310.413659351531	1229.90449556465	1268.47219446157	-75.8350321859099
247234.4	366.26918886553	1402.11474884807	1449.16489318831	-75.3599928779669
210843.7	431.998633983715	1600.32884441999	1657.61130246099	-74.8934333453919
179812.5	511.053059496485	1825.03047572602	1895.23388185982	-74.3564572997953
153343.8	605.890742573573	2087.01644054156	2173.18687991326	-73.8112306619488
130781.2	721.199380235793	2378.78574407559	2485.70918698663	-73.1337653649861
111531.3	862.955345359162	2709.61732944141	2843.71552727996	-72.3344319449991
95109.37	1038.63463704361	3080.65394754511	3251.02916840067	-71.3685969897471
81109.37	1250.45594646924	3501.96890441309	3718.52474531722	-70.3497634384454
69171.88	1508.69741079511	3962.02928408487	4239.55704352305	-69.1537140411098
59000	1824.1853719423	4467.1406763656	4825.24591017374	-67.7870378123843
50312.5	2820.57557138932	5219.1919796834	5932.58893525497	-61.6121570627004
42906.25	3523.31725451019	5766.75111668727	6757.89781794184	-58.5762828894202
36593.75	4018.73846581953	6242.10344362634	7423.88808223759	-57.2260963860385
31203.13	4637.39374640726	6823.54708370626	8250.22518254947	-55.7993340733376
26609.38	5386.4386365743	7397.25592900201	9150.58011629513	-53.9391234590422
22703.13	6240.06322545263	7993.74565002911	10140.9249368588	-52.0237541978097
19359.37	7217.39833706581	8538.22359704761	11179.9866256208	-49.7920148308397
16500	8313.6496671526	9057.48293575242	12294.5015319692	-47.4519119560766
14112.02	9483.12278393941	9483.80818438574	13411.6455147567	-45.0020704748122
12011.13	10791.9276009797	9802.62182925236	14579.3379847002	-42.249781762232
10236.38	12152.6410092959	10043.2371286556	15765.5731111567	-39.5711525037938
8750.684	13527.8553956327	10158.037844957	16917.1098141712	-36.9028078377783
7449.463	15058.7941073253	9882.28939077482	18011.8550840783	-33.2747703240745
6363.206	16384.2197577491	10058.1699819025	19225.2292692457	-31.5455034842783
5414.761	17641.9047622443	9301.34687030973	19943.7172373136	-27.7995569859146
4620.567	19022.6336497632	9354.54182619487	21198.3028507269	-26.1860448094687
3941.215	20037.1018737789	8392.75841168809	21723.808258617	-22.7269037946136
3361.769	20936.334428093	7963.4987955391	22399.719023941	-20.825182388061
2867.244	21697.7256029932	8062.64958964363	23147.3025371892	-20.3845434661377
2442.658	22408.0950891551	6480.96927825541	23326.5018446896	-16.1311626260943
2083.003	22961.0382786008	6175.00388448345	23776.8785126382	-15.052632602118
1777.843	24159.2871915813	6215.37931138351	24945.9835963564	-14.4274267856492
1513.548	24143.0536819796	5918.34011456737	24857.8718075914	-13.773670482249
1292.065	25121.4745484103	5298.58277136394	25674.178913286	-11.9101710902096
1101.762	25372.8726890834	5294.9563714607	25919.4759104444	-11.7876383361429
939.101	25940.8013129794	4680.8788060253	26359.7382224515	-10.2286488234817
801.2801	26295.498646471	4684.09216025286	26709.4359437316	-10.1003177365283
684.3433	26494.0625484443	4467.95160053645	26868.1585119936	-9.57227983253573
582.9476	26759.517719659	4353.39027496967	27111.322274558	-9.24025079025742
497.0677	27122.69828658	4290.28817981774	27459.9223416734	-8.98861345621392
423.5089	27438.869882109	4357.21386005112	27782.6725321653	-9.02306540843513
361.5036	28051.0012549212	4301.29057739995	28378.861359026	-8.71773046983197
308.1262	28362.4268881819	4408.2301314508	28702.9571974613	-8.83451072763553
262.7298	28631.2780780879	4861.29443625809	29041.0445401123	-9.63633078445341
224.2111	28959.8544269718	5037.27470582472	29394.6815749608	-9.86730153082655
191.2854	29352.9348168079	5412.83416548607	29847.840056909	-10.4482635463553
163.1722	29759.5651172321	5965.61702230452	30351.6111997961	-11.335299616043
139.1537	30186.3719381618	6589.37794109867	30897.1997507813	-12.3139229892824
118.6706	30659.927141123	7213.23439338616	31497.0138697766	-13.2389862678329
101.1982	31163.0718549264	7996.38389432856	32172.646810929	-14.3914908727386
86.24196	31686.0942695116	8886.52785474613	32908.6454806265	-15.6664250993078
73.61024	32227.9014142591	9870.51990133063	33705.5602636979	-17.0283858853794
62.69291	32847.4715329294	11051.848939023	34656.8860556974	-18.5960098720132
53.57697	33470.1376216482	12327.903186886	35668.2955774075	-20.2200358239997
45.65746	34156.5436086494	13874.5570664685	36866.9608874974	-22.1072327504457
38.96512	34923.1659792142	15561.1280344401	38233.1822860193	-24.0168838928829
33.18414	35716.7623379508	17574.9960605303	39806.627569204	-26.2002197853202
28.30617	36647.0752797263	19797.0673853372	41652.5149734983	-28.3783016547762
24.17237	37489.8658971016	22331.720789461	43637.0920021156	-30.7811376785281
20.61345	38598.1899709552	25224.669359756	46109.6976062841	-33.1653984105619
17.55618	39745.2931138787	28688.7812890476	49017.6957491776	-35.8223469460324
14.98558	41072.3212109192	32451.2451585091	52345.1896738429	-38.3122668250662
12.76553	42472.0237396177	36889.4633660317	56255.7135584684	-40.9762455526829
10.8809	44117.7081263469	41884.7241580474	60833.3978018428	-43.5126953342593
9.278505	45889.791106699	47592.2914418719	66112.7758644616	-46.043358242105
7.923394	48057.9970021469	54225.1648516721	72456.4667855767	-48.4504742605865
6.75822	50326.5896806904	61679.4583906553	79606.0375615641	-50.787700887218
5.761429	53100.8888791609	70247.0737222812	88058.8199233933	-52.9137811071879
4.919708	56165.2343201081	79794.9876945878	97579.5757697894	-54.8594655653609
4.191257	59807.1336345842	90731.4843951727	108669.662252795	-56.6084765307772
3.564097	63827.4964716696	103737.961491449	121801.124626345	-58.3970043953238
3.051758	68607.093223438	117708.723174931	136243.446638883	-59.7640243987264
2.604164	73787.9585048669	133868.394669416	152857.482354259	-61.1365447969623
2.214424	80556.5383480057	152129.203214224	172141.36731538	-62.0975669067352
1.892567	87693.7554091481	173166.267357964	194104.999648256	-63.1417251925816
1.607507	96336.4206523523	197042.754749974	219332.061367155	-63.9454703875911
1.376413	106141.926944053	222862.381985943	246847.624983197	-64.5330959022773
1.17375	117610.560019512	252754.260619421	278777.61762626	-65.0466952698326
1.001604	130907.371058539	285741.267245182	314300.511619598	-65.3859435803296
