EC-Lab ASCII FILE
freq/Hz	Re(Z)/Ohm	-Im(Z)/Ohm	|Z|/Ohm	Phase(Z)/deg
6999984	8.05947885506979	3.93489382324303	8.96875625800552	-26.0231013421114
5969734	6.35033820239061	0.658677309326386	6.38440687006734	-5.92172507748331
5091109	4.08416780214638	-0.897452915694905	4.18160834751157	12.3931802410828
4341796	2.87584602724097	-1.99291527093391	3.49888577257379	34.7213397877531
3702781	1.65634766688387	-1.49880762133812	2.23381106617657	42.1415385755759
3157797	1.09800957348699	-1.44221757050662	1.81262697324825	52.7167409214424
2693047	0.782232157855681	-1.2598057267487	1.48290175599477	58.1632376149104
2296687	0.492213161107071	-1.05223675902366	1.16166948527007	64.9308432036571
1958656	0.335535560366478	-0.852730417676856	0.916369618386484	68.5211686352854
1670375	0.217251082163975	-0.707655850251927	0.740253223631749	72.9334593198084
1424531	0.145630956959185	-0.590755592689578	0.608441078428193	76.1517632550582
1214875	0.0792528036880274	-0.504411261302971	0.510599380553548	81.0707205178153
1036062	0.0590931770849466	-0.412264369393182	0.4164779872324	81.8428957383132
883578.1	0.0451727522189455	-0.349359089851423	0.352267442726189	82.6324315800034
753531.2	0.0356584424342405	-0.296206155065321	0.298344785131929	83.1355458199078
642624.9	0.0275692686432528	-0.252530641314539	0.25403107954787	83.7695809159996
548046.8	0.0226984711677611	-0.215589114999934	0.216780735075349	83.9897113008888
467390.6	0.0168435060656489	-0.184014289918158	0.184783556061322	84.770079817857
398593.7	0.0121365320174203	-0.156688010941069	0.157157335756491	85.5709029281114
339937.5	0.00891313029730724	-0.132885737346414	0.133184319954704	86.162711034702
289906.2	0.00604100945378559	-0.112483219441955	0.112645321479623	86.9258335220367
247234.4	0.00453698469322964	-0.0938967314745752	0.0940062785760349	87.2336837453605
210843.7	0.00449336521935807	-0.077604408635142	0.0777343847380593	86.686222572113
179812.5	0.00532229030678146	-0.0639593776786686	0.0641804391318121	85.2431710692965
153343.8	0.00802687519944024	-0.0525075973802331	0.0531175913244572	81.3084407070151
130781.2	0.0110016383514337	-0.044945665483313	0.0462725500934799	76.2457856292392
111531.3	0.0131451873717714	-0.0390674890281825	0.0412197119107611	71.4032609363525
95109.37	0.0158772232118832	-0.0339172235156033	0.037449489554964	64.9149149769525
81109.37	0.0235226318416851	-0.0293687407588918	0.0376276114379115	51.3073277707781
69171.88	0.023901564031856	-0.0253423311174595	0.0348355925690359	46.6758692704617
59000	0.0314339844347669	-0.0218900354172134	0.0383049478267759	34.8526273369293
50312.5	0.0551339708301188	-0.018173275373194	0.0580518964142114	18.2432684054409
42906.25	0.0809784989503221	-0.014725371203014	0.0823064629862921	10.3062215793645
36593.75	0.109587141516471	-0.0119199963047763	0.110233515310259	6.20776279754647
31203.13	0.0799216085892894	-0.0124742719901552	0.0808892513328189	8.87122586314751
26609.38	0.115515870724896	-0.00858483320008221	0.115834432490534	4.25025707414437
22703.13	0.119144024571228	-0.00705988341176079	0.119353008109628	3.39109826597877
19359.37	0.118904644327653	-0.00602610682325436	0.119057248440114	2.90127721987923
16500	0.120441979784051	-0.00507182312237107	0.120548719960381	2.41130605883736
14112.02	0.123075772715682	-0.00433276224100409	0.123152014430131	2.01620926021782
12011.13	0.124327200693305	-0.00358348760160948	0.124378833471071	1.65098132441624
10236.38	0.124328312020819	-0.00295018802811969	0.124363309618824	1.35931715880489
8750.684	0.1242975163073	-0.0024378166310192	0.124321420157951	1.12358398723863
7449.463	0.12371271236873	-0.00203195244429152	0.123729398415914	0.94098520271941
6363.206	0.123668835457113	-0.00169288845887175	0.123680421792022	0.784266348848456
5414.761	0.122307566369825	-0.00178400926825251	0.122320576684295	0.835671549269798
4620.567	0.12284238506335	-0.00123615550690731	0.122848604585032	0.576544510928342
3941.215	0.123298280806384	-0.000962615647006291	0.123302038420676	0.447311130039168
3361.769	0.12349074768169	-0.000636577967407805	0.123492388407105	0.295349315558068
2867.244	0.123915129617099	-0.000692673334402537	0.123917065589735	0.320274412040747
2442.658	0.123865109133413	-0.000616380166453283	0.123866642745906	0.28511411209741
2083.003	0.123812805430805	-0.000400729963313748	0.123813453926259	0.185441686507098
1777.843	0.123772633217794	-0.000263573601987619	0.123772913857234	0.122011075994211
1513.548	0.123823854856279	-4.53235076472792E-05	0.123823863151208	0.0209720944963105
1292.065	0.12372467504508	3.33016972219332E-05	0.123724679526817	-0.0154217148250074
1101.762	0.124209981060295	0.000107386200615983	0.124210027480856	-0.0495352667132636
939.101	0.12482738433852	0.000166420092227249	0.124827495274253	-0.0763867905426209
801.2801	0.126822112720981	0.000175299976952182	0.126822233875197	-0.079197091231958
684.3433	0.127187740583846	0.000187638556372745	0.127187878994232	-0.0845277186705167
582.9476	0.126714336726021	0.000209118126888371	0.126714509280929	-0.0945557978882349
497.0677	0.126460001274559	0.000381513276886475	0.126460576761067	-0.172853345381838
423.5089	0.127106685358832	0.000469094563396644	0.127107550966174	-0.21145242341999
361.5036	0.126458079367642	0.000511532423298572	0.126459113956934	-0.231764464806732
308.1262	0.125299884640151	0.000409380362648542	0.125300553403073	-0.187196369754686
262.7298	0.122270555706983	0.000187794516012782	0.122270699923059	-0.088000129387907
224.2111	0.121625883359306	-9.64976598324539E-06	0.121625883742111	0.00454583224966528
191.2854	0.122009478278255	-0.000303445152667068	0.122009855621145	0.142497869508468
163.1722	0.121778466849097	-0.000473414469812602	0.121779387046317	0.222736540716194
139.1537	0.121195422961768	-0.000178754773615568	0.121195554787092	0.084507206781451
118.6706	0.119856391080691	0.000212612036868643	0.119856579655711	-0.101636295728903
101.1982	0.118716977202987	0.000400964909791393	0.11871765432771	-0.193514948319389
86.24196	0.117003565744303	0.00106429694576471	0.117008406214554	-0.521163957437044
73.61024	0.118176925572782	0.000198051949569214	0.118177091529659	-0.0960215385197386
62.69291	0.107740303400283	0.000513092078038009	0.107741525143584	-0.272857857310208
53.57697	0.101301552308928	0.00130445215297652	0.101309950624891	-0.737752489124146
45.65746	0.0188459281780417	-0.000971036716503796	0.0188709279368213	2.94955750848593
38.96512	0.000275430723477348	-5.42745342535869E-05	0.000280727284929163	11.147501239533
33.18414	0.000281160902774008	-8.84301421664476E-05	0.000294739449840488	17.4592959839414
28.30617	0.000237890350582299	-1.46558862261301E-05	0.000238341381008927	3.52540759456657
24.17237	0.000220999549326367	-3.69767845413826E-05	0.000224071603282248	9.49852297556854
20.61345	0.000224902936023289	-2.72501233079962E-06	0.000224919444077426	0.694184205424603
17.55618	0.263256560708355	-0.0135708784401141	0.263606118095973	2.95098589226919
14.98558	0.588020234868691	-0.000124398505039435	0.588020248027242	0.0121211971757342
12.76553	0.498497212846116	-0.00046977209806623	0.498497434197178	0.0539941847031543
10.8809	0.459728208297977	-3.31015389996396E-05	0.459728209489672	0.00412543420777055
9.278505	0.44881924285926	0.0001973629338197	0.448819286253262	-0.0251951372211017
7.923394	0.433038612982724	0.000165201467420115	0.433038644494376	-0.021857973191252
6.75822	0.428195073015306	0.000157013916332183	0.42819510180285	-0.0210096633389372
5.761429	0.429398102241019	0.000216909911579529	0.4293981570269	-0.0289428885365202
4.919708	0.428864960647514	0.000278169486281381	0.428865050860357	-0.0371630624570605
4.191257	0.428664302682547	0.000197013913052609	0.428664347956296	-0.0263331116163229
3.564097	0.426946603969439	0.000299694833627538	0.426946709154703	-0.0402187208630066
3.051758	0.425095954103913	0.000244954726619558	0.425096024679524	-0.0330157704823635
2.604164	0.424982207149868	0.000174195626658381	0.424982242850322	-0.0234849212279937
2.214424	0.425299648163472	0.000148387818804807	0.425299674049861	-0.0199906006045175
1.892567	0.427048935755819	0.000150133372744429	0.427048962146271	-0.0201429099751972
1.607507	0.429234211035998	0.000162194352733026	0.429234241680115	-0.0216503046384069
1.376413	0.431228600527343	0.000272253755112968	0.431228686470274	-0.0361733638096413
1.17375	0.433134667786804	0.000349838919093131	0.433134809067632	-0.0462772682619671
1.001604	0.432986965629771	0.000209086391045839	0.432987016112949	-0.0276677308564109
