EC-Lab ASCII FILE
freq/Hz	Re(Z)/Ohm	-Im(Z)/Ohm	|Z|/Ohm	Phase(Z)/deg
6999984	19.1288297674521	16.5048332849356	25.265028201759	-40.7884471761729
5969734	2.42362814468765	49.3130125403626	49.3725346644233	-87.1863001357032
5091109	13.8611627533701	-46.0241334455572	48.0661283263991	73.2391895992902
4341796	-41.0323617794283	-228.712114900207	232.363693840762	100.171013463635
3702781	36.7281553515267	-105.383681580205	111.600527502892	70.7856124332015
3157797	12.0136775754118	-138.134903222784	138.656337530074	85.0294578117127
2693047	461.555585357853	-193.752148022754	500.573124766463	22.7717262829267
2296687	-5.48978419690406	-247.831295931167	247.89209138948	91.2689682006874
1958656	14.9438158367407	-3.42923830568382	15.3322309896372	12.9242147143439
1670375	248.268353587433	-58.2277098566618	255.005179532037	13.199320399676
1424531	39.2402544177751	-54.0195619004316	66.7675867070712	54.0050365237941
1214875	954.55385042088	-477.831519836095	1067.47178637292	26.5916760101095
1036062	46.3249581720812	-45.3345964978967	64.8168758061678	44.3809555770006
883578.1	33.6830591901929	-36.6289000153607	49.7616799630532	47.3991024360994
753531.2	24.9008358975728	-19.7051164592581	31.7544208429437	38.3561038259717
642624.9	102.841472618411	-103.339924664172	145.79269021429	45.1385146441446
548046.8	0.822459379488553	-34.8918276213769	34.9015196544619	88.6496916402468
467390.6	1.54348937465378	-45.2403275416858	45.2666499260623	88.0459660115175
398593.7	-5.67811714097858	-52.6641206469857	52.9693365805816	96.1537198830752
339937.5	-7.47314525624034	-59.8018383729135	60.2669708281488	97.1230498808776
289906.2	-9.59113338934261	-68.833547465116	69.4985402459975	97.9324100622794
247234.4	-8.99123088050132	-80.420262247277	80.9213248326255	96.3793506627978
210843.7	-11.8997992245488	-96.4792680470064	97.2103615077666	97.0313766336566
179812.5	-9.36943692605378	-112.098072384482	112.488951371359	94.7778190338481
153343.8	-14.2062699312361	-131.383649747601	132.14946661398	96.1713096873858
130781.2	-22.5285946619465	-168.50378080506	170.003122686149	97.6151633311154
111531.3	-20.3409610449041	-179.207009580847	180.357719488632	96.4756648681593
95109.37	-22.1856580073441	-208.144854578957	209.323873241716	96.0840482151873
81109.37	-26.1698995400191	-241.236701399938	242.652034288315	96.1913632102153
69171.88	-29.401316808704	-279.54951335964	281.091387007317	96.0039487154281
59000	-37.1780133061872	-326.367381216278	328.478115245699	96.4988123630825
50312.5	-41.9381965471631	-379.600210141103	381.909847829037	96.3044650789742
42906.25	-50.9314009117265	-437.19660692587	440.153246842874	96.6447447135023
36593.75	-161.061138261391	-509.027327836717	533.900281646904	107.557871837359
31203.13	-171.222521378031	-593.997531195118	618.182997900254	106.07986990904
26609.38	-183.173328798627	-687.28843723241	711.279034090376	104.923354599568
22703.13	-195.861500522429	-795.02899221374	818.799624967728	103.839662225858
19359.37	-213.820109230375	-920.356540012492	944.867821367124	103.079118048601
16500	-231.597232667451	-1065.96352700038	1090.83248900751	102.25789764084
14112.02	-247.007867191048	-1249.79752676991	1273.97281932326	101.179762957742
12011.13	-262.988075288706	-1388.94368212539	1413.62204278941	100.721683200535
10236.38	-317.477892201759	-1661.98277074372	1692.0339660556	100.814559659126
8750.684	-343.732226019863	-1910.08650493976	1940.76848169934	100.201552114115
7449.463	-430.62922827263	-2191.99841002854	2233.89761668039	101.114503064877
6363.206	-447.018678951968	-2544.59050012176	2583.55694975781	99.9637173333567
5414.761	-501.362907942488	-2957.07644654787	2999.27755904463	99.6228074452538
4620.567	-568.507013214579	-3421.31611751634	3468.22781836074	99.4344189222148
3941.215	-651.158615953144	-3945.87407625292	3999.24114911503	99.3706487196168
3361.769	-743.853287978296	-4568.24484054625	4628.40994697029	99.2483795261358
2867.244	-1550.79545309231	-5269.33232533013	5492.79798391501	106.399465767164
2442.658	-1756.57606620809	-6022.13060713867	6273.08668247231	106.261268346978
2083.003	-1788.52826252866	-7143.30396276061	7363.80505243419	104.056641342874
1777.843	-1915.25338991637	-8244.33192567864	8463.87644335325	103.078487795026
1513.548	-1968.27458822608	-9487.70734477582	9689.72112678016	101.720062158551
1292.065	-2470.37560804653	-10815.1868155802	11093.7379408714	102.866608002387
1101.762	-2907.04105105255	-12854.785632554	13179.393056261	102.742791822859
939.101	-2854.39171540166	-14639.2001561313	14914.8829454417	101.033257649527
801.2801	-3806.74299650248	-16926.3478372409	17349.1366744484	102.674953619916
684.3433	-3983.14989498234	-19736.280021134	20134.2055258833	101.410091991385
582.9476	-4566.22842062487	-22960.6444769045	23410.2891221814	101.247773048024
497.0677	-5773.24904165012	-26152.4977484449	26782.1497079553	102.44857799506
423.5089	-18758.7500711488	-41497.9232558561	45540.8425348143	114.324904468311
361.5036	-20368.8735357629	-47623.1108000046	51796.2517117351	113.156872707157
308.1262	-22224.6534120086	-54201.4619114393	58581.0011234112	112.295487957957
262.7298	-25841.6406212254	-62195.8278103755	67350.659885516	112.56231440315
224.2111	-27692.9658389852	-71702.6200474679	76864.5957423231	111.117544026948
191.2854	-30802.2390101263	-82537.737386436	88097.9910151714	110.465059689853
163.1722	-37758.9223182928	-93185.9987388057	100545.345867363	112.057767768758
139.1537	-41572.2249640971	-106484.203207375	114311.571685351	111.326043368596
118.6706	-41297.8940250175	-129871.187038286	136279.276757822	107.640205872519
101.1982	-3817.7432494535	-129151.124927115	129207.539383188	91.6931861522023
86.24196	-69185.8901595462	-166764.089264132	180546.251318781	112.532234118905
73.61024	-285882.354409502	-311526.003421034	422820.495447184	132.542097564495
62.69291	48028.5752229469	-359495.885202341	362689.999194024	82.3903569115607
53.57697	-348736.253349377	-285796.383350227	450884.183728184	140.664691042947
45.65746	-377178.49439507	-351270.129789104	515416.647690182	137.036951467297
38.96512	-432968.174668991	-390702.756002177	583189.577945195	137.937469233904
33.18414	-678866.145248547	-465130.939836952	822925.290872888	145.582674277452
28.30617	-678943.381499568	-526152.415457009	858953.130021256	142.22582914734
24.17237	-702145.585354698	-497055.531857991	860274.737966728	144.704960231091
20.61345	-1005762.20753457	-526809.056926411	1135378.96781846	152.35486352856
17.55618	-911559.615490229	-425409.466454339	1005939.4349272	154.982333385471
14.98558	-117400.733324819	-1362113.0302547	1367163.06246726	94.9261578070075
12.76553	-1692464.43830414	-598675.001523326	1795229.13088361	160.519798588072
10.8809	241402.53384547	-1743301.18651415	1759935.85401533	82.1161393108111
9.278505	1710035.87391989	-1196143.31463094	2086859.24758458	34.9721864400393
7.923394	742157.481072461	2086400.18664119	2214466.85807854	-70.4189194443177
6.75822	867861.77888202	-235587.865359187	899269.542211212	15.1873980051107
5.761429	1292990.00438739	-733870.524692221	1486737.73694547	29.5782185172289
4.919708	307738.638629718	2886514.95673994	2902873.00190502	-83.9145392381677
4.191257	116652.045094318	3333811.27736991	3335851.51539205	-87.9960040917821
3.564097	1102701.06529439	3986794.43121465	4136481.53340076	-74.5391735406625
3.051758	2372587.30655195	2648059.11386037	3555472.90774524	-48.1405442004664
2.604164	2920277.72015448	-3441900.6948943	4513834.5512817	49.6870890698174
2.214424	1714727.83853253	3158147.18293736	3593631.19829144	-61.5000865179728
1.892567	3940663.56941994	44075.8348782669	3940910.05309353	-0.640819489343913
1.607507	-12076614.8438378	23761531.143581	26654361.5262826	-116.941602718673
1.376413	4343041.62453541	4358644.08223207	6153030.86194307	-45.1027334298387
1.17375	-4414660.2378901	15031040.6734458	15665931.4674484	-106.367666609534
1.001604	-105783.625378209	-8812915.56017062	8813550.41093518	90.6877025175272
