EC-Lab ASCII FILE
freq/Hz	Re(Z)/Ohm	-Im(Z)/Ohm	|Z|/Ohm	Phase(Z)/deg
6999984	8.11733506400561	-10.2228706539894	13.0536666477099	51.5491331490571
5969734	4.16365482696855	-7.09618871226802	8.22750969359858	59.597923933918
5091109	2.52421180027246	-4.7313017629688	5.36254245530107	61.9194916240086
4341796	1.86486296057658	-3.59506184348257	4.04996092823063	62.5829194549905
3702781	2.32101517432667	-1.35485005926177	2.68751374369254	30.2734626945745
3157797	1.97460107835426	-1.01980564507373	2.22239802293874	27.3146169672717
2693047	1.79932240518637	-0.780230409646452	1.96120386751167	23.4427400751162
2296687	1.7028534907795	-0.617845119123591	1.81147525577491	19.9422544257644
1958656	1.65504530083313	-0.495045322586524	1.7274966915235	16.6526000562869
1670375	1.63472762443853	-0.412831646758669	1.68604993243614	14.1730507133449
1424531	1.62320553014997	-0.359530309514356	1.66254570961792	12.4890418097862
1214875	1.62735021210468	-0.316194093321371	1.65778388744989	10.9955642914202
1036062	1.61600972895667	-0.294324314052186	1.64259375559658	10.3221555356471
883578.1	1.62429981335752	-0.255845333992251	1.64432561209721	8.95118212345802
753531.2	1.62249190176891	-0.222871178182966	1.63772755163072	7.82140102470726
642624.9	1.61870324777826	-0.190978010184879	1.62993030671317	6.72877050939278
548046.8	1.61806985334045	-0.162851579410305	1.62624435039929	5.74721359224236
467390.6	1.61421374614652	-0.141858383852597	1.62043507099718	5.02229593068694
398593.7	1.61195775470053	-0.120824051535203	1.61647958674663	4.28658087948228
339937.5	1.6106764651296	-0.102328174287756	1.61392370655352	3.63518287036686
289906.2	1.60929910108911	-0.0871823210489804	1.61165888260193	3.10091576922564
247234.4	1.60783406966287	-0.0727289491670425	1.60947814387634	2.58995831006371
210843.7	1.60677126929613	-0.0593666622398309	1.60786762901086	2.11599043319764
179812.5	1.60712948115631	-0.0486668554334279	1.60786617354167	1.73449221488774
153343.8	1.60902933126383	-0.0390887728402195	1.60950406058185	1.39163484323925
130781.2	1.61128012118599	-0.0326921219600414	1.6116117410119	1.16234515503702
111531.3	1.61202941697445	-0.0271459168257307	1.612257963848	0.96474633544128
95109.37	1.61213423877313	-0.0230120545013594	1.61229847065517	0.817800422681873
81109.37	1.6129843304688	-0.019237508363086	1.61309904595654	0.683314623093176
69171.88	1.61259162512227	-0.016316291170883	1.61267416757758	0.579702081337308
59000	1.61307067223327	-0.0131595176112768	1.61312434936766	0.467411692703727
50312.5	1.61345681327764	-0.0107399564181076	1.61349255807887	0.381383053793086
42906.25	1.61383766252267	-0.00846578587848746	1.61385986706008	0.300556470591776
36593.75	1.6144147489586	-0.00648784473142841	1.61442778524911	0.230253174030516
31203.13	1.61490523266666	-0.0045154337543266	1.61491154545261	0.160204213434514
26609.38	1.61560796703669	-0.00348479908683146	1.61561172531555	0.12358441809964
22703.13	1.61562083609898	-0.0024652632065426	1.61562271696082	0.0874271142969967
19359.37	1.61702058415591	-0.00202898513215827	1.61702185710787	0.0718928533722918
16500	1.61753417991852	-0.00138016525603587	1.61753476873321	0.0488877613794083
14112.02	1.61763627616422	-0.000826384931112389	1.61763648724752	0.0292700932741635
12011.13	1.61795239526346	-0.000789861608986896	1.61795258806311	0.0279709916877957
10236.38	1.61813720428046	-0.000770122039544757	1.61813738754302	0.0272688490985967
8750.684	1.61783847728127	-0.000340303915954942	1.61783851307185	0.0120518692825234
7449.463	1.61809253209306	-0.00067365483948347	1.61809267232325	0.0238537513494533
6363.206	1.61851771251493	-0.000899728747957002	1.61851796259306	0.0318505347552501
5414.761	1.61841469658623	-0.000740986527205565	1.6184148662155	0.0262327064923042
4620.567	1.6182408451317	-0.000431769646747007	1.61824090273284	0.0152873275741594
3941.215	1.61839552015792	-0.000599002195668718	1.61839563100957	0.0212063712091615
3361.769	1.61826305302375	-0.000381811373552162	1.61826309806585	0.0135183089225371
2867.244	1.61829768665702	-0.000502961273165525	1.61829776481633	0.0178073277374377
2442.658	1.61851888898926	-0.000387206697498186	1.618518935306	0.0137071672709682
2083.003	1.61828400997165	-0.000135494680567439	1.61828401564396	0.00479722550368806
1777.843	1.61820763232873	-0.000239472723709002	1.61820765004809	0.00847899614533481
1513.548	1.6180777105539	6.40732075432014E-05	1.61807771182249	-0.00226881833068186
1292.065	1.61803145035063	-0.000127978780323687	1.6180314554119	0.00453183030706787
1101.762	1.6183200290503	-0.000122773509392235	1.6183200337074	0.00434673228064629
939.101	1.6182301534646	-9.541714487415E-05	1.61823015627768	0.00337838204067364
801.2801	1.61814122004423	7.16770864414861E-05	1.61814122163174	-0.00253797041156472
684.3433	1.61811167915275	0.000108097772894324	1.61811168276348	-0.00382763824783572
582.9476	1.61842719453846	2.48110067909205E-05	1.61842719472864	-0.000878362634584996
497.0677	1.61814023266059	0.000225063081061487	1.61814024831232	-0.00796912673302584
423.5089	1.61804205192457	0.000334193646240793	1.61804208643708	-0.011833984892191
361.5036	1.61849265563541	0.000156512415998865	1.61849266320299	-0.0055406497020262
308.1262	1.61791375886132	7.09377200272082E-05	1.61791376041646	-0.00251214376599141
262.7298	1.61794403346	0.000176556848996914	1.61794404309332	-0.0062523561027415
224.2111	1.61797466910804	0.000142782478858705	1.61797467540815	-0.00505621846990545
191.2854	1.61807895226252	0.000349536126241541	1.61807899001578	-0.0123769884537924
163.1722	1.61789249975236	-8.11202078068363E-05	1.61789250178602	0.00287277772619163
139.1537	1.61798304914205	2.10285859144429E-05	1.6179830492787	-0.000744661214217833
118.6706	1.61810534762906	0.000292013811888017	1.61810537397842	-0.0103399687934977
101.1982	1.61799149548791	0.000185077679399037	1.61799150607317	-0.0065539095198968
86.24196	1.617893500711	0.000384839112279164	1.61789354648074	-0.0136286204868337
73.61024	1.61769995366076	0.000189142288293876	1.61769996471806	-0.00669905118855934
62.69291	1.61757505742632	0.000311551753728032	1.61757508742941	-0.0110354077764936
53.57697	1.61792117409112	0.00025052037272746	1.61792119348652	-0.00887173006600723
45.65746	1.61784043357398	0.000351876093465728	1.61784047184005	-0.0124616830750687
38.96512	1.61800938023038	0.000249569697031909	1.61800939947781	-0.00883758178141743
33.18414	1.61798042298543	0.000474268421696339	1.61798049249509	-0.0167947508852589
28.30617	1.61810380821526	0.000293245558355263	1.6181038347874	-0.0103835938000189
24.17237	1.61859006647398	0.000341310959363218	1.61859010245998	-0.012081920918878
20.61345	1.61844225320543	0.000174296035157854	1.61844226259072	-0.00617039449014803
17.55618	1.61864576011447	0.000311990736834216	1.61864579018227	-0.0110436469095876
14.98558	1.61858513146129	0.000344028170712142	1.61858516802267	-0.0121781434509923
12.76553	1.61870106386847	0.000378943105817585	1.61870110822437	-0.013413125330507
10.8809	1.61863067783468	0.000422606998374013	1.61863073300375	-0.0149593092364471
9.278505	1.6186499307027	0.000108674003706258	1.61864993435082	-0.00384676243312159
7.923394	1.61885209043995	0.000443847973591925	1.61885215128585	-0.0157090417001096
6.75822	1.61848695870524	0.000384719698337119	1.61848700442981	-0.0136193958663321
5.761429	1.61868780673619	0.000164664740690202	1.61868781511164	-0.00582854495126118
4.919708	1.61848033858859	5.25369885604718E-05	1.61848033944128	-0.00185986053708252
4.191257	1.6186533976143	0.000318535939285833	1.61865342895676	-0.0112752765574251
3.564097	1.61862882122123	0.000202063148575625	1.6186288338336	-0.00715257593129514
3.051758	1.61858755905118	0.000191843576911164	1.61858757042034	-0.00679099945552194
2.604164	1.61799111482011	0.000491765762616596	1.61799118955277	-0.0174142500420882
2.214424	1.61833284862268	0.000282435335607945	1.61833287326832	-0.00999939695049396
1.892567	1.61844122131506	5.69538852974955E-05	1.61844122231718	-0.00201627171261748
1.607507	1.61837685377643	0.000130031838636568	1.61837685900027	-0.00460354800724219
1.376413	1.61872903572681	0.000390884705847478	1.6187290829215	-0.0138355728424349
1.17375	1.61845385142599	-7.64407407464625E-05	1.61845385323117	0.00270612091936413
1.001604	1.61848845953518	-3.54235655915801E-05	1.61848845992284	0.00125402241296252
