EC-Lab ASCII FILE
freq/Hz	Re(Z)/Ohm	-Im(Z)/Ohm	|Z|/Ohm	Phase(Z)/deg
6999984	26.1756091475272	90.4290773923095	94.1412797462856	-73.8563797362051
5969734	24.1778712491526	89.0557711535935	92.2794659385381	-74.810812831334
5091109	22.4549510538197	94.0240100478802	96.6681917298204	-76.5681316847798
4341796	23.6196058995714	102.471122930325	105.15805636019	-77.0200234977994
3702781	28.782954067503	112.197260054522	115.830408825118	-75.6116932373679
3157797	31.7876263371302	123.465297902934	127.491697668551	-75.5620750923096
2693047	36.2047333011305	138.964050886617	143.602890473083	-75.3971778388709
2296687	43.4237655631167	158.093114282807	163.948333932728	-74.6412173239753
1958656	53.0615985064261	178.444699228019	186.166710017219	-73.439839419145
1670375	65.3310476626498	201.832330386136	212.142488384099	-72.0637666825793
1424531	80.7579817456954	227.665531700549	241.564579233239	-70.4692824345097
1214875	99.5177876009653	255.621312981887	274.310126862963	-68.7281782866662
1036062	122.432801263813	285.646130115514	310.778864267301	-66.7992012777992
883578.1	149.933434490618	317.31718600004	350.956167219122	-64.7091085369415
753531.2	182.796985531153	350.084220614392	394.935057246711	-62.4286219207618
642624.9	220.824810071271	383.011603961605	442.110263975238	-60.0344604780281
548046.8	264.868115576181	415.617192683311	492.841525749234	-57.4911008254424
467390.6	383.080496232196	464.880599816825	602.382468768436	-50.5100913763212
398593.7	437.693693327284	491.37985878749	658.050100524643	-48.3071374089787
339937.5	500.429647738951	478.734323199868	692.543417083554	-43.7307057753066
289906.2	579.405536164401	502.100230850805	766.691213695833	-40.9114898626772
247234.4	629.20862919568	527.430482209498	821.027656427024	-39.9712260138219
210843.7	676.653021840531	526.576170655282	857.404091119178	-37.8903063272642
179812.5	736.03134131562	532.22563464554	908.298553105045	-35.8707618797209
153343.8	794.272240565492	536.533579577405	958.507524303837	-34.0391590481364
130781.2	852.102489684984	538.579699292355	1008.04104351817	-32.295333350766
111531.3	909.500239273916	539.488618811376	1057.46803973752	-30.6751634047408
95109.37	965.038105020478	540.481653920211	1106.08271045426	-29.251552359913
81109.37	1019.02141766552	540.275355706538	1153.38723317231	-27.9321050422401
69171.88	1071.63402877411	541.697248175958	1200.76450659904	-26.816011905215
59000	1123.21740181682	542.754433498288	1247.47733719943	-25.7904862068663
50312.5	1174.71015904438	547.73113284967	1296.13014456684	-24.9981887086035
42906.25	1227.93216233494	544.55280402442	1343.26287511694	-23.915917270225
36593.75	1271.99667465283	551.911177519625	1386.57184747093	-23.4557118395979
31203.13	1318.95851853364	561.92595974464	1433.67093778432	-23.0758293622703
26609.38	1365.42746591778	574.477475777627	1481.35631596807	-22.8179926248835
22703.13	1412.51690060647	590.058294662033	1530.8078865744	-22.672020167418
19359.37	1460.02439054382	610.046873912326	1582.34901628972	-22.6767986354294
16500	1507.65109075568	632.96997181019	1635.13387729268	-22.7745395057008
14112.02	1558.67872395241	661.730187439191	1693.32991630994	-23.0034361448555
12011.13	1610.61877072572	694.585035349564	1754.00718240992	-23.3282917555388
10236.38	1666.54302164726	732.326360785713	1820.3481924354	-23.7220512706645
8750.684	1721.6929706048	774.496173925132	1887.87473325288	-24.2203927721354
7449.463	1781.99588709899	822.816815351397	1962.78803064996	-24.7846072313126
6363.206	1843.14910905465	876.588904646973	2040.98180931608	-25.4354357203796
5414.761	1910.93797933552	936.88112291318	2128.24580331737	-26.1174617613915
4620.567	1978.20562001407	1005.862626333	2219.24696645253	-26.9520721928248
3941.215	2051.21853132229	1085.40871789744	2320.69160987144	-27.8856954608345
3361.769	2124.96746471262	1170.02634074526	2425.78819440712	-28.8375788937751
2867.244	2206.12308142252	1265.15952236268	2543.14916342124	-29.8332534909976
2442.658	2291.41141504899	1373.40345848115	2671.47961489224	-30.9372113819218
2083.003	2384.33913324524	1496.99492902137	2815.32714259646	-32.1224433360853
1777.843	2475.81359325047	1635.29723314662	2967.12823943637	-33.4451221357228
1513.548	2583.18682814209	1795.61493375579	3145.9636328816	-34.8037884144724
1292.065	2690.44464967084	1970.39721932466	3334.80998182278	-36.217876900745
1101.762	2826.38817776968	2171.51626281899	3564.26051392481	-37.5351011421728
939.101	2958.24184993398	2400.78200935418	3809.84896014783	-39.0613002802187
801.2801	3102.10069410009	2658.43296816948	4085.37569417877	-40.5958588724955
684.3433	3264.43688376043	2952.26040523973	4401.40769168248	-42.1252608446162
582.9476	3443.01062387267	3282.68827772214	4757.13826631037	-43.6344832431923
497.0677	3641.4414295872	3651.64253973328	5156.99417520553	-45.0801417039767
423.5089	3863.39869706153	4068.07890663804	5610.26875319624	-46.4782503973431
361.5036	4105.39112951801	4526.03835324529	6110.58585582204	-47.7900659171849
308.1262	4378.61540773253	5046.35189098953	6681.16309459111	-49.0524982046643
262.7298	4679.97495030658	5622.67369143117	7315.5057908397	-50.2280414425122
224.2111	5014.42682517663	6266.07584357156	8025.47088104131	-51.331460753109
191.2854	5377.94204092998	6987.65566251777	8817.57292306215	-52.4168720002048
163.1722	5779.0284490659	7793.52638371652	9702.38235222662	-53.4424549943331
139.1537	6238.53749913349	8704.36541990251	10709.1235631722	-54.3703143069239
118.6706	6723.64415434109	9715.99352192817	11815.5795808904	-55.3160613618786
101.1982	7264.32421510673	10862.874645935	13067.9934142731	-56.2281872534151
86.24196	7866.18770123597	12152.4148590625	14476.1215751264	-57.0852519008395
73.61024	8511.29036724412	13604.2271692991	16047.3381153834	-57.9684319645659
62.69291	9241.32963443279	15248.1797462629	17830.0072626622	-58.7815736674156
53.57697	10067.700674509	17082.152591917	19828.2256907936	-59.4861971638675
45.65746	10948.5150456075	19193.4728376386	22096.5920737353	-60.2983075426859
38.96512	11943.2109665539	21570.7969951878	24656.430625685	-61.0277974074465
33.18414	13045.5626178255	24277.0038696174	27560.1092323856	-61.7480626517054
28.30617	14286.9875631066	27332.0511795649	30840.8663190695	-62.403068003099
24.17237	15671.2517772614	30786.6637671505	34545.7204032264	-63.0226645627534
20.61345	17260.637707868	34728.9913815194	38781.8573106023	-63.5721883840634
17.55618	19061.0027698461	39207.0737613179	43594.9132298425	-64.0727243138897
14.98558	21054.7029681108	44215.2046379518	48972.2864307082	-64.5368201279457
12.76553	23433.6998838913	49999.3390474255	55218.4044991133	-64.8884443268174
10.8809	26205.1321423641	56499.1900966528	62280.5542057589	-65.1174555575312
9.278505	29341.2474132294	63775.6469265331	70201.4383090699	-65.2942703331086
7.923394	32776.5075398387	71765.7299113119	78896.257428426	-65.4530942339189
6.75822	36765.3284141341	80924.1403456101	88884.2273076339	-65.5668263562523
5.761429	42067.9130914111	91378.9064341482	100597.285514905	-65.2801755713484
4.919708	47210.6894776126	102682.616701426	113015.790815282	-65.3083077990893
4.191257	53732.54320528	115530.088366941	127414.235929038	-65.0570658059245
3.564097	61233.1631275648	129944.453406513	143649.090626165	-64.7689826265327
3.051758	69364.830759331	146101.338346883	161731.508411383	-64.6029394575038
2.604164	80185.1990918075	162937.250327533	181599.046521974	-63.7971316144318
2.214424	90418.6709322433	183803.689290653	204839.772139124	-63.8060124602563
1.892567	104028.756127693	202842.09131141	227962.488381447	-62.8487145761517
1.607507	120188.740965918	229058.190412247	258675.449260083	-62.313629291279
1.376413	133842.851279534	253779.400194117	286910.94925346	-62.192907083845
1.17375	153369.187558078	279004.280523284	318379.484644567	-61.2023203518433
1.001604	176807.280577866	309186.455092033	356170.01344543	-60.2370583543864
