EC-Lab ASCII FILE
freq/Hz	Re(Z)/Ohm	-Im(Z)/Ohm	|Z|/Ohm	Phase(Z)/deg
6999984	12.6193831934074	-1.52088277830908	12.7107008700311	6.87211882015656
5969734	8.71061618593913	-1.33182986167852	8.81184459232024	8.69304744801773
5091109	6.42585639427533	-0.692943210957417	6.46311075980144	6.15480430854252
4341796	5.23082553492142	-0.313669704844873	5.24022179497427	3.4316676885786
3702781	4.52882073742422	-0.0837185810637983	4.52959447109109	1.05903398908139
3157797	4.24380633074213	0.108688028026008	4.24519790590299	-1.46708020682869
2693047	4.01770502753473	0.170227896678789	4.02130964053821	-2.4261387902377
2296687	3.88262522341644	0.229857659540317	3.8894232437675	-3.3880478386775
1958656	3.78915846562158	0.249540719368429	3.79736651486456	-3.76785869628074
1670375	3.72703037228165	0.258797159852714	3.73600473311501	-3.97212273390724
1424531	3.68152468400208	0.245059040323524	3.68967179192959	-3.80824992900629
1214875	3.64756705058888	0.225282471675557	3.65451742102646	-3.53423515531615
1036062	3.62428260229554	0.204578925009387	3.63005191668937	-3.23073138982622
883578.1	3.61049070328838	0.18247114319013	3.6150987312422	-2.89321856849071
753531.2	3.59884194854004	0.160335901268537	3.60241182706906	-2.55095936478034
642624.9	3.59259270090855	0.139450930466412	3.59529816241008	-2.22289060678197
548046.8	3.58938072422842	0.120863845484733	3.59141504878062	-1.9285702088324
467390.6	3.58787959344646	0.104850416615832	3.58941131481669	-1.67390708467281
398593.7	3.59058237777698	0.0904817859837837	3.59172225613248	-1.44353393327999
339937.5	3.58817916605357	0.0786451681027783	3.58904092901806	-1.25559919281472
289906.2	3.58700077212025	0.0683140425841621	3.58765122992822	-1.09106003799803
247234.4	3.58568026314834	0.0595933246122754	3.58617544382172	-0.952157306766666
210843.7	3.58540621070175	0.051990420109235	3.58578313615335	-0.830763019838913
179812.5	3.5850231463209	0.0452911104586608	3.58530922576327	-0.723803258643891
153343.8	3.58422173378864	0.0393446502836825	3.58443767395512	-0.628920874812431
130781.2	3.58585954002878	0.0357650321174569	3.58603789415809	-0.571443868748749
111531.3	3.58619778941902	0.0311850602010688	3.58633337725505	-0.498223300277801
95109.37	3.58720223211055	0.0275589542834695	3.58730809243088	-0.440170528925791
81109.37	3.58806372641745	0.0235329583597863	3.58814089814793	-0.375779240077809
69171.88	3.58850822395299	0.0209584253645013	3.5885694265225	-0.334628093428585
59000	3.58924222150196	0.0179738154619316	3.58928722487551	-0.286917152982907
50312.5	3.58999031605555	0.0155001954248101	3.59002377783642	-0.24737957007633
42906.25	3.58983531073033	0.0133778165519804	3.58986023741064	-0.21351644658117
36593.75	3.59087974495226	0.0114325020156376	3.59089794408178	-0.182415438024776
31203.13	3.59071467778244	0.0105497511591235	3.59073017567344	-0.168338208773089
26609.38	3.59140347562074	0.0092372106676624	3.59141535480953	-0.147366349189474
22703.13	3.59120515959674	0.00752029625806933	3.59121303366565	-0.119982175145873
19359.37	3.59173698974395	0.00645434754281627	3.5917427889671	-0.10296034389767
16500	3.59125875508389	0.00579196559448354	3.59126342570858	-0.0924062894240221
14112.02	3.59206734417426	0.00500271134539361	3.59207082783789	-0.0797964050856649
12011.13	3.59156419918983	0.00433902469350047	3.59156682021055	-0.0692198906664475
10236.38	3.59178373416539	0.0032463304503647	3.59178520121631	-0.0517851287352936
8750.684	3.59207996225744	0.00284810619929466	3.59208109136756	-0.0454289526800744
7449.463	3.59181911736002	0.0023077739125652	3.59181985874199	-0.0368130138921254
6363.206	3.59160994233175	0.00233549102595059	3.59161070167336	-0.0372573197439375
5414.761	3.59221642414658	0.00186959040083202	3.59221691066627	-0.0298199264926828
4620.567	3.59364766220945	0.00188811379576954	3.59364815821988	-0.0301033801730899
3941.215	3.59057235666026	0.00341974365250254	3.59057398518113	-0.0545698010224546
3361.769	3.5895233679445	-0.000310327038739908	3.58952338135893	0.00495342353892324
2867.244	3.59450656970364	0.000615190100243633	3.5945066223477	-0.00980601796505935
2442.658	3.59102167087689	0.00251426141574887	3.59102255105951	-0.0401157546176436
2083.003	3.59242949042649	0.00199477176134884	3.59243004424586	-0.0318146790564308
1777.843	3.59158945949676	0.00131527962634937	3.59158970033169	-0.0209823447112654
1513.548	3.59248223384654	0.000831193707021624	3.59248233000331	-0.0132565416946757
1292.065	3.59287258412727	0.000698127128448079	3.59287265195343	-0.0111330798918296
1101.762	3.5924366617465	0.000268513912606048	3.59243667178143	-0.00428252892195511
939.101	3.5930527419481	0.000636063042729899	3.59305279824789	-0.010142831204927
801.2801	3.59300805609016	0.000148734113560272	3.59300805916862	-0.00237178343012923
684.3433	3.59312156364015	0.000523209525690166	3.59312160173352	-0.00834307909717387
582.9476	3.59363381183677	0.000744828054134936	3.59363388902449	-0.0118753066083759
497.0677	3.59316518042488	-0.000103208208225014	3.59316518190713	0.00164573417692843
423.5089	3.59373592708136	3.05025596164928E-05	3.59373592721081	-0.000486309502364748
361.5036	3.59369346525258	3.80420843489571E-05	3.59369346545394	-0.000606521089811792
308.1262	3.59371866808631	0.000381708626625566	3.59371868835799	-0.0060856998688718
262.7298	3.59412806545748	0.000398890351441693	3.59412808759268	-0.00635890906390198
224.2111	3.59396192637063	-9.12992118161958E-05	3.59396192753029	0.00145551333486059
191.2854	3.59433882265379	-0.000199148799653059	3.59433882817083	0.00317454371068892
163.1722	3.59420772514674	0.000165900865221907	3.59420772897556	-0.00264464942344013
139.1537	3.59473262853969	0.000137757559542292	3.59473263117927	-0.00219569230024711
118.6706	3.59411145824529	-5.17140883672187E-05	3.59411145861734	0.000824403761270756
101.1982	3.59443697080317	0.000229606523464354	3.5944369781366	-0.00365995699247053
86.24196	3.59445797440951	0.000410153177311867	3.59445799781021	-0.00653785524247724
73.61024	3.59442741391648	0.000147642651713441	3.59442741694873	-0.00235344878068505
62.69291	3.59478170061657	6.82650482941826E-05	3.59478170126475	-0.00108804914478461
53.57697	3.59475185571732	0.000211607045344738	3.5947518619455	-0.00337274757371632
45.65746	3.59496911879828	9.40246917384315E-05	3.59496912002787	-0.0014985436111905
38.96512	3.59505980294225	0.000133904976838526	3.59505980543603	-0.00213409246177701
33.18414	3.59538242705748	0.000258940521459109	3.59538243638196	-0.00412645922926604
28.30617	3.59535393763921	0.000597907005805844	3.59535398735515	-0.00952828240344764
24.17237	3.59518654978484	0.000219004204378256	3.59518655645526	-0.00349022684002995
20.61345	3.59557265867957	0.000211933947333169	3.59557266492559	-0.003377186850713
17.55618	3.59555978211894	-1.68877905805304E-05	3.5955597821586	0.000269109452822903
14.98558	3.59589763389529	5.78161007269224E-05	3.59589763436008	-0.000921221596534167
12.76553	3.59594010365968	0.00015522389686523	3.59594010700991	-0.0024732542556469
10.8809	3.59612414025474	-0.000149870487461402	3.5961241433777	0.00238783369684423
9.278505	3.59663189008981	0.000132988125704277	3.59663189254847	-0.00211855384637306
7.923394	3.59645999089413	-0.000171578330933353	3.59645999498692	0.00273344183886715
6.75822	3.59651715581346	0.000218570777727622	3.59651716245505	-0.0034820306787706
5.761429	3.59676576144036	3.48668710509728E-05	3.59676576160936	-0.000555422479106624
4.919708	3.59682056015525	5.04238634043254E-05	3.5968205605087	-0.000803230105951696
4.191257	3.5968561752515	0.000147156845943386	3.59685617826179	-0.00234412102778032
3.564097	3.59734761623801	6.89087764304184E-05	3.597347616898	-0.00109752586671608
3.051758	3.59701759053262	-2.22117310995425E-05	3.5970175906012	0.000353803787620243
2.604164	3.59732775208493	2.35001514892192E-05	3.59732775216169	-0.000374294362655948
2.214424	3.5974080985459	3.61086959977193E-05	3.59740809872712	-0.000575101803200203
1.892567	3.59760462347835	2.75333208163131E-05	3.59760462358371	-0.000438498179713364
1.607507	3.59788519598021	7.70990458976094E-05	3.59788519680629	-0.00122779068622805
1.376413	3.59801900788614	5.57592561536669E-05	3.59801900831819	-0.000887924727227934
1.17375	3.59839664885751	0.000105353137436023	3.59839665039977	-0.00167749437342812
1.001604	3.59850850807404	-7.58428850291E-05	3.59850850887328	0.00120757730817363
