EC-Lab ASCII FILE
freq/Hz	Re(Z)/Ohm	-Im(Z)/Ohm	|Z|/Ohm	Phase(Z)/deg
6999984	21.6750721360211	9.62492995972067	23.7159867775146	-23.9438661514714
5969734	18.6715408518761	3.57951243441935	19.0115582489032	-10.8524738116642
5091109	12.5237556715047	-6.08198787538398	13.9224650344637	25.9028833375371
4341796	8.15133911864293	-6.01440196082996	10.1300227232496	36.4214717236668
3702781	5.65663415852716	-5.83988974339364	8.13030271382379	45.9132223380969
3157797	4.2937186720894	-4.78911672705343	6.43208046128095	48.1219459904365
2693047	3.03061103818516	-5.25331393972266	6.06480919848714	60.0195635753547
2296687	2.40687805915778	-3.798443345075	4.49680262379835	57.6396687817198
1958656	1.8361272239983	-3.22688534707918	3.71270147276912	60.3597286183239
1670375	1.32149663116802	-2.75981183320474	3.05988802097158	64.4132331315359
1424531	1.15213154198685	-2.41228137188138	2.67329543955899	64.4703570237105
1214875	1.0464865502491	-2.20381765262497	2.43966111291583	64.5992152318354
1036062	0.825071788281476	-1.85037555027754	2.02598942072334	65.9681832917415
883578.1	0.716564613265612	-1.56179272870688	1.71833098453883	65.3539152395817
753531.2	0.654112549965388	-1.34879365005994	1.4990355360912	64.1284158115764
642624.9	0.595406915849278	-1.16895228425004	1.31185320760157	63.0079395474186
548046.8	0.547314173128747	-1.0148210095924	1.15300237884305	61.6610876584046
467390.6	0.510698888220675	-0.88056496547211	1.01794303025598	59.8876686909156
398593.7	0.482659983543976	-0.764672132353122	0.904258884231801	57.7399363958677
339937.5	0.454758859342391	-0.663807685235977	0.804640455811624	55.5858843763396
289906.2	0.43322919257511	-0.575929924700181	0.720682184783583	53.0485808876484
247234.4	0.415913763410457	-0.498857945624695	0.649494810223408	50.1809557709083
210843.7	0.401325981598012	-0.431230642946225	0.589086081079346	47.0571268464976
179812.5	0.391466383763722	-0.369820839930083	0.538528906618426	43.3713581053565
153343.8	0.383075385263178	-0.322813800112718	0.500954589097401	40.1205044377652
130781.2	0.374970141381079	-0.280119554797008	0.468048685402513	36.7613846652061
111531.3	0.369475885288098	-0.244047199709607	0.4427995771176	33.4456664456281
95109.37	0.362768319210713	-0.212980400175945	0.420667926376698	30.4170917546579
81109.37	0.356243805200039	-0.185157137021593	0.401488249060214	27.463081791146
69171.88	0.34960360333673	-0.160894272234459	0.384850160846896	24.7127927012709
59000	0.340627435154329	-0.136509741097411	0.366963157543504	21.8389223445639
50312.5	0.333479009325003	-0.107326318480706	0.350324404372586	17.8401639486766
42906.25	0.362693196665988	-0.106847077214833	0.378104023804489	16.4146334952352
36593.75	0.347377717571525	-0.0971158942316408	0.360697623470981	15.6193222389701
31203.13	0.341455926212239	-0.0849575946451884	0.351866370136951	13.9720456596571
26609.38	0.336271039748023	-0.0732640646321028	0.344159607362098	12.2910734324126
22703.13	0.336844748451213	-0.0649718635491374	0.34305353461553	10.9173498228069
19359.37	0.334123281568094	-0.0582089462228526	0.339155788254021	9.88254220817703
16500	0.331502054044004	-0.0518562729072318	0.335533433319577	8.89062621409064
14112.02	0.329534950582196	-0.0465246954695699	0.3328029911881	8.03607112180892
12011.13	0.327717416840236	-0.0416202657335811	0.330349741668086	7.23784351036651
10236.38	0.326027308552981	-0.0374860293699389	0.32817527073231	6.55896300764986
8750.684	0.324715598994091	-0.0338858116935332	0.326478894362592	5.95755785799079
7449.463	0.322978850155257	-0.0309507999194972	0.324458455989775	5.47389267044213
6363.206	0.322780514948468	-0.0283536878433018	0.32402344428253	5.02009061613348
5414.761	0.32175391656023	-0.0258545074058402	0.322791013466989	4.59412628925906
4620.567	0.321478466207503	-0.026119564726565	0.322537805375795	4.6449791583659
3941.215	0.312852730262989	-0.0222968516731049	0.313646266401401	4.07654772981661
3361.769	0.320328453900762	-0.0261233246185552	0.32139188923739	4.66224982518452
2867.244	0.313786791095774	-0.0278360760348746	0.315019042908841	5.06944749243723
2442.658	0.320652557337579	-0.00476757300528123	0.320687998340271	0.851830677965873
2083.003	0.301994986571593	-0.0227592975352467	0.302851378630963	4.30984411188018
1777.843	0.321153168520234	-0.0142826048101128	0.321470605889167	2.54643013340983
1513.548	0.307896522829916	-0.0105290637307704	0.308076500164813	1.95856684123868
1292.065	0.303000566721491	-0.0251031323995223	0.304038666438682	4.73605137285974
1101.762	0.305457024216926	-0.0231071632406628	0.306329780851438	4.32606225522915
939.101	0.310610027993804	-0.0130539010651047	0.310884212888544	2.40653389336171
801.2801	0.298451017843998	-0.00664981578932758	0.298525091243853	1.27640157148254
684.3433	0.306270940581353	-0.0110953986791107	0.306471853383692	2.07476955758475
582.9476	0.311346092478866	-0.0138431429067956	0.311653689064314	2.5458216522314
497.0677	0.308752869443596	-0.0183469551136669	0.309297502659813	3.40067582848218
423.5089	0.305682688245594	-0.0111586688343994	0.30588628897551	2.0906021003376
361.5036	0.296059635232642	-0.010922962326944	0.296261065143702	2.11293885998078
308.1262	0.293238222555286	-0.010095641546259	0.293411958082172	1.97180732292636
262.7298	0.300251354483964	-0.00799612391659175	0.300357809732233	1.52550815094495
224.2111	0.293267223465326	-0.00696973102956484	0.293350032401031	1.36142392461759
191.2854	0.291956731773327	-0.0127022609059832	0.292232921930241	2.49121590956646
163.1722	0.292361626161388	-0.0162982693194017	0.292815563169956	3.19076242699569
139.1537	0.284074381821519	-0.0138470754155336	0.284411666260091	2.79064766400639
118.6706	0.292498926463702	-0.0121218812360582	0.292749999124029	2.37312128658086
101.1982	0.286666188273381	-0.00864304316168144	0.28679645341999	1.72695610100838
86.24196	0.284711309852505	-0.00434772016708811	0.284744504123575	0.87487446752824
73.61024	0.277346437580651	-0.0181146770123676	0.277937381368431	3.73692355900604
62.69291	0.207554816792306	0.00908904957644263	0.207753731123874	-2.50744207432456
53.57697	0.270217071528365	0.00399066665034631	0.270246537749663	-0.846103964803541
45.65746	0.257411338445299	-0.0149853560063201	0.257847160261339	3.33174785981235
38.96512	0.285691340088805	-0.0089327978265926	0.285830958223121	1.79090105573396
33.18414	0.270374228043091	-0.00540979611091938	0.270428343713929	1.14625248944518
28.30617	0.295794902609135	-0.0273010039383903	0.297052132168062	5.27329269791549
24.17237	0.282748364256654	-0.0125950111203422	0.28302874729422	2.55055141883021
20.61345	0.268301992169814	-0.00245710884229824	0.268313243031636	0.524699909173914
17.55618	0.242008559512124	-0.0039279985914686	0.242040434741941	0.929876124029618
14.98558	0.272118080584876	0.00880881880123707	0.272260619755906	-1.85409199800114
12.76553	0.27990260572524	-0.034609774279208	0.28203422694318	7.048807545019
10.8809	0.262730936994245	0.00330274124340886	0.262751695243998	-0.720216542846372
9.278505	0.281439843843597	-0.0256505582398406	0.282606328380529	5.20757673064516
7.923394	0.280240998232603	0.0129875438683638	0.280541785454749	-2.65342828277713
6.75822	0.244554799221659	-0.00843549964290459	0.244700240041916	1.97553670521486
5.761429	0.288478896448062	-0.0314488775083895	0.290188052118673	6.22159972829888
4.919708	0.295345097532919	-0.000100494717455113	0.295345114630186	0.0194955765286804
4.191257	0.267627375841414	0.0278313913085272	0.26907062017606	-5.9370230506133
3.564097	0.248639624097242	0.00631525493605245	0.248719812472037	-1.45495584692592
3.051758	0.246269464395426	-0.0167516628630575	0.246838545009258	3.89136089493678
2.604164	0.254032045838784	-0.0308709594004493	0.255900950461975	6.92883018271861
2.214424	0.273243395906034	-0.0326836556947457	0.275191160388255	6.82095368905138
1.892567	0.28692743980647	-0.0177213657804644	0.287474177134261	3.53424317672528
1.607507	0.301690753364588	-0.00357558295897967	0.301711941194228	0.679027179912212
1.376413	0.326165251387205	0.0304807656892712	0.327586398205852	-5.33889407362679
1.17375	0.31220060349645	-0.00131706539632057	0.312203381603732	0.241709465144156
1.001604	0.261852636867055	0.0235105900920851	0.262905974220267	-5.13057750551533
