EC-Lab ASCII FILE
freq/Hz	Re(Z)/Ohm	-Im(Z)/Ohm	|Z|/Ohm	Phase(Z)/deg
6999984	20.5123901960235	95.8278542881118	97.9986520775541	-77.917905658549
5969734	18.2665209107238	95.0140674999375	96.7540118499723	-79.1176219857734
5091109	15.5220779494819	100.351914101234	101.545268563588	-81.207370951954
4341796	14.4722313724312	110.721717343888	111.66353107652	-82.5531915169368
3702781	17.892527048916	122.390048211251	123.691011902031	-81.6826967387946
3157797	17.0951691860852	135.896346191442	136.967374646976	-82.8301020193236
2693047	17.5409894041104	154.615189625746	155.607015176953	-83.5275062475568
2296687	19.3187337224666	178.016146328736	179.061335375266	-83.806364806447
1958656	22.1931561995733	204.322087961301	205.523847304794	-83.8009217073932
1670375	25.5237543604323	236.142336718722	237.517715607973	-83.8310592874171
1424531	29.8731795272241	273.469379547178	275.096180280614	-83.7658566903312
1214875	35.6799170147161	316.566760616486	318.571138688665	-83.5693894623809
1036062	42.5452052406587	366.931013798257	369.389311399215	-83.386157559498
883578.1	51.3247299542092	426.288373546728	429.366982109695	-83.1346863832151
753531.2	63.1132946039887	495.063227992458	499.070022808505	-82.7348191379933
642624.9	128.812526639163	655.204079807656	667.746249121447	-78.8775526696136
548046.8	161.389911039685	756.642248740888	773.662843857106	-77.9593878029164
467390.6	187.911801552663	819.528788841052	840.796218415645	-77.085741756901
398593.7	260.192913464174	993.030538622238	1026.55248421761	-75.3174794095682
339937.5	308.956586567355	1098.35269172283	1140.97888139884	-74.2891920546469
289906.2	374.22559216508	1249.40881112777	1304.24965829208	-73.3258781136935
247234.4	456.017036006323	1420.2305412095	1491.645509936	-72.1988701306711
210843.7	553.500236385883	1612.68303155816	1705.02465435396	-71.0569079491959
179812.5	679.071324216422	1827.65050841714	1949.72927461493	-69.6172368973707
153343.8	832.589392828258	2063.57702438012	2225.20903121474	-68.0274509032212
130781.2	1026.16627042905	2320.25570164645	2537.04626201201	-66.1419040952251
111531.3	1260.54401846679	2591.75825620801	2882.04477430778	-64.06327051027
95109.37	1554.83504254187	2870.14550015832	3264.23761414441	-61.5544029169512
81109.37	1894.0286704644	3140.17948373582	3667.16127196726	-58.9033271988809
69171.88	2297.27098093038	3401.70951777382	4104.76328222929	-55.9677263693265
59000	2754.6728720554	3626.84284281909	4554.36182560696	-52.7824706396999
50312.5	3834.690383132	3823.70851190629	5415.31135933195	-44.91783994935
42906.25	4528.27356283015	3802.75338821141	5913.22203129392	-40.022866699897
36593.75	4945.40694479873	3759.98678011584	6212.45124216757	-37.2456829711184
31203.13	5376.01274665015	3730.60112728349	6543.61504239314	-34.7581179486225
26609.38	5851.99477166195	3620.59723697651	6881.46548054706	-31.7448526899382
22703.13	6263.06522369215	3514.56970155789	7181.79547072532	-29.2993141217152
19359.37	6641.92438735946	3378.40364476765	7451.76292929261	-26.9600878723786
16500	6978.73972240291	3249.6324833533	7698.24131798356	-24.9689220244282
14112.02	7276.59050849026	3127.50139864134	7920.22944280998	-23.2581846397266
12011.13	7548.22302564616	3002.49001440068	8123.46090847188	-21.6913971714736
10236.38	7784.84131306433	2903.64920534254	8308.72631498231	-20.4548912242239
8750.684	7994.74733109065	2835.86063399728	8482.8114692852	-19.5303837147346
7449.463	8207.20035524548	2797.27097294966	8670.80518563577	-18.8207181896856
6363.206	8371.4459839935	2780.24231413822	8821.04615044302	-18.3718515938242
5414.761	8561.22052012477	2800.07667210892	9007.49277900871	-18.111115689994
4620.567	8750.89173363299	2865.70388274571	9208.16837798648	-18.1323609650375
3941.215	9022.20817324161	2855.62481940104	9463.34155731932	-17.5631331251529
3361.769	9096.62563440131	3081.91791013773	9604.52059903433	-18.7162737132112
2867.244	9290.92662236463	3350.1355319094	9876.4733373976	-19.8283618752483
2442.658	9692.99999360647	3327.25501635741	10248.1644610111	-18.9454854791533
2083.003	9788.8129996822	3672.16074385854	10454.9330208989	-20.5630026305871
1777.843	10045.8595758233	3954.89975824549	10796.3200543024	-21.4887935655374
1513.548	10331.6950889472	4257.88134755566	11174.6801735369	-22.3974587919913
1292.065	10611.9220639156	4596.67668443378	11564.7017441798	-23.420406180262
1101.762	10962.7343493246	5003.21438924885	12050.4646648437	-24.5311879985262
939.101	11327.7315846784	5422.13298544561	12558.5440623656	-25.5785777663371
801.2801	11727.9910566712	5901.85975674547	13129.2696984125	-26.7128451246238
684.3433	12190.2678827764	6453.46628638963	13793.1090825606	-27.8965186335845
582.9476	12653.3860760985	7008.89209273632	14464.8797975795	-28.9826976441259
497.0677	13187.1873322876	7660.23285708741	15250.6090751041	-30.1516404081738
423.5089	13749.5306684861	8457.16729427663	16142.2821263606	-31.5951617363823
361.5036	14376.8234182858	9163.96681542558	17049.0861747717	-32.5139453974982
308.1262	15109.8697404289	9996.86787074356	18117.5475933646	-33.4890909169211
262.7298	15843.4352378969	10934.9715757662	19250.6634561058	-34.6130278461615
224.2111	16723.1123123857	11915.3850723146	20533.8473461308	-35.4702529217686
191.2854	17637.0995132815	13081.4746646297	21958.8765341659	-36.5644075048181
163.1722	18678.5407548692	14322.8861683801	23537.9045992561	-37.4813405122557
139.1537	19872.4240241709	15556.457490746	25237.2067839893	-38.0544186285235
118.6706	21045.1341552575	17025.847611961	27069.8570095689	-38.9734085544456
101.1982	22417.806106317	18657.5571811485	29166.1185382672	-39.7694302783768
86.24196	23859.2501160521	20424.3293858175	31407.2769746232	-40.5646498613948
73.61024	25463.603682311	22302.589191451	33849.6764701294	-41.2138683390575
62.69291	27400.3515846043	24595.8048183541	36820.2781307053	-41.9125960997975
53.57697	29262.0359221409	26845.4060052154	39710.7362043757	-42.5337109976091
45.65746	31366.6626084717	29263.7535269221	42897.9579196742	-43.0135459622973
38.96512	33822.0615722219	31822.3438479278	46439.1366949356	-43.2551450757701
33.18414	36308.7517837821	34977.8710262624	50416.0382976107	-43.9304445922672
28.30617	38636.1293510063	37836.5581261246	54077.3115276573	-44.4009575336286
24.17237	42125.5596175868	41607.2499712596	59209.1717833119	-44.6453412219858
20.61345	45100.3537926764	45334.5841157706	63947.3723398738	-45.1483981661106
17.55618	49178.6418474217	49217.2855316323	69576.4328566735	-45.0225021497865
14.98558	52879.4633342356	54001.0699801244	75580.1111504545	-45.6012410890702
12.76553	57231.5977871913	58965.6847069428	82173.0354692671	-45.8549983669557
10.8809	61940.1327643241	63956.6986362104	89033.9224526536	-45.9176627610092
9.278505	66956.235831111	70232.7022152969	97034.8905143605	-46.368127909119
7.923394	71857.1669113253	76241.1554536656	104767.200122138	-46.6955675594583
6.75822	78749.8159276103	82599.1771649097	114123.431323075	-46.3666668667414
5.761429	84900.4024483382	89957.2138583072	123694.699405589	-46.6565090265642
4.919708	91801.7399279242	98675.9645700332	134775.759829506	-47.0668728585928
4.191257	100084.256329683	106733.810525674	146318.025801321	-46.8415228281899
3.564097	107400.338508732	118810.897675196	160158.865250027	-47.8876692775854
3.051758	114758.412986499	127630.160027938	171636.100806145	-48.0397666538809
2.604164	124641.245454739	139419.667697598	187011.453685108	-48.2032716198773
2.214424	135113.845084903	152272.576869744	203574.774469185	-48.4168530971683
1.892567	147573.22543706	167182.996508551	222997.782920538	-48.5650027942552
1.607507	160311.607623786	184463.103489635	244389.950873497	-49.0070282740428
1.376413	173840.775914868	202866.064530356	267161.47833982	-49.4059386797467
1.17375	189029.094995045	224394.498622974	293402.266124346	-49.8893374419206
1.001604	204580.108114162	248413.97528131	321811.317002783	-50.5270050904335
