EC-Lab ASCII FILE
freq/Hz	Re(Z)/Ohm	-Im(Z)/Ohm	|Z|/Ohm	Phase(Z)/deg
6999984	16.630793396463	0.133665878405492	16.6313305409665	-0.460490706313224
5969734	18.9616187228853	-3.42107820651693	19.2677648077607	10.2273482092868
5091109	12.0268272896397	-4.97182614328314	13.0139782485547	22.4599398395503
4341796	8.60406533287904	-3.00946995705689	9.11519882804971	19.2784599017935
3702781	5.90555278497452	-5.2737912209462	7.91760238571308	41.765569399989
3157797	4.26170430904405	-5.32206196188343	6.81809849913091	51.3135844699009
2693047	2.59565850292489	-3.27202281123185	4.17655077079495	51.5754319118536
2296687	2.61541296957143	-3.07406566133471	4.03612000460834	49.60888606036
1958656	1.81909782814073	-3.21965130362909	3.69800911644453	60.5336213091461
1670375	1.2961124359654	-2.62162131642016	2.92451804121171	63.6925095210409
1424531	1.19886081242168	-2.40566278177734	2.68783940502201	63.5106527168664
1214875	-0.0546760077546873	-2.18250836837507	2.18319313022261	91.4350686654958
1036062	0.862126774139731	-1.82613023057365	2.01940936753882	64.7277296652833
883578.1	0.761941033880554	-1.56413664996039	1.73984987825395	64.0278044227514
753531.2	0.707629960206991	-1.36090652503213	1.53388615303013	62.5269414784063
642624.9	0.675335627763726	-1.1059298247484	1.2958236714133	58.5896901018263
548046.8	0.605270418996948	-1.00577732178815	1.1738570190343	58.960737569953
467390.6	0.566407996162557	-0.877024412241806	1.04402578406137	57.1444441706544
398593.7	0.536740612940742	-0.759719305932811	0.930195629632303	54.758848446958
339937.5	0.513688640160452	-0.662987722914727	0.838706587410371	52.231164919647
289906.2	0.504928525378039	-0.575026878477157	0.765250760673665	48.7137770153389
247234.4	0.477425668323102	-0.496829886561276	0.689039334838187	46.1410074391291
210843.7	0.462374510608598	-0.428575823705255	0.630450176243277	42.8274951070624
179812.5	0.45234092498875	-0.369530269051387	0.584093256393933	39.2463713776239
153343.8	0.445875576193568	-0.32235106294247	0.550195635411702	35.8654963975837
130781.2	0.439360612822559	-0.279279812797491	0.520610182320723	32.4421022195667
111531.3	0.430307067533112	-0.243090205261678	0.494223654091051	29.4630883778753
95109.37	0.425040628798886	-0.212639440609036	0.475263156401037	26.5778963751366
81109.37	0.417648762912764	-0.18373665546177	0.456278037738876	23.7461842529954
69171.88	0.411436652417896	-0.160919802306371	0.441786488846327	21.3613047265429
59000	0.402654048246464	-0.135924018650416	0.424977201053591	18.6531509529216
50312.5	0.394625819548933	-0.106481174231717	0.40873925419567	15.100400093498
42906.25	0.423978405264197	-0.106186766893841	0.437073583729032	14.0606822305639
36593.75	0.407084166866056	-0.0968060070663704	0.418436281788715	13.3766737555808
31203.13	0.39879533395921	-0.0849959180992706	0.407752405855778	12.0315235512183
26609.38	0.394802844782277	-0.0729410795884232	0.401484355037283	10.4675435761615
22703.13	0.396230052493725	-0.0648674530576333	0.401504720975189	9.29750646272485
19359.37	0.395009004857428	-0.0580388914594817	0.399250080576449	8.35869219709119
16500	0.391748315593583	-0.0516052546517047	0.395132693000816	7.50440066539523
14112.02	0.390970165914181	-0.0462679760599375	0.393698356922714	6.74907613365221
12011.13	0.357796651451875	-0.0153535945830236	0.35812592290533	2.45714096357444
10236.38	0.335041702574803	-0.0522026076954906	0.339084141054152	8.85600810410884
8750.684	0.360291965887333	-0.0834879338611575	0.369838526634752	13.0464896374028
7449.463	0.386216848686648	-0.0117073254368136	0.386394249023363	1.73626551926367
6363.206	0.406399858121857	-0.0484864271549384	0.409282027823989	6.80363890448252
5414.761	0.368789013006098	-0.0604482366004862	0.373710215838583	9.30858173690473
4620.567	0.407755592211965	0.193483074717199	0.451331721887739	-25.3846888484649
3941.215	0.325176320469781	0.168789577944247	0.366373526632128	-27.4325144927758
3361.769	0.379652898384574	-0.0221388104829555	0.380297844039916	3.33732617690575
2867.244	0.381451127886296	-0.021247859370757	0.38204245116684	3.18823511016137
2442.658	0.381388300289116	-0.0219171173575215	0.382017533145645	3.2889805711104
2083.003	0.388068640298872	-0.0216892441116312	0.38867427608931	3.19894598318354
1777.843	0.38046815803124	-0.0228037721854218	0.381150929818581	3.42998147378753
1513.548	0.378098950394224	-0.0250449087631153	0.378927517797489	3.78968093982389
1292.065	0.378619638312065	-0.0230868185844616	0.379322859458681	3.48936339263269
1101.762	0.369582619417907	-0.0226886906953022	0.370278394267433	3.51298128590577
939.101	0.369947398276918	-0.022586691302964	0.370636258501346	3.49378777272669
801.2801	0.36935256758683	-0.0210739218233491	0.369953279974648	3.26554946207853
684.3433	0.362308349667421	-0.0196680139117357	0.362841798873783	3.10726815230025
582.9476	0.368762924195079	-0.0267005393271468	0.369728296268038	4.1413143060204
497.0677	0.354993984738374	-0.0185813520772117	0.355479951397327	2.99628278963664
423.5089	0.359759915071432	-0.00975058502113475	0.359892026030667	1.55250935999828
361.5036	0.352725537467268	-0.0239254796245301	0.353536042514532	3.88044604893954
308.1262	0.35638560063454	-0.0266305053405181	0.357379182597887	4.27341946597033
262.7298	0.359630351339677	-0.0175626981869397	0.360058936803831	2.79584209937705
224.2111	0.354627985333198	-0.0202060679627176	0.355203171669393	3.26108497493887
191.2854	0.346548811319582	-0.0236502001454773	0.347354877026272	3.90409316306018
163.1722	0.34232630757755	-0.0190213129921405	0.342854358595052	3.18036152414068
139.1537	0.356940767773345	-0.0189366356619753	0.357442733691454	3.03684304491175
118.6706	0.245378989927838	0.0511154026974989	0.250646430437247	-11.7671207174993
101.1982	0.342474506353643	-0.0153583948291808	0.34281870980724	2.56772983944382
86.24196	0.332432950344687	-0.00797536605810449	0.332528604692339	1.37431375613465
73.61024	0.399369792307391	0.0900222168381714	0.409390071364838	-12.7027779856818
62.69291	0.354789151553045	-0.0516204843476686	0.358524778033565	8.27823173392097
53.57697	0.285849799943973	0.0713170292719543	0.294611993632619	-14.0088066317927
45.65746	0.287578148846081	-0.0383247189993584	0.290120622810786	7.59091729245998
38.96512	0.341017239220254	-0.00674880721986762	0.341084012882889	1.13374825852425
33.18414	0.334385322884988	-0.0003935680285341	0.334385554497634	0.0674365022333232
28.30617	0.329869081736701	-0.0303517153993357	0.3312624906528	5.25706252245282
24.17237	0.342311434851617	-0.0187805260627802	0.342826233811486	3.14031922271237
20.61345	0.333594162907643	-0.0221486914978833	0.334328625847562	3.79852798113851
17.55618	0.325705473252916	-0.000776785249962148	0.325706399541413	0.136646251546797
14.98558	0.333649055841576	-0.0072810108311842	0.33372849081656	1.25013088361799
12.76553	0.319662349715899	-0.0210272838397919	0.320353187110053	3.76347556914799
10.8809	0.342124008241029	-0.0180729112516098	0.342601032012479	3.02387414521896
9.278505	0.33810212950418	-0.018780536600278	0.338623328390493	3.17933764856078
7.923394	0.329528138246662	-0.0127178666460818	0.329773464712276	2.21018641359054
6.75822	0.324548373945096	-0.0143592843773865	0.324865873982228	2.53333632891771
5.761429	0.329766343980162	-0.0190141001237698	0.330314059079475	3.29998136077691
4.919708	0.327168688016712	-0.0100641954664168	0.327323446225538	1.76194777947261
4.191257	0.339838071100126	-0.0248264504114924	0.340743697240446	4.17825003028351
3.564097	0.322936641242966	-0.000816631970410011	0.322937673777872	0.144887447288841
3.051758	0.314662114845537	-0.018140318266773	0.315184577138358	3.29945825030996
2.604164	0.327456748888649	-0.0164462026541606	0.327869486189956	2.87520993203196
2.214424	0.326181627509219	-0.0204833426448169	0.326824144534133	3.59330481216296
1.892567	0.320132187196352	-0.0261838766134523	0.321201202789822	4.67586101056565
1.607507	0.316141047810729	-0.00516517045680093	0.316183239746691	0.936025680044757
1.376413	0.329623279070876	-0.0156520001606998	0.32999468361546	2.71861999366491
1.17375	0.306582100673323	-0.0233489539265122	0.307469930404145	4.35517595967314
1.001604	0.342730382843266	-0.0103498079008774	0.342886619522368	1.72969827701588
