EC-Lab ASCII FILE
freq/Hz	Re(Z)/Ohm	-Im(Z)/Ohm	|Z|/Ohm	Phase(Z)/deg
6999984	27.3577066650951	85.2430401085801	89.525527091028	-72.2066050609054
5969734	24.5814432429036	83.6371873683334	87.1746893472515	-73.62163892754
5091109	22.390434933963	87.4715105605022	90.2917312729581	-75.6420600005098
4341796	22.7726270460673	95.1452928040374	97.832608497092	-76.5397129781413
3702781	27.5308145008983	104.73555649382	108.293501841768	-75.2723876310914
3157797	32.7695453123302	115.561025524379	120.11741639006	-74.1682979598743
2693047	38.9308488765748	128.318862675865	134.094524543988	-73.1226499837606
2296687	47.5433907715777	144.464584946113	152.086785453936	-71.7835903207603
1958656	59.62437134379	161.776265840416	172.414111508923	-69.7680966848286
1670375	75.0642586782572	181.160559661379	196.096382699275	-67.4932250550412
1424531	94.6093168139426	200.774921037477	221.949299943942	-64.7692118096507
1214875	118.261482419021	220.170927454903	249.922018878482	-61.7582040046792
1036062	146.125220880531	239.286097461851	280.375492181301	-58.5887733693541
883578.1	178.413417990566	256.033523017434	312.064917329384	-55.1298214305713
753531.2	214.978984492809	269.912550984596	345.063398453924	-51.4635046065748
642624.9	254.597932760402	279.223834951885	377.870424049181	-47.6412573186335
548046.8	295.270241141307	282.715875009376	408.794301924529	-43.7556810055964
467390.6	337.842478756387	281.658512544083	439.851177264316	-39.817891048689
398593.7	378.402229475915	274.810780179668	467.663567295231	-35.9886479460691
339937.5	415.880555155632	263.362121197024	492.256277804512	-32.3446019915693
289906.2	449.081597589852	248.422494330099	513.213422450195	-28.9504458498379
247234.4	517.231499275059	204.603125947931	556.229146116949	-21.5824435171516
210843.7	535.210101904735	185.541254700213	566.458657252765	-19.1198938319911
179812.5	550.911632335072	166.05287730782	575.393069739547	-16.7735800947288
153343.8	562.378986744248	151.186145234743	582.346439194427	-15.0472467988437
130781.2	572.3231241745	137.211937358058	588.541310545327	-13.4819490208581
111531.3	580.862328237272	124.417988708912	594.037776811875	-12.089804818139
95109.37	587.400759602095	114.972536485381	598.546854078276	-11.0745522530569
81109.37	593.182578798982	106.250174871471	602.623158740874	-10.1550638538531
69171.88	597.846372320759	100.306649165249	606.202696104077	-9.52437483128485
59000	602.496945986789	96.0199831876402	610.100325434073	-9.05508229002704
50312.5	608.269000766274	93.7034315473464	615.444156993102	-8.7575338478597
42906.25	614.094694566906	87.4299635701366	620.287266051059	-8.10286654156528
36593.75	613.964015862933	87.4201283088767	620.156505737125	-8.10366868247846
31203.13	618.149365793125	91.2014948441754	624.841060664434	-8.39284621125893
26609.38	622.06555755828	94.538842010666	629.20835225624	-8.6414411394103
22703.13	626.064383778285	99.1358608378297	633.864758083096	-8.9979469386966
19359.37	630.744092337337	105.374989525558	639.485729657795	-9.48450269832169
16500	635.35511375378	113.901122402638	645.483993804385	-10.163543629221
14112.02	640.968051989543	123.194036858532	652.699635658525	-10.8795747153739
12011.13	647.051914653219	134.723230516793	660.928535544712	-11.7615630268865
10236.38	654.086222764926	148.124602479789	670.648704368155	-12.7599992806815
8750.684	661.016513999602	163.710927472025	680.987591336242	-13.910280809342
7449.463	669.321742678327	181.920665494776	693.604154944314	-15.2055779559502
6363.206	678.706238432862	202.112048729336	708.160602073608	-16.5830143320683
5414.761	688.886078376229	226.54007847427	725.178899400492	-18.2034421091014
4620.567	700.38321819456	253.144465223393	744.727314257914	-19.8717347803397
3941.215	713.055678162467	283.998674341645	767.53087702551	-21.7166015848814
3361.769	727.892900648747	318.533675612215	794.538719833007	-23.6346981252189
2867.244	744.52067619501	357.773373071456	826.022290111352	-25.6662345794142
2442.658	762.914922410076	402.597072577636	862.625980181477	-27.8210142553422
2083.003	784.110562846561	452.710338332549	905.414835973391	-30.0002133924987
1777.843	807.591050849091	509.592446321781	954.928147432966	-32.2520521189219
1513.548	833.921636856989	574.01102478032	1012.38034008351	-34.5406976541042
1292.065	865.296021623991	646.383081374263	1080.06865195005	-36.7600267552317
1101.762	899.18282258866	728.827503820229	1157.46243082155	-39.0262982885142
939.101	937.952023204672	823.010606862293	1247.83831358136	-41.2654918363988
801.2801	983.91469240236	926.180604507725	1351.25816707672	-43.2687184459367
684.3433	1033.02474497002	1042.15650745218	1467.38894290004	-45.2521264453411
582.9476	1092.51908588221	1177.05775779769	1605.9461131086	-47.1332041825351
497.0677	1159.48403838158	1325.27883753175	1760.8995520674	-48.8173792438545
423.5089	1236.15770432728	1495.50980974538	1940.2668530417	-50.4235632901006
361.5036	1322.589746017	1680.79147955303	2138.762173316	-51.801320522584
308.1262	1422.18912138907	1893.6994867927	2368.27355752589	-53.0930481421285
262.7298	1536.41221416271	2129.09613692393	2625.56905300409	-54.1847848432825
224.2111	1665.17928147083	2387.02116111155	2910.44533757877	-55.1004802618827
191.2854	1812.35982666915	2677.92079566356	3233.55963748491	-55.9106941503992
163.1722	1975.63029272495	3003.87707237472	3595.32926440277	-56.667342214649
139.1537	2163.77091909801	3364.81132286364	4000.48244950601	-57.2566063886292
118.6706	2374.50922000988	3767.62034822081	4453.45451579326	-57.7791840048342
101.1982	2613.38012120517	4215.12358568755	4959.53853705461	-58.201052829389
86.24196	2881.70653287051	4711.90867530461	5523.25229425557	-58.5509008590959
73.61024	3181.14803838324	5262.01038119396	6148.85811300786	-58.844942799557
62.69291	3521.19807364167	5881.33634866233	6854.84887651906	-59.0907416936682
53.57697	3892.73398947078	6545.21878279649	7615.33103859924	-59.2581599614054
45.65746	4314.90346796039	7305.72794152227	8484.81306178019	-59.4330839762588
38.96512	4783.78032752761	8149.83007551342	9450.0944165539	-59.5879544682827
33.18414	5310.67636746252	9080.94895071734	10519.8344723413	-59.6802579690783
28.30617	5901.76819778353	10128.7663020568	11722.7460375993	-59.7717593289607
24.17237	6558.82067045583	11269.0035494624	13038.7334348469	-59.799605077804
20.61345	7262.49389866806	12513.0190113349	14467.8769142614	-59.8693340414714
17.55618	8100.48753456155	13972.9721669159	16151.2182040549	-59.8980392270075
14.98558	9000.01229025075	15548.898159344	17965.7578519337	-59.9368857655174
12.76553	10007.4622147016	17312.3744496169	19996.6899526504	-59.9698308387374
10.8809	11152.7579735332	19277.2983284499	22271.0179664125	-59.9487459918766
9.278505	12416.7842277221	21458.2290315945	24791.775324292	-59.944219625295
7.923394	13774.1445490947	23850.051535714	27541.8230390722	-59.992233488527
6.75822	15327.0682379777	26514.3964309692	30625.6794025899	-59.9692578809423
5.761429	17019.1566953542	29499.0534773058	34056.509666699	-60.0176728146308
4.919708	18922.7522898929	32849.3539100678	37909.7692756568	-60.0560609869046
4.191257	21099.8606691365	36484.8714425463	42146.7669511685	-59.9584289786143
3.564097	23408.2404022452	40679.8490264818	46933.9518424206	-60.0827608201577
3.051758	26025.2277422326	45138.9631783805	52104.1118900827	-60.0340594075716
2.604164	28782.550907902	50236.2890267571	57897.4953857751	-60.1897320405086
2.214424	32056.5307837103	55962.9299179433	64493.9585611521	-60.1951751395623
1.892567	35534.2397708677	62347.3219495536	71762.5999415768	-60.3194496853262
1.607507	39551.7930993159	69556.3791919512	80015.2124515432	-60.3761725070442
1.376413	43940.4257326864	77418.9073442503	89019.369959281	-60.4221810179932
1.17375	48795.4639993856	86362.284801393	99193.9592063562	-60.53316294291
1.001604	54305.233917293	96313.7554749777	110568.521399654	-60.5840988908972
