EC-Lab ASCII FILE
freq/Hz	Re(Z)/Ohm	-Im(Z)/Ohm	|Z|/Ohm	Phase(Z)/deg
6999984	19.4972061276039	96.7553933164952	98.7002896784602	-78.6068874071938
5969734	16.8871062427601	96.4167417211485	97.8844341117469	-80.0655806578173
5091109	14.4308222343966	102.230350056076	103.243852615778	-81.9652222275736
4341796	12.9680780355835	112.490060963622	113.235086715807	-83.4238581824176
3702781	16.0701654101434	124.483854697945	125.516852640466	-82.6441199190241
3157797	14.7292876147308	138.364585019788	139.14636287498	-83.9235919713307
2693047	14.7810329980614	157.433034557614	158.125391087291	-84.6363514684735
2296687	15.4075706780485	181.385574010941	182.038786233807	-85.1447369200931
1958656	16.9754427054073	208.687009512403	209.376296639029	-85.3495693318523
1670375	18.3887478074271	241.534802639146	242.233785694433	-85.6463041739506
1424531	20.8996390214644	280.011634726661	280.790509977678	-85.731445702307
1214875	23.396867771487	324.194495425755	325.037665949466	-85.8721641367912
1036062	26.7663212402425	377.256004840926	378.204348390223	-85.9416639173405
883578.1	30.3135571506841	438.124181492573	439.171618112629	-86.0420461230474
753531.2	37.9516113323917	508.650722266189	510.06458616987	-85.7329353925744
642624.9	82.8761542377344	688.902636338928	693.86979995959	-83.1401867780484
548046.8	101.918697823321	782.787827694029	789.394834130512	-82.5818394066934
467390.6	133.797701708421	894.427121143548	904.379179337733	-81.4921882719136
398593.7	159.009801159717	1023.42175786595	1035.70083100202	-81.1685244134442
339937.5	186.065758275858	1175.39147290011	1190.02755471	-81.0046584840368
289906.2	212.677120184973	1351.8912789616	1368.51802603495	-81.0596051365898
247234.4	244.66229327046	1554.97344484395	1574.10357089939	-81.058287333661
210843.7	278.679030652478	1794.88126417155	1816.38673046229	-81.1745404702931
179812.5	319.496863251316	2069.88408214459	2094.39689627897	-81.2253618267212
153343.8	365.574944849165	2397.336732234	2425.05019494852	-81.329640145435
130781.2	425.710507204457	2777.20707324229	2809.64562954321	-81.2851213247533
111531.3	492.274004628006	3214.83872972599	3252.3102179495	-81.2941740579164
95109.37	583.006705703464	3735.24471984043	3780.46953909049	-81.1287038466826
81109.37	703.765124288164	4330.85075239771	4387.65923810272	-80.7700895627102
69171.88	841.296154229366	5013.09565769592	5083.19852969867	-80.4734120163915
59000	1724.85938812165	6254.18069242016	6487.67416276685	-74.5815151217227
50312.5	1936.37903024873	7141.89618441925	7399.74626982637	-74.8301215090299
42906.25	2576.61711841374	8278.44391336609	8670.15509674716	-72.7115527657542
36593.75	2969.95188043963	9289.1830531613	9752.41180258842	-72.2698023057083
31203.13	3482.49256111785	10582.5944726829	11140.8734043386	-71.7847935321301
26609.38	4164.25989429419	12037.2088697373	12737.1683603896	-70.916991655625
22703.13	4986.20145747404	13685.0616924894	14565.1336589047	-69.9806067310426
19359.37	6052.32135794135	15533.4432397319	16670.8863802069	-68.7125365388591
16500	7383.84624233792	17559.5155284989	19048.8259723817	-67.1930524661722
14112.02	8989.81017065633	19691.9560703096	21646.9355978956	-65.462261558641
12011.13	13096.3267778304	24924.891197366	28156.0646446241	-62.2811425842951
10236.38	2728.46560182754	30648.1681506873	30769.3798366682	-84.9126317172856
8750.684	21836.2705793503	16039.0001448245	27093.7675205993	-36.2977242990744
7449.463	17659.6174848941	28634.5271016086	33642.2090839103	-58.336843826835
6363.206	23724.7715453916	30745.6998457656	38835.0723430114	-52.344599103927
5414.761	33999.9248213599	31925.6209989644	46639.4700230142	-43.1978206483672
4620.567	38089.0932487845	32186.8222811265	49867.530047832	-40.1991600838808
3941.215	42177.7150934173	32173.9480632851	53048.3042564081	-37.3370640098638
3361.769	46167.7680029279	31730.3303606939	56020.3236974845	-34.5000864055853
2867.244	49902.6994868987	31155.1717056431	58829.6195813624	-31.9772902082669
2442.658	53335.2189970521	30400.458045192	61390.8253309971	-29.6826400753915
2083.003	56582.5122775064	29688.5632224534	63898.2901324266	-27.6857732973795
1777.843	59538.6239129778	28752.7313072294	66117.828874493	-25.7770904536161
1513.548	62165.5148834551	27870.9874357522	68127.404041024	-24.1483719772875
1292.065	64618.9976136818	27324.3663591562	70158.6477173442	-22.921239619566
1101.762	66826.0958019087	27119.6520178227	72119.3635973979	-22.0885084897009
939.101	68829.6186656553	26564.3292861964	73777.9099465755	-21.1037601976316
801.2801	70777.1174162809	26687.5534881994	75641.4295273663	-20.6596892585154
684.3433	72732.0423213469	27046.1409232617	77597.9620806831	-20.39815694335
582.9476	74455.4301408251	27817.7952534116	79482.3301760588	-20.486529953671
497.0677	76426.0810577126	28715.918848336	81642.8187971501	-20.5929339458047
423.5089	78388.8544534262	30135.9874355877	83982.0828584188	-21.02886888423
361.5036	80529.6925770851	31764.5783072153	86568.0069170768	-21.5265342955027
308.1262	82692.0484728459	33734.4543588489	89308.388696274	-22.1931420422477
262.7298	85192.3802498607	36094.3614730761	92523.2110488278	-22.9614326088945
224.2111	87722.6928156795	38789.3237671701	95916.0178132329	-23.8541123128642
191.2854	90492.7640164412	41900.2285356091	99722.462317532	-24.8452204364594
163.1722	93439.4276989985	45039.0714607953	103727.742705445	-25.7346973063544
139.1537	96763.3416994244	49245.9184066271	108573.959937693	-26.9729794227691
118.6706	100401.924725962	53707.3066573903	113864.047341857	-28.1433545813049
101.1982	104729.749262419	58315.7270819773	119870.94896458	-29.1099802183142
86.24196	108476.396243402	63652.421846158	125772.649446678	-30.4038105929668
73.61024	113441.182425175	69646.533192481	133114.767985198	-31.5475947802306
62.69291	118506.784135777	76407.6891318585	141003.520681841	-32.8120496087268
53.57697	124417.812382331	83467.1745296865	149821.76498084	-33.8561563283717
45.65746	129952.457172905	91589.6979170442	158985.263121495	-35.1759474207217
38.96512	137022.070603837	100696.219738261	170043.454746541	-36.3118133312567
33.18414	145654.34500694	108710.818330043	181750.46146128	-36.7362490067337
28.30617	153185.474819413	120252.097166096	194746.90387396	-38.13226067457
24.17237	162998.331773614	131874.656468166	209664.92596421	-38.974772193998
20.61345	171682.183675247	144902.812989764	224658.846707285	-40.1649602330895
17.55618	182489.586835431	159244.981299897	242201.183672935	-41.1087649611187
14.98558	194095.806645982	176432.703952427	262300.74567473	-42.2707749358456
12.76553	206128.076469104	193973.3924808	283044.980346522	-43.2599464620933
10.8809	221807.484826887	215166.944763656	309023.25874302	-44.1293640795807
9.278505	235587.424792458	233087.646017398	331408.034673684	-44.6944035979828
7.923394	252899.412393427	260273.411038902	362905.443997146	-45.8232507755275
6.75822	272520.468112513	286125.82364588	395139.712629971	-46.3951142212696
5.761429	292970.688524067	314438.813546526	429771.557689446	-47.0242046915894
4.919708	315899.384047681	345976.533041524	468499.927702382	-47.6018607406403
4.191257	341713.078906007	380738.685016019	511595.323046595	-48.0920146752188
3.564097	366954.186112288	418380.994929177	556505.194605818	-48.7466017674219
3.051758	403827.562850145	457823.045558486	610474.112114458	-48.5857610551728
2.604164	434236.239170452	510221.503959889	669990.368969576	-49.5997588426835
2.214424	472700.990143752	551904.3767645	726666.819921409	-49.4202511654691
1.892567	514078.132357211	612098.686723219	799337.931325774	-49.9743930266078
1.607507	563050.748754715	678965.510881964	882054.596178974	-50.331849935834
1.376413	610321.511229667	735782.912569097	955964.874615342	-50.3247739070641
1.17375	669194.195412441	807017.276614048	1048378.631949	-50.3338266402272
1.001604	724054.485968537	887035.437746911	1145026.97193997	-50.7764995623232
