EC-Lab ASCII FILE
freq/Hz	Re(Z)/Ohm	-Im(Z)/Ohm	|Z|/Ohm	Phase(Z)/deg
6999984	36.6564347706826	78.4511811481989	86.5926211270038	-64.9555949804068
5969734	38.2179367883886	76.8799733909355	85.8553492855991	-63.5674901301433
5091109	40.3978917239427	78.6371726063723	88.4069825933664	-62.8092950798467
4341796	46.0896461127995	82.266848530241	94.2978782682872	-60.7404590731883
3702781	55.2231793208932	83.9088189588469	100.45043271871	-56.6497581399164
3157797	62.7887531124137	86.6484493499537	107.006454441604	-54.0714881688734
2693047	72.6227156799248	90.3633170038404	115.929236574144	-51.2120391598699
2296687	84.9457732908862	92.9526973421491	125.920563623134	-47.5770516681112
1958656	97.5291082810036	93.1906559213104	134.894126310717	-43.6968726175041
1670375	110.537116031588	92.2784991684896	143.992275589247	-39.855775018103
1424531	123.136031154133	89.4841035679145	152.216579122463	-36.0062549391134
1214875	134.425022177975	85.1675879897252	159.133920430362	-32.3570982010811
1036062	145.681745055234	80.1916489143539	166.294532074693	-28.8309268537737
883578.1	153.501298244054	75.0096547582736	170.84816905535	-26.0428225494198
753531.2	161.532513070221	70.43708962651	176.221838526995	-23.5598583780189
642624.9	171.026129980831	61.5118843948271	181.751613632514	-19.7818147839719
548046.8	174.635689593744	56.5337122337388	183.5583958821	-17.9379964921952
467390.6	178.802238000515	50.3560046154064	185.757819525369	-15.7287915553077
398593.7	182.433175098991	45.4314665457727	188.005004000422	-13.9839631817959
339937.5	185.323561157964	41.0411384387775	189.813585827308	-12.4870020800355
289906.2	187.722575350594	37.3834249212676	191.408687773318	-11.2626485676204
247234.4	189.479868015323	34.1367492462351	192.530356131714	-10.2128695658038
210843.7	190.998957256466	31.5758256247362	193.591411061909	-9.38719727597462
179812.5	192.490955538317	29.6237414629901	194.757115460053	-8.74899677671226
153343.8	193.796645956709	28.1062080830701	195.824153047777	-8.25203610352758
130781.2	194.95371709673	27.2167892144968	196.84436853763	-7.9474918466817
111531.3	195.996537013084	26.6817400994284	197.80434215622	-7.75223355967906
95109.37	197.150855715253	26.6454118839434	198.943303188927	-7.69702334654026
81109.37	198.430596175644	27.1918635336048	200.2850442271	-7.80290594708044
69171.88	199.524584464802	28.0537346305293	201.487150539612	-8.00348701199983
59000	201.02059742359	29.2924498143935	203.143614727773	-8.29071075469892
50312.5	202.209059395848	31.28451071897	204.614819386766	-8.79471307918574
42906.25	203.644458063975	33.4764164594726	206.377653245544	-9.3351669785988
36593.75	205.222405706771	36.3983267674064	208.425223990623	-10.0574146568289
31203.13	207.147853226363	40.0255141921105	210.979323353341	-10.9360339765061
26609.38	208.821009048313	43.6974169353367	213.34403686716	-11.819042152894
22703.13	211.04430809343	48.3622372250552	216.514678412452	-12.9068712818853
19359.37	213.267728173412	53.6835869037212	219.920556981601	-14.128915774386
16500	215.82572567578	59.730433435842	223.938537420228	-15.4695911783685
14112.02	218.571084348629	66.5708726105777	228.484135102351	-16.9393253257043
12011.13	221.532152658872	74.6850720580364	233.78270819286	-18.6304904721242
10236.38	225.091480036974	83.8859269066018	240.214535609765	-20.4391578031696
8750.684	228.638725859498	94.2317558993377	247.295957877453	-22.3986448146272
7449.463	232.815996795655	106.260538975892	255.919109304877	-24.5326318521699
6363.206	237.391543350035	119.750595084724	265.885219365908	-26.768359005394
5414.761	242.380836977974	135.667457830839	277.766321299804	-29.2369820431829
4620.567	247.834495314636	153.896966679022	291.729692388116	-31.8389037120089
3941.215	253.937506253423	174.347457904936	308.0280720326	-34.4725672426852
3361.769	260.837512910016	197.77600435409	327.340122868175	-37.170659877424
2867.244	269.486536191946	224.810314750629	350.94539576266	-39.8354464755318
2442.658	277.618053709053	255.3521865782	377.195603017149	-42.6077486038959
2083.003	287.496398478534	290.898054485225	408.993712960746	-45.3369643060661
1777.843	298.98274117734	331.404844948222	446.340509899193	-47.9442431302766
1513.548	312.215574639623	378.4906277189	490.646227254013	-50.4808991766593
1292.065	326.734667908424	431.152482726645	540.96950614113	-52.8445334280684
1101.762	343.818247847795	491.687475928159	599.972967339139	-55.0363777437634
939.101	363.545703094085	561.660106487215	669.049739150537	-57.0862316586691
801.2801	385.846843374144	640.016363765897	747.327727593398	-58.9154739041377
684.3433	412.28989791722	730.260826166091	838.608272173232	-60.5518413670313
582.9476	441.509850056518	833.547564966686	943.256322936041	-62.0909205963117
497.0677	475.940780856116	950.812328156441	1063.27969521486	-63.4091818913487
423.5089	515.135269891959	1085.26810722818	1201.32061118309	-64.6080960776599
361.5036	562.160414869653	1235.55611817856	1357.43259619581	-65.5351417901816
308.1262	616.971961258846	1410.94820413879	1539.94455606105	-66.3814577493693
262.7298	679.884303406582	1606.71417663549	1744.64125579447	-67.0642515538268
224.2111	752.246921034065	1828.30143699534	1977.00823840582	-67.6354904755722
191.2854	836.031887832263	2079.41691954047	2241.18808731966	-68.0973517542271
163.1722	938.821380735246	2369.01018190536	2548.25328939195	-68.3819398910686
139.1537	1046.38583884386	2691.07258935625	2887.35086280097	-68.7521279225027
118.6706	1178.58565648474	3058.88485117882	3278.0849108043	-68.9283697402849
101.1982	1326.87650419856	3469.57599536617	3714.6411461964	-69.0715518932881
86.24196	1500.85550224008	3936.43962268121	4212.85225727404	-69.1295352221553
73.61024	1698.20904300096	4459.79114311709	4772.17466088112	-69.1540578157869
62.69291	1927.02905010397	5058.05031186452	5412.69931894405	-69.1440310543721
53.57697	2187.06916054638	5715.43692650024	6119.5989062859	-69.060150033165
45.65746	2481.53584959199	6463.98076699961	6923.94883927886	-68.9980987039523
38.96512	2822.11454410965	7301.83278415749	7828.22409668197	-68.8687821295913
33.18414	3211.66520660177	8253.728509313	8856.56974820063	-68.7381477523015
28.30617	3651.66785229076	9313.98612630312	10004.249880147	-68.591699739866
24.17237	4157.3926998832	10509.0263892401	11301.4844029794	-68.4161454714379
20.61345	4711.03845818713	11840.2510438238	12743.0541133313	-68.3032154900176
17.55618	5374.31002687948	13360.4749078771	14400.8853210152	-68.0873249928124
14.98558	6095.09880313158	15048.7594504101	16236.2369536861	-67.9509037417917
12.76553	6932.05670934601	16959.1272710292	18321.173761977	-67.7676718389089
10.8809	7881.83723806873	19116.6619653421	20677.7688096314	-67.5935499649686
9.278505	8943.91030817601	21516.565404065	23301.4188063324	-67.4285381199709
7.923394	10149.1547342043	24184.5444537441	26227.8007513773	-67.2344200189806
6.75822	11506.2644107591	27189.7546549498	29524.1744827297	-67.0627045677799
5.761429	13057.356474447	30591.4960154857	33261.6022850112	-66.8857752006435
4.919708	14786.4325813944	34391.3863266842	37435.3581785371	-66.7349154131856
4.191257	16846.5502029845	38614.6744922266	42129.5542331306	-66.4296434999399
3.564097	19086.8282847467	43482.627741037	47487.323879505	-66.3007852918149
3.051758	21643.0480739471	48692.9224679814	53286.2292567604	-66.0357923115669
2.604164	24456.5167274633	54597.4852240454	59824.7992326806	-65.8703793961127
2.214424	27778.0081386148	61281.559335403	67283.3356094023	-65.6159288392951
1.892567	31510.6043127531	68692.3576074197	75574.8514905621	-65.3580978314862
1.607507	35775.4440467348	77089.2902103986	84986.1227606256	-65.1050223733769
1.376413	40475.0103326192	85965.9393248679	95017.7309002509	-64.7877183464335
1.17375	45806.6445170714	96163.9466623224	106516.446239946	-64.529715451286
1.001604	51899.5531781327	107359.004189435	119245.62633756	-64.1999209444087
