EC-Lab ASCII FILE
freq/Hz	Re(Z)/Ohm	-Im(Z)/Ohm	|Z|/Ohm	Phase(Z)/deg
6999984	3.16258638217322	2.71779643747202	4.16993646237483	-40.67440565663
5969734	4.4027927264381	5.5902101970678	7.11582980680237	-51.7763911289178
5091109	8.58850672776462	10.8599118677249	13.8455817352544	-51.6614672543705
4341796	3.5433398755819	2.34468528419053	4.24885944175474	-33.4932505905138
3702781	2.39093016331228	-0.902593489222684	2.55562556972332	20.6818856434988
3157797	28.084502627902	5.3287624456905	28.5855732330005	-10.7436061010114
2693047	3.83746638890658	-10.9951584914388	11.6455853669039	70.7602876986567
2296687	-4.10742884859464	-19.3538934334183	19.7849478841461	101.981961166705
1958656	13.6309962640492	-18.1772587033363	22.7204047745312	53.1340318132142
1670375	7.92762811562597	-22.3739094091495	23.7368723674475	70.4895078446778
1424531	0.848529350572181	-20.0164063599621	20.0343835848751	87.5725882811804
1214875	6.52840640151344	-8.45404049501304	10.6813337572909	52.3238465725874
1036062	0.20176829736244	-0.386357860741995	0.435870212767137	62.4250122866525
883578.1	1.27960946083687	2.21386031471767	2.55706430606371	-59.9721226699179
753531.2	0.257190110956895	-0.205618944917284	0.32928088873015	38.6417175572664
642624.9	0.760857317995773	-0.231304641560931	0.795239395122847	16.9095487090913
548046.8	0.778185569720719	-0.200224771812877	0.803531418283739	14.4290539857873
467390.6	0.752740390419007	-0.182852097541672	0.774630870120439	13.6535613396557
398593.7	0.707596610301091	-0.161048335386631	0.725692448107598	12.8220448803162
339937.5	0.690446167206985	-0.141618378711672	0.704820313980619	11.5912513222839
289906.2	0.665345879882626	-0.114663757910074	0.675153995215052	9.77813783874829
247234.4	0.659226919714346	-0.0958543792657693	0.66615928553199	8.27306938418684
210843.7	0.66221118278021	-0.0852831288749117	0.667680209883339	7.33846635834739
179812.5	0.656497664678766	-0.0674799627001056	0.659956611524335	5.86869783354395
153343.8	0.663624874281356	-0.0625896734706404	0.666569907054096	5.38790431046448
130781.2	0.659036913632345	-0.0476170031252737	0.660754895946053	4.13257669964465
111531.3	0.656450144321269	-0.0389833585374235	0.657606640950555	3.39852437196146
95109.37	0.65556670854758	-0.0334791279360774	0.656421024467733	2.92349766908999
81109.37	0.654842922487087	-0.0286881016819004	0.655471021716094	2.50847454427139
69171.88	0.654230358700718	-0.0247225683792993	0.654697309932567	2.16410800179053
59000	0.653698880067735	-0.0210656674232856	0.654038216120281	1.84573712743254
50312.5	0.653093581988799	-0.0182202689874082	0.653347690771869	1.5980463266819
42906.25	0.652701125182864	-0.0152910867991367	0.65288021577505	1.34204534607067
36593.75	0.652351555482737	-0.0128172909477597	0.652477459294945	1.12559277726836
31203.13	0.652121220508955	-0.0107751707415886	0.652210234926284	0.946627118128063
26609.38	0.652080746942503	-0.00902791088210076	0.652143238643159	0.793196469043365
22703.13	0.651967623751544	-0.00775454909762713	0.652013738698766	0.68144792659664
19359.37	0.65204047338278	-0.00674792736839396	0.652075389393748	0.592929384995698
16500	0.651900804662727	-0.00558130948425738	0.651924696675521	0.490531169990831
14112.02	0.651963035133623	-0.0046228735316144	0.651979424629593	0.406260308299871
12011.13	0.651783688500693	-0.00392333285046591	0.651795496406829	0.344880829397774
10236.38	0.651679252843047	-0.00307934163371735	0.651686528118366	0.270734361129894
8750.684	0.651563209647381	-0.00238424396824415	0.651567571925811	0.209659638479026
7449.463	0.651452034330787	-0.00201152741177721	0.651455139880137	0.17691504319152
6363.206	0.651376953963113	-0.00170833898789175	0.651379194153728	0.150266890731544
5414.761	0.6512656880472	-0.00140559505113389	0.651267204859143	0.123658501542551
4620.567	0.651089175321554	-0.00115211586892685	0.65109019466728	0.10138597046821
3941.215	0.650923925450159	-0.000952441029452766	0.650924622262332	0.0838359294286757
3361.769	0.65080321482137	-0.000784887280105066	0.650803688119446	0.0691003143746037
2867.244	0.650529396071028	-0.000588916161420898	0.650529662640207	0.0518691415367936
2442.658	0.65036809889238	-0.000518368979015052	0.650368305472589	0.0456669822664835
2083.003	0.650254916661092	-0.000380925486150688	0.65025502823596	0.033564406219091
1777.843	0.649997483427149	-0.000336175738414769	0.649997570361424	0.0296331136035804
1513.548	0.649963955486029	-0.000138072495104782	0.649963970151468	0.0121713997377436
1292.065	0.649821569924499	-0.000178577600090697	0.649821594461972	0.0157454646271461
1101.762	0.649743796320397	-5.13646122735466E-05	0.649743798350677	0.00452943992714658
939.101	0.649559568866789	-6.94094674669215E-05	0.649559572575205	0.00612240927480583
801.2801	0.649274912552123	-5.32122279515291E-06	0.649274912573929	0.000469575525112818
684.3433	0.649023487169689	4.5826036280481E-05	0.649023488787524	-0.00404552149225248
582.9476	0.648914969915512	9.12654136070823E-05	0.648914976333437	-0.00805825604763639
497.0677	0.648656108434093	6.69930733860501E-05	0.648656111893608	-0.00591749664895524
423.5089	0.648477861815946	3.47406840418283E-05	0.648477862746522	-0.00306948731528932
361.5036	0.648199469292303	5.63154015019445E-05	0.648199471738637	-0.00497784242719392
308.1262	0.647930598182498	0.000121698343551465	0.647930609611567	-0.0107616485419801
262.7298	0.647787910756476	6.08666445926135E-05	0.647787913616014	-0.00538355498784164
224.2111	0.647650532906	8.14599948622576E-05	0.647650538028926	-0.00720653136686261
191.2854	0.64735896623345	0.000101414544384908	0.647358974177195	-0.00897589379316201
163.1722	0.647283876461467	8.3844493381843E-05	0.647283881891773	-0.00742168274851219
139.1537	0.647044464209676	0.000143370367705854	0.647044480093486	-0.0126954441259041
118.6706	0.646750558146124	8.12446761915605E-05	0.646750563249094	-0.0071974843632775
101.1982	0.646537441873029	5.60322708473195E-06	0.646537441897309	-0.0004965547898826
86.24196	0.646256269787824	0.000111815519416969	0.646256279461007	-0.00991333868966531
73.61024	0.646091131340677	3.97577605337819E-05	0.64609113256394	-0.00352574392079231
62.69291	0.645986689798936	0.000122530692191882	0.645986701419741	-0.0108678577284635
53.57697	0.645752730636696	0.000121812730143423	0.645752742125878	-0.0108080925008534
45.65746	0.645577770145503	5.46638846479397E-05	0.645577772459818	-0.00485148346097136
38.96512	0.645409899365432	4.80348512883285E-05	0.645409901152937	-0.00426425787082619
33.18414	0.645229547754899	2.99612340715329E-05	0.645229548450524	-0.00266052952168998
28.30617	0.64502136625088	0.000105310123820162	0.645021374847667	-0.00935445846756085
24.17237	0.644905005949865	2.07956842176679E-05	0.644905006285155	-0.00184756658167239
20.61345	0.644790385650087	7.68726838898811E-05	0.644790390232514	-0.00683087158848509
17.55618	0.644502355902148	0.000111911583554303	0.644502365618329	-0.00994885634338547
14.98558	0.644453961256756	4.86532130110026E-05	0.644453963093299	-0.00432555919828503
12.76553	0.64412572390752	3.46994907859569E-05	0.644125724842163	-0.00308656260349981
10.8809	0.644158098376665	-2.98423695759591E-06	0.644158098383578	0.000265438225750602
9.278505	0.644014880374043	-8.52175302102919E-06	0.644014880430424	0.000758150932546393
7.923394	0.643860072138656	2.84220439548924E-05	0.643860072765976	-0.0025292190542019
6.75822	0.643802651724636	4.68196659195801E-05	0.643802653427084	-0.00416675706987098
5.761429	0.643415957724596	3.31349052548957E-05	0.643415958577794	-0.00295064211759211
4.919708	0.643497679259411	-1.51465647225069E-05	0.64349767943767	0.00134862060972759
4.191257	0.643349962784239	-2.16351773056292E-05	0.643349963148023	0.00192679633149867
3.564097	0.643221654094647	1.71145265975787E-05	0.643221654322334	-0.00152449802635213
3.051758	0.64317239045836	-0.000191910362415451	0.643172419089553	0.0170959662573151
2.604164	0.642813174847928	-3.98089250030797E-05	0.642813176080596	0.00354828350749496
2.214424	0.642630807640201	-6.80274837631173E-05	0.642630811240821	0.00606520516853997
1.892567	0.642427109218059	1.92683548381816E-05	0.642427109507017	-0.00171847575268265
1.607507	0.642112864242772	-6.17265474115568E-05	0.64211286720967	0.00550786448403102
1.376413	0.641985626522914	0.000165336853513005	0.641985647813324	-0.0147559435966433
1.17375	0.641806627896033	-3.56533401804404E-05	0.641806628886332	0.00318286821449438
1.001604	0.641288310253241	2.0031166233689E-05	0.641288310566086	-0.00178968065563033
