EC-Lab ASCII FILE
freq/Hz	Re(Z)/Ohm	-Im(Z)/Ohm	|Z|/Ohm	Phase(Z)/deg
6999984	18.9143808800466	3.49159323290283	19.2339550633645	-10.4590523416377
5969734	16.0319662551784	-2.60111533460411	16.2416053083151	9.21568236000221
5091109	12.8036910968138	-4.89400642801678	13.7071442912117	20.9185573199335
4341796	9.44494586617784	-5.02716793250233	10.699505588419	28.0245918895301
3702781	5.51906832525529	-6.01067402318547	8.16016650515373	47.4415013129391
3157797	4.07061773254426	-5.00748204623743	6.45327863708781	50.8920937974909
2693047	3.54871157054253	-5.46518420130847	6.5162559929099	57.0031012121736
2296687	2.52434172692328	-3.95119774962077	4.68873808299144	57.4262992988131
1958656	1.7826617714333	-3.19802667142558	3.66131910415892	60.863587703362
1670375	1.24305472922758	-2.79102038276795	3.05531992381833	65.9929350684911
1424531	1.13535226750864	-2.42826301373591	2.68057569100647	64.941213739749
1214875	0.502083183586584	-2.36712236117057	2.41978424575295	78.0246476957818
1036062	0.810966326984201	-1.84342306340389	2.01392029986085	66.2541465272913
883578.1	0.706865959973487	-1.57518713334782	1.7265207761373	65.8318193365003
753531.2	0.653835832975637	-1.35574969993106	1.50517724715268	64.253435202474
642624.9	0.603044473975323	-1.1636068462657	1.31058900127713	62.6043480765284
548046.8	0.551792049501752	-1.0132870727878	1.15378731045727	61.4292116387151
467390.6	0.517163941465341	-0.875366126090601	1.01672237954067	59.4255209333631
398593.7	0.486875620931274	-0.754666184788931	0.898091821987649	57.1717685279042
339937.5	0.465024284557474	-0.657282990828972	0.805151237508376	54.7207925902054
289906.2	0.446534494374391	-0.567462862274857	0.722085282170581	51.8009194521274
247234.4	0.432729779490664	-0.490921663613218	0.654415114329435	48.6049837891995
210843.7	0.422251663781997	-0.424353481020567	0.598642083736966	45.1422445993909
179812.5	0.41435247952922	-0.364641026089502	0.551952040669855	41.3486222828943
153343.8	0.407925011983089	-0.316789068740452	0.516486330385274	37.832431860378
130781.2	0.403879265451523	-0.274887007585491	0.488550230785911	34.2398604341928
111531.3	0.400118117799567	-0.239527253415465	0.46633444363485	30.9064836553689
95109.37	0.396492110556011	-0.208491930378894	0.447967497444042	27.7372478256941
81109.37	0.393113578261437	-0.181508485402744	0.432993782503524	24.7837248763081
69171.88	0.389672886082322	-0.158159277042379	0.420546448162738	22.0911039885128
59000	0.385863119116831	-0.134594649005108	0.408663756938853	19.2295121173555
50312.5	0.375673789385128	-0.120657179725448	0.394574392289059	17.8057406443452
42906.25	0.466023301695574	-0.138129570988789	0.486063263479962	16.509853351208
36593.75	0.431866057883517	-0.120576626589615	0.448382665623439	15.5996869753309
31203.13	0.420345226480267	-0.0994591032295544	0.43195164386766	13.3120956824916
26609.38	0.420300335227756	-0.0886030503462423	0.429537975414541	11.9041607629387
22703.13	0.42566631944968	-0.0673505340368165	0.430961610760032	8.99101987895347
19359.37	0.428441159605268	-0.0660564705850589	0.433503500043611	8.76477030481221
16500	0.420836057532288	-0.0634223723184328	0.425588280653752	8.57030269956685
14112.02	0.430176684789189	-0.0463797865986289	0.43266969473393	6.15361255632865
12011.13	0.42762050036222	-0.0438922537824702	0.429867214697912	5.86048734833972
10236.38	0.423740013384178	-0.0398906030304642	0.425613509128831	5.37793713666039
8750.684	0.420361793343747	-0.0360315513167703	0.421903199790502	4.89916558163994
7449.463	0.421365859452763	-0.0289901050378951	0.422361946323854	3.93576569701722
6363.206	0.41510969688702	-0.0299692112758686	0.416190117703594	4.12935495796263
5414.761	0.413263841358206	-0.0273830299805638	0.414170053124386	3.79090019401193
4620.567	0.411287981481648	-0.0252700598640151	0.412063562617201	3.51590623544992
3941.215	0.410067364270475	-0.0238588391260011	0.410760864061043	3.3298708500755
3361.769	0.407374092100774	-0.0228269736040092	0.408013139051732	3.20718225148855
2867.244	0.405323811128877	-0.0214690951392243	0.40589199784442	3.03199582196494
2442.658	0.404404886356682	-0.0196785611420208	0.404883387999287	2.7858462776832
2083.003	0.402865185482711	-0.0196200335505047	0.403342662497463	2.78817248633143
1777.843	0.401441981983749	-0.0186060629837073	0.401872928273098	2.65365001744384
1513.548	0.399242261022813	-0.0180836615001446	0.39965160052208	2.59343730979575
1292.065	0.397145705391634	-0.0169135815566173	0.397505698766811	2.43863041608715
1101.762	0.396908757905814	-0.0163292780591222	0.397244518431996	2.35588499722994
939.101	0.394552730527109	-0.0183326221683151	0.394978407260401	2.66029575490956
801.2801	0.391924994732162	-0.0146698723328524	0.392199447539217	2.14359783159823
684.3433	0.391656264068473	-0.0133634377166982	0.391884180149801	1.95419230847285
582.9476	0.390535257000611	-0.0129636906193383	0.390750360505282	1.90121663073506
497.0677	0.390045986392869	-0.0156440487554193	0.390359587768314	2.29680044348046
423.5089	0.387934436140455	-0.0132386693193116	0.388160262145623	1.95452004033167
361.5036	0.38735144933024	-0.0145887606923397	0.38762607914945	2.15690305751675
308.1262	0.383705662514025	-0.0151336744334434	0.384003988973011	2.25862311967531
262.7298	0.383959771343037	-0.0125366803063176	0.384164384558095	1.87010158471268
224.2111	0.383359720742486	-0.0124160810572971	0.383560731249405	1.85502133554484
191.2854	0.374278068927475	-0.0110272202106051	0.374440479202841	1.68759676527187
163.1722	0.378607988811514	-0.0145313872392817	0.378886751427121	2.19799559058354
139.1537	0.378209126840637	-0.00877017986018493	0.378310797731623	1.32837686491003
118.6706	0.378972029592464	-0.0213437407694158	0.379572594484195	3.22349837062049
101.1982	0.371469252941944	-0.00628622748313725	0.371522438807154	0.969501312183071
86.24196	0.372712908579632	-0.0208396341485854	0.373295061008495	3.20026779681691
73.61024	0.361905113626613	0.00838906564988231	0.362002331058199	-1.32789500740433
62.69291	2.239248847781	2.15725007365215	3.10933486176074	-43.9315045641882
53.57697	0.371478604468674	0.0277702440502095	0.372515154097926	-4.27524949316798
45.65746	0.343956592400637	-0.0334139311794797	0.34557579234189	5.54863215002797
38.96512	0.347759447222175	-0.00378626581815239	0.347780058285575	0.623788891841444
33.18414	0.38045435483761	-0.0139386372651536	0.380709602878246	2.09819665591206
28.30617	0.338395414877141	0.0173231917161919	0.338838530543839	-2.93053645560317
24.17237	0.342197590179404	0.000491184256521372	0.342197942697739	-0.0822412732932676
20.61345	0.363015399061537	-0.0187323928077357	0.363498394076384	2.95396813759284
17.55618	0.337876610392822	-0.0366913984188223	0.33986300558971	6.19769592908602
14.98558	0.361587760910544	-0.00507274733889942	0.361623342175066	0.803754935292036
12.76553	0.38560178703209	-0.0134722229711767	0.385837062701506	2.0009960848415
10.8809	0.368270371721979	0.000106895155428084	0.368270387235818	-0.016630827660072
9.278505	0.369367149044458	0.040219131084022	0.371550359034121	-6.21426013894325
7.923394	0.336450037581231	-0.00345562488578123	0.336467783200358	0.588455157573522
6.75822	0.359598964055216	-0.066313075839335	0.365662192435666	10.4484411632718
5.761429	0.3655595814007	-0.00923564103002948	0.365676229223463	1.44723524063654
4.919708	0.38548041624007	-0.0767477379321256	0.393046265193191	11.2601390124778
4.191257	0.442415509060563	-0.00657183570580592	0.442464316845846	0.851034266630641
3.564097	0.344864081474652	0.0620431221560689	0.350400604591699	-10.1987576153097
3.051758	0.403724674117833	-0.107774260277417	0.417862302283772	14.9465666550833
2.604164	0.284097932993857	0.0829730666960412	0.295966493590622	-16.2808650388061
2.214424	0.378927266435798	-0.0976617240335782	0.391310216567006	14.4524363934066
1.892567	0.399520882402446	0.0195392987528459	0.399998399586026	-2.79992385070956
1.607507	0.357727616994347	0.389749393883668	0.529030847865359	-47.453040682933
1.376413	0.521492372094689	-0.136247819474775	0.538996996712019	14.6420968827508
1.17375	0.573270320396073	0.0122931950238592	0.5734021127367	-1.22846104684835
1.001604	0.50347092544634	0.0840286268618093	0.510434895850661	-9.47525515950828
