EC-Lab ASCII FILE
freq/Hz	Re(Z)/Ohm	-Im(Z)/Ohm	|Z|/Ohm	Phase(Z)/deg
6999984	263.080433841592	-85.3968771211789	276.593458513266	17.9836211214215
5969734	221.930756212114	-15.7681813612072	222.49021573166	4.06403605044433
5091109	156.144718654589	-60.5427378781204	167.471180426662	21.1930442108468
4341796	322.816473350982	-141.358128993051	352.409699212694	23.6481339855147
3702781	225.076729109921	-79.2471339927011	238.620288812326	19.3966267174613
3157797	151.759087748109	58.417953907992	162.61450751066	-21.0536493088694
2693047	289.579720574343	-116.039238717452	311.963971461514	21.8367680232542
2296687	295.038902785188	-0.909197121141136	295.040303680857	0.176563132513751
1958656	199.025879303625	-122.964313617535	233.947692991431	31.7090485573205
1670375	222.352882765288	-172.792842284445	281.599308981345	37.8511675802788
1424531	172.490454616224	-18.0698090029917	173.434353376476	5.9803959557047
1214875	1209.64954405513	-50.0247435939782	1210.68348233732	2.36810274925331
1036062	171.745929044771	-16.3457718577412	172.522022945121	5.4367008340446
883578.1	105.398387408959	-123.36561172293	162.25872618809	49.4908166475174
753531.2	135.482652894564	-31.9064164011867	139.188967389355	13.251797604132
642624.9	-159.855559343338	-1087.08263387528	1098.77315799313	98.3653942680597
548046.8	90.5086756872622	63.6470414558972	110.647034577302	-35.1154545367118
467390.6	110.263548843084	-21.1324808127573	112.270352047068	10.8494199466162
398593.7	66.4408097582035	-42.9239716303466	79.1002436269864	32.8644122216238
339937.5	45.6934809247423	-21.226689241752	50.3831969528106	24.9170005890334
289906.2	55.9199918015219	-57.3946540080652	80.1323392382113	45.7455978055534
247234.4	-5.44066170764604	-143.224572824172	143.327872587587	92.1754447283639
210843.7	-23.0837404826721	-109.731892197341	112.133613336413	101.879802791833
179812.5	-2.74038402518617	-124.754549189733	124.784643478831	91.2583684814775
153343.8	-32.1199795784225	-94.2706129830253	99.5923770190953	108.815055831435
130781.2	32.4269633041141	-214.510491110899	216.947594468722	81.4038381799044
111531.3	-39.8535328110968	-154.517120624561	159.573947258411	104.462696532283
95109.37	11.3191655095266	-122.575441052578	123.096962826326	84.7240140111285
81109.37	-2.47220972122801	-178.633591954447	178.650698278662	90.7928975687132
69171.88	13.9796142268304	-263.497735045226	263.868311829774	86.9630757787203
59000	82.9682539125412	-292.720526713401	304.251602981261	74.1752307491954
50312.5	-57.5046311167065	-306.901929977899	312.242817730093	100.612534740563
42906.25	-134.730395792863	-323.264121164593	350.217034969486	112.625454352173
36593.75	-57.0425625892864	-406.562313328577	410.544478182129	97.9867264612578
31203.13	-16.4584134822404	-346.03767742816	346.428857883155	92.7230777889499
26609.38	-140.278902674722	-551.904736523631	569.453254212181	104.261015388397
22703.13	-144.744948539153	-635.88882912642	652.154661974728	102.823521576193
19359.37	-163.765891638007	-744.829229372704	762.620382754046	102.40033494871
16500	-211.343777096007	-864.379954819076	889.842063745154	103.739451907489
14112.02	-223.341646844615	-1003.38967168264	1027.94568166546	102.548731017648
12011.13	-209.541417216273	-1155.43064101135	1174.27746794227	100.279073303797
10236.38	-257.31810928733	-1354.34478410292	1378.57259641775	100.757664950069
8750.684	-269.721779484889	-1539.26377133092	1562.71647974301	99.9389082608275
7449.463	-388.868523839863	-1853.87955686375	1894.22494445373	101.846571239716
6363.206	-348.452510299847	-2064.32934166855	2093.531653166	99.5810388219888
5414.761	-456.581071781288	-2453.38355475634	2495.50739166564	100.54229011488
4620.567	-459.679306592447	-2907.17320165306	2943.29086046877	98.9851627150527
3941.215	-535.639224871006	-3137.87443981382	3183.26332232464	99.6870933098675
3361.769	-1143.49498751468	-3724.1513613966	3895.75206462929	107.069024246554
2867.244	-1295.73867027453	-4296.03492816766	4487.18785050072	106.783977743476
2442.658	-1291.5353115619	-4914.00412603518	5080.89559149783	104.725856047587
2083.003	-1551.09263752212	-5767.56622300414	5972.49600308896	105.05261387815
1777.843	-1673.81238979186	-6645.18217519474	6852.74354238845	104.137772166664
1513.548	-1628.15022916403	-7562.02716991499	7735.31693515265	102.150639941592
1292.065	-1910.43772695915	-8699.87725528693	8907.16770728202	102.385208862918
1101.762	-2317.8721001675	-10597.054080936	10847.5843516895	102.33788254904
939.101	-2516.80363416497	-11996.5600116256	12257.7221638231	101.84846200044
801.2801	-2845.05859251074	-14115.8092183212	14399.667644875	101.39536697605
684.3433	-2822.36917054058	-15268.69017399	15527.3522328863	100.472733038551
582.9476	-3398.56309147575	-18220.3375355296	18534.5874244713	100.565724088701
497.0677	-3725.88987778949	-20432.3485205379	20769.2831230676	100.334478322586
423.5089	-2498.91232593962	-22378.3791810498	22517.469164708	96.3716157325635
361.5036	-7472.89825039244	-25510.803409352	26582.8008090067	106.3269293103
308.1262	-19519.8140673769	-41954.499653043	46273.1367249093	114.950746267932
262.7298	-16479.8247027225	-54419.6723035028	56860.2264843633	106.847805241854
224.2111	-22564.090841947	-54097.04198462	58614.2316081118	112.641210691539
191.2854	-25910.6363661137	-63172.6557730258	68279.9056407827	112.301274831688
163.1722	-14544.5534117937	-77649.088673886	78999.5253519509	100.609211585351
139.1537	-35097.2566981635	-100156.166555976	106127.636018736	109.311752944034
118.6706	617034.407704898	-49465.3927781062	619013.96218052	4.58339135200949
101.1982	1801154.18431061	-389919.064549129	1842876.35845666	12.2150648513105
86.24196	-679730.20868383	-1805427.45153835	1929145.2613439	110.630988267323
73.61024	-288488.422932608	-1585738.70828076	1611766.98722429	100.310872461426
62.69291	-917990.61205239	-1782859.93293318	2005317.00842406	117.243837955605
53.57697	-597337.545409804	-1847158.34354031	1941341.31189412	107.920267642779
45.65746	-490603.085431312	-2403028.28259131	2452597.87049742	101.53895019951
38.96512	1856131.95490112	-1792431.54962102	2580317.16928014	43.999772485478
33.18414	-1619415.54211225	-3019364.68935043	3426232.59942038	118.206578938763
28.30617	2035236.04112173	-1967859.3324958	2831016.79535316	44.0357370462784
24.17237	-238889.413128615	-3223447.82836464	3232287.74305347	94.2384365655119
20.61345	2507472.57081511	2364427.74931828	3446438.34634198	-43.3182105402801
17.55618	1747154.2554209	-4352756.66975285	4690313.27507164	68.1299530527701
14.98558	-1838410.66035615	-6848759.71736349	7091210.2931934	105.025684861778
12.76553	2301791.60639577	-10923642.2770492	11163521.182683	78.1009083783137
10.8809	1483629.19238754	-3003681.99466737	3350113.59592379	63.7135370721222
9.278505	5786728.74501995	-5705183.48624069	8126213.64351896	44.5934427049028
7.923394	5211311.49222481	369223.060323234	5224374.90397357	-4.05265195201288
6.75822	-6456226.88849356	-6254409.38972987	8988909.97007136	135.909657005377
5.761429	3676028.30566709	-1667473.24449887	4036539.4987768	24.3993905169123
4.919708	2693065.51482918	-5334755.44126612	5975970.00371325	63.2146627199018
4.191257	6128652.39722873	-4587015.98544193	7655135.26051351	36.813174320308
3.564097	6953190.27415306	-2171961.71298115	7284522.81698895	17.3471910617461
3.051758	9561765.65850415	1695719.73953585	9710964.31582368	-10.0564921947787
2.604164	-3808875.62251822	-7475805.49030589	8390184.8154079	116.998554723509
2.214424	11932071.3420631	-14882484.1747726	19075184.4479796	51.2790121965427
1.892567	5080359.58605337	11670845.0790341	12728655.7963682	-66.476339560243
1.607507	9266611.8961453	-6681726.7594055	11424341.0541325	35.7936360309183
1.376413	11555143.6668586	-10816814.5210954	15827975.9143588	43.1097856831454
1.17375	4906501.87026799	853162.052122166	4980125.10787877	-9.86419036999899
1.001604	16629425.8726142	5184556.52676729	17418881.4575453	-17.3159132957099
