EC-Lab ASCII FILE
freq/Hz	Re(Z)/Ohm	-Im(Z)/Ohm	|Z|/Ohm	Phase(Z)/deg
6999984	36.3966731075854	7.09384612602888	37.0815380770566	-11.028893246363
5969734	9.05639293409945	-5.90145426322167	10.8095057887816	33.0896362013118
5091109	24.5133249875877	-1.25530955769078	24.545445688207	2.93151449455946
4341796	0.748139420882095	-7.72259420809431	7.75874821707532	84.4666413695557
3702781	0.969384347804892	-7.21558308458886	7.28040831714637	82.3483591051776
3157797	-4.49299382205512	-30.3288970857659	30.6598922360142	98.4266434563592
2693047	11.0974821794305	-10.4977417781034	15.276016927279	43.4091962381469
2296687	1.57078880810827	-12.7813953618457	12.8775558579837	82.9936814698334
1958656	-2.0038748272346	-19.1544170885804	19.2589513817997	95.9723787409163
1670375	-1.28404749844586	-19.1156919671198	19.1587697245954	93.8429237995331
1424531	-1.54351388952538	-20.755552836636	20.8128664215563	94.2530469892878
1214875	-2.67112948187537	-28.1043383974467	28.2309895233437	95.4292720469118
1036062	-4.73064290495798	-31.0150654095248	31.3737671415361	98.6723277589113
883578.1	-5.37643811278154	-36.5606895925091	36.9538916795021	98.3656807469573
753531.2	-6.72566038014756	-42.7195737869643	43.245768487668	98.9470610216765
642624.9	-19.3262552967965	-49.7670263633614	53.3878362255716	111.222910965472
548046.8	-21.8768623457324	-58.6929415823072	62.6375166946955	110.442141378048
467390.6	-25.984825306101	-65.5762278980599	70.5368897211018	111.616131900271
398593.7	-31.1096735750508	-75.5714615522009	81.7242778559835	112.374957204142
339937.5	-35.8852053072792	-85.4680912310375	92.6959685133207	112.775913069175
289906.2	-44.0865512249759	-97.9822239981075	107.443660671664	114.225095220399
247234.4	-54.3858243607036	-110.352039945985	123.025975353311	116.235890602411
210843.7	-65.1144716190069	-121.989625025539	138.280016734502	118.091987379737
179812.5	-78.4573975582983	-137.021167395551	157.893519645552	119.795161721543
153343.8	-97.3939029573822	-147.587171475314	176.826314550057	123.421125128028
130781.2	-115.426007203302	-160.516708581791	197.708818399252	125.719545323196
111531.3	-134.151762706253	-169.858410535396	216.445316573969	128.301178556496
95109.37	-163.990351533692	-179.927728217644	243.447782445654	132.346776252135
81109.37	-190.261319610585	-183.792715878267	264.535691637009	135.990730533388
69171.88	-218.163749415076	-184.819477573774	285.925970925145	139.73008228753
59000	-242.518860611606	-180.930569899759	302.574402216386	143.275315940681
50312.5	-259.232371670673	-175.395722523488	312.993741153938	145.917854587604
42906.25	-307.44846686909	-183.51585761362	358.053948136054	149.167040948011
36593.75	-324.644821726843	-159.072339486148	361.522156255533	153.895661631226
31203.13	-344.23241923494	-150.179945876069	375.566205342917	156.429567480192
26609.38	-354.570589722868	-131.77099408356	378.264322898938	159.613150173057
22703.13	-364.867674702785	-118.744489472466	383.703888204295	161.972762260744
19359.37	-373.968372729916	-107.154374380371	389.017228090363	164.011231504261
16500	-383.085840440045	-97.0982337355877	395.199731958698	165.777144724633
14112.02	-387.573958236838	-92.1589000661768	398.380265531286	166.624377416293
12011.13	-392.862850570165	-80.2786266434343	400.981143264708	168.45102416295
10236.38	-398.280425691904	-73.4182401306097	404.990784429967	169.555457608844
8750.684	-401.155539079476	-67.7204274126815	406.831442766044	170.418045569413
7449.463	-403.832093317021	-62.83895538004	408.691930316787	171.155327660188
6363.206	-408.303539722497	-48.1064605892123	411.127732098362	173.280370826549
5414.761	-410.510847688904	-45.9774101002989	413.077569361728	173.609477784072
4620.567	-412.589349663545	-46.1801244782577	415.165720348651	173.613603080197
3941.215	-410.542388489961	-47.767211264211	413.311939361787	173.363392411063
3361.769	-415.369350606754	-52.9620754246027	418.732228108559	172.733654498435
2867.244	-416.232162485673	-52.0115440989054	419.469204837557	172.877352313454
2442.658	-418.447636880264	-57.3794409702308	422.363380345329	172.192037494698
2083.003	-418.505107063869	-62.9652220476917	423.215245266585	171.443869205816
1777.843	-424.762187086296	-69.6695860951204	430.437877985893	170.685273085062
1513.548	-422.636654004244	-73.7562676089622	429.024158200337	170.10074154247
1292.065	-429.906134027704	-84.8068981656985	438.191161539269	168.840635463639
1101.762	-433.145654217856	-89.1731799210357	442.229593972457	168.366856662845
939.101	-448.346160709155	-110.462072120855	461.753342380835	166.159307573986
801.2801	-435.372997713318	-115.971822274668	450.554226147739	165.084266862982
684.3433	-453.143904934204	-135.898649678634	473.083334692203	163.305920458455
582.9476	-449.263515324776	-149.847907424769	473.594870708665	161.55433118296
497.0677	448.066849222632	-176.53767293065	481.590543237786	21.5043665584091
423.5089	-459.66299267992	-196.618691349867	499.948974023944	156.841409543332
361.5036	-480.536839898165	-200.460326419757	520.672638965819	157.356097530698
308.1262	-464.024290639158	-263.527116235568	533.633847590844	150.407036208233
262.7298	-492.204616767805	-295.083948630208	573.881452485387	149.056689276669
224.2111	-570.716364610823	-254.430783955408	624.861738834086	155.972232568119
191.2854	-506.37852744492	-374.447716884986	629.785920561634	143.518479228935
163.1722	-572.596463108665	-442.562465581166	723.690711219809	142.299396928235
139.1537	-588.557752795402	-485.673521539146	763.072079098566	140.470802125075
118.6706	-559.41561620514	-584.659718630368	809.180337281571	133.735969722209
101.1982	-499.69983587565	-576.631520366245	763.022828134282	130.911688862671
86.24196	-705.914618536625	-795.40679893396	1063.4789252515	131.588695793398
73.61024	-730.025934872404	-745.363887812841	1043.31452153308	134.404382286009
62.69291	5050.58418003441	-938.474921762455	5137.03569565084	10.5263691529876
53.57697	1587.96893724912	-2600.35901621375	3046.88568195005	58.5887160735745
45.65746	-466.958059424543	-892.011377566907	1006.84364574165	117.63155849557
38.96512	-780.043858469016	-1814.1023999253	1974.69894884004	113.26716708272
33.18414	-1137.59516829912	-1405.59957971642	1808.2679407202	128.98431613563
28.30617	-1290.11455444448	-2349.37547559115	2680.29115748618	118.772546648793
24.17237	-779.087484348285	-2247.67643521947	2378.87088041975	109.117291068367
20.61345	-1200.34527367178	-1837.45687769715	2194.78394231021	123.155158119528
17.55618	-1695.67019615372	-1404.9045802528	2202.05683254073	140.357413777418
14.98558	-1367.98256150776	-2768.41756176821	3087.96244875095	116.295764692002
12.76553	2724.50956617407	-2467.09756347159	3675.53026975176	42.1614660476905
10.8809	-1725.67306286715	-3743.71060345792	4122.29506493028	114.74746084222
9.278505	-3077.42066955103	-3909.65092491885	4975.52894998097	128.207499956992
7.923394	-2901.52843336893	-5284.45735812624	6028.62810426244	118.769796451377
6.75822	-1012.66598458699	-6412.9352996839	6492.39798181469	98.9734743760321
5.761429	4336.47053525454	-11750.5315405349	12525.1733795679	69.743688682756
4.919708	-3135.93866856651	-7921.52871127595	8519.66715644338	111.59739618037
4.191257	-3799.98099472364	-7696.30840750835	8583.29882176687	116.277430042558
3.564097	-4978.80440249115	-7917.16514706354	9352.53961467915	122.16422761285
3.051758	-1689.23548507113	-10339.5945535639	10476.675620449	99.2787462892778
2.604164	-3447.2147815359	-10809.4480045291	11345.8122632387	107.687875961074
2.214424	-3264.52003185697	-11551.3534369644	12003.7851223714	105.780785939981
1.892567	-8903.36050783517	-12673.5041383766	15488.3031826578	125.088718790756
1.607507	-7338.63389804923	-16038.6830803818	17637.8825952132	114.586860772245
1.376413	-11653.9424315277	-21672.2931567815	24606.9637475012	118.268458380637
1.17375	-9637.81056258924	-18897.8029280619	21213.5416172836	117.021415739535
1.001604	-9688.95615428048	-21358.1443194479	23453.0637685129	114.401050559284
