EC-Lab ASCII FILE
freq/Hz	Re(Z)/Ohm	-Im(Z)/Ohm	|Z|/Ohm	Phase(Z)/deg
6999984	0.0565601264527145	3.28493637693848	3.28542326777511	-89.0135771359344
5969734	-2.13450866206404	-0.416256610629855	2.17471763553788	168.965081896741
5091109	1.56476096068139	3.92740700936452	4.22764741685942	-68.2766302483236
4341796	-2.89112285071685	0.824477992524342	3.00638575337465	-164.08313770755
3702781	24.4002145767404	2.86234033726851	24.5675286424445	-6.69067454559453
3157797	1.2647663908895	2.69074460754996	2.97317012069321	-64.8244449411013
2693047	2.66921298102001	3.50454209814033	4.40528242632451	-52.7055109486579
2296687	-22.8559737346575	-14.925451622672	27.2977039602248	146.854583286863
1958656	-28.8769166206022	-13.3690189610372	31.8214861609854	155.157486583443
1670375	-38.0273829177194	-10.4801713294384	39.4450990956448	164.592038821185
1424531	10.1017735295745	10.897229189199	14.8591868029426	-47.1693635489858
1214875	11.2650576573841	11.5033108407144	16.1005491931885	-45.5995336748407
1036062	11.8449479090136	11.9697891574175	16.8397934500479	-45.3003523029573
883578.1	11.9082642683464	12.2108431663648	17.056126427719	-45.7187490032736
753531.2	11.5504335565593	12.3228567254716	16.8897990876444	-46.853165330587
642624.9	11.008569884075	12.2232724509568	16.4498328351045	-47.9930476752659
548046.8	10.4264655494917	12.1766306494199	16.0306430883832	-49.4275964844026
467390.6	9.86641180959903	12.615697207955	16.0156766338297	-51.9719530835519
398593.7	9.31872650104154	13.5783659263313	16.4684754859267	-55.5384950371043
339937.5	8.88123728731164	14.6879390425062	17.1642631379827	-58.840244545637
289906.2	8.6585318090625	15.7802801424048	17.9996503983083	-61.2467245809659
247234.4	8.83278381793893	16.7408604879856	18.9281398941534	-62.1830522097687
210843.7	8.88244269558258	18.4975800620181	20.519704100963	-64.349921295174
179812.5	9.75491676403766	21.1114814361733	23.256247537021	-65.1999041842506
153343.8	11.5115981580737	23.4577430422086	26.1301090848709	-63.8610737043684
130781.2	18.8402315439222	173.011667071495	174.034454253997	-83.7852226638067
111531.3	20.102475299127	41.5108067031956	46.122191906956	-64.1604441523242
95109.37	23.1083613476188	39.5173144650236	45.7778822871884	-59.6823779129203
81109.37	26.6167476232523	36.4569519611564	45.139346476638	-53.8673031994226
69171.88	-186.390686076997	133.001183558424	228.977734035857	-144.48981457902
59000	-213.313399854411	432.914969830492	482.615766071503	-116.231192348491
50312.5	-6.09727385692816	27.311220679942	27.9835580924741	-102.58499924608
42906.25	-63.7726377615491	50.6167581278844	81.4187050403192	-141.560739738752
36593.75	-111.771492904394	58.8546124972524	126.319958986213	-152.230417095458
31203.13	-107.546502745159	60.7809584050329	123.533700492412	-150.526612500077
26609.38	-188.603572839572	250.576784673175	313.624030815559	-126.967963063006
22703.13	1045.17843190394	1837.65595279501	2114.09019565394	-60.3706721122109
19359.37	886.36478247466	1356.62425312139	1620.51593382124	-56.8409828040413
16500	1349.90752184127	2010.02337480997	2421.24849712005	-56.1151655987476
14112.02	1244.50151967697	1551.37381625516	1988.85513555924	-51.2636511980553
12011.13	1965.16803428711	837.629578008476	2136.23704511894	-23.0855524560537
10236.38	2221.15030429774	701.518059537734	2329.29952177463	-17.5279649756878
8750.684	2207.86298995096	1231.32897642418	2528.00910413254	-29.148482982147
7449.463	2998.52469448058	1143.96812948289	3209.33223968514	-20.882369305593
6363.206	2952.87223996541	994.267300615778	3115.76987767584	-18.6089930956509
5414.761	3340.14628477706	1473.91599091404	3650.89106273827	-23.8105675204343
4620.567	6879.75268578099	2544.67850596195	7335.28361525411	-20.2983935320618
3941.215	7411.11223476314	2555.79420464056	7839.43037297546	-19.0272522860964
3361.769	11664.0317136491	3798.15855696101	12266.8514395841	-18.0368030639655
2867.244	12064.638993423	3456.46002113363	12550.0051760674	-15.9867486138315
2442.658	12420.2930344589	3079.37932391553	12796.3376042674	-13.9246334021101
2083.003	12729.9814634786	2746.34545527093	13022.8584197247	-12.1743103633429
1777.843	12938.3997379424	2413.88532329199	13161.6499775975	-10.5680346438495
1513.548	13148.7021447017	2094.62653555612	13314.4969267915	-9.05132941646894
1292.065	13321.8688710025	1783.88151191374	13440.7746601427	-7.62689331241624
1101.762	13425.0126269748	1542.48456264435	13513.3349940135	-6.5543335086652
939.101	13531.0347248992	1295.6647799076	13592.9263938389	-5.4696831495213
801.2801	13616.7063754023	1081.95283908583	13659.6235109145	-4.54304882069653
684.3433	13687.1945603952	858.961416768586	13714.1208121268	-3.59097745759914
582.9476	13749.6273024369	657.445037429207	13765.3363537968	-2.73754020597572
497.0677	13809.449680704	512.972052647513	13818.9739420368	-2.12735676993745
423.5089	13870.4223512482	204.580121803563	13871.930984122	-0.845015917950587
361.5036	13867.5069676888	125.780544652823	13868.0773809606	-0.519667792746619
308.1262	13883.405277849	-29.4825938649986	13883.4365822136	0.12167228604995
262.7298	13866.783134285	-219.35682985668	13868.5180142687	0.906278857237155
224.2111	13816.466528943	-340.593745238502	13820.6639292293	1.41212897061328
191.2854	13779.2680681761	-553.207296491326	13790.3686247884	2.29906477268682
163.1722	13728.478202357	-797.081336544438	13751.5981765633	3.32288706751065
139.1537	13625.1190335862	-1003.85982803813	13662.0497449593	4.2137757054128
118.6706	13433.9477426148	-1252.5849379816	13492.2170519958	5.32687284612715
101.1982	13149.1700007008	1635.96395830124	13250.5490369339	-7.09205439939548
86.24196	16191.2572885966	5020.33739729163	16951.7137826291	-17.226818358567
73.61024	20273.1004760968	8011.27044598477	21798.6021816222	-21.5623212393866
62.69291	29634.4874139527	11373.6642311383	31742.1341804611	-20.9967144927673
53.57697	32127.3682261647	11846.9089661197	34242.0361718036	-20.2413613131345
45.65746	36086.2689376898	12654.7821679207	38240.8461930539	-19.3248179169976
38.96512	38017.7228850408	13196.766604232	40243.0354492591	-19.1429840311349
33.18414	39326.7940131994	14167.1629651413	41800.7803017777	-19.8111502230826
28.30617	42701.1503692929	16730.2769469755	45861.6442093332	-21.3952066392808
24.17237	43979.4142195684	18104.8323981256	47560.2126914987	-22.3753025140536
20.61345	47135.4021701808	21466.8972113868	51793.5692304453	-24.4859644397565
17.55618	49637.9631444526	23756.6368859404	55030.038899318	-25.5756900590497
14.98558	14124.4647405569	-3636.18766323995	14585.004797035	14.4366857836185
12.76553	13412.0505761451	-2516.46511871006	13646.0872542557	10.626694062915
10.8809	13001.8618746075	-1310.30833380362	13067.7205409362	5.75475371682628
9.278505	12603.5562104686	309.259291471274	12607.3498587055	-1.40561100273587
7.923394	12693.4571969754	1686.77646329056	12805.0408218232	-7.56943137514257
6.75822	12798.6416250698	3291.30480249977	13215.0639328732	-14.4217201260097
5.761429	13220.6679732974	4681.4414902364	14025.0474539903	-19.4990658416528
4.919708	13760.5715312204	6252.44114671014	15114.4417415566	-24.4357962552149
4.191257	14493.2424922796	7628.09770986569	16378.0936806234	-27.7587738500572
3.564097	15554.7272220274	9025.40918441895	17983.5355227462	-30.1238404959541
3.051758	16827.0959428422	10408.245203664	19785.9224219952	-31.7384813992563
2.604164	17987.5679784253	11644.3530378751	21427.6354143228	-32.917227471179
2.214424	19510.2476588432	12965.3329370813	23425.4054794951	-33.6056133437169
1.892567	20908.6281654385	14121.0903620729	25230.4562934243	-34.0339680505126
1.607507	22387.1867367494	15170.711258391	27043.2359393539	-34.1235901088269
1.376413	23957.1885874953	16213.1208469567	28927.7059687566	-34.0883302861146
1.17375	25522.5705165705	17148.3286019519	30748.4435315649	-33.896710281111
1.001604	27255.1900790047	18019.0073951211	32673.0778125983	-33.469570244841
