EC-Lab ASCII FILE
freq/Hz	Re(Z)/Ohm	-Im(Z)/Ohm	|Z|/Ohm	Phase(Z)/deg
6999984	1.74918741302432	1.779945775453	2.49556878675698	-45.4993520043621
5969734	4.97543921625535	2.34655891682978	5.5010302803025	-25.2499005271604
5091109	7.49434287060995	-7.03022296918722	10.2756610521538	43.1697858234515
4341796	1.93864230798073	-6.84606972709952	7.11526561040425	74.1891536236171
3702781	2.51430830027418	-5.74877679592355	6.27456619043713	66.3771605659059
3157797	3.08567352380462	-4.3316728862749	5.31834288939684	54.5357730590017
2693047	2.93086082219448	-6.1514617495823	6.81398758552205	64.5245588311299
2296687	3.11150813242079	-9.71518266996901	10.2012870349278	72.2411544159518
1958656	-1.16459051000432	-7.01032362660407	7.10639911669162	99.4321270910343
1670375	3.25175095235261	-6.2061663149192	7.00645306732043	62.3474910969713
1424531	-6.47413510740162	-7.24496328324349	9.71616788473915	131.784131697317
1214875	10.3425391476193	-7.85256189214892	12.9857939414603	37.2075469002745
1036062	-4.10555729491186	-23.6311916176234	23.9851791315104	99.8558866763131
883578.1	-2.29757653236467	-4.5762596542993	5.12064550087588	116.65959289191
753531.2	-0.147841774231817	-3.343743273735	3.34701004941068	92.5316525895967
642624.9	9.19453355465235	-24.8486852046927	26.4952185061671	69.6944716081543
548046.8	11.2610891640063	-10.124418812799	15.1431828047032	41.9575102613578
467390.6	12.8681392075226	-4.61371958870538	13.6702382973884	19.7246966213753
398593.7	15.8640483303152	-12.5958168609897	20.256421989635	38.4490490394978
339937.5	-0.263793629811007	-36.6746928703451	36.6756415651216	90.4121098180693
289906.2	-2.5001777851169	-52.4159491488744	52.4755430094304	92.7308700149637
247234.4	0.287430565544344	-76.8460193228207	76.8465568655704	89.7856950606527
210843.7	-2.37605571604555	-87.0176159378153	87.0500495362689	91.5640987609593
179812.5	-12.3598361344753	-112.025962205316	112.705730809475	96.2959853036062
153343.8	-14.3848163927091	-132.326659690662	133.106227531022	96.2040828732672
130781.2	-16.3537463690529	-153.869564833056	154.736188405354	96.0668021855539
111531.3	-18.8747363885925	-179.243307082543	180.234344140137	96.0112252794262
95109.37	-21.8717104771356	-208.675695486395	209.818773244737	95.9834368263624
81109.37	-25.6810783497499	-243.025422967301	244.37854650857	96.032195534728
69171.88	-29.5644302252899	-282.163664079802	283.708281270543	95.9814887698589
59000	-35.3579977893716	-326.304771099087	328.214855924744	96.1843731251147
50312.5	-41.9464228270869	-380.455445916273	382.760824426089	96.2916308243632
42906.25	-48.0420630449745	-438.395119115248	441.019637074915	96.2538729056641
36593.75	18.0126624300577	-407.137961437804	407.536226183084	87.4667629764198
31203.13	-118.328513586253	-565.740127675089	577.982291415021	101.813511574937
26609.38	-31.3756651916518	-654.787883596635	655.539171118843	92.7433604948975
22703.13	-86.2420259128129	-725.460683452121	730.568881261969	96.7794470911376
19359.37	-43.8573522704894	-882.165292001108	883.254815871149	92.846149123344
16500	-141.617658938165	-998.751663077602	1008.74201152892	98.0704355951264
14112.02	-105.58332746808	-1110.28399094054	1115.29295684053	95.4322514274465
12011.13	-146.247398596864	-1369.65626678501	1377.44204623636	96.0947625259563
10236.38	-142.897516026843	-1547.94100859366	1554.52277763068	95.2742869633289
8750.684	0.681408691229145	4.80150296451466	4.84961323434413	-81.9227660549544
7449.463	6.11142831196503	-1.1283802678654	6.21472429325676	10.4609660206734
6363.206	11.8095677983645	3.08728769402981	12.2064424338083	-14.6505365510731
5414.761	10.109226076861	-5.59696780770977	11.5551936597197	28.9710837896186
4620.567	4.33943738456764	-3.93781683891307	5.8597882445879	42.222130819039
3941.215	3.2893717730755	1.27980156344023	3.52956919514123	-21.2596047179071
3361.769	3.02772874566597	-1.29810128473983	3.29426900886604	23.2066356268987
2867.244	1.50414031718305	2.73787882422843	3.12384675519366	-61.2164151136035
2442.658	2.30865480955101	2.48198450844925	3.38971003624869	-47.0721096928403
2083.003	3.78393625550385	0.325351743696487	3.79789775307904	-4.91433922292839
1777.843	-0.126785609180138	3.35325837244091	3.355654377769	-92.1653033753901
1513.548	3.0398110765396	9.73452554271658	10.1981095759388	-72.6579239161299
1292.065	-0.772359428381069	-4.04928739581083	4.12228910927916	100.798860615539
1101.762	4.61796914343497	1.83547349177061	4.96936635283716	-21.6760075250964
939.101	19.6026597346472	15.1091816303565	24.7497805689558	-37.6240299215551
801.2801	2.71209710238646	3.7559077863793	4.63274367870248	-54.1673898446224
684.3433	8.91617205902415	-2.74768550286384	9.32994639902991	17.1276622825417
582.9476	11.4968111441585	-1.56966739093684	11.6034702655119	7.77456172495531
497.0677	6.58477520087494	-5.4713688444029	8.5612581714115	39.7235993843443
423.5089	14.8829546482502	-48.6915573148587	50.9153227703414	73.0038185370504
361.5036	4.17671685110762	2.03106167691164	4.64437026837283	-25.9328146527547
308.1262	-6162.21069211758	-40977.8432179196	41438.5867930658	98.5520066219338
262.7298	-22224.8276731548	-68342.5184663156	71865.4492466311	108.014404608519
224.2111	-21158.8156100541	-73306.8039734105	76299.2987308291	106.099923431869
191.2854	-25251.4544743737	-90173.7046462077	93642.5809271235	105.643906322725
163.1722	-24889.9804634793	-98262.6262090118	101365.945154003	104.214090144976
139.1537	67.5774373602697	-0.0336058163584232	67.5774457162452	0.0284928129997111
118.6706	-31791.8497275372	-137083.89689661	140722.12511705	103.056944581929
101.1982	-32776.4847896001	-151783.515478027	155282.109484742	102.185475775535
86.24196	-38413.1794019131	-181643.890030557	185661.183711612	101.940708205456
73.61024	-40192.6111726297	-202116.689327181	206074.263549465	101.247028202891
62.69291	-213184.684999466	-296306.231043545	365027.522898688	125.734041155412
53.57697	398693.639938687	-283759.916514631	489363.1665215	35.4403789023304
45.65746	-222788.961277089	-408775.083110497	465544.831180541	118.591090915075
38.96512	-231463.94619136	-472497.342395541	526145.699362188	116.099010985154
33.18414	704144.199914642	487479.067530414	856419.812681697	-34.6948576784621
28.30617	-259068.110143904	-634651.807597875	685491.942024693	112.205533584122
24.17237	-274121.475454734	-730257.507973109	780011.93020144	110.574952994959
20.61345	1330462.26487729	-565923.808846172	1445821.42593107	23.0429014777841
17.55618	-320260.199199936	-978895.535574216	1029952.94298269	108.116276504494
14.98558	-345905.729350893	-1124862.93998033	1176846.38221773	107.093145769729
12.76553	2054258.90900326	1214805.61413155	2386573.3479918	-30.5983526827255
10.8809	-419753.526651621	-1502069.89846911	1559617.58230134	105.613023897567
9.278505	-461286.456411857	-1730308.75152871	1790741.06740362	104.927422599914
7.923394	-513055.553773893	-1988892.56541641	2054000.88559545	104.464701884566
6.75822	-571818.421837079	-2288216.88388143	2358582.79804468	104.030686354754
5.761429	-638066.699387482	-2630304.84470277	2706590.60238782	103.635574659232
4.919708	-721306.604375078	-3016052.24987894	3101105.34995425	103.449993629389
4.191257	-810824.780027943	-3469416.78773871	3562904.66767643	103.154290111322
3.564097	-917757.511349036	-3993992.83836708	4098079.75063506	102.941035219974
3.051758	-1023605.81190023	-4550246.62980875	4663958.96746978	102.67799029623
2.604164	-1157636.90319896	-5215702.25224312	5342627.92862296	102.514067071043
2.214424	-1290395.37462717	-5972869.12598837	6110669.8339089	102.190976170369
1.892567	-1397026.50689095	-6855521.96646215	6996417.97590746	101.518094535767
1.607507	-1534941.05724598	-7905177.48227346	8052817.83448891	100.988337758389
1.376413	-1630523.55927823	-9039707.85286226	9185582.46070771	100.224699609039
1.17375	-1767946.44716367	-10472082.4300663	10620270.4797073	99.5825858080356
1.001604	-1905882.68037246	-12103523.601956	12252659.8081579	98.9486080077234
