EC-Lab ASCII FILE
freq/Hz	Re(Z)/Ohm	-Im(Z)/Ohm	|Z|/Ohm	Phase(Z)/deg
6999984	20.1270280103401	91.2520654158224	93.445367457047	-77.5616977973161
5969734	15.9806616413358	90.5601899457069	91.9593907629741	-79.9923566515996
5091109	11.4093001060238	95.2615817406302	95.9423841929941	-83.1703243580723
4341796	8.85368711044027	104.574710386239	104.948834332809	-85.1606651467977
3702781	10.4226065867391	116.905100183977	117.368791324984	-84.9052978575079
3157797	10.2533445755665	131.057671710691	131.458146910766	-85.5265559947682
2693047	10.7935510295087	148.077947424388	148.470802709646	-85.8310257671008
2296687	10.8424952998101	170.275530848225	170.62038597416	-86.3565426567948
1958656	12.3768857649546	196.188133376465	196.578154887516	-86.3901752793689
1670375	14.0733133508261	227.531987235623	227.966803206217	-86.46064908817
1424531	16.9759455028074	263.847918749623	264.393469953821	-86.3186701465366
1214875	20.8707304821491	306.524681477995	307.234385683056	-86.1048422973938
1036062	25.4119341963051	356.349429935248	357.254366823939	-85.9210374367158
883578.1	30.8829085648079	414.280140627343	415.429643814248	-85.7367169140222
753531.2	38.3555258076878	481.781406055713	483.305772343973	-85.4481753683943
642624.9	101.144174591871	632.560348517619	640.595612356659	-80.9155062511144
548046.8	125.491671735123	725.096647022079	735.875877575516	-80.1811462450952
467390.6	151.93004404671	829.731171508432	843.526262339704	-79.6236583104329
398593.7	182.272303813976	949.628381168714	966.962902628	-79.1347534238478
339937.5	216.800720423742	1087.47658906192	1108.87685706484	-78.7252604876678
289906.2	255.825813669021	1245.6718867278	1271.67027814737	-78.3944346567593
247234.4	272.239328438562	1394.52494028152	1420.84976722237	-78.953641464807
210843.7	428.137720316273	1622.77783435306	1678.30563582001	-75.220420359073
179812.5	381.172359158793	1855.38082127256	1894.13050219164	-78.3905958395319
153343.8	504.580779805125	2169.33661491532	2227.24563354854	-76.9060048965684
130781.2	606.038533595377	2492.3381834897	2564.9624412617	-76.3331616929966
111531.3	736.717594715081	2863.90435910397	2957.14406014613	-75.5738780228892
95109.37	895.350964455758	3286.54893849568	3406.32606699343	-74.7607936158191
81109.37	1099.00824648432	3761.85264391225	3919.10122864288	-73.7145153861307
69171.88	1353.15078013194	4292.51845831933	4500.74790993495	-72.5033399030037
59000	2289.89788566254	5141.04590541914	5627.9645813019	-65.9911016035467
50312.5	2655.46083542937	5829.83279026112	6406.12383668182	-65.5109629712271
42906.25	3403.53800146015	6389.84907086805	7239.7680954473	-61.9581089794004
36593.75	3138.90853716325	5945.60175359152	6723.31220582437	-62.1687282648905
31203.13	4673.28643375223	7699.34225001728	9006.63517495817	-58.7434146782599
26609.38	5533.51986328697	8429.99250411988	10083.8790005091	-56.718759447184
22703.13	6517.85851169407	9142.10229704944	11227.6673440292	-54.5130438232689
19359.37	7650.66582397832	9801.20673896725	12433.6776976954	-52.0249688683353
16500	8909.56010715948	10412.1967909077	13703.7988643908	-49.4468937029426
14112.02	10278.4645792864	10915.2853615195	14993.0079914287	-46.7210813700755
12011.13	11779.4007811229	11268.1958754135	16301.1202390819	-43.729365054066
10236.38	13324.7108859677	11478.8777903395	17587.2839153797	-40.7440085695825
8750.684	14885.5330765226	11520.4645541252	18822.8637171686	-37.7376130748618
7449.463	15604.7745958338	15360.129319173	21896.1769011966	-44.5473310615507
6363.206	19953.2635596436	7847.48482225801	21440.9828299957	-21.4693817554384
5414.761	17880.1020497211	9419.37414917821	20209.4695296697	-27.7806035420516
4620.567	20638.1155010308	10348.6489123126	23087.3633346079	-26.6307345430036
3941.215	21806.1359497998	9875.04375941336	23937.9208435378	-24.3636895166977
3361.769	22685.5517218605	9985.52389268261	24785.9828196612	-23.7577064342555
2867.244	23774.0927707567	8815.41727311704	25355.8488079519	-20.3447458176879
2442.658	24662.8541233429	8306.8885596051	26024.234302876	-18.6144419242826
2083.003	25300.101448292	7805.07570480094	26476.6753964983	-17.1449827966885
1777.843	25978.9167656219	7385.50492366875	27008.3283320654	-15.8698365757351
1513.548	26569.4710809159	6963.151932096	27466.7485944201	-14.6854354103745
1292.065	27062.6921053717	6708.02792033638	27881.6596093231	-13.9213217060542
1101.762	27434.761688402	6317.04124073933	28152.6403546206	-12.9667396418985
939.101	27945.0155648578	6307.43340644837	28647.9948878961	-12.7190270687517
801.2801	28373.5120078873	6228.43682063864	29049.0896396154	-12.3809590513127
684.3433	28678.7167407963	6244.44311337417	29350.6705833955	-12.2837338430569
582.9476	29085.9968625881	6253.53618782874	29750.6626538464	-12.1339684049877
497.0677	29544.9977960872	5902.77272330731	30128.88349398	-11.2983209199453
423.5089	29875.2954401933	6179.23636472172	30507.6423161466	-11.6859497866631
361.5036	30184.788672867	6532.12987273578	30883.4937774198	-12.2107848565809
308.1262	30535.7135233901	6929.71403528037	31312.1499899529	-12.7860287533143
262.7298	30915.3243478247	7464.37557987679	31803.6818989353	-13.5740347976916
224.2111	31297.9410175862	8092.45685395599	32327.2171687178	-14.4970125098678
191.2854	31689.6169944679	8801.3793870716	32889.1487328456	-15.5219423321096
163.1722	32091.0162658535	9672.28821712979	33516.9581604671	-16.7728982749526
139.1537	32612.1083363002	10604.70823039	34292.9941356873	-18.013334712677
118.6706	33153.0001397606	11721.5902275504	35164.1450305503	-19.4715810562203
101.1982	33650.509592703	12969.8742002533	36063.4778220154	-21.0780974179877
86.24196	34237.3010494226	14455.136397218	37163.7424301021	-22.8896811042102
73.61024	34769.3282809343	16051.5504742369	38295.6715796231	-24.7808027915529
62.69291	35509.8524112245	18079.7257134405	39847.5356846592	-26.9827712714879
53.57697	36233.2045529638	20237.0579999201	41501.6099527361	-29.1843386809662
45.65746	37022.6746816562	22767.3445593	43462.9775655745	-31.5897186373286
38.96512	37957.3316439273	25584.0056208591	45774.4510522544	-33.9807631896567
33.18414	39002.8892488444	28980.4823936845	48591.0869350366	-36.6136131202639
28.30617	40093.8129435609	32696.3066897907	51735.5033560717	-39.1970740889309
24.17237	41441.6685133867	37115.3422478743	55632.3693487008	-41.8477659252784
20.61345	42867.658737576	42013.9532245877	60023.399030704	-44.4237612538748
17.55618	44607.0591399997	47714.3806959339	65318.0821083713	-46.9277128693114
14.98558	46513.7220829852	54180.0564378561	71407.3165552554	-49.3538224387016
12.76553	48726.0761727368	61656.7904302538	78586.1966591562	-51.6814176447969
10.8809	51540.2429552245	69825.5737172492	86787.1383836716	-53.5679098331549
9.278505	54737.0189123735	79797.0703106667	96766.2837437659	-55.5517189030159
7.923394	57606.40810565	88805.6433513803	105853.39175429	-57.0293484087685
6.75822	62424.4919900844	102764.386788808	120238.664298552	-58.7233038596508
5.761429	67798.3735407861	116924.314522956	135158.850178	-59.8927680152923
4.919708	73851.0637211146	132565.755858936	151748.671293	-60.8782554229173
4.191257	80236.8469152956	150747.462491949	170771.042775612	-61.9754123048133
3.564097	88325.3035055754	171281.160026386	192713.764478141	-62.7210022836171
3.051758	97038.0874487191	193774.413963445	216713.89877574	-63.3992697214929
2.604164	107936.665899261	219236.682211718	244366.623483344	-63.7876205150326
2.214424	120057.567386828	248221.526041013	275731.292161358	-64.1882899011676
1.892567	135283.19776068	279508.990805563	310526.680878631	-64.1728773364786
1.607507	151786.320863914	317105.131618799	351560.452412354	-64.4213118364473
1.376413	170101.449310249	355693.370638841	394274.367634858	-64.441709133954
1.17375	192602.306297995	400201.403047111	444136.028027656	-64.3001885585566
1.001604	219561.656119369	451301.845365048	501877.152765273	-64.0567387914056
