EC-Lab ASCII FILE
freq/Hz	Re(Z)/Ohm	-Im(Z)/Ohm	|Z|/Ohm	Phase(Z)/deg
6999984	18.8799766543539	91.7663433604939	93.6883946506984	-78.3742092465912
5969734	15.3639874906817	90.4732221288918	91.7684915098729	-80.3620863167975
5091109	11.4673303863201	95.2306907541751	95.9186328494436	-83.1337123549634
4341796	9.1475162239705	103.826065537349	104.228254029479	-84.9650000597605
3702781	10.0769974066691	115.999732429261	116.436608506063	-85.0351300938845
3157797	10.7123628294514	129.945557874524	130.386359442662	-85.2873461153011
2693047	11.1346101186201	146.754390587492	147.176189307917	-85.6611437808445
2296687	11.1681569565606	168.61430485865	168.983761151101	-86.2105530105954
1958656	12.979273496006	194.284664844089	194.717725269334	-86.178009007832
1670375	15.2741178208732	225.098765641978	225.616384530796	-86.1181349182408
1424531	18.6303185085609	261.071098967453	261.734994763413	-85.9182299435197
1214875	23.0546268546063	302.972866788414	303.848768023495	-85.6484814135721
1036062	31.8518186014806	356.789733594123	358.208671511993	-84.8985369555254
883578.1	43.2418116832585	398.93969422307	401.276380945162	-83.8137559620042
753531.2	41.1464056313562	487.058214492704	488.793137228011	-85.1711502744486
642624.9	107.515990245647	621.088181703591	630.32548545206	-80.1789117096942
548046.8	132.745753789266	710.222379418191	722.521462224838	-79.4131536165019
467390.6	161.213615820939	811.689655485545	827.544516475279	-78.7663988573582
398593.7	193.17663640074	926.292431839879	946.221370576114	-78.2199117123624
339937.5	230.728731988	1059.70495352517	1084.53231223905	-77.7167401766785
289906.2	271.607716021059	1209.58579654274	1239.70502564123	-77.344374905623
247234.4	320.544584599447	1385.41881042727	1422.017619793	-76.9726971839216
210843.7	377.46270108183	1585.82089544174	1630.12453607926	-76.6113899983121
179812.5	444.817762996687	1817.87090878576	1871.50139815255	-76.2503692916002
153343.8	530.206835250377	2083.14551638074	2149.56147401357	-75.7201541479862
130781.2	633.379696793521	2389.0931830223	2471.62620100084	-75.1517227194369
111531.3	759.475352265806	2735.78232387291	2839.24421885732	-74.4849144374636
95109.37	919.445670687573	3132.74667023862	3264.88622179047	-73.643296732196
81109.37	1058.95111543991	3678.60470202527	3827.99033680257	-73.9406045320893
69171.88	1304.84405099086	3533.68966670651	3766.90597944714	-69.7329170762076
59000	1668.26530800487	4627.14725218106	4918.69909948345	-70.1738080995608
50312.5	2620.73094869977	5498.91442079988	6091.49329087324	-64.5179698164859
42906.25	3327.71574926688	6013.19835872056	6872.57205194958	-61.0397722253647
36593.75	3884.82695360522	6603.55213209362	7661.51298509216	-59.5319764916984
31203.13	4579.74023536317	7246.93578332161	8572.75328415507	-57.7089393791512
26609.38	5402.66521431701	7903.58118284575	9573.68199450057	-55.6445896320287
22703.13	6377.39690092284	8545.38634084988	10662.7772623404	-53.2661272328816
19359.37	7510.61604473081	9128.13479725407	11820.8374596815	-50.5525017123168
16500	8750.92924561193	9617.11566193485	13002.602674724	-47.699911008121
14112.02	10112.9173329902	9963.38100962145	14196.4804837952	-44.5732459426244
12011.13	11595.3274080668	10158.4743239486	15415.7782252661	-41.2210646889643
10236.38	13077.3162618141	10146.5597194878	16552.0051580659	-37.8075311146016
8750.684	14498.2522216895	9965.09011858554	17592.678549762	-34.5019256001077
7449.463	15892.3768295254	9613.30408318149	18573.7249007126	-31.1697577622315
6363.206	17150.2805758599	9143.8575021018	19435.5924491501	-28.0647906084365
5414.761	18282.4162593181	8530.40369457139	20174.6011477634	-25.0133147943949
4620.567	19255.2850912246	7876.81102347674	20804.0898826145	-22.2481288018464
3941.215	20074.8892950215	7173.54801126004	21318.0902352256	-19.6638083964867
3361.769	20818.377506657	6576.25821452796	21832.3616247494	-17.5306578773249
2867.244	21358.127348577	6003.12106761155	22185.7401587243	-15.6990607753184
2442.658	21840.1735741276	5459.43627731883	22512.1883923826	-14.0347444311783
2083.003	22250.0452777526	4945.05817278887	22792.94002963	-12.5302890414576
1777.843	22584.093666248	4558.99955007533	23039.6563260708	-11.4127921578345
1513.548	22891.9972146232	4188.31608964269	23271.9902058478	-10.3681525874402
1292.065	23148.4551169973	3889.85460811978	23473.0045621763	-9.53883628603395
1101.762	23362.0698137613	3662.92626225595	23647.4805166593	-8.91082870594696
939.101	23544.8597751614	3484.6083088332	23801.3217468695	-8.41858920499416
801.2801	23649.6332411696	3378.86280901661	23889.7858157831	-8.13091855521488
684.3433	23829.8300260817	3265.02399257248	24052.4672485801	-7.80175430191222
582.9476	23997.3150971639	3315.06411951043	24225.2096376696	-7.86523802561272
497.0677	24163.6960200038	3475.91513934618	24412.418794603	-8.18576780494275
423.5089	24294.7710740418	3458.49403289476	24539.704205953	-8.10193262035921
361.5036	24460.9523097964	3605.5844689226	24725.2588917623	-8.38511128102467
308.1262	24682.1656057714	3868.48719849878	24983.4843886051	-8.90762014229422
262.7298	24897.1869832457	4141.545900047	25239.3011416897	-9.44444148928615
224.2111	25094.3152490671	4487.04081995253	25492.3163549232	-10.1377547988621
191.2854	25355.0544977613	4757.86936944114	25797.5989099977	-10.6279431109084
163.1722	25593.8638224689	5289.73688761867	26134.788725056	-11.6774642817172
139.1537	25870.3608402277	5922.57767106385	26539.6400931394	-12.8946844695829
118.6706	26198.3914541254	6629.1103283051	27024.0784954535	-14.1997906536437
101.1982	26528.0568603394	7438.03552249341	27551.0829772493	-15.662632118704
86.24196	26914.7665003553	8393.61540508549	28193.2161226267	-17.3205657130063
73.61024	27342.9090192954	9449.83385579937	28929.8121933012	-19.0653826273623
62.69291	27817.024921202	10677.8072462279	29796.0138786109	-20.9997339803476
53.57697	28356.7807539658	12061.7320584846	30815.4570788616	-23.0427754270692
45.65746	28968.2080019907	13660.1006611603	32027.4167693811	-25.2464513212337
38.96512	29617.366550647	15470.8265701224	33414.5907674804	-27.5806126236612
33.18414	30362.7008521015	17550.4578482889	35070.1037027091	-30.0290675470615
28.30617	31153.2750022281	19923.1119336172	36979.1418570509	-32.5996885315395
24.17237	32119.3669399597	22528.9387847307	39232.7263313413	-35.0463157195733
20.61345	33211.7591610872	25581.328629568	41921.656945164	-37.6052311762968
17.55618	34399.2823519116	29031.7382030994	45012.8031722069	-40.1631439568789
14.98558	35690.4258942723	32955.3365834616	48578.3975635651	-42.718340917512
12.76553	37248.9171216253	37447.9276604584	52818.8329367153	-45.1526495129505
10.8809	39008.3710742263	42625.870736828	57780.7742241077	-47.5373170450188
9.278505	40969.5249035779	48460.7933352797	63458.2576305841	-49.7882906051713
7.923394	43249.1783555886	54991.9690499458	69961.4757450392	-51.8162403435692
6.75822	45878.6271665163	62401.0508359037	77451.5304955896	-53.6758550817576
5.761429	48898.2342625281	70816.8116553421	86058.4576147009	-55.3753453049408
4.919708	52287.906910129	80474.4183489267	95969.5640171424	-56.9863765741337
4.191257	56463.3368111845	91449.3500728232	107476.006776373	-58.3076802750629
3.564097	61342.5649937601	103841.045052962	120606.272298355	-59.4281565392207
3.051758	66291.7828936231	117111.51920374	134572.316653252	-60.4876700939766
2.604164	73087.5537821766	132954.426686608	151719.049869907	-61.2015755067096
2.214424	80261.5079935447	150738.911753147	170775.083609761	-61.9667606421068
1.892567	88521.7704500803	169479.043522697	191204.733301728	-62.4211734694251
1.607507	98472.5225491495	191837.127126243	215634.693500937	-62.827973503968
1.376413	108843.920720899	214621.935874613	240644.082487942	-63.108493640464
1.17375	121998.614478501	241002.722747177	270122.14701173	-63.1508925173037
1.001604	136634.520281771	270462.762025211	303016.662536791	-63.1976458733864
