EC-Lab ASCII FILE
freq/Hz	Re(Z)/Ohm	-Im(Z)/Ohm	|Z|/Ohm	Phase(Z)/deg
6999984	23.7635604851128	-0.643304534680496	23.7722663550188	1.55067818688505
5969734	13.8607748564013	-2.15219296328944	14.0268675822894	8.82596219733218
5091109	12.3785065343512	-8.10023567033217	14.7932836765843	33.1998961994068
4341796	4.27675624357186	-10.5595869362839	11.3927836910857	67.9514766995868
3702781	6.12739277852884	-4.85058603040671	7.81492975660972	38.36595297047
3157797	4.32485008567797	-4.96381488315755	6.58359980997062	48.9351621777995
2693047	2.5707946696644	-4.07568527538197	4.81873382721439	57.7577553832963
2296687	2.34600697502335	-3.54265213779373	4.24901552083217	56.4867688359356
1958656	1.83339023050179	-3.26297242017304	3.74276752579015	60.6693550108126
1670375	1.32210518226081	-2.74046113522457	3.04271085491823	64.2455283849012
1424531	1.22470112869201	-2.42807831785089	2.71945898520958	63.2340286933772
1214875	0.71672906960841	-2.03576638374178	2.15825052493792	70.6044431783811
1036062	0.819952345694179	-1.78085567618001	1.96055318433139	65.2774253739318
883578.1	0.752356718470208	-1.54657450540499	1.71986433552067	64.0586295521295
753531.2	1.0195438435523	-1.1241530715711	1.51762636286016	47.7937328470737
642624.9	-0.17683489996786	-3.46886342690531	3.47336782624126	92.918284509751
548046.8	2.04069706540713	26.0338541288896	26.1137129745477	-85.5179616278413
467390.6	2.59310833895408	1.72447363114883	3.11416444043676	-33.624773052386
398593.7	1.91325197774816	0.532078949428736	1.98586030193023	-15.5413484126307
339937.5	-0.995144058919334	-0.679650460252185	1.20508773378682	145.668216876265
289906.2	0.764316255953695	-1.46380765079703	1.65133648226126	62.4290229912184
247234.4	1.74245991001094	-1.65593718777401	2.403808334258	43.5415724071339
210843.7	-0.468542355471019	-1.69449818636698	1.75808305903655	105.456549123717
179812.5	3.85372283522706	19.8332976166654	20.2042291127867	-79.004119046558
153343.8	0.518037349646622	-0.342125863711797	0.620816238712745	33.4418505467126
130781.2	0.398138810359668	-0.314896671414892	0.507616416187253	38.341241300766
111531.3	0.396875812849086	-0.250634890220762	0.469391370841642	32.273217179874
95109.37	0.358643543922929	-0.209921313007397	0.415562449280908	30.341300897518
81109.37	0.377936901112366	-0.203526536637658	0.429254414465522	28.3033473160172
69171.88	0.356732041078368	-0.154564508653719	0.388777489661251	23.4260727328558
59000	0.351586600746025	-0.144853263938459	0.380257289079078	22.3916031633251
50312.5	0.336694272437408	-0.0993917729604663	0.351058054492958	16.4465415148461
42906.25	0.372136690502044	-0.110729849434896	0.388261272822424	16.570455097199
36593.75	0.353901673416574	-0.102365497127643	0.368408861795208	16.1324288628215
31203.13	0.347854112144242	-0.0890873106215409	0.359080815763579	14.3650030338697
26609.38	0.342241407699878	-0.0784908845645968	0.351126757886845	12.9170412827489
22703.13	0.340494971388895	-0.0689365333678427	0.347403326371381	11.4453819972215
19359.37	0.337638511282595	-0.0619392457056447	0.34327282802417	10.395236302416
16500	0.334933708228271	-0.0558088328838323	0.339551490550986	9.46008323709322
14112.02	0.332893573226171	-0.0500864878796699	0.336640442257624	8.55642566176878
12011.13	0.330676915377264	-0.0452913820851169	0.333764185697929	7.7990270228074
10236.38	0.328966997929774	-0.040998532135185	0.331511938494178	7.10403494689166
8750.684	0.327374111769134	-0.0379097851200242	0.329561770939039	6.60540696652316
7449.463	0.322947304564477	-0.0369273021940678	0.325051668466404	6.52313595672033
6363.206	0.323853794029389	-0.0318411477610521	0.325415332456802	5.61524594216326
5414.761	0.321642672913846	-0.0291859729733563	0.322964131224452	5.18484061941878
4620.567	0.321111652983565	-0.0272823927341068	0.32226855669633	4.85631979772006
3941.215	0.319035773424581	-0.0247811556476578	0.319996766233433	4.44154075292218
3361.769	0.318239729251167	-0.0238268601899206	0.319130450662994	4.28179152527278
2867.244	0.316731846711554	-0.0223811912223508	0.317521622006821	4.04196743504928
2442.658	0.315565663313041	-0.0215467648033869	0.316300412481065	3.90608247252487
2083.003	0.314081993062339	-0.0203003090168297	0.314737352267235	3.69809936585018
1777.843	0.31259119449393	-0.01935632580182	0.313189913987804	3.54335492454125
1513.548	0.310801085982192	-0.0183312469327194	0.311341210991764	3.37543130802872
1292.065	0.309618131627445	-0.0172848432189494	0.310100230953757	3.19529624202856
1101.762	0.308429212093563	-0.01638350583945	0.30886404474501	3.04064691171362
939.101	0.307320546217201	-0.0157745078162183	0.307725126085087	2.93836592387364
801.2801	0.306028909629303	-0.0154106091073541	0.306416677747736	2.88279188253492
684.3433	0.304760171150732	-0.0151474452965109	0.305136374460394	2.84542128330531
582.9476	0.303460070381849	-0.0144217670853026	0.303802570236032	2.72090208456291
497.0677	0.302083909855862	-0.0141899547347346	0.302417002513381	2.68940945935355
423.5089	0.300998915719706	-0.0139596459443782	0.301322450174777	2.65534539955963
361.5036	0.299432977678548	-0.0131343070577246	0.299720900411247	2.51160805045296
308.1262	0.298398257192522	-0.0130193679231452	0.298682145158783	2.49827876030704
262.7298	0.297553243867499	-0.0127673470795186	0.297827027127358	2.45692725031685
224.2111	0.295897755830535	-0.0121624407138224	0.296147609934073	2.35373354070923
191.2854	0.296170723421999	-0.011868995140791	0.296408452069036	2.29489134810709
163.1722	0.293937337057414	-0.0118470424482904	0.294175985646645	2.30803729175857
139.1537	0.292857660138166	-0.0118276443963282	0.293096404402318	2.31274815075013
118.6706	0.289912257295701	-0.0122618543177616	0.290171449321947	2.42188457860886
101.1982	0.290541180618157	-0.0105855565571524	0.290733953370804	2.08658738506712
86.24196	0.288384297163545	-0.00867920565080515	0.288514872166481	1.72385181567436
73.61024	0.311959286115028	-0.0132547790466234	0.312240749039859	2.43296615532448
62.69291	0.30493580172474	-0.203100219712376	0.36638168952709	33.6653040868136
53.57697	0.29054786518989	-0.0172829666370369	0.291061441799115	3.40417430877925
45.65746	0.262867242370644	-0.038896108923739	0.265729363076334	8.41690470907648
38.96512	0.29651755120296	0.00198481790823773	0.296524194077868	-0.383518582087098
33.18414	0.28398912701151	-0.0180618184358119	0.284562916673919	3.6391322684487
28.30617	0.300878803519553	0.0110120254713567	0.301080253607472	-2.09606353404079
24.17237	0.273513312962671	0.00814061881337882	0.273634431390644	-1.70479982307067
20.61345	0.27527481456736	-0.0281481639464575	0.276710214247055	5.8384743098508
17.55618	0.269732351628956	-0.0309136968414039	0.271498062917011	6.53807296643939
14.98558	0.276875957798679	-0.00937329613903366	0.277034573090519	1.93893788013529
12.76553	0.277997419116053	-0.00888223596168861	0.278139280129336	1.83002261398549
10.8809	0.276239821124976	-0.00639866491170385	0.276313918737025	1.32693014647733
9.278505	0.276484465095432	-0.0104085062446522	0.276680314517228	2.1559330399696
7.923394	0.27631140951213	-0.00610341550373127	0.276378810163498	1.26539505223807
6.75822	0.268208661131392	-0.00478581971072589	0.26825135596339	1.02225697412754
5.761429	0.261816115312909	0.00107074015090479	0.261818304787907	-0.234319226319441
4.919708	0.271296906041242	-0.00119573936070548	0.271299541135199	0.252529142851627
4.191257	0.264654664099264	-0.00606911067951172	0.264724243948178	1.31368737295847
3.564097	0.275668405050125	-0.011610841661291	0.27591281446675	2.41180796986589
3.051758	0.267240937191285	-0.020091856698043	0.267995151479371	4.29955436283743
2.604164	0.257760124407177	0.0185639783720367	0.258427752045714	-4.11935054190185
2.214424	0.286778699534616	0.00777301178713489	0.286884022244196	-1.55259702254094
1.892567	0.274068874609435	0.0120110999873843	0.274331942275393	-2.50938841195462
1.607507	0.273463400498819	0.0133468046901112	0.273788912499782	-2.79419198092707
1.376413	0.252687476887664	-0.00709246682078417	0.252786993457847	1.60776369088731
1.17375	0.290374343504798	-0.035031293144046	0.292479829843335	6.87902296158788
1.001604	0.280376739372582	0.0403365098066959	0.283263393336637	-8.18670745572677
