EC-Lab ASCII FILE
freq/Hz	Re(Z)/Ohm	-Im(Z)/Ohm	|Z|/Ohm	Phase(Z)/deg
6999984	2.29911823220122	1.50249396298205	2.74653104013728	-33.1649686922156
5969734	6.58640881215864	4.29687319108904	7.86408928364758	-33.1198196179593
5091109	4.39000597998771	-1.59365094655299	4.67031860195609	19.9518056322092
4341796	2.34546373072748	0.722456529764418	2.45420935324542	-17.1200304847106
3702781	1.70174041225476	-7.80703065629449	7.99034718263374	77.703275668493
3157797	-2.58560681743638	-6.87486959689542	7.34501154448993	110.611049336052
2693047	-5.0306007180077	-6.85620236492964	8.50379059319351	126.268610778269
2296687	-3.03534099692807	-3.86271251818605	4.91262078383662	128.160460122012
1958656	0.426390528644756	-3.07108680841388	3.10054560807154	82.0955701259659
1670375	2.76415897010035	3.11877949263994	4.16741650614595	-48.4495861760041
1424531	1.04312157226757	2.67031337833076	2.86682335574102	-68.6625746191237
1214875	1.43948785756297	2.33450331307403	2.74263213188077	-58.3414274891961
1036062	1.27986029659535	2.5644392343586	2.86607588272168	-63.4771346858512
883578.1	1.3843059068126	2.61426204538278	2.95815295168543	-62.0978533856328
753531.2	1.80503129798254	2.42670208650232	3.02440423940506	-53.3573650321782
642624.9	1.72019906186931	2.22719014094403	2.81415364477037	-52.31883319188
548046.8	2.01510622533908	1.97293327568003	2.820127445646	-44.3941278767106
467390.6	1.96346876001662	1.83913978665593	2.69028710854846	-43.1273411099882
398593.7	2.07383116593035	1.68935667924353	2.67482741396314	-39.1664896018268
339937.5	2.12760241756878	1.58023001879375	2.65024884860675	-36.602308662966
289906.2	2.21066877211062	1.55092279696368	2.70044772993789	-35.0520682158364
247234.4	2.0304593371066	1.43584047573852	2.48684599270088	-35.2660622227398
210843.7	2.267530124258	1.4445523958548	2.68857294652523	-32.4995756159963
179812.5	2.44334555360877	1.57872632454414	2.90900572398	-32.8678385092387
153343.8	2.38040259576167	1.54709570279757	2.8389824993338	-33.0210588828126
130781.2	2.51333378776054	1.77611619927665	3.07756973633932	-35.2479854043035
111531.3	2.62311120294089	2.00823280159188	3.30359067809309	-37.4373774606353
95109.37	2.7174139286469	2.07388463324487	3.41838206343489	-37.3502649574636
81109.37	2.50666042640758	2.00541696501567	3.2101469899197	-38.6610434236962
69171.88	3.19554695113655	2.67568365980638	4.16782957476346	-39.9399883548313
59000	3.70991776517857	3.0317249420107	4.79112157520526	-39.2555100544562
50312.5	4.22869333525985	3.19396402953357	5.29936350382057	-37.0640267021722
42906.25	5.52055805383064	3.37424835037209	6.47009375169349	-31.4339027649427
36593.75	6.20656109435914	3.06882131413886	6.92380421994481	-26.3099984988673
31203.13	6.90011444520858	2.61194633284076	7.37792945226616	-20.7334919521062
26609.38	7.99698833913525	2.21942478462325	8.29925712765095	-15.511067593158
22703.13	8.49355651882808	1.21709780501043	8.58031639308762	-8.15477651780413
19359.37	9.25717071053432	-0.0586221503872215	9.25735632459346	0.362827586414656
16500	8.97065881164576	-1.13840463924757	9.04260386380042	7.23235457468916
14112.02	8.5941040635797	-2.52979330349582	8.95870966233695	16.4025211674462
12011.13	8.45663321404149	-3.63066758598766	9.20306429602505	23.235191843408
10236.38	7.25314912861897	-4.28128632649309	8.42244530355661	30.5519029942743
8750.684	6.1927505809403	-5.07147873940885	8.00437732506485	39.3153497665797
7449.463	4.97914292935843	-5.16740983659976	7.1759312099802	46.0629877761661
6363.206	4.21964235243446	-5.41266537191237	6.86311357991094	52.0604922516334
5414.761	3.6359952919815	-5.13370976519633	6.29090118477343	54.6916290384332
4620.567	3.09683391982658	-4.73897773709112	5.66112094197198	56.8361298515166
3941.215	2.17490400372079	-4.36326345647388	4.87527182995996	63.5056679840487
3361.769	1.80732602856018	-4.11547819692529	4.49484017100481	66.2911596008567
2867.244	1.57842971123366	-3.70529597505558	4.02748787907155	66.9263406125388
2442.658	1.16119489397014	-3.4311362918081	3.62230173159898	71.302706843307
2083.003	0.9390738233303	-3.31815672577966	3.44848136177376	74.1979198778826
1777.843	0.772731118151168	-3.4577012691307	3.54299470046276	77.4024728260493
1513.548	0.698309326658803	-3.71870360160369	3.78370088567779	79.3646813870338
1292.065	0.654607059180641	-3.70044174705906	3.75789562458919	79.9681778326451
1101.762	0.348852858819568	-3.79518287160911	3.81118240787053	84.7481355343035
939.101	1.02985192929976	-3.67182478110997	3.81351441841455	74.3325649597383
801.2801	-0.0142971801802549	-3.99844125237431	3.99846681342358	90.2048709835704
684.3433	0.25600391595005	-5.2011096824063	5.20740625776425	87.1821175437988
582.9476	-0.304057450396241	-4.86305518090702	4.8725513466446	93.5777016361671
497.0677	-0.586138290382863	-5.65026636919819	5.68058695368226	95.9224741169604
423.5089	-0.969613484370603	-6.05145668291697	6.12864408285338	99.1030201335112
361.5036	-0.525591723218659	-6.76196674296918	6.78236248607646	94.4445294844205
308.1262	-3.14480429817307	-8.22363463339958	8.80442846852973	110.927379334744
262.7298	0.166294364734158	-9.85393863364853	9.85534171966926	89.0331722925279
224.2111	0.80547172809524	-9.31559836790427	9.3503560176531	85.0582202930283
191.2854	1.0538202078199	-11.7521373655233	11.7992910672014	84.8759624183972
163.1722	2.24168801371262	-13.9173043292004	14.0966848919313	80.8498452877924
139.1537	-1.73848282369878	-8.63719682836437	8.81041948945697	101.380355481818
118.6706	31.7123075836962	-24.2123583256129	39.8987311574044	37.361747031678
101.1982	4.67624565071069	-23.3134813013841	23.7778401831574	78.658052538299
86.24196	5.05845939019909	-10.8924593186673	12.0097327785057	65.0898389918059
73.61024	18.9348650441451	-4.53099109404544	19.4694374478131	13.4574550751163
62.69291	12.2410881732074	-24.755884226346	27.6169883132192	63.6888998869316
53.57697	11.182963583716	-4.80098743295708	12.1699693855872	23.2344584574302
45.65746	10.5148221479233	-4.20438993015326	11.3242385831116	21.7941800703422
38.96512	9.42530991155707	-12.851765764777	15.937513927887	53.7441860284049
33.18414	9.90331933745446	9.59506777112874	13.7891645661422	-44.0942818737848
28.30617	-0.162684435283936	9.89916793298868	9.9005046331485	-90.9415228207701
24.17237	19.2862850296389	4.0422571926042	19.7053453016088	-11.837405450228
20.61345	12.6220240908054	-5.77185322547375	13.8791131490915	24.5738733542634
17.55618	17.9978093507871	1.46710612303765	18.0575065223173	-4.66020837656047
14.98558	11.6457586300346	-8.08043358515564	14.1745229546936	34.7549265737036
12.76553	7.87953751000966	-7.72048565401132	11.0314554844519	44.415854436302
10.8809	12.6475707390627	-6.53311262765174	14.2352592602024	27.3186505901495
9.278505	9.7081715642529	-11.869434030159	15.3340164117971	50.7197996589171
7.923394	10.7238302321411	7.96364340289453	13.3574006115056	-36.5980172090805
6.75822	14.9380551104605	-2.24738431339262	15.1061651895919	8.55580686735004
5.761429	8.46941190658081	-7.90772362363	11.5871925396555	43.0356907810791
4.919708	9.97504429299769	-9.67353163517316	13.8952770013398	44.120849926745
4.191257	14.8665745713923	-0.953685243462264	14.8971324432041	3.67047363280015
3.564097	13.0183075830465	-17.314731344681	21.6627849979011	53.0618448606056
3.051758	17.3826126897556	11.452802982168	20.8163858551481	-33.3795070090244
2.604164	4.91534803271268	21.4613537494286	22.0170468283284	-77.0998938144407
2.214424	-16.823650374469	10.4142953115963	19.7861759508882	-148.241370334198
1.892567	11.0301045232975	-12.0453722880807	16.3326115288808	47.5192574153163
1.607507	20.8305831331157	4.98835511765811	21.4195443566269	-13.4671609801658
1.376413	20.644829193419	5.93613442869435	21.4813096523693	-16.0418556945672
1.17375	1.46755528714578	-24.4747409423766	24.5187002656599	86.5685370409932
1.001604	21.4789277708994	5.1706289097888	22.0925268249301	-13.5352913915848
