EC-Lab ASCII FILE
freq/Hz	Re(Z)/Ohm	-Im(Z)/Ohm	|Z|/Ohm	Phase(Z)/deg
6999984	24.7243066929415	90.9986672933669	94.297660578699	-74.7996974501085
5969734	18.1496885971575	96.2295685085514	97.9262020682706	-79.3190166507619
5091109	14.6974322454284	102.759245895911	103.804995697246	-81.8603136552851
4341796	13.6392696201628	113.529673629864	114.346038279754	-83.14941139855
3702781	16.7675857272146	125.434403583684	126.550154221613	-82.3860597280972
3157797	15.1546194007568	139.733710400696	140.553094279448	-83.8102609194539
2693047	14.7955968419483	159.585599599964	160.270001202937	-84.7031010516062
2296687	15.3488983286569	183.693801531628	184.333939905392	-85.2236332084826
1958656	16.5928358475079	211.316883493146	211.967326375359	-85.5102839933865
1670375	16.553002036424	243.646624086168	244.208270345221	-86.1133793685412
1424531	22.7691828581084	281.626740329452	282.545671629595	-85.3777588553728
1214875	20.1204780267944	336.223278147677	336.824771067089	-86.5753552387552
1036062	15.7193917285739	382.929430738341	383.251938288518	-87.6493073299484
883578.1	16.2064892243452	447.691499605532	447.984742052705	-87.9267907901303
753531.2	69.9447149552482	607.175459698744	611.190888356945	-83.4286710278967
642624.9	81.0660526521654	685.89552534746	690.669513287123	-83.2594765909946
548046.8	110.033913465105	791.423448369115	799.03600465868	-82.0847412236379
467390.6	121.115066803174	877.409083448356	885.728829340233	-82.1407192002222
398593.7	111.658031316126	1071.55329276397	1077.35508315072	-84.0511323765269
339937.5	235.724977042413	1177.02265204916	1200.39518002968	-78.6750693848144
289906.2	274.657200185362	1363.78226659754	1391.16449361662	-78.6133045344993
247234.4	215.898719653098	1588.57760158372	1603.18154099944	-82.260524675184
210843.7	263.297237452754	1866.19886386632	1884.68130853632	-81.969290227919
179812.5	300.739618307196	2108.69764839899	2130.03523219289	-81.8832892628699
153343.8	337.215169067186	2466.74543586485	2489.68815629771	-82.2156620798253
130781.2	257.676847011669	2833.33165180281	2845.02471106905	-84.8035405530927
111531.3	296.30432057799	3395.4608578411	3408.36481139038	-85.0127274440949
95109.37	337.813653001068	3799.78123147045	3814.76807567499	-84.9195645066066
81109.37	478.423243290144	4607.79798383885	4632.56851644847	-84.0722745191672
69171.88	1099.47491018532	5690.13996165969	5795.38936236415	-79.0638212488106
59000	1136.88523018688	6638.32565739557	6734.97405787531	-80.2817576339202
50312.5	1219.78492909563	7593.6656576013	7691.00990720219	-80.8744251772035
42906.25	2038.08889213126	9100.49256075207	9325.91932093199	-77.3766897252684
36593.75	2054.61446711105	9802.58565488354	10015.5941476175	-78.1622148623927
31203.13	2342.64255209608	11389.9032330369	11628.3218817178	-78.3776469933619
26609.38	1730.5641782271	13429.6380181488	13540.6805469101	-82.6572406525326
22703.13	2035.49979236953	15833.9925320624	15964.290742471	-82.6746585695046
19359.37	2259.93271170399	18335.4463419	18474.1952035299	-82.9734560596653
16500	3490.42365366473	21140.4333010019	21426.6417675792	-80.624672874306
14112.02	-2998.93660052185	19274.7032267817	19506.6092700515	-98.8436994354349
12011.13	3177.11661337325	24410.0820489479	24615.9739927418	-82.5843031252124
10236.38	4157.15435694699	31975.2783831899	32244.3849380009	-82.5924391259033
8750.684	4428.75769937081	37337.5793243139	37599.318139551	-83.2355269551581
7449.463	12418.5205427993	49484.2020071472	51018.6818798377	-75.9120377135755
6363.206	14513.5668597399	55226.1329595043	57101.3956454042	-75.2754816031851
5414.761	16289.3571499949	60896.479126169	63037.4835024688	-75.0244114973588
4620.567	16379.2359714854	74246.8847054974	76032.0936150059	-77.5595205576946
3941.215	19544.6985640644	81402.0414854136	83715.515885367	-76.4988037915689
3361.769	27645.8619395536	93035.6119254663	97056.2659941481	-73.4504964341344
2867.244	30331.4902931926	111612.280065424	115660.279978948	-74.7966034780148
2442.658	34179.80768845	123406.390341166	128052.31911471	-74.5188908347149
2083.003	40055.0305187705	141241.277517315	146811.116556557	-74.167037452725
1777.843	57797.7053927903	167268.695156568	176972.854212313	-70.9380192067063
1513.548	47228.4522915594	178722.414690825	184857.318542641	-75.1976166388268
1292.065	73014.8136343266	219556.053918479	231378.529302763	-71.6051139675771
1101.762	81713.261043936	244113.446278576	257426.555903694	-71.4928142397314
939.101	88751.0082231102	282482.951782623	296096.875208845	-72.5582292597772
801.2801	213025.24338929	358736.789587416	417219.173246571	-59.2972929788128
684.3433	247798.197622583	403564.507787571	473569.69781736	-58.4490862589012
582.9476	275245.678666971	419035.027165533	501348.718574667	-56.7008487865082
497.0677	328821.761011871	437336.315012314	547162.501404746	-53.061449519727
423.5089	371329.626969072	468980.410864309	598187.527151349	-51.6284992628387
361.5036	441021.36343416	487264.854507912	657211.443482188	-47.8518880632795
308.1262	512095.889921023	505543.864839279	719594.885856368	-44.6311089503547
262.7298	570030.462074572	540732.66550186	785701.306625932	-43.4891009322559
224.2111	629934.340813114	535112.068956738	826536.266644612	-40.3469946541805
191.2854	712460.052558954	542103.10431937	895251.418432278	-37.2671115926563
163.1722	787692.007285201	546954.090631528	958966.879302696	-34.7751691726056
139.1537	843688.736084563	526051.835449584	994254.100809166	-31.9441216815067
118.6706	939267.788680925	436165.326029973	1035598.46006277	-24.9086182164907
101.1982	966859.084590211	488805.874309067	1083396.35970114	-26.8193637083166
86.24196	1015956.97069129	475714.105680852	1121816.59670373	-25.0909849531029
73.61024	1054991.01905677	437607.389035901	1142149.84885052	-22.5285400763613
62.69291	1104123.38755097	430836.12360189	1185203.87290008	-21.3160525198834
53.57697	1154215.84807769	432178.632334942	1232474.17587575	-20.5276511346275
45.65746	1155635.72364966	446393.485624308	1238854.74119571	-21.1203129483329
38.96512	1210363.03938476	408427.209725773	1277415.93568935	-18.6465504791217
33.18414	1226263.38540897	400521.420606847	1290015.23198743	-18.0880426795841
28.30617	1264952.20218206	392022.364810172	1324305.7080284	-17.2187740311234
24.17237	1274581.79964067	435445.091058533	1346911.72364866	-18.8620972016499
20.61345	1284557.70397993	450625.819566367	1361305.30158156	-19.3309886724511
17.55618	1310486.08862224	454454.847271252	1387048.30365808	-19.1256978944558
14.98558	1362891.76490148	472135.015847077	1442354.12989501	-19.1071856280951
12.76553	1393540.19476357	495761.969012295	1479099.11917378	-19.5833823107842
10.8809	1425528.36023418	545301.781256442	1526265.09442934	-20.9331562845534
9.278505	1461572.40189999	590646.817473236	1576406.53036803	-22.0044899586229
7.923394	1497162.77891015	653214.464346745	1633458.14852594	-23.5717186043781
6.75822	1550204.98977777	693498.899811732	1698256.82226569	-24.1018076972772
5.761429	1575770.56563426	737061.709898365	1739630.08703507	-25.0676942187308
4.919708	1638661.52224405	804987.309233659	1825709.76677851	-26.1624332187314
4.191257	1671830.24690477	909389.172276068	1903156.59921054	-28.5439036463029
3.564097	1756968.09439984	1014877.83584477	2029017.96601902	-30.0120277822343
3.051758	1804960.77486173	1105409.12758651	2116556.81193325	-31.4844834790969
2.604164	1881867.20504186	1223466.88376916	2244614.75382567	-33.0292865567507
2.214424	1963256.21996428	1363018.06637204	2390019.50504279	-34.7708548004083
1.892567	2048301.55677843	1521313.24614829	2551457.08574673	-36.6019878066007
1.607507	2157641.61642888	1680725.31131322	2735005.46928791	-37.9173098281487
1.376413	2248841.60366476	1861986.00542239	2919637.03955857	-39.6239276463033
1.17375	2380833.58557698	2056006.13094443	3145716.09855251	-40.8127635049982
1.001604	2485754.60297781	2305767.69827871	3390507.42878568	-42.8487747595735
