EC-Lab ASCII FILE
freq/Hz	Re(Z)/Ohm	-Im(Z)/Ohm	|Z|/Ohm	Phase(Z)/deg
6999984	2.37602647646189	-2.05343119540142	3.14039511703474	40.8345301716352
5969734	-0.263003410455399	-0.6044163052954	0.65915845137426	113.515601582688
5091109	-0.226818913609193	-0.230790832653894	0.323591143277952	134.502701843653
4341796	0.00391044441611985	-0.208129264192229	0.208165996715915	88.9236227620989
3702781	0.0591277183415212	0.444782634322206	0.448695530255067	-82.4277137598032
3157797	0.196162647175998	0.899364121790897	0.920508342010982	-77.6957699213768
2693047	0.343968936535207	1.20865919493699	1.25665097732302	-74.114325335573
2296687	0.531898395439038	1.51095494426145	1.60184292196793	-70.6065058264436
1958656	0.783159533356116	1.75760334540993	1.92419031659625	-65.9830228986354
1670375	1.15372621521804	1.95950356980829	2.27392577270516	-59.5110635321761
1424531	1.47601568878876	2.01436733126049	2.49725810816585	-53.7681242050855
1214875	2.06248295189966	1.89328556160836	2.79970822491763	-42.5508195173717
1036062	2.59339059951929	1.62285184662743	3.05930105053051	-32.0368720893825
883578.1	3.08037220025051	1.34653175124588	3.36182103170134	-23.6117167880562
753531.2	3.42475866019422	0.849746137415818	3.52860317670157	-13.9347403776162
642624.9	3.94515224449385	0.374563413211184	3.96289338523651	-5.42355890109768
548046.8	4.30041110146506	0.181932126475935	4.30425776879685	-2.42249649753406
467390.6	4.03982763045849	-0.43400584183835	4.06307375696844	6.13186880800344
398593.7	4.16990094446871	-0.893663453895139	4.26458770052966	12.0962448637563
339937.5	3.90300491938272	-1.224086558734	4.09045661314223	17.4128176476004
289906.2	3.8728973582658	-1.38343073626228	4.11256787782249	19.6571448973294
247234.4	3.66667430327023	-1.5945330382702	3.99837917866695	23.5028605365593
210843.7	3.65916999441883	-1.86708344317381	4.10798315865935	27.0328477827823
179812.5	3.67269056559282	-2.11252930563476	4.23691350605133	29.9074859029347
153343.8	3.68588053352309	-2.53374951338445	4.47276222305416	34.505426372236
130781.2	3.71625521496111	-3.11758017038749	4.85075859443849	39.9934109396493
111531.3	88.3919152020871	177.91583993728	198.663476194496	-63.5809546383289
95109.37	129.141572736111	146.715965159427	195.456184965886	-48.645285640509
81109.37	165.607250274047	134.933533809133	213.618397825541	-39.1724712812079
69171.88	181.171290403597	137.260647500063	227.296110434475	-37.1486296502012
59000	199.07129664154	135.968784349068	241.07445211782	-34.3336822731455
50312.5	215.747858498758	140.602150438772	257.519131628714	-33.0921514860324
42906.25	238.498048140715	150.651211928595	282.094144963141	-32.2792275071449
36593.75	256.255167397736	151.317874058546	297.596723482702	-30.5617177613048
31203.13	272.751932025655	151.326388649611	311.918727115671	-29.0220942221191
26609.38	288.469505717472	150.922732078966	325.564627665633	-27.6178606099227
22703.13	303.775383621725	151.52591233965	339.469565358795	-26.5104363243379
19359.37	317.836806791128	153.041994245266	352.763501164376	-25.7113378170469
16500	328.076367676967	158.931856311084	364.545522505214	-25.8471975694283
14112.02	341.794313753092	158.503744316166	376.758264509475	-24.879047864684
12011.13	353.233639582584	162.125656565598	388.662749243589	-24.6539728540227
10236.38	363.811642203493	167.580003370657	400.552079675679	-24.7318836550046
8750.684	374.304623234868	174.390522551553	412.935836820686	-24.981063000107
7449.463	384.442457628989	173.83893330786	421.91939746998	-24.3317471196191
6363.206	395.017396688533	184.173518118003	435.842435362308	-24.9968880944085
5414.761	406.162030564474	197.335496903299	451.562723672281	-25.9129903130432
4620.567	418.07259206661	212.248452362377	468.864690254575	-26.9161420094921
3941.215	430.279453652132	228.583173012826	487.227539471846	-27.979184984266
3361.769	444.123963075077	247.685085966946	508.521382429457	-29.148127748314
2867.244	480.336280107276	206.278258426044	522.755833909654	-23.2408870438916
2442.658	529.298186762835	290.817136222847	603.929778394212	-28.7861158246165
2083.003	525.520456150471	516.710514527715	736.994915624318	-44.5156923321035
1777.843	583.857998664124	593.758021823429	832.729698692048	-45.4816647972264
1513.548	621.752457830073	720.833525424995	951.933343356751	-49.2207014245809
1292.065	689.588065110124	898.087405197179	1132.29531789023	-52.4814787211838
1101.762	764.495352359481	1103.90880429965	1342.78359834693	-55.2960479460947
939.101	830.841484905755	1280.66805464031	1526.56746959202	-57.0262544366748
801.2801	1001.02231985539	1633.5617169622	1915.8730563305	-58.5006524604629
684.3433	1127.01305369466	1939.93522683509	2243.54788393604	-59.845384405635
582.9476	1390.0457478101	2463.10520846165	2828.27057562671	-60.5619254242256
497.0677	1649.49133447547	2942.61355559814	3373.39535188207	-60.7270518607823
423.5089	2018.70798524069	3634.18094749717	4157.21698842218	-60.9487865274979
361.5036	2608.22988153677	4644.32956779369	5326.59931374832	-60.6816736034079
308.1262	3299.76053778504	5876.25019245094	6739.34239603563	-60.6839654345884
262.7298	4256.79795454813	7404.65103871635	8541.02955333888	-60.1061947939785
224.2111	5829.1981917205	9740.97270410857	11351.920576737	-59.1028311031454
191.2854	7894.42794232977	13074.562668346	15273.0540988089	-58.8763981825097
163.1722	10168.8425818677	16659.0533343286	19517.4131854304	-58.5997168632411
139.1537	15078.1065844463	22520.4621638362	27102.0389315029	-56.196537064812
118.6706	25287.1211193534	39709.5364332445	47077.4444744829	-57.5109251651539
101.1982	30293.3189993841	45008.1132823473	54253.2527802256	-56.0569416276064
86.24196	45974.3086760909	66214.1601190489	80609.8756885007	-55.2266914049941
73.61024	58985.7383540491	90930.694913649	108386.847018683	-57.0289702566238
62.69291	94912.7778809052	123569.229148417	155813.317137541	-52.4723515035073
53.57697	169322.67090425	221439.623791567	278757.374551957	-52.5968495028113
45.65746	202740.718421147	248723.50775866	320884.998430427	-50.8156669571984
38.96512	217996.635881134	273042.575192978	349392.016399209	-51.3962049839588
33.18414	255728.614636078	375845.072816239	454595.031983337	-55.7682511129517
28.30617	242282.914267143	353446.263764022	428515.194496678	-55.5698587468097
24.17237	283191.019735513	409010.552533321	497480.4375475	-55.3020181663199
20.61345	248212.606828105	442369.929951485	507248.117900584	-60.7033314080639
17.55618	360004.066295609	508956.327833772	623409.553497066	-54.7267857287424
14.98558	381457.753461746	718788.498617734	813736.396765697	-62.0453131558193
12.76553	356616.337306961	649024.730340194	740545.955783565	-61.2127481837147
10.8809	331596.9045049	894098.951497874	953608.642026083	-69.651557069299
9.278505	377139.610221421	620099.506087219	725780.74033938	-58.6923641387137
7.923394	479505.239629875	1273114.34278108	1360421.03946808	-69.3616404249628
6.75822	456797.54803434	840058.938691552	956223.310929912	-61.4640474726591
5.761429	531179.867233692	992677.4138294	1125859.89327333	-61.8488459278689
4.919708	646145.850193626	1129278.27876166	1301066.44357825	-60.2228490010672
4.191257	689088.24082923	1286850.90995933	1459735.54732091	-61.831657194015
3.564097	944306.334340353	2557203.70748636	2725987.02393414	-69.7321722310739
3.051758	960326.68999075	1553820.48948006	1826632.27416922	-58.2821836531795
2.604164	1144095.79790873	2029178.1881897	2329489.06720277	-60.5847291444718
2.214424	1239257.61010636	2340162.88305964	2648041.11438182	-62.0960772164679
1.892567	1421091.2309721	2622271.96051474	2982584.53721728	-61.5453501837881
1.607507	1499556.6896614	2992730.76954306	3347403.13145549	-63.3860916922049
1.376413	1654337.97881985	3166288.38736613	3572424.42889074	-62.4136104265294
1.17375	2101230.72071167	1775635.2764012	2751009.11966188	-40.1993262416414
1.001604	2890536.08991218	4710319.61922793	5526509.73059564	-58.4642123446926
