EC-Lab ASCII FILE
freq/Hz	Re(Z)/Ohm	-Im(Z)/Ohm	|Z|/Ohm	Phase(Z)/deg
6999984	14.8428202154786	95.7588482627934	96.9023546285936	-81.1891508940689
5969734	19.4660155649715	94.7842908740336	96.7625317903016	-78.3944346567593
5091109	16.5125508278363	100.289142959489	101.639443772537	-80.6501694961893
4341796	15.4878521587386	109.89161351223	110.977656691841	-81.9777127075075
3702781	17.9040189288931	121.696543879281	123.006514811078	-81.6306721709967
3157797	17.9963910132873	135.389612641358	136.580442599517	-82.4284586049369
2693047	17.8512256298484	153.883873567572	154.915824887737	-83.3830062916248
2296687	19.1484712172449	177.286848425429	178.317947987797	-83.8354710624396
1958656	21.7187879404178	203.805980479876	204.959955671746	-83.9171748440253
1670375	24.3817726567604	235.435788084426	236.694911539772	-84.0875151965177
1424531	28.402069536069	272.297886382001	273.775120275815	-84.0452882070165
1214875	33.62110544483	317.299271264108	319.075549480161	-83.9514950159536
1036062	44.6841736499197	368.186235194383	370.887825577209	-83.0802553926777
883578.1	41.5506356996147	430.46754171439	432.468218250396	-84.4866375966058
753531.2	45.2588741763458	490.559171893819	492.642534522609	-84.7288268566076
642624.9	132.514021686243	643.538170592564	657.039833612154	-78.364583555633
548046.8	129.05613759372	736.225004070848	747.450830001365	-80.057387361347
467390.6	160.16764675816	853.820279871879	868.713269950759	-79.3753956978028
398593.7	209.435085796043	937.236763708165	960.351918001183	-77.4036187416395
339937.5	285.001154471316	1102.91131298841	1139.13959740139	-75.5112537358815
289906.2	270.276027125829	1285.21299738168	1313.32462836791	-78.123941281678
247234.4	347.33365354608	1451.90389858976	1492.87159448689	-76.5461874012263
210843.7	430.050997393578	1690.16346832381	1744.0173192992	-75.7243940356701
179812.5	469.402057071466	1744.89320621651	1806.92849672682	-74.9430514904502
153343.8	450.836607961743	2114.8954121673	2162.41444951812	-77.966263296458
130781.2	692.256035524777	2360.16555383853	2459.59343393301	-73.6531516062722
111531.3	821.104244130243	2816.67923200356	2933.92127974301	-73.7478042340278
95109.37	983.516570883973	3239.0592417864	3385.08635296136	-73.1094719544726
81109.37	1194.86175599069	3687.13872833885	3875.91106940619	-72.0444580048834
69171.88	1462.67707764986	4213.63477126811	4460.28499303822	-70.8566019040181
59000	2452.0442477695	5042.05804806476	5606.68086777499	-64.0655050456711
50312.5	2623.22092102228	6038.2296009693	6583.42651774217	-66.5181654792876
42906.25	3570.75190171913	6106.59163975002	7073.94731379133	-59.68358112429
36593.75	4358.50336286235	6897.69277204254	8159.3331309348	-57.7120906470244
31203.13	4858.787573886	7590.28176690774	9012.22469699913	-57.375363350826
26609.38	6099.13303073741	8116.95257928802	10153.0459912798	-53.0785523099117
22703.13	6807.81786356646	8680.891242025	11031.9652292491	-51.8953830038106
19359.37	8052.18320028142	9169.15873171407	12202.9146575014	-48.7110038996105
16500	9358.25768753093	9573.0317135619	13387.304550771	-45.6499883382799
14112.02	10737.8457053706	9858.25031101438	14576.9142683546	-42.5545609317739
12011.13	12206.5919257306	9847.52566576247	15683.5789340049	-38.8944492406987
10236.38	13634.3755592572	9753.9800220817	16764.1380083212	-35.5797852634637
8750.684	14967.0403509232	9495.86020549738	17725.2265968171	-32.3931429759728
7449.463	16112.7667713152	8994.85036808749	18453.4166530505	-29.1721633278197
6363.206	17318.0236999399	8382.62513545951	19240.123415231	-25.8288629199841
5414.761	18314.7050193138	7815.96103457889	19912.7513628463	-23.1107912469292
4620.567	19244.765100049	7022.53017262629	20486.0175188227	-20.0473291558134
3941.215	20004.0880545602	6331.22927080707	20982.0876695843	-17.5624111983311
3361.769	20418.5155706831	5847.07399431879	21239.2102585117	-15.9796668554837
2867.244	20914.1643328371	5148.79648151413	21538.6251870673	-13.8304448701685
2442.658	21323.1842158243	4584.01924546526	21810.3511559254	-12.1326849795266
2083.003	21667.3664715067	4377.4576254523	22105.133002839	-11.4217245698606
1777.843	21888.6199272652	3759.73531665568	22209.171348152	-9.74639597689804
1513.548	22128.0738673199	3495.05452633413	22402.3895872653	-8.97552710017313
1292.065	22230.9650039771	3259.03637128135	22468.5807980252	-8.34009398706124
1101.762	22388.5734423422	3000.53384256548	22588.7455190308	-7.63333908761147
939.101	22537.141662858	2814.02765403085	22712.1444599444	-7.11721870575762
801.2801	22668.6506047371	2699.95105862672	22828.8732958643	-6.79221985562557
684.3433	22756.9580636296	2557.59838320553	22900.2281604261	-6.4124233219672
582.9476	22895.0898740147	2498.66981218942	23031.0332197572	-6.22836063028142
497.0677	23015.6346893914	2528.4627237165	23154.1046879542	-6.26928700558761
423.5089	23223.1569525535	2594.91328765385	23367.6826795764	-6.37567953856546
361.5036	23200.0950898328	2687.1678916887	23355.1982105784	-6.6068851976346
308.1262	23331.8823095152	2838.75477663922	23503.9413883493	-6.93699483129922
262.7298	23455.3876668558	2998.9845020514	23646.3341481515	-7.28625271447712
224.2111	23542.7823540725	3218.41053359152	23761.750089881	-7.7843535736741
191.2854	23698.6701875541	3515.2649956286	23957.9643677829	-8.43726189953748
163.1722	23854.3994408548	3713.00109710227	24141.6393360297	-8.84724757942129
139.1537	24028.7698763507	4143.68533072462	24383.4351536177	-9.78424556884438
118.6706	24189.7288594432	4623.158509342	24627.5572661172	-10.8199298089008
101.1982	24387.5784807479	5165.17085205365	24928.5574008113	-11.958253708377
86.24196	24610.4078004486	5811.74531025133	25287.3200568113	-13.2869714831751
73.61024	24844.7692136606	6517.73323687146	25685.4706755994	-14.6996333045379
62.69291	25122.1740436294	7317.77708127373	26166.2662619186	-16.2401850353518
53.57697	25417.427506586	8260.01481073561	26725.8950406928	-18.0028381258702
45.65746	25767.7053913767	9341.21628988568	27408.6293511954	-19.926412142729
38.96512	26126.0189973141	10556.9907361464	28178.3413644433	-22.0026278457887
33.18414	26549.6397222876	11970.5164634004	29123.4722137285	-24.2693290974176
28.30617	26984.4477972786	13601.596954388	30218.6012686503	-26.7505342883875
24.17237	27523.6241264429	15401.6828660052	31539.8433756211	-29.2305248088317
20.61345	28107.7457043659	17505.6472547499	33113.3365034246	-31.9148607269094
17.55618	28795.8140769089	19932.9114409476	35021.705653274	-34.6915860894519
14.98558	29535.3489780103	22640.1744152348	37214.4372093023	-37.4717893058109
12.76553	30379.3776493612	25847.181831295	39887.1332008523	-40.3915822297976
10.8809	31337.0625689261	29485.6224708505	43028.0539060543	-43.2564571491209
9.278505	32459.4830386503	33637.3229983988	46744.9199125962	-46.0208982965358
7.923394	33683.9511445197	38347.1705471413	51040.3179229708	-48.7040997581791
6.75822	35208.1922944316	43844.2566505262	56231.0914519617	-51.2345392124847
5.761429	37013.2500240464	49955.3501824443	62173.2875855315	-53.4642674975937
4.919708	38773.3629057582	56991.8406558696	68930.7157395428	-55.7712992484218
4.191257	41066.7497617017	65386.2908401112	77212.9844379677	-57.8685654208746
3.564097	43865.8141947371	74725.135812725	86649.0367932465	-59.5858345244407
3.051758	46855.5963773015	85101.6595729134	97148.0281525911	-61.1635311091129
2.604164	50562.3951979223	97237.5051314453	109597.847662893	-62.5260820417136
2.214424	54769.3807326016	111115.823527105	123880.633288417	-63.7611498648976
1.892567	59751.4798057006	126704.17450791	140086.356140425	-64.7522522589149
1.607507	65642.8448383084	145115.992548491	159272.202131445	-65.6605049557562
1.376413	72214.6873893413	164841.288702396	179965.584309353	-66.3424393235209
1.17375	80209.1533978358	187785.27350735	204197.985384351	-66.8711074810882
1.001604	89411.786453773	213844.506273609	231784.254038662	-67.3094201943632
