EC-Lab ASCII FILE
freq/Hz	Re(Z)/Ohm	-Im(Z)/Ohm	|Z|/Ohm	Phase(Z)/deg
6999984	17.3805710629883	-2.8726039054296	17.6163589788888	9.38481950112483
5969734	20.344716066336	-3.02197979948989	20.5679321694806	8.44887002446683
5091109	11.2232072909736	-5.48205916399634	12.4905305961644	26.0335406331387
4341796	8.36438129325257	-5.48252020458751	10.0010450560241	33.2432519157643
3702781	6.21637715339586	-5.41338756816906	8.24306434989254	41.0502201336122
3157797	4.25574521956506	-5.25029770148535	6.75847566601177	50.9727376071555
2693047	3.45103425431692	-4.02012634938494	5.29821227297358	49.3559137346538
2296687	2.6110946244737	-4.17450897480436	4.92385421379203	57.9746199087533
1958656	1.82726504514467	-3.09919606713368	3.59776511292002	59.4766860644683
1670375	1.49630134561789	-2.71940715484487	3.1038835336912	61.179058265361
1424531	1.2803019969935	-2.38041766202712	2.70288021362328	61.7265194386085
1214875	0.952799682566305	-2.21524995831057	2.41146420518602	66.7270085956128
1036062	0.825527235289352	-1.72215503733255	1.90979401737841	64.3889397210224
883578.1	0.809499287875391	-1.53990735234457	1.73971369796172	62.2699699072901
753531.2	0.62497738966169	-1.28182385960559	1.42606772091739	64.0075790125833
642624.9	0.658074008711284	-1.14157921317778	1.31767389778387	60.0382992952555
548046.8	0.500413243914245	-1.00121263127737	1.11930342075513	63.4437885421746
467390.6	0.575763192866775	-0.881256948115892	1.05267139358048	56.8416818125514
398593.7	0.517983701494744	-0.741177200070286	0.904240430924333	55.0516012323801
339937.5	0.454668625031393	-0.664095636585855	0.804827045470211	55.6027694425621
289906.2	0.445536282150364	-0.57230044999023	0.72527952113057	52.0992184690063
247234.4	0.428354585027411	-0.495727174566134	0.655158822055635	49.1699201751984
210843.7	0.414054452680703	-0.427818479999634	0.595373615147593	45.9366620414957
179812.5	0.403529337682526	-0.368448203220634	0.546433897948335	42.3980861579236
153343.8	0.395394381233608	-0.320589498000679	0.509032752324873	39.0354656132363
130781.2	0.389297531235006	-0.278242910726486	0.478509859036591	35.5545579317441
111531.3	0.382338975864217	-0.242515778244221	0.452765938606581	32.3867602261351
95109.37	0.375954153536657	-0.211486356430304	0.431356006701692	29.3591595634166
81109.37	0.369668308886754	-0.183814897044615	0.412846914692013	26.438530121049
69171.88	0.363263808960446	-0.160107850478535	0.396982516850942	23.7853974844942
59000	0.354165209289282	-0.135634530943403	0.379248891171956	20.955324021647
50312.5	0.347246863800322	-0.105949800322781	0.363050608879254	16.9676695478294
42906.25	0.377835581320763	-0.105401359425146	0.392261613060299	15.5870246080585
36593.75	0.361866639300161	-0.0964787815573067	0.374507169396228	14.9286101577839
31203.13	0.355848994213037	-0.084366675765833	0.36571333399564	13.3377412734017
26609.38	0.351256408304183	-0.0726279251360681	0.35868632519839	11.6822026426829
22703.13	0.351455166809526	-0.0645278743936235	0.357329792839711	10.4037504552516
19359.37	0.34899396616369	-0.0579113174462674	0.353766178579899	9.4216893352415
16500	0.346574488853806	-0.0514880135784615	0.350378212602514	8.45020501612948
14112.02	0.350401848683315	-0.0411458619062259	0.352809350092498	6.69727501939444
12011.13	0.331312277077529	-0.0342971881721281	0.333082755571062	5.91016278917757
10236.38	0.346582503705772	-0.0387323583265161	0.348740057143563	6.37663637808333
8750.684	0.354125512830994	-0.0432082844841191	0.356751783017093	6.95650404422343
7449.463	0.324157600597577	-0.0327680624300548	0.325809600749576	5.77224038873367
6363.206	0.349841879117322	-0.0479721381844184	0.353115655878246	7.80799954187915
5414.761	0.318868594347559	-0.0202975859433538	0.319513962850321	3.64224973181201
4620.567	0.312609468738102	-0.0322888298396864	0.314272570354357	5.89705924440292
3941.215	0.317476600897774	-0.0370135706872681	0.319626964651961	6.64990859847097
3361.769	0.327224768896777	0.000293616998750542	0.327224900627215	-0.0514111763711455
2867.244	0.352366054309943	-0.0177606479686818	0.352813373961681	2.88549280558117
2442.658	0.309986385557139	-0.0115060722731366	0.310199853207466	2.12572842388369
2083.003	0.345927392292421	-0.00931174228919567	0.346052697262562	1.54192682952222
1777.843	0.340286836594399	0.0111664379595499	0.34046999940689	-1.87947402832543
1513.548	0.350526160157739	0.00395922463228413	0.350548519344495	-0.647133484246255
1292.065	0.304002529781081	0.0095873549094448	0.304153670843304	-1.80634341422832
1101.762	0.336500472500152	0.018416028779116	0.337004032778272	-3.13256366599748
939.101	0.357606097080889	-0.0114496653385866	0.357789345154089	1.83384309656342
801.2801	0.289787450614582	-0.0302784574826879	0.29136497991562	5.96490890650232
684.3433	0.313958244207037	0.0210087794895034	0.31466036916206	-3.8282879819754
582.9476	0.320945116926337	0.00670686749082324	0.321015186790905	-1.19714947630224
497.0677	0.301022708886592	0.00283722394566738	0.301036079407668	-0.540012893798139
423.5089	0.284802043369105	6.24291785104919E-05	0.284802050211405	-0.0125593494608267
361.5036	0.287500172287226	-0.0150893726087498	0.287895880885625	3.00439759088908
308.1262	0.311599342861119	0.00698742131987917	0.3116776773017	-1.2846069000666
262.7298	0.295738504327023	-0.0300240077620526	0.297258648290811	5.79692914012586
224.2111	0.283841342192214	-0.00702021422771707	0.283928143982382	1.41680086847478
191.2854	0.324317612296035	-0.022153296808859	0.32507334896128	3.9076563875881
163.1722	0.293574278255054	-0.0363813136503469	0.295819973693293	7.06438626746861
139.1537	0.29086602522062	-0.0386222194636528	0.293419018579132	7.56369033803536
118.6706	0.318750882822021	0.00709985477589739	0.3188299440731	-1.27599477144799
101.1982	0.295705202231773	-0.0305477817983311	0.297278881859665	5.89801035434284
86.24196	0.272443990403105	-0.0115842466685072	0.272690158747329	2.43473487603805
73.61024	0.293743358083194	-0.0307299789969036	0.295346393286158	5.9722771437477
62.69291	0.202108293691149	0.135145640806943	0.243129814312986	-33.7698287773793
53.57697	0.304011458374288	-0.00102651531097663	0.304013191418638	0.193462350793796
45.65746	0.323512938223448	0.0151988284203042	0.323869766392787	-2.68981167572573
38.96512	0.301528461334015	-0.00862344362194391	0.301651747507551	1.63816139375019
33.18414	0.315471150550854	-0.0190539000059864	0.316046037683306	3.45636503433772
28.30617	0.264162800411446	-0.00727886077519653	0.264263063887865	1.57835434022104
24.17237	0.294553234470851	-0.00912396057628696	0.294694510627256	1.77420334671046
20.61345	0.289062353343105	-0.00779955708329682	0.289167559056941	1.54559490532665
17.55618	0.329423356454242	-0.0509866782857938	0.333345750145697	8.79817374426833
14.98558	0.286513311287845	0.00674349896551979	0.286592659228082	-1.34828886716421
12.76553	0.256397992281223	-0.0081108493841557	0.256526248800341	1.81188047836047
10.8809	0.291410471102597	-0.0196618304869406	0.292073022113194	3.85996796438377
9.278505	0.322786374310779	-0.00257247012880171	0.322796624894471	0.456613329026235
7.923394	0.309939834065105	0.0192445485719852	0.31053671826379	-3.55300467972684
6.75822	0.284486240044192	0.0180930094180939	0.285061007091964	-3.63904689773723
5.761429	0.26568083180077	-0.0199716810897192	0.266430427000931	4.29893614137648
4.919708	0.262656861438952	-0.0236617371237897	0.263720504824096	5.14765909626156
4.191257	0.261595513395874	-0.0350222710795918	0.263929483196598	7.62538643341505
3.564097	0.268611160993469	-0.0304689328909884	0.270333704302248	6.47147808191133
3.051758	0.291623807510441	-0.0346825881068056	0.293678952301102	6.782284767458
2.604164	0.287304227007676	-0.0325935325609312	0.289147120375215	6.47230887071427
2.214424	0.28634235329597	-0.0137222831154985	0.286670968786475	2.74366627072126
1.892567	0.29545297002662	-0.0112277971747374	0.295666232307559	2.17630570029107
1.607507	0.281073041122095	0.0118476890461796	0.281322630055525	-2.41368211481377
1.376413	0.29189504563591	0.00688531183183377	0.291976240789917	-1.35126022628976
1.17375	0.296472356292854	0.0327255584862266	0.298273063188872	-6.2989891376872
1.001604	0.278361540753857	0.00707801801997714	0.278451514109642	-1.4565704419926
