EC-Lab ASCII FILE
freq/Hz	Re(Z)/Ohm	-Im(Z)/Ohm	|Z|/Ohm	Phase(Z)/deg
6999984	22.8336777211192	85.2870799746609	88.2907857529659	-75.0118637216454
5969734	18.5557530173606	84.5243556656438	86.5371750794625	-77.618191435916
5091109	15.0321065622148	89.3359525285462	90.5918133270354	-80.4486029438623
4341796	13.3987865760828	97.8159679865858	98.7293830369875	-82.2001922193567
3702781	15.438146265016	109.017434398733	110.105119603868	-81.9398401972493
3157797	17.69034142378	122.085823410056	123.360838426954	-81.7551758998786
2693047	21.4462238091339	136.746027302482	138.41754404223	-81.086763336079
2296687	22.4953968036716	157.742383824387	159.338327253536	-81.883862220665
1958656	29.0165637385044	180.949784860296	183.261522454055	-80.889780446113
1670375	36.6108525788079	207.319606773325	210.527370855177	-79.9853092707195
1424531	46.6864016149381	238.377957748391	242.90671220871	-78.9188629266425
1214875	59.6923271759957	273.438939806137	279.87859461915	-77.6853993852849
1036062	76.3272774285661	313.227927097808	322.393529081535	-76.3050867610352
883578.1	96.7491837497735	357.716889189605	370.569531083892	-74.8657021881076
753531.2	123.249462658394	407.126937635824	425.373686767655	-73.1573712261455
642624.9	155.979747344546	461.676891937883	487.314307332641	-71.3322141697563
548046.8	268.543201841236	563.905688166163	624.583922624731	-64.5352731418988
467390.6	327.539374349613	618.163524469682	699.577147092524	-62.0827272998413
398593.7	394.450750697526	673.994459302509	780.935289186193	-59.6619806154136
339937.5	471.578810945917	728.098306145699	867.475485731673	-57.0694497248497
289906.2	556.130585325763	781.3108079188	959.024403498422	-54.5570527115129
247234.4	651.263406177195	830.974079711065	1055.77551845891	-51.9129613489652
210843.7	753.958655224998	875.410047733621	1155.33389349645	-49.2628825774584
179812.5	864.204371676675	913.548866574084	1257.54551712607	-46.58993133077
153343.8	981.681571677276	941.881860879882	1360.45586037376	-43.8146841993389
130781.2	1102.08319268691	962.205957302904	1463.02005039991	-41.1235358130772
111531.3	1222.97629464803	972.84746905987	1562.72301298957	-38.5013830045051
95109.37	1343.64762723662	973.054622677162	1658.98289469542	-35.9116366888255
81109.37	1460.6748610621	966.513317374558	1751.49052021447	-33.4921906185928
69171.88	1571.6246910928	953.422326316341	1838.21062502941	-31.2429932276051
59000	1676.75659619522	937.032680331002	1920.81829616767	-29.1980495610037
50312.5	1779.74288431592	924.447530536675	2005.51439062115	-27.448608877241
42906.25	1872.22159666836	889.490588998239	2072.77765690097	-25.4123455212358
36593.75	1953.57270986009	870.732191300818	2138.83633821703	-24.0231405920057
31203.13	2034.50490713282	853.939261454154	2206.45019871294	-22.7691708911604
26609.38	2108.3126006931	841.438375828645	2270.02215023521	-21.7571956446665
22703.13	2178.35310902115	834.406519664073	2332.69297329074	-20.9590711656272
19359.37	2246.703659235	829.467244135444	2394.93073835416	-20.2637926108139
16500	2311.40958176907	833.016492150619	2456.93523131742	-19.8188221279594
14112.02	2375.1208828756	843.274626782093	2520.37919854261	-19.5471484598201
12011.13	2440.18919527964	859.873563569822	2587.25836631864	-19.4114319468875
10236.38	2505.78220188997	880.370302999899	2655.93605226344	-19.358186978986
8750.684	2569.39168275184	910.187390654797	2725.8420177078	-19.5063022986053
7449.463	2638.66975190686	946.432306663741	2803.26812323136	-19.731784109301
6363.206	2706.39674542219	989.257030876185	2881.52959671938	-20.0786470288953
5414.761	2780.32682395131	1046.81054107916	2970.86343625849	-20.6316716223335
4620.567	2853.80107547545	1106.38234847669	3060.76174822635	-21.1906778951529
3941.215	2930.86275954007	1176.07333942237	3158.02232654535	-21.864212701641
3361.769	3014.49045133644	1259.10284802367	3266.87812186189	-22.6694876939635
2867.244	3099.15673519783	1351.99576429777	3381.22241445326	-23.5690600802087
2442.658	3187.51842808275	1459.97877261993	3505.96801837495	-24.6091962023333
2083.003	3287.8343904578	1561.53582877184	3639.81443532705	-25.4050804163936
1777.843	3384.24885529148	1698.81357101809	3786.70144896808	-26.6555779930005
1513.548	3483.68828496658	1860.50170187903	3949.37345024602	-28.1049320315634
1292.065	3587.16590931031	2045.38170306765	4129.32749635603	-29.6915438395279
1101.762	3697.30015447595	2256.37232842735	4331.42522927276	-31.3947009925999
939.101	3813.45293757938	2496.24560045407	4557.81366500641	-33.2083301381511
801.2801	3936.84191238986	2770.05739284535	4813.72435883139	-35.1311478507204
684.3433	4067.91810137065	3080.82537438262	5102.88571956093	-37.1383565169345
582.9476	4209.83824443586	3447.33626711704	5441.21910814987	-39.3132298227377
497.0677	4362.4280828306	3866.56821592382	5829.33345643062	-41.5516613367548
423.5089	4529.05718427698	4348.87990294501	6278.94221893225	-43.8373446801364
361.5036	4711.58245674569	4895.45317401482	6794.44412926366	-46.0964599705577
308.1262	4916.01158037343	5532.66213812571	7401.18370215302	-48.3775138149546
262.7298	5139.95126870987	6261.40487634238	8100.88205507254	-50.6176240953114
224.2111	5389.71061812223	7091.95006520503	8907.5662374445	-52.7660439397134
191.2854	5668.85398710047	8049.39509393489	9845.23574655924	-54.8445572035316
163.1722	5999.12446066688	9141.73676572101	10934.3882036585	-56.7257266139728
139.1537	6357.06690014458	10402.9190986412	12191.5144812196	-58.5715273397206
118.6706	6785.66350510859	11849.7769850743	13655.1251843606	-60.2027954782376
101.1982	7265.99798612051	13497.8776401985	15329.2996423214	-61.7061221411018
86.24196	7841.75271958333	15392.420814838	17274.8286317448	-63.003183997719
73.61024	8487.85482153808	17520.8269281583	19468.5144712684	-64.1524227431924
62.69291	9256.35929599244	19967.9174891308	22009.0416935686	-65.12937307967
53.57697	10157.334066234	22729.8090563798	24896.0971855543	-65.9214299356588
45.65746	11184.6551178822	25887.6613722571	28200.4879644062	-66.6334445876679
38.96512	12378.4836668133	29469.4983579674	31963.701152398	-67.2154551159618
33.18414	13770.50278306	33581.9904594095	36295.6861088771	-67.7036151574132
28.30617	15391.7307688711	38163.7699529744	41150.6830208803	-68.0354150165735
24.17237	17257.4354842636	43349.6308977286	46658.4352337584	-68.2925584750282
20.61345	19410.220761725	49221.356891136	52910.2886424132	-68.4784259837686
17.55618	21985.5045120687	55923.0521589518	60089.517982948	-68.5383000733598
14.98558	24865.9988575433	63368.6738878459	68072.8046248096	-68.5748547806892
12.76553	28294.5845413799	71783.3478033814	77158.4897223275	-68.4873068295932
10.8809	32246.3041711747	81269.2986253132	87432.9630731468	-68.3576464805551
9.278505	36919.7179679256	91911.2626580083	99049.2088722598	-68.1152280374352
7.923394	42310.1885266151	103458.379380153	111775.61593266	-67.7574731901555
6.75822	48367.7920474037	116687.909386453	126315.127773842	-67.485719307925
5.761429	55499.4609493307	131906.408106372	143106.571006334	-67.1811349440334
4.919708	63672.9044573644	148319.530539077	161409.175393993	-66.7663707961382
4.191257	72400.5843348747	166114.60467225	181206.805880599	-66.4501553890055
3.564097	83587.8505379321	187465.192615174	205256.247651067	-65.9686416579776
3.051758	94506.4153262143	209526.167113572	229853.599587031	-65.7223271018509
2.604164	108464.278048807	234153.333428914	258054.806520865	-65.1455304894926
2.214424	123828.599989868	262696.022355873	290418.185272631	-64.7619352456526
1.892567	142312.853118556	293665.19507788	326331.418902429	-64.1447451087376
1.607507	163277.998582397	326757.158582152	365280.639379854	-63.4490597538898
1.376413	184314.645812996	365006.960918787	408903.375114878	-63.2079591136987
1.17375	212878.056746895	403288.071694121	456024.490367674	-62.1723951947793
