EC-Lab ASCII FILE
freq/Hz	Re(Z)/Ohm	-Im(Z)/Ohm	|Z|/Ohm	Phase(Z)/deg
6999984	34.1926524817075	134.941022672659	139.2056646968	-75.7811168573881
5969734	108.697354274251	104.550218987855	150.817317031667	-43.8858799349619
5091109	86.3876471694159	-77.0474988737062	115.754665850502	41.7291636616864
4341796	127.113198539456	244.686906253852	275.734378224792	-62.5484273957237
3702781	99.5898556710921	124.162996569628	159.168429877719	-51.2672608321646
3157797	1.00501579507932	-170.590463365611	170.593423812415	89.6624518389201
2693047	309.704371746778	-287.482842580636	422.567370554458	42.8689887105858
2296687	220.684319273414	-71.30425991538	231.917800643353	17.9059165852459
1958656	57.9064932612183	-31.979501958837	66.1502116954041	28.9101611872623
1670375	258.098414789286	-147.256902452067	297.152127767108	29.7067272210988
1424531	119.170567546568	131.191339224854	177.236541539779	-47.748864522137
1214875	1340.21526980518	-2154.52731746724	2537.35392311194	58.1164842588277
1036062	343.068505370605	5.98689232061574	343.120740056441	-0.999767807710857
883578.1	164.887824320298	-15.6049298163889	165.624600961499	5.40635125963651
753531.2	100.238976362164	-98.6225025086678	140.620945748515	44.5342733533996
642624.9	124.859444054669	57.6759127304942	137.536873888192	-24.7934766179812
548046.8	13.9819209841404	-72.1004495781304	73.4436446792727	79.0252611891983
467390.6	59.1304821525328	-71.0118697466338	92.4072484413636	50.2163760218033
398593.7	9.55908261370224	-80.5526810939181	81.1178802227601	83.2324329830644
339937.5	2.81101272400106	-66.4313435739402	66.490790351547	87.5770000562029
289906.2	59.0104220846704	-71.6451403238047	92.818403598794	50.5234699408376
247234.4	114.646635221668	5.11077092410358	114.760493842998	-2.55246796265492
210843.7	-31.7742986705827	-87.9180301631814	93.4836139854546	109.870272202728
179812.5	3.72121605713194	-107.801879796405	107.866087055119	88.0229904039328
153343.8	-14.3618696315763	-123.252674779526	124.086603384982	96.6463489953287
130781.2	-38.657420264043	-220.91905136029	224.275775320031	99.9253864568624
111531.3	-36.8503808965037	-155.956429119618	160.250923104861	103.294378292232
95109.37	-18.2199761642834	-179.931439916444	180.851570636895	95.7820994571534
81109.37	-28.1965278136113	-193.709564975553	195.750963583227	98.2818570215297
69171.88	-73.476542676064	-251.153630936629	261.681005532079	106.307162266368
59000	-21.9118513326946	-306.338266121833	307.120924912903	94.0913010037223
50312.5	-46.9224243329805	-343.674295032472	346.862703344351	97.7746174855003
42906.25	-54.0734812623383	-328.081512622544	332.507774797109	99.3591895637142
36593.75	-52.7915146907519	-417.797259267971	421.119334482724	97.2015450988105
31203.13	-144.316401084491	-493.419188114313	514.091158085186	106.303266153361
26609.38	-151.240281306809	-571.172576678484	590.856780480093	104.830936507214
22703.13	-164.319505648282	-669.182053569392	689.061333087153	103.796174729207
19359.37	-196.545303081962	-751.692936218242	776.963529725806	104.653090407605
16500	-191.866302055873	-893.277196369813	913.650276319615	102.122335826512
14112.02	-214.025740493321	-1040.53632180274	1062.31956330686	101.622945812276
12011.13	-238.456159960095	-1196.41675433378	1219.94851951773	101.27183727542
10236.38	-267.810718323396	-1383.82806107219	1409.5044105854	100.95298626243
8750.684	-290.29477984213	-1596.68322029072	1622.8580853425	100.304455334121
7449.463	-325.210088499515	-1927.85640891281	1955.09384302853	99.5750800609194
6363.206	-378.724274664322	-2165.00563885486	2197.88113702569	99.9223497805482
5414.761	-438.862738509265	-2431.01831487541	2470.31385668128	100.233179384407
4620.567	-437.117563863741	-2864.67931385659	2897.8370098879	98.6757655056821
3941.215	-533.771003059985	-3312.61371272992	3355.34217233861	99.1535550110417
3361.769	-1119.31836865	-3851.30547974712	4010.66422288472	106.205634145071
2867.244	-1206.79462022067	-4380.84721682625	4544.02636354234	105.401315992266
2442.658	-1304.20905082427	-5108.3641326416	5272.22394819408	104.322149985137
2083.003	-1407.6979294204	-5869.86485385732	6036.30075982334	103.485860787364
1777.843	-1485.29400108593	-6826.76171797944	6986.47077026244	102.274513416899
1513.548	-1661.34752925202	-7855.64266952498	8029.395828094	101.941223867471
1292.065	-1827.75648239628	-9181.40416847278	9361.5637723508	101.258773837691
1101.762	-1980.58948904116	-10555.3511151098	10739.5610658607	100.627317051677
939.101	-2188.96072599983	-12393.6480123076	12585.4701983257	100.01625756317
801.2801	-2226.12947014519	-13906.4086785543	14083.4603259575	99.0947122454818
684.3433	-2942.14826369029	-16590.8774315562	16849.7314623841	100.056020834152
582.9476	-3102.33143268095	-18939.933408274	19192.3301823425	99.3023521504372
497.0677	-3363.74218075561	-21364.0499249413	21627.2372404331	98.9476912752512
423.5089	-4422.86617638973	-25729.3795168364	26106.7561281683	99.7537855972207
361.5036	-14964.0181361858	-41956.6338183322	44545.2686617301	109.628999675198
308.1262	-16136.1829293103	-46051.111769504	48796.3246027353	109.310320549546
262.7298	-18158.8127179261	-53287.3970374514	56296.4400504303	108.817634141513
224.2111	-18331.0945095128	-59718.8565402535	62468.9591108421	107.064211401074
191.2854	-10851.6151045021	-71280.7406389671	72102.0217221123	98.6561130533091
163.1722	-18669.0497458088	-78800.3743636487	80981.6795223628	103.328526576821
139.1537	-16567.3297814241	-103336.875675943	104656.515757748	99.1083486410059
118.6706	-29251.2298854057	-111030.621317379	114819.133074292	104.759316782822
101.1982	-17227.726284025	-136172.215917412	137257.66623681	97.210425944635
86.24196	-234431.769510991	-1523884.12298907	1541810.97247821	98.7457236524676
73.61024	-671984.420129847	-1781660.00072842	1904173.15890463	110.664850073015
62.69291	-780629.854346461	-1703901.3574826	1874209.91501166	114.614534633749
53.57697	-897791.599004875	-1820900.47668804	2030199.07921525	116.245516293369
45.65746	-385741.754347608	-2448979.43374056	2479172.6377829	98.9511863178015
38.96512	-747687.071954719	-1660782.31230765	1821327.49565864	114.237356517215
33.18414	-494526.281834819	-1724904.58371325	1794394.62391647	105.9974785781
28.30617	-909982.147401129	-1914179.35851855	2119469.30271879	115.425957463214
24.17237	-455922.192876421	-2166281.10648717	2213738.6653082	101.885188595107
20.61345	-566847.2606126	-2313478.10705213	2381910.31919203	103.767354952112
17.55618	-1682085.05271681	-1755648.26753411	2431401.02900957	133.774128711365
14.98558	-489614.582917721	-927642.293182401	1048924.52726895	117.825332821883
12.76553	203189.282683393	-1049474.51248286	1068963.3468686	79.0425072188317
10.8809	-315107.192874646	-1135104.11557166	1178029.66693928	105.514761635702
9.278505	300356.032775634	-1325855.9792991	1359451.29529082	77.2357994034457
7.923394	-519309.777365069	-1759916.06865173	1834935.20691209	106.440088474838
6.75822	-453936.628491412	-2526351.1677062	2566809.04729134	100.186254140985
5.761429	-150976.305784128	-1525881.38502522	1533332.26864718	95.6506629389504
4.919708	-40587.1296292703	-3195999.08642733	3196256.79123813	90.7275803800683
4.191257	928277.548443787	-2854505.83263094	3001650.00549179	71.9856152393235
3.564097	-955153.024750675	-3530366.27608575	3657294.5388653	105.139130505214
3.051758	-933646.772382777	-3571078.85870214	3691111.01304881	104.651829900456
2.604164	-663210.009957061	-3658438.67059581	3718066.83961143	100.27511989501
2.214424	1866253.58167737	-3979551.80603045	4395422.0511805	64.8752662975295
1.892567	275056.575818038	-2741906.5176617	2755668.24409189	84.2714919445342
1.607507	-2149238.86432668	-3083655.27126098	3758744.14238424	124.875635786747
1.376413	207054.584555637	-4727997.82637892	4732529.45550573	87.4924314856416
1.17375	-28959.8740324047	-8451275.90205508	8451325.52011582	90.196333912423
1.001604	-4263513.2895166	-7672748.39187187	8777733.95899289	119.059598504154
