EC-Lab ASCII FILE
freq/Hz	Re(Z)/Ohm	-Im(Z)/Ohm	|Z|/Ohm	Phase(Z)/deg
6999984	188.691535097907	13.9729999749451	189.208192597214	-4.23514130159323
5969734	120.412952017878	83.5621896271069	146.567112780925	-34.759235216323
5091109	74.9606185936399	-27.7385379214079	79.9282229625965	20.3065639102204
4341796	135.758420051524	-75.1831735287385	155.186527110888	28.97773582962
3702781	163.857700796782	-64.4509658059386	176.077463361232	21.4714501330788
3157797	83.5638660281338	-114.487451673116	141.740242331428	53.8744651718617
2693047	192.077530018783	-136.712710694891	235.762895307259	35.4416623277915
2296687	142.498721508407	-70.3729376147684	158.928398909894	26.2824449584995
1958656	47.4735765341501	-85.2078408241446	97.5403332312155	60.8756198170597
1670375	249.11373449015	10.0953871318923	249.318209429178	-2.32065382240735
1424531	53.1990464379561	-88.1591798364724	102.966885605748	58.8914096767422
1214875	2082.6303203857	-758.621052657993	2216.4960981075	20.0147106685367
1036062	76.1997027725713	-126.10064394424	147.335559542767	58.8564019554597
883578.1	87.3101618559954	-116.834210889583	145.853684209593	53.229251669187
753531.2	69.7429546010074	-98.2036238264045	120.449289948576	54.6181185533179
642624.9	-51.6507944023267	-245.368724125456	250.746117300638	101.887365834729
548046.8	-16.0335745015619	-67.6298412441837	69.5044670363756	103.337350126866
467390.6	37.1004973260611	-36.4936655969931	52.0407007115222	44.5275697471966
398593.7	19.7286388199895	-49.2470384961623	53.0517670802028	68.1686849997209
339937.5	51.6745395149658	-48.824246792518	71.0919482708166	43.3754432944357
289906.2	13.1801539225836	-54.8468870842349	56.408310382902	76.4875738187844
247234.4	-28.4626046560308	-110.179470850874	113.79646594154	104.484526224277
210843.7	15.8781956175064	-87.9612395846602	89.3828661732091	79.7675280127903
179812.5	-21.658007895063	-92.1118061150118	94.6237503576778	103.231467526326
153343.8	48.3691159954032	-109.972630378727	120.13971372778	66.2587301896523
130781.2	67.0495535086174	-136.424140387376	152.010488803041	63.8268681239991
111531.3	19.9298257472126	-182.486754524264	183.571821179377	83.7672890848191
95109.37	-39.5393179403057	-132.118380576779	137.90802786428	106.660963704861
81109.37	-2.55160481816606	-203.09933586813	203.115363567662	90.7197881540545
69171.88	73.9713580076254	-232.947698662369	244.410294622764	72.3830187660262
59000	35.0173414396036	-274.340647073795	276.566456459142	82.7259955879483
50312.5	-52.8935819035441	-311.433666831187	315.893431148078	99.6390794466356
42906.25	-24.3424397972169	-332.853303918395	333.742230328546	94.1827450678252
36593.75	251.673904413988	-335.377483833549	419.306344842889	53.1147116763624
31203.13	-146.158292211305	-480.122630510712	501.876465587549	106.931227896825
26609.38	317.505457629151	-484.161888422749	578.983980629326	56.7437919732533
22703.13	-167.895268231446	-654.378147203794	675.573519783288	104.39010277964
19359.37	-279.504878116735	-725.922111736825	777.872669014346	111.05841478249
16500	-290.204679248409	-850.84775500589	898.977562598887	108.8333331851
14112.02	-40.9636415863151	-1020.08114534984	1020.90330738531	92.2996046825687
12011.13	226.683598810134	-1164.30174195719	1186.1635638874	78.9826331292406
10236.38	-235.309007540038	-1380.94828327568	1400.85277246095	99.6701337591316
8750.684	-324.803703027556	-1555.35507031046	1588.90743602038	101.795520700169
7449.463	89.0642495758648	-2002.49593247043	2004.47559229668	87.4533557640137
6363.206	-307.609509251203	-2101.73921225844	2124.13072256076	98.3266623211089
5414.761	-436.699094642354	-2411.8862661362	2451.1020909048	100.262858598194
4620.567	-463.452722302127	-2823.05502838517	2860.84395224557	99.3229213352824
3941.215	-522.029844125219	-3243.42326202055	3285.16508181452	99.1433563622884
3361.769	-1135.13909856022	-3727.55016650615	3896.55886865579	106.936900178996
2867.244	-1214.92808352802	-4346.44427929619	4513.05086622915	105.616862714794
2442.658	-1327.46013266013	-4993.93340577141	5167.35147489327	104.885825863987
2083.003	-1400.14804997205	-5724.01781075465	5892.77476743147	103.745181485441
1777.843	-1514.80476646078	-6666.21836531035	6836.16126012935	102.802264841994
1513.548	-1634.49407620417	-7682.77031504617	7854.71390942415	102.010494464903
1292.065	-1793.04300453191	-8850.78287829768	9030.57920483886	101.452318980886
1101.762	-2171.46069221373	-10399.2964491129	10623.5873495897	101.794374784579
939.101	-2299.45482902403	-11941.7495235035	12161.1214200344	100.899242821246
801.2801	-2851.65043050144	-14235.2211281931	14518.0381162998	101.327757956225
684.3433	-2795.23511904744	-16066.524008945	16307.8672149598	99.8694657760577
582.9476	-3285.21087762711	-18602.8818391852	18890.7337928722	100.014997056021
497.0677	-3713.10387797076	-20419.3827562486	20754.2364965513	100.306174207506
423.5089	-4067.80615658357	-24821.4592811529	25152.5721900061	99.3070504043572
361.5036	-15913.0604919446	-37067.2008778532	40338.6027911158	113.233992826382
308.1262	-11929.9177422661	-44373.1707182287	45948.8978858721	105.048373990466
262.7298	-15744.361412299	-48659.3314530008	51143.0880347881	107.92966415062
224.2111	-20474.4974251752	-62405.437059616	65678.3344750398	108.164061184608
191.2854	-14085.0954595517	-61027.6632876536	62631.9854423912	102.996211055646
163.1722	32893.6708402411	-60801.0062608983	69128.5465179467	61.5863739619195
139.1537	-4316.61775990924	-107974.962823355	108061.213141396	92.2893487380359
118.6706	60208.2893195156	-197323.10624647	206304.256770281	73.0317215816733
101.1982	66950.1335722821	-98496.3693413536	119095.991363164	55.7951973180567
86.24196	198487.371055425	-159615.511094003	254704.432333428	38.8048329119622
73.61024	-1551770.27986116	-9870558.99732318	9991792.92825357	98.9344559501837
62.69291	-1584771.80755308	-9528726.0312157	9659612.90425154	99.4427268102442
53.57697	-2392720.96861048	-9758717.44039952	10047769.887651	103.776464981055
45.65746	-2503923.59457938	-10462993.9837433	10758432.8074	103.458473404757
38.96512	722323.604724337	-9781336.37789193	9807970.87716995	85.7765374807838
33.18414	-3006481.85793064	-14163734.0917799	14479305.8046549	101.984081110547
28.30617	-3434597.39225102	-10142201.2749037	10707973.9422319	108.708371089982
24.17237	1941807.94365583	-12482841.413909	12632970.6662703	81.1580392857933
20.61345	-6763687.17101342	-12809213.5531623	14485282.7379326	117.835531470636
17.55618	-2410742.01735536	-18875297.5279423	19028624.0659325	97.2783787391375
14.98558	-276755.193045289	-11206618.3493161	11210035.1589148	91.4146713679892
12.76553	9435339.02309703	-21782725.3331141	23738423.3979148	66.5798157380436
10.8809	1327269.9357378	-2324814.77076409	2677014.97953902	60.2773372873841
9.278505	-788202.810986918	-1968763.75247177	2120682.52793632	111.818901663968
7.923394	1208490.68286609	-1152710.24684269	1670087.01681987	43.6467101625404
6.75822	2574606.49229531	-2561139.18352273	3631533.07950577	44.8497553745546
5.761429	5335266.68118586	-7053994.81077734	8844428.37892001	52.8980763340234
4.919708	1851123.77123525	-2486243.31142599	3099687.89074686	53.3306021735677
4.191257	4871137.82206954	-7678762.69168288	9093480.09052515	57.6103906383887
3.564097	-180263.08384167	-6102491.44774824	6105153.28630138	91.6919829408325
3.051758	3157105.12915705	-14548357.7129999	14886975.0097847	77.756216968763
2.604164	3905106.09782299	11747035.6427069	12379123.5564672	-71.611473799103
2.214424	-1298665.62152151	-11637363.9916264	11709601.7468625	96.3675477322181
1.892567	2860389.44646262	-10067606.9520358	10466066.0004662	74.1391917038817
1.607507	6274543.6618586	-10330623.493189	12086839.1204069	58.7266270148625
1.376413	3144065.28727208	-3143169.58642536	4445746.45921904	44.9918374485911
1.17375	-3706256.60034265	-3342449.82607996	4990822.46002054	137.954600671978
1.001604	-3730506.30710685	-6159270.57711557	7200922.95122545	121.202174179046
