EC-Lab ASCII FILE
freq/Hz	Re(Z)/Ohm	-Im(Z)/Ohm	|Z|/Ohm	Phase(Z)/deg
6999984	0.499796593378197	8.71910806113245	8.73342098014617	-86.7192822368921
5969734	14.037952326933	1.61178829577208	14.1301792997694	-6.54981860123957
5091109	4.77920890096223	-7.56252279440664	8.94609349017529	57.7087674918126
4341796	42.1255677678954	-13.043894707213	44.0988282032574	17.2047824017663
3702781	11.6112878062128	-7.4109188621544	13.7747494677813	32.5481051412439
3157797	12.0496272728985	-2.84387468037848	12.3806760967839	13.279568868462
2693047	59.6890522468796	12.3032760819057	60.9438558058014	-11.6468511467234
2296687	77.8844969188343	2.57522219983537	77.9270596755609	-1.89377390897631
1958656	13.7534735153194	-3.50300564335681	14.192571376392	14.2893955232242
1670375	28.0908009255388	5.29919398717834	28.5862651207184	-10.6830272733323
1424531	43.8634097178719	25.3525044651226	50.663085128444	-30.0273773215658
1214875	1590.41788020677	1803.62802092175	2404.68356993919	-48.5945330390163
1036062	15.0287384793524	-32.149038684031	35.4883596209812	64.9452817400944
883578.1	19.7141946283082	-20.695508237377	28.5823989729022	46.3911035167037
753531.2	12.7702070840872	-25.5783408582288	28.5889788210459	63.4689413893808
642624.9	155.532780549687	113.091069749957	192.301939362833	-36.0216675038025
548046.8	-7.68920599476863	-37.2486536791273	38.0340122750354	101.66368311151
467390.6	-6.48458882991631	-47.0562031959424	47.5009068493528	97.8462372098917
398593.7	-9.16503171989857	-49.9007968431447	50.7354642435402	100.407243962567
339937.5	-11.3869058168536	-59.5217762429323	60.6011837441778	100.830201406933
289906.2	-11.8712843366126	-72.0732321292257	73.0443576284572	99.3532880984243
247234.4	-10.7008336821408	-78.91663986962	79.6388340560315	97.7220199599073
210843.7	-13.0799249386541	-93.6779063728242	94.5866511659887	97.9486247678816
179812.5	-14.3259166725945	-114.21414301307	115.109088923161	97.1492913478946
153343.8	-14.5416753909664	-131.591457827572	132.39249259819	96.3059547692415
130781.2	1.93970889486486	-150.51624538659	150.528743420893	89.2616678612261
111531.3	-19.7103620775073	-177.781264549496	178.870557661244	96.3264666583072
95109.37	-23.0455257471991	-204.556879006942	205.850948518644	96.4278801880453
81109.37	-27.8939291232536	-240.801907135848	242.412107292921	96.6075597525984
69171.88	-32.5343265682193	-278.582359348052	280.475691184058	96.6611313064431
59000	-48.0280930733912	-334.993892468619	338.419275035484	98.1589002786946
50312.5	-47.8895878859577	-375.823576812064	378.862473089775	97.2618202588583
42906.25	-50.0298353936091	-431.006209932942	433.900146842878	96.6210815565635
36593.75	-165.00926755319	-507.89053294199	534.023268997277	107.998533677594
31203.13	-172.272083131969	-589.717774256477	614.36530167372	106.284473137681
26609.38	-186.880117343665	-678.445521135104	703.713367363918	105.400399259794
22703.13	-201.395602193511	-785.769482100915	811.168211645419	104.375664243203
19359.37	-220.142418454354	-911.619256352465	937.823199198843	103.576158935877
16500	-239.419598001888	-1049.94242155949	1076.8940674447	102.845580451306
14112.02	-267.519943938935	-1215.55157003067	1244.64153064612	102.411851400392
12011.13	-297.64806594319	-1409.53850643925	1440.6224947205	101.923805950499
10236.38	-333.568088535994	-1631.53079333812	1665.28087699945	101.554935721994
8750.684	-378.034719633008	-1880.94733308523	1918.56016822211	101.363968888877
7449.463	-434.036126345087	-2195.64008001528	2238.12929026501	101.182112084702
6363.206	-499.550366269981	-2511.07945768893	2560.2872126517	101.251439977913
5414.761	-574.510083143631	-2902.28310350647	2958.59916996758	101.197008987376
4620.567	-669.304401000909	-3363.53485840007	3429.48029953105	101.25419017533
3941.215	-1533.50300099399	-4016.1744589484	4298.986943312	110.89844496609
3361.769	-1572.7810607652	-4495.72401330701	4762.89561810113	109.281844547128
2867.244	-1947.46029374867	-5253.64154149899	5602.97698034639	110.339123566483
2442.658	-2075.02558995158	-6240.29691259337	6576.24792387546	108.393015119542
2083.003	-2433.89895465159	-6785.83651743188	7209.12209376191	109.731559120526
1777.843	-2536.177034701	-7898.12504901129	8295.33442611956	107.802410224321
1513.548	-3046.00495775344	-9185.2296888644	9677.11685575071	108.346548242357
1292.065	-3480.55966792019	-10423.0837246137	10988.8566253392	108.465608872185
1101.762	-4145.27507635496	-12079.6230423095	12771.0844607239	108.940304405451
939.101	-5168.52042824028	-14187.8625751282	15099.9684724128	110.016261848927
801.2801	-6294.97296073509	-16306.0740298015	17478.9797997982	111.109121547359
684.3433	-7836.89641016551	-18241.0906099664	19853.3204271898	113.249749165748
582.9476	-10343.6787802862	-23763.5296540981	25917.1185190589	113.522305188892
497.0677	-11189.001006724	-24023.0855104163	26500.9883017454	114.974237537533
423.5089	-32726.3369963689	-37592.4410847116	49841.7973181889	131.041406507489
361.5036	-40152.6110187333	-41427.1944233765	57692.6737932464	134.104897246494
308.1262	-47608.7142931003	-47974.5601249978	67588.0765803339	134.780700965851
262.7298	-59885.4334662706	-51243.1085104835	78817.0115600706	139.446869249396
224.2111	-75313.6173260343	-58949.7742465484	95641.0834236593	141.948861349174
191.2854	-91226.4331361802	-64172.0076040459	111536.131646582	144.876045428717
163.1722	-113216.814254413	-70243.3247926903	133237.275969789	148.183215117992
139.1537	-151576.701343755	-72419.1121252922	167988.166819182	154.462832552626
118.6706	-199736.988365467	-79160.6207360389	214851.735847355	158.380374181053
101.1982	-144160.45422859	-453529.479246368	475889.9296149	107.633559562096
86.24196	452421.31794145	305246.858618468	545766.152875314	-34.0073828088185
73.61024	-631216.723150969	86414.4731713646	637104.397064509	-172.204585270411
62.69291	602138.1846959	11144.5860575542	602241.309831257	-1.06032944665618
53.57697	-854100.404027843	370540.21633157	931014.25986908	-156.547023828194
45.65746	-1232309.3479354	400411.644802909	1295729.83847048	-161.999576685556
38.96512	1377035.12608048	589929.2638972	1498079.52888416	-23.1905527015893
33.18414	-1277732.96557402	970763.04534751	1604675.17632914	-142.774092461501
28.30617	-1216109.34617522	1228755.49838667	1728803.63739501	-134.703638142406
24.17237	968532.575483833	-1097401.30098176	1463675.1569832	48.5693687326541
20.61345	1130943.62323886	-656587.089847258	1307723.24499442	30.1379810943379
17.55618	-434194.716812097	3828123.70586439	3852668.70617088	-96.4709666142392
14.98558	1182425.56805638	2221888.30038156	2516926.26895702	-61.9793657135997
12.76553	1961407.76498038	1321686.61765354	2365158.75488513	-33.973899155271
10.8809	816059.141045031	1487080.29571383	1696278.37561631	-61.2435160173132
9.278505	-328367.945207834	3590154.8770263	3605140.43394647	-95.2259293254199
7.923394	32548.4960015852	2034956.27997383	2035216.56488858	-89.0836498742789
6.75822	1832692.78224297	-202444.801423792	1843840.21317168	6.30350977469078
5.761429	4379134.652424	-2343530.41798619	4966785.19004871	28.1538339793778
4.919708	5369320.61421027	6250604.22988459	8240124.82289162	-49.3371493668633
4.191257	4054696.46405518	1828452.85034864	4447898.74452754	-24.2728470582797
3.564097	2102267.45047485	1231993.74909463	2436665.14546711	-30.3716218240363
3.051758	3401276.8524253	663819.277350905	3465449.50328624	-11.0434635630931
2.604164	2887120.86536388	3229628.55431626	4331970.39349006	-48.2049331974832
2.214424	3595102.60476805	-2066633.52301234	4146774.27131601	29.8923082509417
1.892567	-780707.868742634	9041800.39135354	9075442.63897898	-94.934924061273
1.607507	17633960.2180226	1930788.77167332	17739348.8677466	-6.24857458129363
1.376413	10489086.034859	-2536444.73821069	10791407.5892198	13.5941570754565
1.17375	4969815.93146461	22811297.0815999	23346398.9715255	-77.7092344295623
1.001604	19135090.5636287	4067426.85024354	19562608.5188135	-12.0003947542088
