EC-Lab ASCII FILE
freq/Hz	Re(Z)/Ohm	-Im(Z)/Ohm	|Z|/Ohm	Phase(Z)/deg
6999984	35.9504792832577	92.3642293154081	99.114014234745	-68.7327619490272
5969734	40.0252047720612	-5.05883951258522	40.3436348667237	7.20349469054842
5091109	9.78048542109835	47.8486112233476	48.8379718157437	-78.4476051401474
4341796	0.114582963012799	-6.60189594506927	6.60289022511618	89.0056703183616
3702781	87.680066334075	-29.0637574793312	92.3715109282357	18.3390726783648
3157797	102.984923862247	49.1675066575175	114.11984163076	-25.5209439417249
2693047	-1.56185863361766	-11.7566417665182	11.8599337273716	97.5673786510015
2296687	0.462554780530471	-11.3796077360712	11.3890047480824	87.6723402333127
1958656	-3.06896572272957	-12.0979616355885	12.4811548481485	104.234315555144
1670375	-6.32132602223741	-18.449027559068	19.5019429943446	108.91337538908
1424531	-7.64854054532531	-20.9818173848117	22.3324166458329	110.028408554184
1214875	5.75231435818838	-23.9832638927451	24.6634561127283	76.5125547786521
1036062	10.7771098961687	-29.9291149561043	31.8103445402562	70.1966691155865
883578.1	-10.7151383133037	-29.3613912633465	31.2554872941145	110.049035034808
753531.2	-22.3475406551034	-29.8970933237704	37.3262476354339	126.777454596125
642624.9	-25.7825506631073	-31.817957435514	40.9526840886391	129.018349828661
548046.8	-32.4305364712386	-34.0424561269873	47.0173214355113	133.610893035532
467390.6	-37.0214758558025	-32.9852210388372	49.5844177289874	138.299750447765
398593.7	-46.8050051375263	-27.4434469929429	54.2572694556069	149.615380422701
339937.5	-49.5293432214725	-26.3685484319794	56.111105731041	151.969950481791
289906.2	-52.5801739249101	-24.4978863632171	58.0070782425636	155.018487022344
247234.4	-55.3691753361131	-22.6944044355618	59.8396321018611	157.712534575049
210843.7	-58.5428180747153	-20.007813674725	61.8673917033175	161.131431034374
179812.5	-59.9465998224192	-17.54191100289	62.4604952902439	163.689171927618
153343.8	-62.3240654552587	-15.8221419837266	64.3010832865557	165.755315032639
130781.2	-64.7142669149118	-14.972632274544	66.4237612572727	166.972964938851
111531.3	-65.6940116300793	-13.0465308902739	66.9769746429612	168.767468753201
95109.37	-65.8731605217558	-11.1214912037151	66.8053953189361	170.417014245382
81109.37	-66.0010580961711	-9.12494777295936	66.6288551730659	172.128496475218
69171.88	-66.4372275320582	-8.25274690403345	66.9478381548538	172.919063640939
59000	-65.0628696693072	-6.10836518384787	65.3489796004842	174.636561927623
50312.5	-63.7408219213148	-6.80506738139856	64.1030523553297	173.906098034611
42906.25	-69.7195323248895	-7.15487346718838	70.0857004098039	174.140609660158
36593.75	-67.236798224555	-4.58562378586389	67.3929891086231	176.09840644612
31203.13	-65.6430200252923	-3.8865718186107	65.7579768434381	176.611604743219
26609.38	-64.8772407923519	-5.41423836467061	65.1027676055195	175.229515949804
22703.13	-63.9501756196148	-6.08694036837518	64.2392076914693	174.56282225939
19359.37	-63.763603759641	-7.66157601064527	64.2222462343338	173.14841864633
16500	-63.2724473122533	-9.40462540050075	63.9675665302786	171.545626510231
14112.02	-64.3511332311199	-12.8556438661632	65.6226784529781	168.702552635012
12011.13	-65.3961055777574	-13.2777347281981	66.7304193321876	168.522930366239
10236.38	-66.2857914392818	-14.8731651164369	67.9339177974652	167.353466210597
8750.684	-66.519396706	-16.2982662193508	68.4869594878254	166.23287535488
7449.463	-67.8205506884031	-18.4202898795781	70.2775510026206	164.804835346296
6363.206	-69.9030596430343	-19.1599294622773	72.4813123808962	164.672081025165
5414.761	-70.4725856158421	-21.2314395337175	73.6013542542262	163.233899663607
4620.567	-73.0649907679073	-22.867604013782	76.5599124166526	162.621121301714
3941.215	-73.2724779380733	-25.5568055161085	77.6015871704544	160.771670834811
3361.769	-75.4086955171073	-28.668218934915	80.6742718373833	159.184635038079
2867.244	-78.1070848154989	-29.7590778098271	83.5842055083787	159.142981006373
2442.658	-79.7393866133995	-35.0558082560977	87.1049910738156	156.268279860863
2083.003	-82.0594304749523	-38.2646751726109	90.5424513470833	155.0001523729
1777.843	-82.1769323247432	-41.506059900009	92.0641146958388	153.202497290677
1513.548	-85.8667068825032	-43.9835013750341	96.476109706255	152.877114558822
1292.065	-88.5267106273598	-53.091968454612	103.226622578121	149.047693839286
1101.762	-89.077224182873	-58.8708802626219	106.773275734248	146.539399203762
939.101	-92.5521159978306	-69.8359106789516	115.94373030067	142.963340421232
801.2801	-103.528543342459	-76.6586097987834	128.820424401154	143.481580746928
684.3433	-100.900908770836	-84.849535977704	131.83488592331	139.938868108075
582.9476	-109.678009932197	-97.5532929419688	146.785254118078	138.348451860351
497.0677	-133.440807744109	-102.90232204598	168.509160148209	142.362536877258
423.5089	-120.819461450832	-122.47449170936	172.038784536322	134.610246021799
361.5036	-123.948375142115	-132.58274889768	181.497617079773	133.07225541233
308.1262	-123.330726721036	-154.173290891415	197.433208396733	128.658016671303
262.7298	-136.249316206994	-150.608027184267	203.092722713569	132.13443809326
224.2111	-134.125915877057	-210.674186588706	249.746620006502	122.482906738501
191.2854	-157.521173804291	-215.942494441896	267.290256280452	126.109213919664
163.1722	-167.111201470402	-257.244751139734	306.758888454475	123.008538219754
139.1537	-194.1463988291	-271.885895666445	334.08795913749	125.52960981411
118.6706	-213.556049594881	-330.189670261278	393.231998527361	122.893488294492
101.1982	-198.170378115339	-331.559392069556	386.268208932485	120.866420911099
86.24196	-228.920725404929	-398.556929778014	459.621936806758	119.87193806609
73.61024	-408.039405018274	-355.315958664943	541.059688509183	138.95103157349
62.69291	1923.55054034383	-946.791502463304	2143.93582702322	26.2068890140556
53.57697	1166.78094729568	-309.927776228564	1207.24190013857	14.8757548011831
45.65746	-272.831019881409	-462.422749335263	536.909270279731	120.540751700347
38.96512	-455.2766879848	-890.858235700241	1000.45252697834	117.069486898546
33.18414	-499.45263674073	-721.385327995119	877.410809024993	124.696872954666
28.30617	-374.054999423401	-1079.03445421042	1142.02998908383	109.11923912487
24.17237	-185.969740007742	-1053.79481948723	1070.0786259788	100.008293449818
20.61345	-263.360904475377	-1548.5864745158	1570.82113401219	99.6516845181284
17.55618	-925.051674634229	-1600.85389698658	1848.90610909281	120.02142275484
14.98558	-998.313495822459	-1288.347049797	1629.86746598056	127.771364483338
12.76553	-1313.652941791	-1897.62029457389	2307.95295312856	124.693435207896
10.8809	-1249.10952941737	-1912.68033854669	2284.43005888655	123.147251301956
9.278505	-1091.54682442246	-2694.61663782822	2907.3068800468	112.052095486586
7.923394	-1233.97806290277	-2821.98719571614	3079.98597277831	113.618447506914
6.75822	-279.408441547991	-3382.71986049124	3394.23963970875	94.7218410572638
5.761429	2669.16188674015	-534.539276179148	2722.16043160655	11.3245222799166
4.919708	-1082.76789489983	-3534.86361116422	3696.97809890169	107.030406891162
4.191257	-954.978920976345	-3239.22990386653	3377.06901167452	106.426394783535
3.564097	-2154.81667150295	-4924.58135991747	5375.38244762488	113.632427677116
3.051758	-65.3065963502271	-5583.57073094434	5583.95263760226	90.6701127132167
2.604164	-2015.782138785	-6397.86053827454	6707.90556718379	107.488142873692
2.214424	-2685.13153414837	-6923.4858735332	7425.94020960927	111.197758118266
1.892567	-3020.74690477649	-7363.19741129525	7958.7428643236	112.305858494049
1.607507	-3283.59382706321	-8063.60811283869	8706.53571856025	112.156717579977
1.376413	-1339.66252631031	-9332.13119416772	9427.79763834367	98.1692135190069
1.17375	-3783.26854403593	-11194.2087079805	11816.235842015	108.673535256038
1.001604	-3689.6200553876	-12684.4457212728	13210.1650030964	106.218525695461
