EC-Lab ASCII FILE
freq/Hz	Re(Z)/Ohm	-Im(Z)/Ohm	|Z|/Ohm	Phase(Z)/deg
6999984	20.3858696598123	-9.81044344453683	22.6236266404242	25.6986009652612
5969734	18.3354311541575	-12.2544752545161	22.0535756595704	33.7567653396503
5091109	9.78211741286161	-6.22017717109909	11.592257119253	32.4511492231519
4341796	10.8016129796155	-4.7942257352457	11.8177596591694	23.9337305280756
3702781	5.61986549438413	-5.00926116518834	7.52831890902832	41.7121811926387
3157797	4.13337887181783	-4.9948991272545	6.48335084577703	50.3915635972425
2693047	3.29178266502709	-4.80021408402893	5.82047149003262	55.5593277825352
2296687	2.23365829790152	-3.54157289178651	4.18711928891707	57.7605055807129
1958656	1.8450563298869	-3.21977415414624	3.71095384829344	60.1856067443837
1670375	1.42391317014595	-2.92537933278747	3.25351701345101	64.045738001739
1424531	1.12267318647195	-2.40706499061479	2.65600394439964	64.9953009556094
1214875	0.645108093777698	-1.42833209408164	1.56725780382206	65.6936219163148
1036062	0.850557764209033	-1.80857234397723	1.99859511498841	64.8127566020807
883578.1	0.731903004122763	-1.58414268296544	1.74504729088838	65.2021960154311
753531.2	0.674162597444935	-1.36650013553908	1.52375123567531	63.7405806800524
642624.9	0.632445013876467	-1.15299143292786	1.31505739037589	61.2541157365231
548046.8	0.573096821858455	-1.03078301757507	1.17938695793426	60.9267276523854
467390.6	0.532725101808179	-0.889491719080026	1.03681799386801	59.0822046225207
398593.7	0.503238966804129	-0.772981348799311	0.92236089645089	56.9344093021154
339937.5	0.476733548967963	-0.672737764432197	0.824530761345397	54.676823809007
289906.2	0.456486746525724	-0.584295286434729	0.741472272916177	52.0008989113619
247234.4	0.441917936432996	-0.510693412903657	0.675351186068687	49.1294063295047
210843.7	0.422378408854942	-0.438279001273727	0.6086805428337	46.058415572961
179812.5	0.409738237392972	-0.377667240828433	0.557241391119559	42.6676341526429
153343.8	0.402387252120243	-0.328905356098837	0.519705911010624	39.2620532324766
130781.2	0.394496474443919	-0.285742210089872	0.487109924940692	35.9166156920652
111531.3	0.387458506906103	-0.249762162078175	0.460982897925586	32.806497647692
95109.37	0.38031219322356	-0.217817494801502	0.438271406044379	29.8012079615159
81109.37	0.37339415977778	-0.189888335592933	0.41890425940829	26.955458373394
69171.88	0.366630271366009	-0.165061122180367	0.402073289261244	24.2378164186854
59000	0.357188240926491	-0.139548416290283	0.383480377523136	21.3398875641609
50312.5	0.35125811727381	-0.108144356229326	0.367528865172516	17.1124044164574
42906.25	0.379226059907615	-0.111719983741987	0.395340055244045	16.4149715403344
36593.75	0.364043225332357	-0.100784219953831	0.377736586660714	15.4745816407641
31203.13	0.357809545137807	-0.0885541253783683	0.368604806958959	13.9007868986767
26609.38	0.353219379143223	-0.0771779148062207	0.361552707549204	12.3253363085614
22703.13	0.351547925433831	-0.0685102542380089	0.358161414466421	11.0276785758373
19359.37	0.348991400162908	-0.0612694430875868	0.354328861432328	9.95745643989038
16500	0.346284853665967	-0.0548192856069537	0.350597139111141	8.99566656667198
14112.02	0.361198708933975	-0.0451043895426927	0.364004001752164	7.11791771426768
12011.13	0.322233480548848	-0.0757304578875318	0.331012867179631	13.2254931117576
10236.38	0.365302015497123	-0.0326216999906871	0.36675569230285	5.10301307894938
8750.684	0.3226523040926	-0.0457619375119871	0.325881365317372	8.07244821222178
7449.463	0.337134603959875	-0.0332538348809641	0.338770657999585	5.63324311946612
6363.206	0.335372097832649	-0.0299897590604514	0.336710305237567	5.10993154432558
5414.761	0.333064264234486	-0.0255151492228316	0.334040157690543	4.38071784522227
4620.567	0.332586468096124	-0.0227961000458041	0.333366796393931	3.92102750365307
3941.215	0.332220158885535	-0.0212607849372859	0.332899767116289	3.66171138923922
3361.769	0.332012688926143	-0.0192905176201223	0.332572623163754	3.325246507711
2867.244	0.329401864820312	-0.0187847004811486	0.329937044781676	3.26385407996273
2442.658	0.325864859695694	-0.0217934195227843	0.326592804450726	3.8261697570068
2083.003	0.325782295214721	-0.0190300947584557	0.326337629429839	3.3430500252791
1777.843	0.327216934505592	-0.017447638121736	0.327681769867144	3.05219602199007
1513.548	0.324374774903152	-0.0173323222246176	0.324837503972631	3.05857762591224
1292.065	0.323476202084857	-0.0168333646811061	0.323913901340665	2.97892560619095
1101.762	0.336211859591551	0.00379292317518338	0.336233253555061	-0.646346240235745
939.101	0.32242398381627	-0.0129451109026459	0.322683748020002	2.29915300818727
801.2801	0.333662308368573	-0.0147852304580924	0.33398972898211	2.53722843122003
684.3433	0.322808693359065	-0.0150814436955726	0.323160799683578	2.674882114458
582.9476	0.311983967663762	-0.010823347067634	0.312171652974721	1.98690819857483
497.0677	0.314373853003984	-0.0114581115263564	0.314582592926438	2.08735858625937
423.5089	0.318434927126254	-0.0111767355960144	0.318631012665883	2.01019721407351
361.5036	0.30210714757912	0.0903703516816908	0.315333996076327	-16.6536829465197
308.1262	0.259665484944154	0.0108220044079884	0.259890899899726	-2.38651875870441
262.7298	0.248612759699883	-0.0137999232767096	0.248995466159597	3.17709681062403
224.2111	0.382695359581804	0.0658227207955039	0.3883147805819	-9.75925314982078
191.2854	0.390373591548562	-0.00375091350875798	0.390391611501418	0.550510855703644
163.1722	0.317060961850169	0.0241729678412415	0.317981109350238	-4.35983926316771
139.1537	0.349100335038019	-0.0197954404894292	0.349661126503688	3.24543348684928
118.6706	0.300878898313283	-0.0255053769555776	0.301958003212137	4.84535510439464
101.1982	0.301588141815903	-0.0109214890621255	0.301785828373871	2.07396054117803
86.24196	0.312301435085159	-0.00695190042688983	0.312378800938533	1.27520638152189
73.61024	0.319179301061894	0.0215442008375673	0.319905577969639	-3.86153557691125
62.69291	0.247216191450741	0.00782428650161294	0.247339978116497	-1.81278174097221
53.57697	0.314180317686122	-0.0170645960512167	0.314643405237968	3.10894577272439
45.65746	0.277647821570574	0.0323675573971517	0.279528123083784	-6.6493986660333
38.96512	0.297573516378103	-0.0112217475776129	0.297785031974955	2.15964867127102
33.18414	0.288747021435987	-0.0118191106814717	0.288988812526463	2.34394570269501
28.30617	0.296402255626733	-0.0295401829400224	0.297870642307605	5.6914453182111
24.17237	0.309481166654284	0.000813148162514346	0.309482234907969	-0.150541795881648
20.61345	0.281628015577726	0.00855419630675299	0.281757898616352	-1.73977259392766
17.55618	0.284710982628387	0.000141028322602919	0.284711017556767	-0.0283808054803409
14.98558	0.283840091573392	-0.0142388999720511	0.284197015918193	2.87184781569013
12.76553	0.28294820116014	-0.015189621804769	0.283355623114014	3.07288266318327
10.8809	0.295994804531395	-0.0169391468005241	0.29647910382337	3.27534188375511
9.278505	0.26900820850776	0.0188305606373389	0.269666472255027	-4.0041699822623
7.923394	0.275757014986942	-0.0153672520964647	0.276184872416113	3.18965203478873
6.75822	0.273669327659512	0.0116938623449085	0.273919052492066	-2.44675438466431
5.761429	0.330691612641957	-0.031452112316847	0.332183952112274	5.4330642709189
4.919708	0.254908446107964	-0.027421417305397	0.256379113861121	6.13990167629117
4.191257	0.233442412006435	0.0151626918512926	0.233934321867398	-3.71628962992999
3.564097	0.264209643118743	-0.00267193487686761	0.264223153324836	0.579408726946201
3.051758	0.342142019322641	-0.0567666207393352	0.346819276592778	9.42043455767016
2.604164	0.255223065836424	-0.102735057234089	0.275124163460491	21.9262869491655
2.214424	0.193276810212802	0.0944351482004962	0.21511374335845	-26.0401582956725
1.892567	0.26632033760622	-0.0236354038411946	0.267367078260259	5.07160009487354
1.607507	0.311612344061145	0.0409585766414208	0.314292631112746	-7.48807709781195
1.376413	0.333763116752658	0.124847543268538	0.356349164675095	-20.5088294710575
1.17375	0.233746227213498	-0.0760762886931318	0.245814768551169	18.028271722396
1.001604	0.274451232418393	-0.0368859046416875	0.276918849010338	7.65461301054467
