EC-Lab ASCII FILE
freq/Hz	Re(Z)/Ohm	-Im(Z)/Ohm	|Z|/Ohm	Phase(Z)/deg
6999984	21.1167824300279	87.3487836137924	89.8650571635397	-76.409365079749
5969734	16.1882448556485	86.8925196149339	88.3876079353781	-79.446671647517
5091109	12.0369347113602	92.1102273036817	92.8933892759946	-82.5547957987632
4341796	9.44389036916989	101.074647690744	101.514883003	-84.6620772734749
3702781	10.1740649846812	113.18189009911	113.638249919292	-84.8634146426838
3157797	10.8619303964608	127.211334894061	127.674215319564	-85.1196413686663
2693047	11.067863867221	143.979315814126	144.404089252649	-85.604249071788
2296687	11.5795325946672	165.606557402629	166.010895515509	-86.0002774997824
1958656	13.3517641086459	191.018298446994	191.484359534657	-86.0016525984907
1670375	15.7414967036974	221.475238516703	222.033952346263	-85.9345019449014
1424531	19.5329534690804	256.706293628699	257.448358821355	-85.6487105966901
1214875	24.0597830879962	298.083436115377	299.052851597492	-85.385379194048
1036062	30.1652681720751	346.258689210924	347.570170264884	-85.0210926279038
883578.1	37.0677682500697	402.162950725433	403.867624821832	-84.7338688852048
753531.2	46.2127492585839	467.54477741036	469.823091256421	-84.3551437826233
642624.9	113.672120500213	611.127426379053	621.609268151385	-79.4631728320168
548046.8	141.260499183035	699.185358961768	713.312480485191	-78.5779530385397
467390.6	172.56975167447	798.04246513502	816.487657807371	-77.7981574793666
398593.7	209.224595428901	910.760532037097	934.483642472614	-77.0621931915211
339937.5	252.507120373213	1038.63202390902	1068.88555370934	-76.3356254115157
289906.2	302.176995903398	1185.33285110419	1223.24359992603	-75.6982098644326
247234.4	362.43872781648	1353.1975790449	1400.8945425528	-75.0059049605761
210843.7	433.302715354775	1544.4540421215	1604.08526312016	-74.3283250720544
179812.5	522.449055160863	1761.24873972772	1837.10373643705	-73.4777692251827
153343.8	631.244724397123	2007.16946657427	2104.09105545061	-72.541899962616
130781.2	764.84927667487	2285.23723432772	2409.83477300579	-71.4950487751324
111531.3	931.03374441746	2593.58575512434	2755.63257754511	-70.2531054584069
95109.37	1135.61878339427	2933.95490578182	3146.06443201011	-68.8405353102913
81109.37	1387.85725676899	3297.8401622983	3577.9739380317	-67.1767804647904
69171.88	1687.22966441891	3692.21797783127	4059.46025184576	-65.4410621202211
59000	2039.96331135397	4104.67138809513	4583.64238525619	-63.5732770038742
50312.5	3028.26934156442	4700.06548622868	5591.15647964686	-57.2061689139239
42906.25	3700.27043020673	4965.54441689663	6192.62727869485	-53.3069160983169
36593.75	4222.30007318434	5285.3515941414	6764.81776411645	-51.3797496360826
31203.13	4825.20447071788	5615.75228876997	7404.00377856879	-49.3299472873785
26609.38	5492.91597157602	5915.74362185632	8072.67913832382	-47.1225242492339
22703.13	6205.38826087277	6186.34755819713	8762.2907723374	-44.9119614023719
19359.37	6972.06898588637	6401.31377410075	9465.01790692709	-42.556188131912
16500	7747.06319003817	6578.41486234287	10163.2932739117	-40.3362345067879
14112.02	8528.20068956184	6699.12599057168	10844.7450887052	-38.1505666761244
12011.13	9344.05680325131	6752.05994176346	11528.3004384668	-35.8520548077099
10236.38	10122.8015102328	6783.00089359433	12185.245649476	-33.8249129398032
8750.684	10868.6124006685	6771.23423527682	12805.3250089543	-31.9232430994522
7449.463	11614.091443876	6735.75252309601	13426.0002278827	-30.1121808048232
6363.206	12317.4583418955	6693.70868947983	14018.755865766	-28.5210999260567
5414.761	12994.3899853156	6654.24528700946	14599.0804994753	-27.1163506518447
4620.567	13635.1423394726	6614.79639944353	15154.95424024	-25.8793462313131
3941.215	14314.6815896188	7768.5548351202	16286.8214590337	-28.4886132190727
3361.769	13887.1381386514	6310.9784157903	15253.8865292278	-24.439314216077
2867.244	15415.3640697094	6663.56004317991	16793.9418199168	-23.3772567287107
2442.658	15973.6137829155	6737.78696037663	17336.4964860023	-22.8703724265143
2083.003	16545.244212317	6854.25156461604	17908.8210264174	-22.5029174037631
1777.843	17079.2874483152	7023.65778056426	18467.1012441222	-22.3543437179077
1513.548	17647.5740291611	7236.34165941712	19073.5814604006	-22.2959535890059
1292.065	18246.4368617953	7504.91433001751	19729.5767124484	-22.3577814646785
1101.762	18806.3791921404	7796.51253572928	20358.4259224125	-22.5173043739988
939.101	19433.4921418429	8178.76095378833	21084.4195453962	-22.8242321352724
801.2801	20077.6712844152	8622.26339141581	21850.7736749978	-23.2408813143136
684.3433	20731.8697736516	9077.53381662755	22632.1020787656	-23.6464036529734
582.9476	21397.9678298056	9665.23153969318	23479.5597906195	-24.3081813655054
497.0677	22096.8424235267	10279.4536881558	24370.8352999464	-24.9478543663012
423.5089	22819.897197843	11036.3740790842	25348.5554013164	-25.8097776958283
361.5036	23546.4138447474	11813.2038772933	26343.6024642532	-26.6428583299486
308.1262	24515.0873195647	12553.5516014778	27542.3521888899	-27.1158292602511
262.7298	25369.7767266517	13659.3475763192	28813.2495107868	-28.2984771747586
224.2111	26214.1460033481	14846.9120891107	30126.6036795824	-29.5259246592673
191.2854	27094.2204925062	16259.531870624	31598.5626373792	-30.9684203930226
163.1722	27990.5137316556	17870.1843856744	33208.6185942746	-32.5556739137176
139.1537	29032.0111023237	19720.3531682431	35096.2960684697	-34.1867930832078
118.6706	30063.1485935795	21801.2506760703	37136.066490684	-35.9489419708665
101.1982	31183.7537188443	24221.0624875249	39485.2676833034	-37.8372217875453
86.24196	32400.4824471369	27049.7247216577	42207.5688748438	-39.8570068773625
73.61024	33954.9277151124	30189.9853085341	45435.3642999372	-41.6409167020803
62.69291	34933.1482999641	33809.5882396056	48614.9473627089	-44.0636171725894
53.57697	36406.176361479	37944.4907827145	52585.1125131687	-46.1852798879589
45.65746	37400.4783018295	42834.6607658543	56864.7864687052	-48.874623457166
38.96512	38944.2143774709	47422.9863895698	61364.4153527411	-50.6068295704511
33.18414	42383.8833672257	53292.6641273807	68091.8616214919	-51.5046200579534
28.30617	45778.7514990005	61275.521569809	76487.800546619	-53.2367058501016
24.17237	46783.8706061226	70672.4102437245	84754.4696080845	-56.4961538846198
20.61345	50138.3663381666	80381.9011057733	94737.0350203051	-58.0460677458061
17.55618	53043.9799847404	90803.5813975057	105161.562403927	-59.7081610137011
14.98558	56718.393358466	104101.910723212	118550.343573476	-61.4168930461198
12.76553	60809.2051651108	118609.791619978	133289.31727992	-62.856564097945
10.8809	66937.4582130453	135414.221615033	151055.071836825	-63.6960618593707
9.278505	72637.8968396071	154384.484127671	170618.970213305	-64.8030163195635
7.923394	77773.407936735	175120.384393892	191613.809555465	-66.0533248200979
6.75822	87399.5368453665	198446.62242222	216840.358308991	-66.2304260745729
5.761429	94667.6189276224	227915.684605803	246794.48406064	-67.4438360931009
4.919708	104361.014548058	256810.833385481	277205.745794789	-67.8844979333361
4.191257	118475.492705847	293489.847866399	316500.763304823	-68.0171376629088
3.564097	128692.063895964	336758.039755526	360510.22821799	-69.0856466550483
3.051758	147417.42034412	378155.074589674	405873.325384703	-68.7025097774443
2.604164	159015.962206646	431998.331705105	460335.350405006	-69.7916452502085
2.214424	186826.674899143	498429.350897109	532293.17512963	-69.4524542354911
1.892567	212542.604693054	554442.693238044	593785.364331897	-69.0259444527957
1.607507	233479.90345667	629804.578873377	671689.416983778	-69.6593492953128
1.376413	256807.781590892	721328.330610946	765679.304426866	-70.4032204007311
1.17375	300170.258836752	824840.671992875	877760.968865545	-70.0028947892732
1.001604	355223.549344699	923367.659243512	989338.973328095	-68.9580489540727
