EC-Lab ASCII FILE
freq/Hz	Re(Z)/Ohm	-Im(Z)/Ohm	|Z|/Ohm	Phase(Z)/deg
6999984	35.350893011435	95.0506944690507	101.411637181118	-69.5990168394855
5969734	31.0421206903791	85.3317358573051	90.8026343306016	-70.0095410996967
5091109	30.9224139913013	89.2944336111959	94.4970452500696	-70.8991726681964
4341796	33.7620212328517	95.8123736423966	101.586834878924	-70.5887441347945
3702781	40.8549470504516	103.096175731734	110.896114219588	-68.3825701446433
3157797	46.7308802607745	112.139833219838	121.487107811981	-67.3775448762043
2693047	54.588943459125	123.844840789454	135.34214915594	-66.2128362702623
2296687	66.752405308234	137.546038969287	152.888182834957	-64.1122584017537
1958656	81.6232551384212	150.428719745294	171.146590686464	-61.5155563784413
1670375	99.7425041059802	164.020156116884	191.966608393071	-58.695744589705
1424531	120.674623414578	175.950259345363	213.35617755282	-55.5559129540763
1214875	144.755949040869	185.380323529369	235.202357842298	-52.0151712900386
1036062	171.646605543374	193.679417717528	258.793883316363	-48.4513279677013
883578.1	200.175415345391	198.033800290499	281.580508853502	-44.6918596653724
753531.2	229.649468671237	198.390973958094	303.476287391655	-40.8232772805389
642624.9	258.721721391089	194.75565890957	323.831276742795	-36.9710127337106
548046.8	286.193621221848	187.132167276059	341.943324042902	-33.1792926370939
467390.6	311.367245683647	177.074645929344	358.196861956694	-29.6269027410812
398593.7	333.717934160779	164.693369045523	372.144549050639	-26.2668318585821
339937.5	353.697926437949	150.676172726223	384.454850657301	-23.0741219480408
289906.2	365.401573771886	140.205939267182	391.377075875381	-20.9919933205354
247234.4	376.966653529829	128.65676725559	398.31698637409	-18.8445073973394
210843.7	386.899164204815	109.341317280618	402.052840963778	-15.7807874752159
179812.5	400.328406876144	98.5746501420305	412.286059675336	-13.8330059915127
153343.8	405.789209081195	88.2266965858666	415.26958978138	-12.2663445739747
130781.2	411.360081671746	79.3825029788569	418.949517928083	-10.9224319584497
111531.3	415.093491101164	71.4396151849589	421.196183473126	-9.76521764046809
95109.37	419.116007370318	65.170593587559	424.152606855824	-8.83844694768808
81109.37	421.569411751535	59.7266362227073	425.779332517461	-8.06381946782711
69171.88	424.549101944918	55.2204367833498	428.125258073826	-7.41076790251495
59000	427.143365938943	51.3120485219679	430.21434354188	-6.85002556757631
50312.5	427.460627567295	47.8823492265747	430.134057577032	-6.39139004130794
42906.25	430.935651669622	47.5546087757451	433.551584815159	-6.29722442767819
36593.75	432.870640913164	46.7936857260244	435.392513473072	-6.16976423657339
31203.13	434.876778834124	48.5862194653748	437.582487642137	-6.37488312723023
26609.38	436.800553983362	47.9923028505666	439.429158219016	-6.27007195776694
22703.13	439.077721571898	49.2943527126686	441.836144730295	-6.4056566904067
19359.37	441.203964022589	52.0855745856067	444.267762671521	-6.7327926731146
16500	443.727582942315	55.1092874935988	447.136669746378	-7.07966705186475
14112.02	446.356024086669	56.3253879191243	449.895820788212	-7.19210428958122
12011.13	449.35781535455	61.6371427629705	453.5654126895	-7.81036012799509
10236.38	452.183751245695	68.0853267758584	457.280829045789	-8.56270527920342
8750.684	455.738311820339	75.2138532482947	461.903163640723	-9.37146958449828
7449.463	459.109458994669	83.3621883718675	466.61627681482	-10.2912845696454
6363.206	463.537160832866	92.8108136194737	472.737291312736	-11.3222189895802
5414.761	467.986307743557	103.317514490039	479.255352641832	-12.4495134515001
4620.567	473.092183269096	116.864989658028	487.312671370334	-13.8756340514705
3941.215	478.522796167123	129.623303049555	495.76836037113	-15.1566760081358
3361.769	484.42319175234	145.457496985359	505.790185884196	-16.7134080670842
2867.244	491.126463722764	163.902045347014	517.753883459856	-18.4552341417496
2442.658	498.551340742298	184.695559279669	531.663322953138	-20.3278779401993
2083.003	506.506841878507	208.600891094936	547.780533275271	-22.3839312584483
1777.843	515.474589737452	235.418952399197	566.688746856447	-24.5463370026295
1513.548	526.019595757396	266.648087072253	589.74385750092	-26.881208772723
1292.065	536.146719252177	301.865500795214	615.285368861651	-29.3807199652473
1101.762	548.716195048682	341.922234170304	646.529409175418	-31.928325235095
939.101	563.407255016978	388.155776738834	684.17296206551	-34.5646472899407
801.2801	578.211927642804	441.077615796814	727.240329207208	-37.3374879986322
684.3433	593.94693349393	502.172278817945	777.785290051214	-40.213965313307
582.9476	615.813402080638	570.545888004693	839.493154529084	-42.8148441989459
497.0677	638.551191313947	650.717395852165	911.691150112297	-45.5406565318131
423.5089	664.189497909686	741.327265409645	995.34607226495	-48.1413635301134
361.5036	695.029166494307	844.399519571932	1093.652637235	-50.5420452325557
308.1262	728.743795430016	963.204244162091	1207.8203241168	-52.8894762375185
262.7298	768.935724789092	1099.09744448117	1341.371440475	-55.0231137708062
224.2111	814.400301248927	1251.886015924	1493.47462232889	-56.9544399066331
191.2854	866.404009539571	1428.1665605283	1670.4237882518	-58.7567072991069
163.1722	930.507596419108	1629.03787773337	1876.06204430549	-60.2649613990093
139.1537	1001.69990079425	1854.2942784572	2107.5601918736	-61.6218400494381
118.6706	1083.27023708441	2118.9691050425	2379.81185699155	-62.9227407232826
101.1982	1181.93654410328	2409.19003417222	2683.49969536826	-63.8676627190124
86.24196	1295.17008753963	2744.29188610255	3034.56809312062	-64.7350062292814
73.61024	1425.63355818333	3117.55676975683	3428.05940072151	-65.4257641470911
62.69291	1575.32715211696	3547.75487826748	3881.7805595458	-66.0571063415458
53.57697	1745.0354761449	4024.93621562252	4386.94202752145	-66.5605643561273
45.65746	1947.65393320812	4569.11908603055	4966.91101851741	-66.9131625832508
38.96512	2174.94328650488	5179.35996489682	5617.48590968314	-67.2212419896926
33.18414	2437.92237512914	5872.13697162083	6358.10177023233	-67.4533471925001
28.30617	2745.38634111529	6643.46001943961	7188.37305597553	-67.5473122709015
24.17237	3072.48780713575	7511.97029047267	8116.02605774168	-67.7548375842979
20.61345	3458.26492415009	8504.97649667269	9181.18845763236	-67.8725231154178
17.55618	3894.08776814068	9617.51783142801	10375.9611016917	-67.9572062775381
14.98558	4385.61878588853	10861.1694613408	11713.1829236592	-68.0116945638551
12.76553	4951.04716963221	12278.4844369777	13239.1105496188	-68.0392538338009
10.8809	5592.90159984308	13872.668641991	14957.6563523838	-68.0426915805717
9.278505	6294.66143277051	15656.823468821	16874.8002562114	-68.0979247120223
7.923394	7080.10622322916	17658.0585179716	19024.5876369586	-68.151381674308
6.75822	7981.6724536751	19939.2061545459	21477.4076003422	-68.1837537897329
5.761429	9010.60543277915	22501.9770187487	24239.0177197328	-68.1770501835298
4.919708	10165.9641980237	25375.0945926597	27335.7321771693	-68.1675963799102
4.191257	11341.8086504589	28635.4955692719	30799.8089273524	-68.3927114976171
3.564097	12816.6902835665	32447.8193247975	34887.3691865634	-68.4462830514618
3.051758	14328.5885985174	36496.9287095669	39208.8543119634	-68.5651717939515
2.604164	16113.5655072674	41290.8204474938	44323.5698763555	-68.6819978883786
2.214424	18135.7284035906	46784.0992565077	50176.2552206875	-68.8113144627397
1.892567	20342.8308443933	52846.6408505969	56626.8330030523	-68.946246023493
1.607507	22897.1705655132	60076.2908696404	64291.8435305743	-69.1364107156969
1.376413	25689.7291150931	67779.3620866411	72484.5094270415	-69.2422933162371
1.17375	28988.4836612419	76810.2863642725	82098.4304133741	-69.3233095484686
1.001604	32657.5078783889	87000.2353659454	92927.680346369	-69.4252387402223
