EC-Lab ASCII FILE
freq/Hz	Re(Z)/Ohm	-Im(Z)/Ohm	|Z|/Ohm	Phase(Z)/deg
6999984	22.0304803021596	93.8009030124876	96.353263921374	-76.7828189706153
5969734	19.9954811859052	92.8147106313229	94.9441403006636	-77.8423325253712
5091109	17.6453339276024	98.1448075367149	99.718408811189	-79.8077496500085
4341796	17.0225905409088	107.583846954765	108.922232415194	-81.0088410759412
3702781	20.4137433538422	118.923022933471	120.662364892088	-80.2598133503667
3157797	20.4118546539981	131.992810089623	133.561767455253	-81.2092044168985
2693047	21.6757866346225	149.875579139859	151.434900035421	-81.7706457603472
2296687	24.4615499841219	172.273876365525	174.001884776085	-81.9184688714909
1958656	28.5427024417639	197.677281014119	199.727297312645	-81.7838237896352
1670375	33.7074219585983	227.724640928709	230.205782684112	-81.5803091808047
1424531	40.7795218491322	262.92341117175	266.067077152422	-81.1836504992356
1214875	49.0130672484721	303.998585209219	307.924374758332	-80.8411363293064
1036062	60.4540905126023	350.683749521522	355.856416603915	-80.2189614595739
883578.1	74.7760370460758	405.870069299667	412.700822472687	-79.5610913192047
753531.2	93.6902194284163	469.066299053398	478.331527420258	-78.7045194154841
642624.9	176.939143860366	608.858107012285	634.047044867037	-73.7957035057007
548046.8	223.329537496997	689.269516084265	724.547133126383	-72.0472082023
467390.6	277.692597832318	776.702038049575	824.851037946383	-70.3266159435221
398593.7	337.092711607306	873.009061234955	935.829213701466	-68.887059483256
339937.5	433.478269632026	1002.90511182058	1092.57588915325	-66.6249075165204
289906.2	454.116781127373	1103.99224476461	1193.74240412322	-67.6406470957284
247234.4	691.40146944707	1191.13670616066	1377.25910587544	-59.8667557313934
210843.7	806.559334160833	1286.06388570302	1518.05740261411	-57.9059795648967
179812.5	935.623087573686	1436.37439454128	1714.22342863897	-56.9206525854543
153343.8	1125.6945360305	1541.67897111008	1908.91650902075	-53.8640373399904
130781.2	1337.94052888872	1632.57594409548	2110.77925707125	-50.6644462063295
111531.3	1570.6677303996	1696.50574419442	2311.95347258618	-47.205706261931
95109.37	1818.49603837156	1736.75681792289	2514.60774002124	-43.6829382839266
81109.37	2067.84585829353	1743.38989654533	2704.6986569742	-40.134060619198
69171.88	2315.36483473692	1718.90624275099	2883.67005555501	-36.5898640196557
59000	2540.03651656109	1670.49106746834	3040.11939106926	-33.3314874162145
50312.5	2759.7011108776	1605.88614153778	3192.93290267148	-30.1953742766761
42906.25	2969.90519375805	1488.88754621446	3322.21657710384	-26.6257498101859
36593.75	3121.67208195056	1397.75247268016	3420.31410284392	-24.1208127073417
31203.13	3245.96426192592	1315.03919073507	3502.22958454603	-22.054371664267
26609.38	3374.1853502651	1211.46269973083	3585.07582218043	-19.7500958404334
22703.13	3475.09120463974	1125.76148987355	3652.88896801515	-17.9498166115088
19359.37	3560.0844058362	1053.93234763593	3712.81219159702	-16.4909342848128
16500	3643.70608201147	913.902822790521	3756.56923024079	-14.0802831167353
14112.02	3617.9324400366	1100.35078443541	3781.56144859194	-16.9165101463021
12011.13	3804.05573943967	541.337654655607	3842.38032020673	-8.09911939758512
10236.38	3683.05864745962	1156.49120959268	3860.36176005465	-17.4324414520836
8750.684	3940.34964106474	964.375033315992	4056.64572013902	-13.7524366663614
7449.463	3908.66241901773	855.563829899839	4001.20374048541	-12.3466961751639
6363.206	3990.52380537675	790.394325840856	4068.04663586837	-11.2034448386496
5414.761	4035.86270902798	816.513349277902	4117.63061185334	-11.4373835064015
4620.567	4082.61825719358	855.511965221489	4171.29147346568	-11.8350735120018
3941.215	4132.28526609298	903.454617634655	4229.89500655684	-12.3326988162288
3361.769	4183.54689388231	963.933886728261	4293.16120723359	-12.9751105552854
2867.244	4242.00169657729	1032.36609072752	4365.81700705018	-13.6780380966637
2442.658	4300.39576965317	1112.17245681328	4441.88376135002	-14.5001809664749
2083.003	4366.59353440986	1207.29630313894	4530.41978831134	-15.4553073405359
1777.843	4436.56711771307	1315.84759350455	4627.58929457926	-16.5199030309346
1513.548	4511.60925408164	1445.23183524487	4737.43740002128	-17.7621442857137
1292.065	4594.00670981532	1585.72480880892	4859.9815657161	-19.0432664564703
1101.762	4680.25438112706	1752.31051125154	4997.53671321198	-20.5261499852043
939.101	4772.14927110503	1940.93342781062	5151.76001351974	-22.1326090511921
801.2801	4879.11319464285	2157.92102445408	5335.01346895384	-23.8587188935371
684.3433	4985.95174561744	2382.82911793699	5526.08264640641	-25.5435356675869
582.9476	5114.55954261894	2671.36022406771	5770.17198718769	-27.5782921445909
497.0677	5249.5373085898	2984.62288409757	6038.67665259162	-29.6203824813726
423.5089	5396.23509243169	3356.09075659348	6354.73825891228	-31.8787987632839
361.5036	5558.55450479667	3752.23331594076	6706.47321921524	-34.0208301282702
308.1262	5738.49721208315	4220.83148291467	7123.60643636702	-36.3355624318649
262.7298	5938.6074978778	4757.88438599825	7609.50214168945	-38.700955663705
224.2111	6163.11621462649	5356.28294735194	8165.40069360256	-40.9934743935825
191.2854	6417.23374503827	6044.33754754913	8815.60578333504	-43.2860103121938
163.1722	6692.94029980236	6841.03136286854	9570.53603328829	-45.62691532787
139.1537	7046.4860062962	7722.05679641202	10453.8570013149	-47.6191067702738
118.6706	7397.92763764725	8744.25912962058	11453.8814843623	-49.7676927724364
101.1982	7828.88168082972	9901.22602655722	12622.4270725327	-51.6666410632605
86.24196	8336.70437884725	11222.0379172007	13979.7988152684	-53.3918284435553
73.61024	8910.50426841393	12696.961119723	15511.6055904339	-54.9394963101848
62.69291	9589.55401624925	14360.1984348402	17267.7400176905	-56.2655154537678
53.57697	10365.9185468777	16224.4232378899	19253.1601749605	-57.4251533832229
45.65746	11307.5559374056	18336.4550330728	21542.6647482956	-58.339078362236
38.96512	12345.4096837955	20693.244897291	24096.0479049991	-59.1800658139291
33.18414	13563.3875096072	23374.2955126248	27024.4920664067	-59.8747198447457
28.30617	14963.9268310669	26356.3774603306	30308.0474302939	-60.4141023130818
24.17237	16513.3359710469	29610.5719526447	33903.9265610256	-60.8523004347979
20.61345	18379.3927716729	33268.4820038145	38007.814637171	-61.0812543697322
17.55618	20504.0709206181	37397.1142059787	42649.2798913739	-61.2649446388511
14.98558	22868.3136489153	41859.2394171757	47698.5921566832	-61.3515758574749
12.76553	25654.7685788051	46941.8451929841	53494.8967748713	-61.3424085327528
10.8809	28666.4375021155	52548.5594937987	59859.1325023675	-61.3865262829779
9.278505	32319.8039130715	58827.1924647376	67120.8484620291	-61.2154983811313
7.923394	36210.9921537758	65341.6381453553	74704.5221407604	-61.0056812365544
6.75822	40688.1916447344	72789.5825356235	83389.7611522481	-60.7955203173004
5.761429	46029.591918763	81119.095434409	93268.5958739843	-60.4280251875035
4.919708	51779.443057661	90011.1979640473	103841.833970151	-60.0900946799353
4.191257	58337.6847924276	99536.0357677265	115372.041168104	-59.6255977954228
3.564097	65595.4073218108	110940.949300186	128882.317225214	-59.4056965936516
3.051758	73440.1083585765	122224.517050765	142591.311390323	-58.9999278831399
2.604164	82361.6784463219	135542.287930958	158603.77641801	-58.7152251547394
2.214424	92192.1066570979	150061.064305661	176118.447501736	-58.4349342013614
1.892567	103354.397206648	165349.371474729	194993.707767808	-57.9918659383868
1.607507	115395.425993994	182859.624548876	216226.146963061	-57.7456086780395
1.376413	128740.712762193	200920.912672239	238628.129673689	-57.3501532078402
1.17375	143574.75507711	221835.77565021	264243.867769495	-57.0885750560512
1.001604	159270.652028439	244274.633467328	291611.448940472	-56.8950585607458
