EC-Lab ASCII FILE
freq/Hz	Re(Z)/Ohm	-Im(Z)/Ohm	|Z|/Ohm	Phase(Z)/deg
6999984	3.36116587318615	3.27662267010592	4.69400598096373	-44.2702830492931
5969734	4.51470538267186	4.87801299758461	6.64662135952776	-47.2150798514593
5091109	9.22182644624288	6.89397094630634	11.5138576686157	-36.7807277203697
4341796	16.6307567163393	9.04722395939046	18.9323619849567	-28.5464361197573
3702781	1.48713140184384	-1.16126186152269	1.88681978932201	37.9853428367425
3157797	3.63510258246597	-2.07967537445097	4.18796137137732	29.7742674859888
2693047	4.76417929511335	-6.61615001809721	8.15296543706365	54.2429687073781
2296687	7.86369159006652	-19.1337603837517	20.6866728075471	67.6580650127003
1958656	12.8067906506184	-17.4397525998235	21.6369789368067	53.7084964873462
1670375	-7.52967617642255	-20.2275245345402	21.5835301125004	110.417733375975
1424531	5.9314430750911	-18.3680330739311	19.3019858034885	72.1035872493409
1214875	11.2983780131651	-5.01824457871167	12.3626908228	23.9486961856844
1036062	0.250824202683617	-0.347536336267646	0.428595713555573	54.1812325049527
883578.1	1.58861203280662	2.08219330694223	2.61901072129402	-52.6581330685785
753531.2	0.349350682470679	1.48756471646233	1.52803621848646	-76.7837357030875
642624.9	-0.166590713022253	0.939738832570917	0.95439066377821	-100.052583087381
548046.8	-0.283846422143249	0.554002071248041	0.622484607288119	-117.128616143004
467390.6	-0.31783772741627	0.201105905005993	0.37611754279403	-147.677178793333
398593.7	0.225267238524665	-0.173582001267598	0.284387130363862	37.6164210420357
339937.5	0.113842598663327	-0.425775793213843	0.440732530405116	75.0305994415462
289906.2	0.343116061008803	-0.264104762022379	0.432989557200972	37.5863522169473
247234.4	0.165103970159538	0.0129400996801431	0.165610286945508	-4.48142205321006
210843.7	-0.0025981281907373	-0.0946061421767432	0.0946418110966905	91.5730941983428
179812.5	-0.00560287103640627	-0.0671902522995308	0.0674234541381944	94.7667609484021
153343.8	-0.00194233230154491	-0.0523233511837699	0.0523593901212547	92.1259411748646
130781.2	-0.0010595448100408	-0.0434908232618737	0.0435037279230185	91.3955918734113
111531.3	-0.000416837680804921	-0.0361518668119453	0.0361542698396852	90.6606016138175
95109.37	0.00113981119447883	-0.0323342280449337	0.0323543115028096	87.9811071891087
81109.37	0.00118289386363934	-0.0289513120637884	0.0289754673492507	87.6603081196149
69171.88	0.00124692294193579	-0.0258872114955157	0.0259172246939499	87.242335408067
59000	0.0010285008684766	-0.0235219459558542	0.0235444209014914	87.4963275986485
50312.5	0.000229257819208452	-0.0191464634283676	0.0191478359341594	89.3139789079215
42906.25	-0.00056331300654633	-0.0158865334149456	0.0158965174012275	92.0307728850933
36593.75	-0.000831853092657989	-0.0132458489540739	0.0132719438697542	93.5935152713127
31203.13	-0.000846746812340106	-0.0109620102503313	0.0109946645648049	94.4169702144747
26609.38	-0.000659319780588572	-0.00901143320153898	0.00903552051178428	94.1845785327696
22703.13	-0.000410178639241832	-0.00750445668897037	0.0075156581024367	93.128560020564
19359.37	-0.000233302570602748	-0.00636463539735554	0.00636890994054093	92.099298637391
16500	-0.000407302951540989	-0.00568590261801091	0.00570047228533192	94.0973170605712
14112.02	-0.00014449492147908	-0.00461868320890089	0.00462094290881377	91.7919067803033
12011.13	-0.000106316702796871	-0.00394977251036485	0.00395120312372415	91.5418679985082
10236.38	-4.58034100336179E-05	-0.00333685152989922	0.00333716587615322	90.7864231456282
8750.684	1.48722848125163E-06	-0.00279908402057686	0.00279908441567904	89.9695572171102
7449.463	1.82602801182473E-05	-0.00232422923679125	0.00232430096652418	89.5498656321769
6363.206	5.19381335429059E-05	-0.00194863221929127	0.00194932426645131	88.4732206393466
5414.761	8.98866478108015E-05	-0.00163672983657656	0.00163919619551614	86.8565629246054
4620.567	0.000113577579646912	-0.0013699644744765	0.00137466451468208	85.2607035778275
3941.215	0.000146571972765896	-0.00118205073376125	0.0011911033877821	82.9315155490617
3361.769	0.000163115361272872	-0.000975169992613318	0.000988717925182222	80.5041225542105
2867.244	0.000176232549026996	-0.000831611966234767	0.000850080216051054	78.0350755276532
2442.658	0.000158809897442201	-0.000705393940796133	0.000723049925826357	77.3121746775367
2083.003	0.000183342892601913	-0.000590443866192525	0.000618254458448957	72.7495398675714
1777.843	0.00016389060425499	-0.000474036705011976	0.00050156846777053	70.9279924452915
1513.548	0.00018393204968375	-0.000428604633999123	0.000466404257255857	66.7738192474749
1292.065	0.000195962000355802	-0.000347217321014659	0.000398699101574162	60.5605503255173
1101.762	0.00015487467130325	-0.00026986469082071	0.000311148059873506	60.1485936708182
939.101	0.000219488425362441	-0.000254030400805267	0.000335718056412473	49.1721890880672
801.2801	0.000177525067813568	-0.000190419452507693	0.00026033577855443	47.007073253515
684.3433	0.000218022371866024	-0.000187444135670322	0.000287522275017573	40.6872055337732
582.9476	0.000219874929457425	-0.000141519578906452	0.000261481884301317	32.7668203203792
497.0677	0.000249296218894827	-0.000141166993127562	0.000286490357087171	29.5212321349252
423.5089	0.000220198593216162	-0.000127884184614553	0.000254640501744922	30.1466270274664
361.5036	0.000218228605583619	-9.26588369165629E-05	0.000237085183749852	23.005848297173
308.1262	0.000214432620892173	-5.96610499354241E-05	0.000222577603954404	15.5480291005219
262.7298	0.000246192410114215	-7.98807023035864E-05	0.000258827412378133	17.9764075827808
224.2111	0.000226562940812056	-5.42851198913605E-05	0.000232975621881403	13.4742140906239
191.2854	0.000220410496347095	-4.31430886444989E-05	0.0002245932167225	11.0750335376049
163.1722	0.000247939656462477	-2.71482437969339E-05	0.000249421531524423	6.24872927989832
139.1537	0.000232722406948721	-3.92362638301243E-05	0.000236006786121402	9.56989059853004
118.6706	0.000231605506529883	-4.13836613788483E-05	0.000235273708867104	10.1307933616513
101.1982	0.000253663192627801	-4.07471217540758E-05	0.000256915050601109	9.12573371574462
86.24196	0.000236430975843225	-2.03319951525307E-05	0.000237303595347947	4.91508578693544
73.61024	0.000239280620417555	-8.95072536799578E-06	0.000239447970949898	2.14225367261085
62.69291	0.000221689356648023	-5.07916920767591E-07	0.00022168993849657	0.131271277174895
53.57697	0.000228588227956305	-4.20953241044855E-07	0.000228588615556057	0.105512068734065
45.65746	0.000237324244297589	-1.04051755344952E-05	0.000237552235538471	2.51045182162239
38.96512	0.000230171579876494	-7.66431969437064E-06	0.00023029914888948	1.90714674391466
33.18414	0.000248477941320614	-1.92969239495474E-06	0.000248485434252532	0.444953007641748
28.30617	0.000237252134154659	3.38484010099561E-06	0.000237276278425488	-0.817374715040091
24.17237	0.000252761772217791	1.0615776647904E-05	0.000252984600733951	-2.40495997829849
20.61345	0.00023476380638534	4.00141297553326E-06	0.000234797904791193	-0.976478792212174
17.55618	0.000237642087758885	-4.9479050050856E-06	0.000237693591916865	1.19277322466304
14.98558	0.0002604644320117	-1.67118717378839E-05	0.00026100001341027	3.67116920356344
12.76553	0.000260839267374803	-2.51170602405623E-05	0.00026204577867188	5.50023841577783
10.8809	0.000234282985228757	-5.73262856880341E-06	0.000234353110066851	1.40168051226128
9.278505	0.000248483736084878	-1.24733043768912E-05	0.000248796604520195	2.87370248007297
7.923394	0.000251578892311806	4.46367588599678E-07	0.000251579288298659	-0.10165778164622
6.75822	0.000209932421636769	9.33598919415994E-06	0.000210139911365051	-2.54634590861395
5.761429	0.000224951045977409	1.22667638474038E-05	0.000225285256023598	-3.12129415912505
4.919708	0.000254620394125566	3.05095254152437E-05	0.000256441759948964	-6.83280818583263
4.191257	0.00024915661092734	9.59078416439837E-06	0.000249341131604247	-2.20439782098633
3.564097	0.000229760674294992	4.27605483602394E-06	0.000229800461482239	-1.06620340997187
3.051758	0.000233942812000004	9.84950712863432E-06	0.000234150063158536	-2.41085456809479
2.604164	0.000228261745735708	-5.34166733106567E-06	0.000228324238696177	1.34056253129688
2.214424	0.000237813470290441	-1.42137967991438E-05	0.000238237861539743	3.42042396480695
1.892567	0.000225685410718036	1.27023782902391E-05	0.000226042595599141	-3.22141165833062
1.607507	0.000227793434911377	2.74394491547069E-05	0.000229440128047902	-6.86861804802831
1.376413	0.000214926148296564	-3.12805611636857E-06	0.000214948910108108	0.833829489958453
1.17375	0.000234856853306616	-6.06925545568639E-06	0.000234935262161455	1.4803287099255
1.001604	0.000229183145243225	1.73306257714002E-06	0.000229189697782151	-0.433257334761302
