EC-Lab ASCII FILE
freq/Hz	Re(Z)/Ohm	-Im(Z)/Ohm	|Z|/Ohm	Phase(Z)/deg
6999984	14.293150041497	-2.62066827986598	14.5314156344742	10.3898562287197
5969734	11.1927011268001	-2.30811550459005	11.4282087702492	11.6519791189898
5091109	9.02827198456278	-1.64755776031261	9.17737117048273	10.3420314415601
4341796	7.88739155877372	-1.30061168605649	7.99390620155889	9.36367162890655
3702781	7.16810589229806	-0.97719435207657	7.23440743149904	7.76301089580548
3157797	6.83301500670804	-0.682208534746392	6.86698642541093	5.70151906216509
2693047	6.61324273925002	-0.533101437573746	6.63469491920965	4.60871608655427
2296687	6.44971679025518	-0.389917689186386	6.46149227956205	3.45960625658477
1958656	6.33255820328677	-0.292975786120731	6.33933184249473	2.64890019732221
1670375	6.25729456404191	-0.220229122700951	6.26116891064872	2.01572625679652
1424531	6.20489151076367	-0.168542770099807	6.20718014284264	1.55593622057096
1214875	6.15685568046205	-0.12295212491617	6.15808323222894	1.14404201827157
1036062	6.13410944884367	-0.0947178086111635	6.13484068201134	0.88464339793522
883578.1	6.11606596968282	-0.0757415018192817	6.11653494395397	0.709515983064508
753531.2	6.10500116334493	-0.0615080141386828	6.10531100274557	0.57723664394486
642624.9	6.10467369563397	-0.047675827482164	6.10485986036464	0.447455228924644
548046.8	6.10563397968196	-0.037654398361401	6.10575008885583	0.353347541327981
467390.6	6.09982249916241	-0.0282857689500867	6.09988808143339	0.265687004025248
398593.7	6.08768853249413	-0.0182870513061576	6.08771599903494	0.172112568248513
339937.5	6.06649546311757	-0.00759787095199966	6.06650022102275	0.0717590104313492
289906.2	6.04848538947521	0.00294600818858207	6.04848610692455	-0.0279067917668512
247234.4	6.00918741178384	0.0162095579540938	6.00920927408178	-0.154552844222241
210843.7	5.97014121107847	0.0285055035879566	5.97020926299508	-0.273566835285902
179812.5	5.93692852369519	0.0402404231258174	5.93706489665717	-0.388344089933469
153343.8	5.90109142975886	0.0522004040079954	5.90132230475103	-0.506818927711912
130781.2	5.90148878309534	0.0641819879644524	5.90183778026635	-0.623099050656107
111531.3	5.89550095346331	0.0761478125335698	5.89599270535848	-0.740005932132395
95109.37	5.92226628026595	0.089441429678896	5.92294163939829	-0.865247630654452
81109.37	5.94044341873378	0.103893738675146	5.94135185964553	-1.00195650648826
69171.88	5.94642068873361	0.118317390220574	5.94759766731305	-1.13987776101656
59000	5.97474203394946	0.135026997317862	5.9762676196977	-1.29464340176391
50312.5	6.05482115700157	0.15499421351617	6.05680464019579	-1.46636458254257
42906.25	6.17988827435138	0.179490422924453	6.18249431017832	-1.6636471294354
36593.75	6.35584819206571	0.210002853705268	6.35931658585648	-1.89241485308626
31203.13	6.37220442971621	0.231507680427675	6.37640847971583	-2.08068993048184
26609.38	6.42362746171514	0.254294005519345	6.42865889654631	-2.26700090855571
22703.13	6.48863074295385	0.277162385148997	6.49454755207377	-2.44590698008531
19359.37	6.57857861917835	0.301704094021946	6.585493300358	-2.62583578127922
16500	6.7077202466832	0.328389302239556	6.71575389971886	-2.80278692081183
14112.02	6.83673125487253	0.3510460129937	6.84573791161988	-2.93938808058015
12011.13	6.97050098195308	0.369284323595773	6.98027613000105	-3.03258997919849
10236.38	7.0814247250957	0.381727471183723	7.09170585962595	-3.08556909468306
8750.684	7.21629878339767	0.389580739318666	7.22680712927326	-3.09018312380725
7449.463	7.28978807185037	0.386191452089337	7.30001054589367	-3.03252638088323
6363.206	7.33103404906423	0.373697794374586	7.34055244992224	-2.91811358468915
5414.761	7.45815993987596	0.363827397739029	7.46702886455624	-2.79281516334537
4620.567	7.59350191981371	0.350476426704615	7.60158569851647	-2.64259880749136
3941.215	7.60599749984342	0.322711614668669	7.61284051808958	-2.42952096010236
3361.769	7.68788520090024	0.300064785436528	7.69373886596627	-2.23516909233163
2867.244	7.82183355129365	0.28011728764664	7.82684775621587	-2.05101300852524
2442.658	7.9254719785214	0.257763376032894	7.92966254265286	-1.86279751874036
2083.003	8.04855910911641	0.236622291665516	8.0520366269568	-1.68397280721767
1777.843	8.20982475239041	0.218023310028248	8.21271919821188	-1.52121154043926
1513.548	8.36045874367098	0.198663987470776	8.36281877027969	-1.36122510826268
1292.065	8.5837905172636	0.184903267100486	8.58578178516371	-1.23401644562994
1101.762	8.7969446312999	0.170207805709864	8.79859111126779	-1.10844988003804
939.101	9.09041949600873	0.159301906946584	9.09181520440074	-1.00395727510885
801.2801	9.43921344761011	0.150070555896747	9.44040633030648	-0.910847622695529
684.3433	10.0565959247228	0.148417669678681	10.0576910569884	-0.845523558557073
582.9476	10.5925016632749	0.144117758351547	10.5934820250356	-0.779497621119582
497.0677	11.3973162469053	0.145446426028454	11.3982442636933	-0.731138264337155
423.5089	12.3736528760418	0.149852633047477	12.3745602470718	-0.693853608776812
361.5036	13.532724178057	0.155636301876128	13.5336191145543	-0.658914642429735
308.1262	14.6963407476631	0.158820425012716	14.6971988929463	-0.619159965814583
262.7298	16.487666472865	0.176529472944991	16.4886114750532	-0.613428668989889
224.2111	17.6704516504957	0.178022039947393	17.6713483746773	-0.577210287886284
191.2854	17.9458231135636	0.160357878112508	17.9465395514674	-0.511962312543022
163.1722	18.8093039943612	0.15526693898701	18.8099448317808	-0.472954142639146
139.1537	21.4563869986664	0.176762487219075	21.4571150906507	-0.472004694276835
118.6706	23.4118800962123	0.181688077813907	23.4125850814694	-0.444635417135907
101.1982	24.855610394013	0.179498258743646	24.8562585214239	-0.413762273894637
86.24196	26.4692973477402	0.179514271081729	26.4699060719265	-0.388572929276844
73.61024	28.1641968675445	0.179588731507417	28.1647694346374	-0.365341037670336
62.69291	30.4851421575067	0.18756180742157	30.4857191451177	-0.352511538609105
53.57697	33.7767899570665	0.203136536721523	33.7774007918955	-0.34457762013259
45.65746	38.1853506303557	0.229755130055153	38.1860418239832	-0.34473535541359
38.96512	41.3500069850819	0.23745510795019	41.3506887801716	-0.329021128445434
33.18414	47.0565826293122	0.26977843796418	47.0573559515925	-0.32847681854006
28.30617	53.2142181209375	0.297626872811009	53.2150504272817	-0.32045168518256
24.17237	53.8299546578603	0.282859528653868	53.8306978217842	-0.301068580269064
20.61345	54.3053117275852	0.251685525599639	54.3058949602527	-0.265543363506008
17.55618	51.5436771377751	0.199715842033956	51.5440640549497	-0.222002352597514
14.98558	51.126278820989	0.181172657992453	51.1265998244897	-0.203034241015031
12.76553	51.2188637719384	0.157157893856835	51.2191048798394	-0.175803505068966
10.8809	49.8569184639642	0.131228398994195	49.8570911668047	-0.150807877481707
9.278505	48.5869585093907	0.105365066000932	48.5870727559336	-0.124250710719598
7.923394	48.3988730445605	0.0994021808126354	48.3989751211432	-0.117674587625984
6.75822	47.8274364266564	0.0856506125732995	47.8275131192632	-0.102606657050736
5.761429	47.6162771571499	0.0758127482832828	47.6163375101374	-0.0912239910137696
4.919708	47.4671171616996	0.0613406504430867	47.4671567962303	-0.074041960766048
4.191257	48.5416624598949	0.0544027997298102	48.5416929457038	-0.0642139011146099
3.564097	53.0160762701939	0.0795399198585176	53.0161359369566	-0.0859606861161389
3.051758	66.2983474863461	0.0118550662039417	66.2983485462714	-0.0102452817882744
2.604164	79.9336732080374	0.342224524085817	79.9344057972172	-0.245302139702745
2.214424	159.036559435587	1.54923128354803	159.044105061077	-0.558120766547013
1.892567	289.303260109546	0.673186178407509	289.304043334417	-0.133322580673022
1.607507	337.813486383033	-1.4433358207083	337.816569754284	0.244799426533297
1.376413	378.667791561928	2.03351898070474	378.673251716876	-0.307686414690163
1.17375	466.864807635302	3.68933307508868	466.879384624002	-0.452762365093602
1.001604	515.607824252942	4.56546876154482	515.628036413717	-0.507314364317362
