EC-Lab ASCII FILE
freq/Hz	Re(Z)/Ohm	-Im(Z)/Ohm	|Z|/Ohm	Phase(Z)/deg
6999984	14.6776438196176	100.441422770586	101.508189996055	-81.6861344855654
5969734	18.5022663017722	94.9243207896556	96.7107053830088	-78.9704291282043
5091109	15.5017756439976	101.139718191168	102.32080748267	-81.2860380572255
4341796	14.9928998195888	111.445491314967	112.449475674343	-82.3379312733062
3702781	18.3747769605899	122.799529481332	124.166649585096	-81.4898391449536
3157797	17.4823668735027	136.622665676958	137.736654265223	-82.7080047131812
2693047	17.4672208221322	155.734670876459	156.711172276415	-83.600443774877
2296687	19.248027930793	179.013390248907	180.045217841608	-83.8629730366059
1958656	21.6505149940342	205.781907492174	206.917708885984	-83.9939511885728
1670375	24.342641028087	237.803222885633	239.045888872861	-84.1552961036817
1424531	27.1100798492042	276.495993849267	277.821869269005	-84.400120969541
1214875	37.5996901721449	320.111608909425	322.312238147456	-83.3008441438031
1036062	30.7123931741673	369.378459735218	370.653069069779	-85.2470098865239
883578.1	36.3914602479722	429.018610803499	430.559295329626	-85.1514978220756
753531.2	66.2546079496824	496.694225480376	501.09363067207	-82.4021025463608
642624.9	128.28844600876	662.607452015781	674.912261591229	-79.0424499230522
548046.8	150.209812294845	760.83312789427	775.519204282545	-78.8318306375621
467390.6	188.920660688005	830.045848351701	851.273825746268	-77.177758778799
398593.7	184.844404968975	977.227014420821	994.555223083246	-79.2889363665175
339937.5	275.371764537927	1166.56904439981	1198.62961087094	-76.7183039228836
289906.2	354.037898746978	1248.54432191612	1297.76953174983	-74.1687563261104
247234.4	415.669547559735	1514.37958848572	1570.39062363181	-74.6513586769491
210843.7	444.821905222121	1724.81081635674	1781.24643988042	-75.5387557100477
179812.5	550.929647520454	1872.8295062673	1952.18181429457	-73.6077160531183
153343.8	688.972861828074	2134.08317501098	2242.5419956381	-72.1077125454658
130781.2	890.075059145043	2439.82317996091	2597.10815338649	-69.9574592361194
111531.3	1104.22855354654	2892.47406271615	3096.08250890592	-69.1051845158623
95109.37	1397.25250467555	3155.98762521539	3451.45946699867	-66.1195587412151
81109.37	1630.14728826461	3500.970158725	3861.88713373648	-65.0320275502772
69171.88	2090.68956022792	3916.96710927028	4440.00159598521	-61.9088346090191
59000	3093.13332210578	4558.89057003524	5509.17026219715	-55.8437440320382
50312.5	3671.27813806311	4927.0600800056	6144.44498705985	-53.309265225277
42906.25	4703.44819358056	4919.42003612503	6806.10890314904	-46.2857079302894
36593.75	5161.47792935584	5099.1248801749	7255.47579134864	-44.6518213746487
31203.13	5871.51004043023	5201.46484554803	7844.09757042485	-41.5371540453821
26609.38	6656.96283230615	5449.231295864	8602.86439893883	-39.3029395007372
22703.13	7341.91041589727	5377.12237129487	9100.38974719988	-36.2185759092551
19359.37	7942.17551818107	5188.42515283539	9486.72269691539	-33.1555836435314
16500	8648.0543341552	5044.09973330129	10011.582586484	-30.2534779266804
14112.02	9200.01268295522	4862.33144864346	10405.8877796661	-27.8570590302339
12011.13	9737.36195000392	4626.44237078115	10780.5466816643	-25.4134570593584
10236.38	10196.4487653621	4390.85772405237	11101.6755031628	-23.2979765585984
8750.684	10580.4881189173	4182.24677064549	11377.0785742705	-21.5678560116875
7449.463	10931.8559044073	4002.93977318733	11641.6923315508	-20.1113170823737
6363.206	10709.3341236987	4217.83245362232	11509.9933961687	-21.4968207042472
5414.761	10256.9258403498	3106.31202787177	10716.9819496412	-16.8489469631003
4620.567	7280.77517481668	3753.59091709113	8191.40597938449	-27.273289521509
3941.215	8019.87718796842	2613.093319657	8434.84954266123	-18.0470131718748
3361.769	12239.9234075842	3563.25560346695	12748.0396735798	-16.2312010571241
2867.244	12463.84825921	3612.69164176349	12976.8661211819	-16.1644228261016
2442.658	12683.7054903156	3718.66760142561	13217.5971225845	-16.3403265987847
2083.003	12920.7627378713	3848.84373543948	13481.8288013235	-16.5877698817679
1777.843	13148.5798822248	4035.04614707272	13753.7903985866	-17.0602423387887
1513.548	13389.2995422116	4263.28433279931	14051.6524129143	-17.6619855335469
1292.065	13655.8678287597	4531.92318132179	14388.2262241722	-18.3592694406431
1101.762	13975.8877712627	4850.05087170569	14793.5267077551	-19.1383029659486
939.101	14286.2804894046	5272.18859722673	15228.0590630149	-20.256006114378
801.2801	14634.5916014943	5671.17206569381	15695.0139834673	-21.1822611451424
684.3433	14954.5828574433	6176.65239941353	16179.9438597085	-22.4419661535171
582.9476	15419.0424355014	6696.1953079166	16810.2915272032	-23.4743845341412
497.0677	15855.1826722811	7364.37986889217	17482.0167150345	-24.9138206732705
423.5089	16289.4597190651	8013.49055664846	18153.8571339685	-26.1945704214602
361.5036	16939.4546216449	8820.99972158422	19098.564316905	-27.5076579076072
308.1262	17476.3094524149	9705.8774163013	19990.634019381	-29.0466282749066
262.7298	18181.6669745506	10646.5915533557	21069.4785335909	-30.3518490505264
224.2111	18899.8523116448	11749.774528234	22254.4741314263	-31.8686402215762
191.2854	19679.1926497458	12984.8657470782	23577.0515929251	-33.417912370032
163.1722	20666.6733866906	14213.5476181606	25082.5900729144	-34.5183293817823
139.1537	21691.8890709524	15718.7382763875	26788.3703212434	-35.9284644592685
118.6706	22779.7392982611	17394.419888742	28661.5136683777	-37.365052998156
101.1982	23990.1405111888	19236.5976944028	30750.1793913935	-38.7245328769747
86.24196	25317.4431958506	21281.3500596652	33073.6872806334	-40.0497556092225
73.61024	26850.1988580714	23476.1568185678	35665.9938553234	-41.1644449996495
62.69291	28521.6169459454	26030.1567666334	38614.1385312006	-42.3850341793506
53.57697	30413.0031289518	28676.8996489431	41800.9011003015	-43.3170932725796
45.65746	32558.6248149077	31634.6741520775	45396.2185489722	-44.1753840496856
38.96512	34920.1961714516	34888.2543774187	49362.0339345548	-44.9737835484665
33.18414	37468.2725321374	38540.45715374	53751.6351766325	-45.8081647967817
28.30617	40370.3924984396	42387.1490120221	58535.792399569	-46.3959908466962
24.17237	43561.0377673419	46653.2731776378	63828.6135644123	-46.9631331202064
20.61345	47143.8574430652	51261.3919238378	69643.9056671965	-47.3960084640057
17.55618	51113.1967646068	56445.9129740341	76149.1954978491	-47.8383662593144
14.98558	55425.8885175943	62015.5525048017	83174.2620673042	-48.2115107529713
12.76553	60430.0938738246	68035.9748128423	90998.2973155705	-48.3882625031912
10.8809	65615.0570711299	74865.6812105746	99550.0172655485	-48.7674746198986
9.278505	71454.9753628211	81980.2036956839	108750.02207856	-48.9241843064448
7.923394	78023.119209376	89204.9805854994	118512.175291908	-48.8254407600319
6.75822	85089.6119962778	98224.5053193138	129954.974952485	-49.0983749353205
5.761429	92805.8655529046	107024.852391596	141658.913275751	-49.0700307131953
4.919708	101526.769555302	117163.333060695	155032.033948558	-49.0897461909258
4.191257	110501.480014944	127930.789426603	169046.928303377	-49.1808636690854
3.564097	121482.539960747	140206.314552563	185515.007898894	-49.0925250362322
3.051758	131926.221218975	152816.280514783	201884.480422569	-49.195972566143
2.604164	143953.489146992	166767.948878157	220304.688580658	-49.1993587467123
2.214424	157611.365771286	182844.785722098	241399.167948131	-49.238812620485
1.892567	172161.214041729	198812.584659681	262994.158565137	-49.1091637306028
1.607507	188318.213777144	217473.576940166	287677.78208851	-49.1095304235917
1.376413	204523.787149291	237782.848920897	313640.977473968	-49.300239425701
1.17375	224020.22240489	260161.590414041	343320.714745119	-49.2688814455734
1.001604	244917.035866183	284582.360719992	375461.681787157	-49.2840820158783
