EC-Lab ASCII FILE
freq/Hz	Re(Z)/Ohm	-Im(Z)/Ohm	|Z|/Ohm	Phase(Z)/deg
6999984	27.7148947363704	85.2550123237645	89.6467094575887	-71.9915740003928
5969734	23.0179814111668	86.3757365610913	89.3901299625181	-75.0782122343216
5091109	21.0776618701393	86.0260419740195	88.5705804860039	-76.2328940788487
4341796	20.3040569958922	91.5176100013243	93.7428806408622	-77.490994805397
3702781	23.221793799994	99.4521325542943	102.12726558998	-76.8570743008643
3157797	22.9994678359004	107.850841205807	110.275924251556	-77.9618515214355
2693047	22.1793249044203	120.636980268268	122.65889067435	-79.5824053491835
2296687	21.665820969078	138.216660426325	139.904442451518	-81.091232406881
1958656	23.5979943118327	157.665608640192	159.421797391145	-81.487661905332
1670375	24.3662051873423	181.910828338498	183.535450041757	-82.3708763465262
1424531	26.9148166470667	210.513402188483	212.227000770673	-82.7140780658096
1214875	28.9161670406194	242.919875655312	244.63485177855	-83.2116919108807
1036062	28.5630048671584	278.355986482303	279.817619991267	-84.1412013419214
883578.1	31.5309961594672	321.710847709874	323.252336809828	-84.4022982091625
753531.2	42.9692626297462	378.580526297597	381.011249732485	-83.5245841628016
642624.9	39.1702518215258	424.574113899136	426.377164985414	-84.7289414481666
548046.8	36.280144170991	520.707228766004	521.969603473458	-86.0143722615426
467390.6	147.2172636928	726.62498326028	741.38841980921	-78.5466695429255
398593.7	165.668751330465	796.714446989228	813.756748180159	-78.2533151518185
339937.5	222.124565773314	933.224913723103	959.295607366924	-76.6116764772097
289906.2	228.922922329599	1025.77634418888	1051.01037704936	-77.4194323767852
247234.4	228.919480050474	1202.94097964449	1224.52894161577	-79.225452642817
210843.7	290.570000223317	1352.25715189675	1383.12339647831	-77.8728138800722
179812.5	267.494778635204	1564.8204425172	1587.51896804946	-80.2994620297897
153343.8	337.281494138699	1789.11960435909	1820.63389098151	-79.3240013835795
130781.2	330.630386687455	2107.55535382171	2133.33214057813	-81.0841850260009
111531.3	359.035594216893	2438.10405627754	2464.39809023455	-81.6228226492034
95109.37	396.890546467899	2814.93359801812	2842.77562729225	-81.9745041438547
81109.37	395.377157457533	3252.0427262056	3275.9891620251	-83.0681086874209
69171.88	469.9381357984	3672.77447495894	3702.71713683177	-82.7085203751968
59000	574.153177971891	4323.14947111346	4361.1091732911	-82.4348757322423
50312.5	1346.79979430138	5828.51105271849	5982.09083662157	-76.9889691853034
42906.25	1883.26224478852	6795.64547160067	7051.77098737137	-74.5104683551264
36593.75	1965.6524467347	7508.06899413176	7761.11393821768	-75.3289385654708
31203.13	2093.60653730103	8638.90385201995	8888.97339952566	-76.3772221474422
26609.38	2162.55088676088	9881.32579805243	10115.1977669785	-77.6553191010405
22703.13	2333.66073496021	11388.4732863835	11625.1148906394	-78.4195875039655
19359.37	2511.57358346686	13069.4117938316	13308.550879112	-79.1219764650164
16500	2719.85888151299	15199.0210073998	15440.4621666168	-79.8543311187526
14112.02	2872.58179634783	17413.6294630166	17648.9721301822	-80.6327515792174
12011.13	3001.14837402596	20578.7513930764	20796.4396102064	-81.7026356700651
10236.38	3588.54692909124	23644.5153019505	23915.2832499735	-81.3700336699917
8750.684	3316.115921535	27411.2692876549	27611.1265392304	-83.1020850846722
7449.463	3593.87262370543	32714.9738935254	32911.7826513464	-83.7309635606078
6363.206	4957.28016583206	36753.6926405296	37086.5009047372	-82.3183934124922
5414.761	13723.9286016794	49870.644612458	51724.5339304868	-74.61360075825
4620.567	14989.6835661111	56791.481881868	58736.3858928236	-75.2144043022242
3941.215	16844.434498107	63660.6671360745	65851.4655400401	-75.1793392851622
3361.769	19934.8306441611	75699.2624263664	78280.1111694872	-75.246547234531
2867.244	23215.2497698943	84399.5745698972	87534.1990850331	-74.6203616602325
2442.658	23718.4989491417	94289.6513920972	97227.0824001402	-75.8802385559457
2083.003	28179.1521407846	110639.392254218	114171.536443004	-75.7109295274845
1777.843	26515.6707322867	130747.940570485	133409.537731776	-78.5358979363771
1513.548	30028.5596063343	151563.469352108	154509.545446483	-78.7933851695089
1292.065	35971.525813934	168763.129796563	172554.178877575	-77.9675810993868
1101.762	38537.2943924453	203243.032851064	206864.33588608	-79.2634970404137
939.101	46437.1886449959	226632.618975581	231341.212223378	-78.4203323490992
801.2801	53604.8273890781	262536.058522227	267952.718858755	-78.4599237327427
684.3433	147257.90408746	378994.074497991	406597.342368123	-68.7663945716014
582.9476	172821.267466196	425159.083154698	458941.648227273	-67.8789402427233
497.0677	200046.448325879	476751.907286092	517021.239978326	-67.2369410332792
423.5089	219957.047348282	540332.757878716	583387.171537902	-67.8498912825101
361.5036	251107.873243809	602327.689010055	652574.753536499	-67.3689505092773
308.1262	298090.940057066	678571.714980508	741159.753977301	-66.2845132904332
262.7298	343067.209581616	769929.588399827	842903.720114963	-65.9830801944149
224.2111	391402.183587237	861014.32942092	945801.958543655	-65.554278580539
191.2854	461674.131091188	966150.594506478	1070789.41654465	-64.459241642485
163.1722	543158.057383818	1093519.16000109	1220985.18770313	-63.5861112584851
139.1537	650743.298393178	1216289.04057598	1379429.54536608	-61.8521690830807
118.6706	771713.960933467	1336747.9596553	1543514.67279784	-60.0018591794852
101.1982	899122.698570742	1500183.74440472	1748991.96512199	-59.0639845646356
86.24196	1108378.10158639	1598083.76974586	1944832.5766506	-55.2561013286182
73.61024	1016622.19711783	1601658.25912771	1897058.21489608	-57.5954364399357
62.69291	1378918.83312062	121290.798935429	1384242.97225637	-5.02684464262248
53.57697	1624680.7123596	1724461.52914124	2369251.98799145	-46.7065053237673
45.65746	1556925.82481125	2274656.56529772	2756461.59306024	-55.6096735839934
38.96512	2126533.21793291	1913636.64471166	2860795.12285578	-41.9835913001921
33.18414	2297750.66523588	2259366.6919998	3222482.88878468	-44.5174169350669
28.30617	2379910.09618598	1921956.25923293	3059066.51257089	-38.9234810121779
24.17237	2897595.59952978	2567414.88472383	3871392.44312893	-41.5425513078122
20.61345	3042650.20808388	2802202.62481399	4136430.80919617	-42.6442746633355
17.55618	3210567.7085515	2857064.15572967	4297739.01035752	-41.6656856675638
14.98558	3068476.20237964	2759327.87662839	4126673.78590902	-41.9634690224272
12.76553	3255284.23006344	2818225.9648032	4305725.60751271	-40.8840108068227
10.8809	3365537.60122661	3183872.20894679	4632913.29383293	-43.4111557538062
9.278505	3494959.66694938	3396679.17678983	4873620.06147797	-44.1829700108931
7.923394	3718260.17365598	3793893.10961487	5312163.74429285	-45.5768388165756
6.75822	3728145.42177153	4283755.4056369	5678875.6511478	-48.9670014424749
5.761429	3791243.97086668	3799559.21784841	5367511.62984951	-45.0627638940504
4.919708	4282492.18426323	4998183.17167649	6581912.66471272	-49.4097087420387
4.191257	4592365.64878869	5342014.77099079	7044639.38506849	-49.3153655114924
3.564097	4997469.24997085	6836454.22827367	8468282.3122334	-53.8330804303194
3.051758	5873260.77852085	6597112.26503531	8832727.91440961	-48.322045770808
2.604164	5444333.1638197	8436147.9276952	10040386.2204909	-57.1635122060764
2.214424	5688798.61281792	9587268.41952909	11148010.8272866	-59.3163724733907
1.892567	7717894.78870885	11612953.905554	13943693.8571564	-56.3922422588949
1.607507	6628629.7514371	13013876.1964795	14604783.6697067	-63.0079395474186
1.376413	10453389.9860054	11183797.616877	15308516.9541267	-46.9334023402171
1.17375	8088470.88624803	15148840.871036	17172965.411182	-61.9007559041078
1.001604	9950340.19176847	17634239.6223481	20247856.108495	-60.5655923541144
