EC-Lab ASCII FILE
freq/Hz	Re(Z)/Ohm	-Im(Z)/Ohm	|Z|/Ohm	Phase(Z)/deg
6999984	24.9240174175693	103.571922086187	106.528633187789	-76.4693537608992
5969734	19.6788747183726	94.9258710201042	96.944206114171	-78.2880363942035
5091109	16.3112131802668	100.103262353458	101.42346281417	-80.7453377859606
4341796	15.3432875213346	110.004761121172	111.069635550354	-82.0597029679907
3702781	16.449849835501	122.211501907283	123.313619515625	-82.3339778645198
3157797	16.1461070310952	137.283811060542	138.230031294094	-83.2921924810966
2693047	15.8163341666164	156.507086167992	157.304241669655	-84.2293795465921
2296687	16.0361017968665	180.544441329325	181.255211940947	-84.9242627605267
1958656	17.726236902498	208.109559018792	208.863132289353	-85.131444299246
1670375	19.2861356877514	240.996836609257	241.767306072255	-85.4245695072349
1424531	21.6987058210577	279.671338618133	280.511838393262	-85.5635117725542
1214875	24.5581633521497	324.343507458112	325.271908128355	-85.670024626669
1036062	27.5983802141711	377.142825663218	378.151268065681	-85.8146964699395
883578.1	31.5712351748079	438.677043135292	439.811654079773	-85.8835659969143
753531.2	36.3498158295961	510.745417276487	512.037293934512	-85.9291161416272
642624.9	83.024800925394	672.384285285153	677.490770909189	-82.9608509881724
548046.8	102.965924085082	771.927450763505	778.764387196114	-82.4022744336994
467390.6	125.751486725989	888.07874394835	896.937730205768	-81.9405277466035
398593.7	150.484785848273	1020.53798814836	1031.57329164035	-81.6118218595369
339937.5	177.968201799122	1173.73507501212	1187.15066742403	-81.3781696706826
289906.2	207.039696537278	1349.8984581892	1365.68344917987	-81.2802511834947
247234.4	244.039643468045	1553.99158639347	1573.0369347748	-81.0751322928379
210843.7	318.597577151293	1788.18154248624	1816.34183045349	-79.897704023844
179812.5	322.76049570681	2074.23949128076	2099.2007538055	-81.1554609757152
153343.8	377.574531632535	2400.52224178094	2430.03488868422	-81.0612667141957
130781.2	444.901035654427	2780.86204993011	2816.22631765771	-80.9104642225172
111531.3	533.588219869141	3222.1977379884	3266.07940060873	-80.5972854916987
95109.37	638.306702470609	3736.17389579527	3790.307484366	-80.3049051288435
81109.37	788.891702249857	4323.52885457155	4394.91204396532	-79.6592962852901
69171.88	958.027208503188	5010.21016522001	5100.982457518	-79.174860469507
59000	1842.68017870694	6199.19728101086	6467.26504558858	-73.4456835886553
50312.5	2123.68260228306	7061.32460296818	7373.75975630637	-73.2614203617413
42906.25	2848.87955546207	8149.12856728473	8632.75223365445	-70.7307230764279
36593.75	3351.63733322162	9102.32541842075	9699.78354584645	-69.7854000102416
31203.13	4027.04919162263	10279.8164809455	11040.459776371	-68.6075706707911
26609.38	4863.50788721417	11578.3428470166	12558.3331717253	-67.2150540455052
22703.13	5890.32217606713	13005.569050653	14277.2799114247	-65.6338624182826
19359.37	7186.42457207653	14502.3882191266	16185.300806238	-63.6400265870069
16500	8742.32994724415	16053.1960179836	18279.3171452953	-61.4279511315658
14112.02	10540.7099641599	17567.2993743974	20486.9854751314	-59.035451266438
12011.13	12691.7783104113	19032.1939496758	22875.8746984395	-56.302327992105
10236.38	15110.993561462	20367.8417884239	25361.2126195262	-53.428113860721
8750.684	17675.7842149206	21474.082176921	27813.1183608309	-50.5414608156047
7449.463	20507.4606791275	22178.0477118665	30206.3196006364	-47.2412468339629
6363.206	23239.5643841979	22939.4490588446	32654.1831300464	-44.6276425556942
5414.761	26134.1818501094	23357.7253113491	35051.0883239741	-41.7891179653688
4620.567	28980.8639931612	23494.240652286	37307.771598122	-39.0310309199019
3941.215	35097.6325065901	21961.7252535952	41402.4296833175	-32.0355485568758
3361.769	37202.9039433866	21784.2533843038	43111.5965528116	-30.3512130673738
2867.244	38999.419743774	21727.4547416912	44643.4433024975	-29.1231639771801
2442.658	40639.4191037096	22084.4176154106	46252.3933056314	-28.5206988556001
2083.003	42129.7247768426	22076.0590404932	47563.2851318308	-27.6546273116362
1777.843	43755.2231255531	22646.2073999773	49268.3494788461	-27.3645387799615
1513.548	45262.9213608223	23483.8257606677	50992.3731794607	-27.4217027791817
1292.065	46943.3989549	24409.3632814687	52910.2988202262	-27.4732747103214
1101.762	48453.8931454564	25813.1730918534	54900.8166243572	-28.0458715420413
939.101	50237.1488025204	27309.0176925732	57180.010205839	-28.528594214017
801.2801	51968.9048946841	29203.6486221748	59612.2484796553	-29.333576997864
684.3433	53941.3422592772	31453.2445593213	62441.77286113	-30.2464993007357
582.9476	55928.8364392041	34020.2238953032	65463.0459062959	-31.3111866643816
497.0677	58252.5314505116	36990.2896468235	69004.6299066138	-32.4154997891388
423.5089	60720.9201281781	40351.1257088649	72905.7164232353	-33.6053956197547
361.5036	63412.6718814216	44094.7411250088	77236.7344598564	-34.8132708659818
308.1262	66505.7401004841	48302.7862558888	82195.9404496062	-35.9907163237095
262.7298	69688.243890894	53198.5390299744	87672.8914289955	-37.3573524453894
224.2111	73472.2496032489	58527.2938393171	93934.1023585996	-38.5404931036007
191.2854	77539.9637327428	64489.2575632457	100852.914269909	-39.7499783612321
163.1722	82286.888574252	71063.6222047133	108725.206056763	-40.8141557924404
139.1537	87379.5210398153	78020.6446823171	117142.655313049	-41.7614727517538
118.6706	92920.8371717517	86247.6752392051	126779.112888782	-42.8669948174587
101.1982	99279.4080030105	94835.5419377865	137295.960858511	-43.6885589998968
86.24196	106446.135155174	104625.185423642	149255.516194226	-44.5057114073124
73.61024	114037.763753077	115035.16195906	161980.554538962	-45.2494679211717
62.69291	123157.801120966	126941.856710985	176867.405030389	-45.8668299454252
53.57697	132556.731410858	139636.644448725	192534.878697939	-46.4899616546756
45.65746	145160.92568007	151679.562274722	209948.526920639	-46.2580168800507
38.96512	157345.156877888	167175.670697882	229576.138277073	-46.7350959177444
33.18414	170165.186221283	183869.571894317	250527.862862244	-47.216764347377
28.30617	185290.898304537	201870.174450652	274015.11696846	-47.4520609251034
24.17237	200596.187159221	221595.536164864	298903.683401544	-47.8474820178349
20.61345	217460.837527421	243419.010641173	326407.767370287	-48.223668917384
17.55618	236517.518579783	267537.169601055	357094.768532503	-48.5215554046505
14.98558	258598.987650619	292435.73960108	390374.305263495	-48.5138834997737
12.76553	282195.735088203	320019.378344975	426669.468579924	-48.5938855967078
10.8809	308085.953731471	350127.906714209	466375.927709293	-48.6546764187712
9.278505	335821.621869786	381418.49254167	508189.165732617	-48.6375507102747
7.923394	364980.757938968	414616.932373488	552375.012357099	-48.64304537553
6.75822	399934.471549397	454784.535872487	605620.801824251	-48.6718193160015
5.761429	435319.786825416	497580.78813101	661127.792124036	-48.8182100326574
4.919708	476062.58993976	541653.964424991	721127.316579715	-48.6875871145235
4.191257	513908.736311309	596271.087100567	787173.0423288	-49.2429035391422
3.564097	564655.056024919	645543.132952124	857648.686115794	-48.8238880444071
3.051758	609833.201805985	713695.138045935	938753.047449299	-49.4870064781798
2.604164	674158.477597221	772110.372466743	1025009.307366	-48.8745718909644
2.214424	724193.682260406	839827.404060168	1108948.40188186	-49.2283905181915
1.892567	805420.909935194	910068.388990761	1215288.98406966	-48.4908047597858
1.607507	864601.143529479	1003412.00718476	1324526.62999089	-49.2498019509956
1.376413	952563.334927459	1086727.04252427	1445113.34226823	-48.7640311435498
1.17375	1036130.47346098	1221926.25577282	1602083.06045019	-49.7037736008116
1.001604	1140985.98627873	1315734.3134277	1741552.69929322	-49.0686384257532
