EC-Lab ASCII FILE
freq/Hz	Re(Z)/Ohm	-Im(Z)/Ohm	|Z|/Ohm	Phase(Z)/deg
6999984	149.576616261351	-49.7160582616485	157.622493893705	18.3856999837325
5969734	151.53381109671	-15.5618947099366	152.330786358032	5.86348391760826
5091109	302.311683773805	175.371929706967	349.496305953723	-30.1181510250484
4341796	399.315126492952	-275.728256841869	485.261416009081	34.6251917401522
3702781	297.591783220777	-309.974443323654	429.703415106665	46.1675697625114
3157797	98.5340384059092	-171.016670365699	197.371878107159	60.0509043667484
2693047	123.543034227468	-191.251857258482	227.684330183147	57.1387375110149
2296687	58.6633651786277	-353.008363139725	357.849542211065	80.5647414889353
1958656	119.111579284792	68.563530348638	137.435534028088	-29.9257804453332
1670375	308.945576218932	56.6020949527264	314.087832012457	-10.38205254355
1424531	309.295668380352	128.170202149527	334.800554357216	-22.508813139475
1214875	-993.519857148008	-3704.60211334397	3835.51281118184	105.012621424049
1036062	20.075087908929	-1.3426341769855	20.119935911539	3.82627861898787
883578.1	204.049608409802	-177.237918150969	270.276751354391	40.977649299281
753531.2	349.266978267245	-258.544853404794	434.549034436896	36.5106927115246
642624.9	1480.89984296399	-177.471496352164	1491.49605326606	6.8337535661946
548046.8	97.5998735502759	-24.5524567907326	100.640739521779	14.1204646469078
467390.6	108.276073414944	-5.56549048087954	108.419014745805	2.94246658281339
398593.7	132.3664745894	8.05940068972322	132.611604072584	-3.48426807896059
339937.5	227.040503157631	-48.8662630179015	232.239750549739	12.1465562877467
289906.2	-29.625692103526	96.9429819058714	101.368749491226	-106.993107338699
247234.4	503.035670836744	146.330783100338	523.886995655486	-16.2194726110578
210843.7	191.04442078148	-136.289258163922	234.675803189428	35.5036964682703
179812.5	87.8627056907369	-486.720748756171	494.587648775285	79.7671842381132
153343.8	124.3826062073	-2.04151331130057	124.399358935327	0.940321144634853
130781.2	473.936598911104	139.224368045492	493.962877598197	-16.3707621168621
111531.3	82.8174599968791	-5.33661861003395	82.9892232673835	3.68694674236796
95109.37	122.373708487325	7.51453239269808	122.604211697729	-3.51391692598522
81109.37	149.271317190279	-27.6151988928691	151.804233622167	10.4812200787313
69171.88	557.716116765884	-607.526443237751	824.703368571712	47.4477179050163
59000	346.36136349714	-38.4607453547696	348.490205108899	6.33629441972816
50312.5	124.611965176972	23.4424123963285	126.797825550072	-10.6541502004577
42906.25	109.650574682521	-51.7112259681061	121.232419011301	25.2485712650756
36593.75	36.6324773417396	2.53819593407439	36.7203054833809	-3.96358279797082
31203.13	130.304189661902	93.8018136495676	160.555168360889	-35.7489052158525
26609.38	84.6522728742533	47.4515734061621	97.044624382278	-29.2726773138195
22703.13	47.2993693890502	-1.70218575962529	47.3299881783431	2.06104206177121
19359.37	133.309526130871	43.3383604906474	140.177185188085	-18.0091234728828
16500	93.1009788398328	-87.2345852167503	127.583953218551	43.1368006431858
14112.02	158.820766815914	-28.5559069609293	161.36751777962	10.1928504204419
12011.13	171.366346210914	197.021699882205	261.120613583365	-48.9837719171384
10236.38	-22.1513066591619	46.8003426719413	51.7779147988731	-115.328898412718
8750.684	10.8989856438999	14.7950370533302	18.3760988644312	-53.6222262321333
7449.463	192.554389254867	4.66903390974496	192.610988001633	-1.3890284582292
6363.206	0.0728058290301388	167.62913388627	167.629149697031	-89.975114907723
5414.761	186.644752480982	72.1261087828802	200.096074916143	-21.1282885208411
4620.567	164.440292009896	2.28167488678731	164.456120824337	-0.794950865812056
3941.215	248.341137075751	-262.150881693342	361.10442414442	46.549577913259
3361.769	167.55067594362	6.02121806264683	167.658832383271	-2.05813544687651
2867.244	481.702033844357	-157.73858881091	506.871099797421	18.1315989311699
2442.658	228.104971164707	115.98926385539	255.901127781351	-26.9529144407836
2083.003	129.722003084768	44.8695773966845	137.262802900428	-19.0800045102941
1777.843	76.0422628625761	362.59971652639	370.487489891736	-78.1559123266463
1513.548	-142.058991773923	-832.127789114468	844.166698324659	99.6880100423397
1292.065	976.865890717043	638.793958746574	1167.18665609984	-33.1815500908067
1101.762	553.742970657824	-117.784924376261	566.131226804593	12.0082385464242
939.101	2609.1151585593	-1235.28232659142	2886.76364412001	25.3351566470758
801.2801	1377.39166704505	-2181.27080285224	2579.75776378729	57.7291074935398
684.3433	1933.1899867414	-149.356734088489	1938.95099444384	4.41785066696691
582.9476	5499.67544849939	-201.082210672397	5503.35026091161	2.09394760090337
497.0677	7581.23594975745	24806.123333	25938.7527328879	-73.0058238893334
423.5089	65242.1202005852	38221.7971156031	75613.7555145486	-30.3637092768856
361.5036	39219.372964557	163272.059644654	167916.421699429	-76.4929596220586
308.1262	268097.562657815	510698.846267077	576792.523080513	-62.3022274311559
262.7298	139308.371834611	129203.021646635	190000.640172161	-42.8447067592281
224.2111	114731.090609139	11651.2471902525	115321.180680093	-5.79865947266716
191.2854	1261806.9012891	3597470.88177286	3812342.24609287	-70.671765719309
163.1722	2087492.41790339	1066331.84014512	2344075.12424654	-27.0588314187915
139.1537	340261.150393765	-1160140.52121836	1209009.37938466	73.6539537471854
118.6706	-5786.86357731125	-455502.292877432	455539.050583658	90.7278668589659
101.1982	-189143.483384112	-2168458.02796886	2176691.40586563	94.9850005725674
86.24196	-1613862.32306857	-1855881.38840985	2459440.44970931	131.010008420315
73.61024	-1670652.56891253	-2319017.2655822	2858132.44691046	125.769507242931
62.69291	-1168710.82244308	-4275677.01770692	4432527.37681819	105.287755757271
53.57697	3955860.89014485	-5078749.49570581	6437587.4224984	52.0848143100368
45.65746	-3626247.99059743	-3984294.75584195	5387418.60177409	132.306440023358
38.96512	-412279.599170577	-3055283.81510069	3082974.80669377	97.6850641821214
33.18414	-473126.354878338	-3327531.47780908	3360999.00081668	98.0923798786799
28.30617	148520.66424056	-3555456.68353508	3558557.37851741	87.6079970729195
24.17237	-1629017.6036679	-3194909.11287554	3586243.52109489	117.01608723204
20.61345	4209042.69437555	1836378.84939272	4592202.92251694	-23.5713404522333
17.55618	-1004421.24808354	-5883377.52108959	5968500.07114552	99.6882392254578
14.98558	2314517.90719213	-3618122.32964184	4295090.49205787	57.392895859357
12.76553	-99106.315293782	-7619807.58742175	7620452.06868078	90.7451701843788
10.8809	7228755.93565609	2312041.31496714	7589495.86068786	-17.7363268074651
9.278505	8902751.12133662	-273527.964873231	8906952.06431629	1.75980090661425
7.923394	8865983.57245509	-2678042.26445942	9261618.38326728	16.8073674159077
6.75822	-2877793.20796475	-10668080.1580295	11049417.5414793	105.096617036816
5.761429	3012871.88663704	-3931305.5219516	4953035.44427202	52.5341851087579
4.919708	6917382.28038593	-10838604.1122835	12857897.0565099	57.4532856109638
4.191257	2242616.08093553	-15357307.7044011	15520187.7183921	81.6918640635167
3.564097	-6434112.64856832	-17745970.3891871	18876368.0465383	109.929000376729
3.051758	-4022370.25806907	-24137943.4257732	24470794.3336302	99.4608895723499
2.604164	-13224354.8224053	-15357647.6087164	20266743.7084103	130.731493636102
2.214424	-17084540.7128531	-14251637.6051705	22248386.588655	140.165702099168
1.892567	-21373298.0182854	-17498919.7509093	27622998.7623938	140.691849242436
1.607507	-9523415.19721041	-15910230.9739449	18542677.4405082	120.903548576223
1.376413	12086232.4750196	12494777.8818287	17383799.6351906	-45.9521891977437
1.17375	10948986.3911291	-1503155.62765987	11051686.7415837	7.81710957082173
1.001604	9200985.32914118	-2159137.87509354	9450926.27157438	13.2062932960427
