EC-Lab ASCII FILE
freq/Hz	Re(Z)/Ohm	-Im(Z)/Ohm	|Z|/Ohm	Phase(Z)/deg
6999984	17.2441778691806	86.1976857131906	87.9056465347586	-78.6871014985121
5969734	17.0622047284033	80.7274213371252	82.5108198113173	-78.0658433612517
5091109	14.9149932145653	80.7129258385503	82.0794335994703	-79.5303807813856
4341796	13.0771843422654	85.9138412895882	86.9033996771942	-81.345281893242
3702781	15.2414132756456	93.9354553214274	95.1639135653999	-80.7838405497934
3157797	15.7940266836916	102.324807300908	103.536551362566	-81.2255337140597
2693047	15.0052931377245	113.739525176768	114.725055718381	-82.4845511730802
2296687	14.7863340778385	129.597171920857	130.437964739356	-83.491008836007
1958656	15.7611728990446	148.076239205029	148.91268310073	-83.9243368164644
1670375	16.4673093436717	170.720315633824	171.512677219886	-84.4904191180537
1424531	16.8376228821041	196.215173835125	196.936284080584	-85.0953479581528
1214875	17.6135599001556	226.909648436936	227.592236348541	-85.5613918287122
1036062	20.7359635939863	261.375029364385	262.196274118082	-85.46398900354
883578.1	26.7760077805818	305.580024758934	306.750886101959	-84.9923301465883
753531.2	24.8205787658692	352.74990803248	353.622056364129	-85.9751246525762
642624.9	22.6746920245522	407.902728233139	408.532467936694	-86.8182893438907
548046.8	19.0164364370371	488.076193443544	488.446512385035	-87.7687690302332
467390.6	147.821024320182	692.769336350116	708.364601471621	-77.9550333236734
398593.7	155.057291066934	781.179853867301	796.419944251244	-78.7732170551203
339937.5	187.690905643335	845.437924314454	866.021454659379	-77.4830879878242
289906.2	195.51352188871	1006.5708823639	1025.38308863769	-79.0079005680059
247234.4	215.190774577743	1107.47380409971	1128.18672932739	-79.004004454999
210843.7	230.701213710387	1272.00154453221	1292.75325538162	-79.7200871073535
179812.5	279.722435119567	1505.39269673966	1531.16028295745	-79.4737152554472
153343.8	291.348292117046	1734.16684829504	1758.47049592681	-80.4630987760791
130781.2	324.853614640478	1997.41582597777	2023.66001413563	-80.762469224035
111531.3	361.592397255252	2298.17825336231	2326.45058962795	-81.0584592209995
95109.37	384.396737465798	2623.00697886128	2651.02366321565	-81.662757807524
81109.37	411.215059544419	3053.16213021028	3080.7299165208	-82.3292796105997
69171.88	311.370348760007	3552.8468396916	3566.46493889867	-84.9914134141161
59000	527.795974930785	4044.70789472901	4078.99871841563	-82.5654528137526
50312.5	499.749947855238	4815.82549191076	4841.6861917021	-84.0754830828199
42906.25	1901.98917138559	6331.59999899263	6611.10591015691	-73.279926898524
36593.75	1760.47674816613	6965.96004131933	7184.97583002833	-75.8168694238042
31203.13	1895.69392995186	8027.72058241846	8248.51218253579	-76.7133764858454
26609.38	2185.0679124877	9397.63691546327	9648.32116883872	-76.9105885589295
22703.13	2169.58272700532	10605.0132795511	10824.6660857864	-78.4379221534097
19359.37	2314.81503162945	12231.2282403792	12448.3457896585	-79.2832640843457
16500	2592.54487511212	14065.5241816932	14302.456412633	-79.5565076568436
14112.02	2800.113042386	16315.176951608	16553.7195823905	-80.2614176321931
12011.13	3364.72621082137	18994.9488745389	19290.6574595096	-79.9549425075776
10236.38	3554.55821752946	21904.8605165741	22191.3901856638	-80.7828092257621
8750.684	4297.2620913761	25868.9669031186	26223.4610628846	-80.5683511230446
7449.463	4977.83080583915	30322.5586996037	30728.4292735973	-80.6773276956785
6363.206	5427.95851970764	35257.801179518	35673.1730815481	-81.2479936596288
5414.761	16724.0342503429	45068.8465078383	48071.7614317775	-69.6412438289866
4620.567	17453.5442669777	53080.7118992723	55876.5441237457	-71.7985445192132
3941.215	21750.8608097568	58572.3122116186	62480.5225952916	-69.6274928419035
3361.769	23810.3531427922	65904.4946304116	70073.7848933139	-70.1359355893026
2867.244	27180.997250582	75341.3262669074	80094.457081578	-70.1620051689811
2442.658	26802.1745894468	86092.6983489359	90168.2276177371	-72.7077139485268
2083.003	34814.7116453539	97930.0780312632	103934.423220406	-70.4294045719686
1777.843	38706.5789809913	116404.169977181	122670.819857406	-71.6070620240805
1513.548	47891.5501848605	130584.41723002	139089.50572352	-69.859598044711
1292.065	53315.5950892622	150924.405627128	160064.764684873	-70.5437096520972
1101.762	61008.2161627018	154164.284791197	165796.95155381	-68.4095564567939
939.101	77208.2531706629	196828.052169597	211429.412519977	-68.5817875700103
801.2801	95833.7799315494	217151.357449086	237358.011067563	-66.1870531694815
684.3433	119347.697223017	236923.093250824	265285.553598336	-63.2637652029445
582.9476	235909.560341757	294026.931870712	376968.377090102	-51.2585346849447
497.0677	273165.346538917	285247.737236509	394950.095769421	-46.239516072846
423.5089	334327.70896724	292311.32731267	444095.630533085	-41.164038199615
361.5036	336252.719087268	310372.754546674	457599.320211986	-42.7080677842453
308.1262	364172.72648934	327862.844372361	490016.142018418	-41.9965458759401
262.7298	406422.681805132	339245.224763231	529402.227810132	-39.8521023586362
224.2111	456779.891933498	368247.799548172	586731.890685046	-38.8751405630027
191.2854	488969.556726765	360733.741185524	607634.807623192	-36.4177818754662
163.1722	541448.973860335	366862.448973094	654029.852346929	-34.1198716127365
139.1537	579503.004877267	394148.102491316	700839.824324565	-34.2215200551707
118.6706	628311.02412935	378959.574725529	733747.301404664	-31.0958633953935
101.1982	652361.106197175	377857.952819445	753891.003652188	-30.0801066274517
86.24196	649879.269166143	376725.130906758	751175.671030841	-30.1002174460608
73.61024	655496.179710948	387666.746807203	761551.540078364	-30.6004783561454
62.69291	645416.465712774	315738.262904915	718507.525969896	-26.0679181008466
53.57697	741861.626552977	450140.315949803	867747.069712839	-31.2481727660731
45.65746	729483.561433198	449552.878172223	856880.421455755	-31.6439433630597
38.96512	770239.797338539	527250.795183777	933414.563002977	-34.3927370330896
33.18414	800310.831657103	524208.704191548	956709.042926775	-33.225054776191
28.30617	879767.338525164	604341.183947335	1067341.94921333	-34.4864557396392
24.17237	847233.779548953	701290.431971758	1099824.2346775	-39.615963532951
20.61345	837479.656373526	727235.312722247	1109163.36709691	-40.9697997774877
17.55618	903509.839751734	749895.107091875	1174168.94106791	-39.6919950323649
14.98558	952156.644660661	878721.669682222	1295667.414401	-42.7031460767851
12.76553	997441.467453371	1012606.43413862	1421358.95236019	-45.4322643761302
10.8809	1039724.74994872	1103567.5148626	1516208.69787637	-46.7061787378241
9.278505	1082326.14904795	1256324.22840941	1658246.19999609	-49.2550273260872
7.923394	1096053.06354735	1385629.22438739	1766720.31334559	-51.6554855749893
6.75822	1139729.22737572	1609433.84037102	1972120.68552253	-54.6955767176417
5.761429	1281949.29273284	1748121.4997975	2167792.14114096	-53.7463002426689
4.919708	1268666.10797416	2119923.28415153	2470544.15548683	-59.1016278917756
4.191257	1315404.22990375	2418712.08539446	2753262.87159107	-61.4606670216678
3.564097	1420718.39881573	2831012.98917477	3167503.00925032	-63.3506256046863
3.051758	1352455.25689597	3345422.41275643	3608460.38383111	-67.9879741111367
2.604164	1550487.21980694	3731094.48765255	4040430.26107071	-67.4342676979222
2.214424	1773739.93376683	4328882.15341078	4678180.63468668	-67.7188558347637
1.892567	2180021.35463341	4846597.59936958	5314320.40781064	-65.7815709378674
1.607507	2322473.94501535	5785555.25779189	6234303.07782983	-68.1281768836052
1.376413	2708724.18590627	5897202.29842375	6489544.02588102	-65.3295645332887
1.17375	2914989.6833148	7369394.08960816	7924969.02844316	-68.4185518941775
1.001604	3182081.7683771	8135616.14915774	8735782.42100123	-68.6380520254921
