EC-Lab ASCII FILE
freq/Hz	Re(Z)/Ohm	-Im(Z)/Ohm	|Z|/Ohm	Phase(Z)/deg
6999984	1.97809519248084	2.49942567551149	3.18747381133114	-51.6412074667347
5969734	6.64202134435305	7.14452388650369	9.75503301397096	-47.0874363138601
5091109	11.7230794248573	-0.210876860459242	11.7249759168959	1.03053564130938
4341796	3.80182894689062	-8.01096006446601	8.86732115669015	64.6119921906668
3702781	1.65245672440698	-8.51596896136291	8.67481069401139	79.0186721745543
3157797	2.68106297510012	-9.97740467658235	10.3313456411418	74.9591516044934
2693047	4.24840005640227	-10.4127607456007	11.2460877368248	67.8045703209153
2296687	3.33363950110129	-11.1801571123495	11.666578992152	73.3967529929512
1958656	-0.488524474331216	-12.1540740604647	12.1638880473836	92.3017246264107
1670375	-0.302297781952655	-17.7443111166019	17.7468859508291	90.976014880037
1424531	4.24745318027095	-13.380041041666	14.0380325115474	72.3881180904029
1214875	27.3012110536211	-7.86006759245274	28.4101528956162	16.0612044793088
1036062	19.0774300635003	-9.66648750037771	21.3866621617938	26.8712221183538
883578.1	11.2447387235087	-11.5448109450815	16.1160419681028	45.7543755189748
753531.2	4.00185620225755	-15.2252637912838	15.7424112059661	75.2733043635636
642624.9	6.60242510650802	-18.0423017670086	19.212409279912	69.9003353439448
548046.8	17.0587428390359	-6.18230649669351	18.1444652957153	19.9211638493256
467390.6	9.96700403497969	13.5350955571662	16.8089256401152	-53.6327285485181
398593.7	11.5842538870228	-1.30204185281688	11.6571973949783	6.41299055018438
339937.5	-1.97854948484844	-8.3627974836381	8.59366277068968	103.310822180952
289906.2	11.0075712338403	-3.26609335560017	11.4818983742046	16.5263258878181
247234.4	14.2689748112561	-2.784722582219	14.5381677670943	11.0429994672791
210843.7	3.54074934669328	4.65604653644276	5.84941666199541	-52.7483681917337
179812.5	8.77723080255174	0.614697386733396	8.79872908086844	-4.00606475369079
153343.8	9.39815872848642	-0.699260080547783	9.42413667908489	4.25519138667604
130781.2	10.6566126404246	-2.28197346135167	10.898201495952	12.0866019840642
111531.3	18.5584792695067	18.0225773519138	25.8694887309824	-44.1606934118184
95109.37	14.9394883339352	-3.55086363156517	15.3556811704905	13.3701477662943
81109.37	-0.716836272662826	-22.9337362512648	22.9449365369439	91.7903024984769
69171.88	16.750694484107	7.78355727869006	18.4707750138033	-24.9229135134792
59000	27.4127842811634	20.1377927435692	34.0145768550566	-36.3014943613664
50312.5	160.46173970995	-11.9256411973282	160.904290895896	4.25045245275251
42906.25	-34.4070958440077	-224.088430516377	226.714518581655	98.7291651721883
36593.75	250.053887759923	-666.448186086611	711.814674983585	69.4337185155903
31203.13	131.589018122292	-401.425365276555	422.44288794795	71.8506263827906
26609.38	18.0936808456353	-575.193295615674	575.477808962052	88.1982581934633
22703.13	-97.2563890610478	-723.276341723347	729.78590813327	97.6584216446478
19359.37	461.507687591934	-1023.91573235974	1123.11743494624	65.7375677792013
16500	-252.985820729414	-1227.48028143114	1253.27956449964	101.645692236743
14112.02	-362.312631699959	-1427.43949417275	1472.70294106229	104.242050485378
12011.13	-28.621191027759	-1645.8962779299	1646.1451121573	90.9962402902051
10236.38	225.199805649799	-1910.00785659112	1923.23814560353	83.2755767050378
8750.684	-116.259870199604	-1978.27892401708	1981.69217050202	93.3633008292291
7449.463	-513.860331462421	-2563.84690982568	2614.83525623955	101.333372942617
6363.206	-600.809140114534	-2273.73247176101	2351.77188009075	104.801486476544
5414.761	-526.319772091762	-3790.90315005894	3827.26523716629	97.9042778345384
4620.567	-599.094602859571	-4394.47781861725	4435.12678978792	97.7632156253772
3941.215	-1337.32701155907	-5104.25643368868	5276.54027528435	104.681623705802
3361.769	4.03061572940706	-1.3098819343292	4.23811913943268	18.0032850329504
2867.244	-885.388779958337	-6829.98657114544	6887.13509768054	97.3862093961812
2442.658	3.77168816765796	-4.14005777161891	5.60050979700894	47.6657569939533
2083.003	-1784.91539002795	-9192.04254343367	9363.736918018	100.988968011964
1777.843	15.1509881252231	6.68822199705452	16.5615444525121	-23.818485797163
1513.548	7.34993582711785	-0.830523499391846	7.39671048140946	6.44692684038997
1292.065	5.41220074218781	3.44706877087262	6.41671255276902	-32.4933475647632
1101.762	13.2610487105314	6.55541953401815	14.7928678142567	-26.3048647970229
939.101	13.2847587184954	-14.7415634645161	19.8443570716463	47.9755495442026
801.2801	16.8463692045163	19.586514481605	25.8346996288518	-49.3011618877511
684.3433	90.0146766904651	3.70879563598705	90.0910494153469	-2.3593731642867
582.9476	-4064.81799123417	-29674.1175593733	29951.2269903817	97.7999422200451
497.0677	66.2806671336502	2571.80618024409	2572.66013215453	-88.5236982210976
423.5089	-7871.09485041932	-43244.538731547	43955.02547205	100.315685306906
361.5036	-34083.5075234009	-101913.377036139	107461.722971521	108.491793043422
308.1262	3380.33048131015	-104691.336926488	104745.895679107	88.1506454006879
262.7298	24880.3394262683	-150870.985698151	152908.749309835	80.6355590724135
224.2111	-41402.9364796981	-122838.399308593	129628.220283391	108.626495421058
191.2854	189.917207104494	-56.6394737379344	198.183186823912	16.6062878777065
163.1722	13458.3764750678	-7092.611353193	15212.9232283641	27.789386985051
139.1537	56159.6337713578	-121868.593305643	134185.910212768	65.2587469498105
118.6706	-3226.03428748382	-204568.06070393	204593.496371197	90.9034784231735
101.1982	-53789.5459714392	-185934.120462277	193558.292015336	106.134816561593
86.24196	231658.912586845	224060.42683629	322287.025266268	-44.0447611315517
73.61024	-195955.820572416	276482.438191861	338882.313266309	-125.326954641972
62.69291	-20847.91003953	343474.862378628	344106.984002117	-93.4734233174533
53.57697	-31404.52954465	290207.273718434	291901.535102176	-96.1761798286444
45.65746	-244719.563719594	-554970.293045536	606530.865686287	113.795548761389
38.96512	-253638.506120511	-642261.781959272	690530.729477366	111.549783387595
33.18414	-269007.346959196	-750403.111720897	797163.58597118	109.721933429568
28.30617	579195.658119395	-372787.745010911	688794.826646281	32.7665510302155
24.17237	809055.23155727	154714.606821171	823715.349665172	-10.8259000291261
20.61345	365544.389315708	562540.559477592	670875.98080238	-56.9837925344777
17.55618	1029942.6597151	-175323.86596497	1044758.50811463	9.66067576116852
14.98558	1106701.12040443	-1267645.92725188	1682769.61191445	48.8778549391305
12.76553	-718229.527769516	-1562570.4320478	1719732.54015561	114.685695991905
10.8809	1413845.52601461	-427694.303490084	1477119.35491665	16.8307899305726
9.278505	1206930.72185333	-2037093.84730905	2367790.76569231	59.3542449836488
7.923394	2463494.89883374	-1155106.51986802	2720859.82527978	25.1213803641346
6.75822	-554053.249741295	-978241.190292769	1124246.78337734	119.526215332508
5.761429	-1176764.57509178	-1462380.97369749	1877054.33523469	128.823314995199
4.919708	150235.735911351	-1652420.09693456	1659235.65327474	84.80503024336
4.191257	2687516.01594519	-3525371.51247339	4432943.33788746	52.680438315543
3.564097	2497761.98592395	-3205342.96853194	4063623.81185118	52.0725129061753
3.051758	3716936.26776297	2070001.85372611	4254470.92986205	-29.1139049792108
2.604164	-5818393.72291194	-10809904.7499387	12276308.3301768	118.291204805104
2.214424	6881892.54449928	-4808572.418343	8395404.32001246	34.9430859136246
1.892567	-166731.222875504	-8608550.68437492	8610165.16601937	91.109571342082
1.607507	19353707.8741115	2826669.39475828	19559040.5783031	-8.30947512248945
1.376413	-495684.265860782	-22363072.8841265	22368565.7052967	91.2697703416006
1.17375	-7327971.68071893	-12738744.3028269	14696080.2721754	119.909695984789
1.001604	-697645.849944998	33227943.7557818	33235266.7503864	-91.2027915753498
