EC-Lab ASCII FILE
freq/Hz	Re(Z)/Ohm	-Im(Z)/Ohm	|Z|/Ohm	Phase(Z)/deg
6999984	2.57214223478273	0.177252718579371	2.57824246381074	-3.94216219784206
5969734	3.92090496207567	2.64256017867113	4.72827875865287	-33.9786661641265
5091109	4.93157548338103	6.26631172073056	7.97415195049919	-51.797321277174
4341796	-9.05377585426428	-19.0817312805124	21.1206847872162	115.383100220138
3702781	-3.88276471291367	-8.10894088535286	8.99059420160841	115.586271054291
3157797	-3.31176516470648	-6.29905034531226	7.11658792954473	117.733430391544
2693047	-3.19535178942295	-5.40559925895326	6.27939299666492	120.588135310004
2296687	-3.61244903277905	-4.24435823120674	5.57354149614397	130.401699129225
1958656	-2.7270631561074	-4.33157233289077	5.11853419764519	122.19362034774
1670375	-1.5946485586335	-3.93741067627411	4.24807095740988	112.047912894681
1424531	-0.64726606612146	-3.58252929929358	3.64053149150633	100.241315385098
1214875	-0.254201548407391	-3.6931223568355	3.70186050112249	93.9375191315092
1036062	0.539662465998296	-3.09774613618459	3.14440243948734	80.1176052256152
883578.1	1.91161372664187	-2.81574887286537	3.40333788433182	55.8273918165651
753531.2	1.91204277358081	-1.41315996765712	2.37758883371185	36.4675088825056
642624.9	1.61323646310747	-0.441775698996615	1.67263195417385	15.314674849721
548046.8	1.18705129969556	-0.429907407581647	1.26250194740542	19.9085702369887
467390.6	0.610579634388309	-0.577980012746757	0.840754652121832	43.4288945271435
398593.7	0.339802911283896	-0.790587284203693	0.860519768780231	66.74144713205
339937.5	0.146921326443659	-1.38612063870158	1.3938853256988	83.9495469594502
289906.2	0.683832970934079	-3.22439740432061	3.2961137955365	78.0260800902697
247234.4	2.6124875329484	-7.73430952275054	8.16361653334602	71.3361102827631
210843.7	-4.26426162047018	-15.0375685993411	15.6304957230315	105.831951071087
179812.5	-43.3059019687168	19.3059234568632	47.4143419847452	-155.972519047016
153343.8	-2.55355378748091	43.3735298325375	43.4486332015126	-93.369316886078
130781.2	-21.3352499116775	70.2334262274079	73.4025002873505	-106.897537978471
111531.3	-5.84908378734343	114.950455591346	115.099170378459	-92.9128987064768
95109.37	27.7130753335752	105.981776715519	109.545203182168	-75.3458981162067
81109.37	28.96744970305	72.3125019580668	77.8987232355842	-68.1696017321931
69171.88	27.309208195779	53.0960721636362	59.7075014674577	-62.7816212183419
59000	29.9964146708739	35.0802333464607	46.1563393776971	-49.4669013891486
50312.5	35.7926810528241	16.6501019970171	39.4758396169133	-24.9469892000306
42906.25	3.77827508481046	11.1686935517818	11.7904655663002	-71.3097542241871
36593.75	6.61572626034551	11.5690538512336	13.3270717325513	-60.2370583543864
31203.13	8.73362851866337	9.49623499491723	12.9017342315171	-47.3954469653665
26609.38	9.6521269607139	7.35090179493247	12.1325723597464	-37.2923045469082
22703.13	10.151200213328	5.5383154644167	11.5637279436377	-28.6161020580673
19359.37	10.2189325991862	3.66124858353133	10.8550138027144	-19.7116331836463
16500	10.0646466958086	1.49443613720367	10.1749915223371	-8.44578178195107
14112.02	9.53882625722171	0.470112891397541	9.55040378707207	-2.82149055507608
12011.13	8.66855015018807	-0.877869157592542	8.71288792331096	5.7826624910271
10236.38	7.29099084849724	-1.25487440496244	7.39819284184322	9.76567027712624
8750.684	5.96312714767943	-0.992441423051143	6.04514891111701	9.44911109531646
7449.463	4.69698650340311	-0.0550827235360688	4.69730947666674	0.671890990573858
6363.206	3.61690612002955	1.2601425880173	3.83013958273614	-19.208513214164
5414.761	13.183116564268	-29.0037161517168	31.8592233577097	65.5566850032785
4620.567	11.8434249929502	-34.5547014786643	36.5279907720538	71.0811440639299
3941.215	10.2811162762098	-41.3504525607716	42.6094036436274	76.0374581749296
3361.769	8.1701696683334	-49.3466725296728	50.0184542160203	80.5990043650841
2867.244	5.53209547210233	-58.7217919271696	58.9818016633118	84.6181314105883
2442.658	2.02561452315992	-69.6961520801949	69.7255815965854	88.3352524022791
2083.003	-2.76108180871228	-81.7310887598827	81.7777136060323	91.9348597501885
1777.843	-8.34514134079083	-95.6329929670332	95.9964099736568	94.9871205164094
1513.548	-16.2959464122869	-110.971692315199	112.161822224727	98.3540497037161
1292.065	-24.3651947163463	-127.650456081627	129.954998562629	100.806309066876
1101.762	-34.7192122189818	-147.148705364262	151.18917020569	103.275929051228
939.101	-47.8839269376817	-168.941124133146	175.596053151386	105.824617211309
801.2801	-64.5811871850743	-192.702329443093	203.236112713828	108.527774792957
684.3433	-80.2126767336587	-220.8979836047	235.010622460775	109.95701801291
582.9476	-100.336350424117	-251.871441708804	271.121017932773	111.720524810544
497.0677	-120.146346875913	-290.519328079485	314.382926787354	112.467890958512
423.5089	-148.553702066821	-329.665771434926	361.590546410637	114.257238152706
361.5036	-181.372939797971	-371.130805071137	413.07894858454	116.044923769293
308.1262	-219.876368116059	-419.083286712521	473.261469441236	117.684213316942
262.7298	-263.835148181551	-470.684337655835	539.585703230259	119.272165846147
224.2111	-314.698421396785	-527.379868831497	614.137299370716	120.825397132968
191.2854	-371.908927287963	-587.080083548403	694.967103319059	122.353819347258
163.1722	-440.788474221273	-655.162458766656	789.640631162991	123.932375368623
139.1537	-518.727516560537	-729.628258866852	895.22937428021	125.410835663179
118.6706	-607.371617157132	-812.834738491276	1014.69236393414	126.768058088285
101.1982	-702.730355826398	-896.725188359038	1139.27433765421	128.084485918377
86.24196	-816.538870303967	-985.978991480091	1280.19150846949	129.629867683404
73.61024	-942.359017241975	-1084.44835042789	1436.68672372339	130.989840305927
62.69291	-1087.21560040352	-1190.15320512989	1611.98710089185	132.411978849221
53.57697	-1225.59734305444	-1288.93544528146	1778.60715994427	133.55709229857
45.65746	-1430.57336204682	-1458.55687970586	2043.01941144357	134.445062289463
38.96512	-1619.54322895521	-1572.74253197688	2257.52947762454	135.839928041709
33.18414	-1828.10917264187	-1689.14916687024	2489.01748789272	137.26246765546
28.30617	-2061.32635241753	-1790.12073100574	2730.12793889727	139.027922509597
24.17237	-2295.55339574952	-1858.07877693031	2953.30698269177	141.012419128812
20.61345	-2517.78750587089	-1803.93563635622	3097.32751010213	144.379291020339
17.55618	-2553.74357398037	-1497.87620650829	2960.61469490201	149.606614168436
14.98558	-2461.52577470804	-1176.66808788684	2728.30660458155	154.451086917826
12.76553	-2292.49934190772	-893.828011820272	2460.58565129562	158.699568968721
10.8809	-2123.42904225714	-690.311075898733	2232.81890869133	161.991039614409
9.278505	-1896.58506003967	-514.699392902445	1965.18456004006	164.816638276876
7.923394	-1635.73507495145	-385.916467707276	1680.64295895174	166.725046100898
6.75822	-1399.5171800726	-293.488695917291	1429.9594231829	168.156294673135
5.761429	-1248.67572669177	-237.731907047111	1271.10484620958	169.22062107337
4.919708	-1100.10900874293	-188.325565606924	1116.1121582433	170.285806910297
4.191257	-960.508747637561	-159.692879415931	973.6934168538	170.560425581503
3.564097	-898.812616668252	-152.148555232565	911.599310410767	170.392205172853
3.051758	-853.3374402708	-144.392707581808	865.467527392407	170.395986694301
2.604164	-809.049732666972	-141.378579905785	821.309547481749	170.08784999208
2.214424	-780.401899156948	-140.104749445867	792.878594127159	169.822169462477
1.892567	-755.592039849702	-138.819565905357	768.238376132295	169.589548597654
1.607507	-849.515863133941	-150.318818034878	862.712552807485	169.965580798599
1.376413	-837.688662860827	-163.197451676781	853.43758068142	168.97579620751
1.17375	-768.697843018423	-148.801914841653	782.967677316068	169.044379255587
1.001604	-672.470187422766	-123.716415897276	683.75573455356	169.575683019012
