EC-Lab ASCII FILE
freq/Hz	Re(Z)/Ohm	-Im(Z)/Ohm	|Z|/Ohm	Phase(Z)/deg
6999984	1.94062057471584	2.63493235898384	3.27244201651161	-53.6284542833664
5969734	6.57628431745164	4.35750530434271	7.88893959295767	-33.5288140808575
5091109	22.9870329763147	-1.31038013044796	23.0243519157533	3.26262565844997
4341796	4.37392444267256	-11.5910912342058	12.3888906295072	69.3258878585467
3702781	3.10988009898902	-6.94752686356854	7.61179898250699	65.8855627776836
3157797	2.1340964328877	-8.01258246063679	8.29191445164314	75.0858898687763
2693047	1.21508267021684	-10.0028560789486	10.076386040224	83.0740101527108
2296687	2.95770948212124	-11.5982142337065	11.9694034434295	75.6936834978511
1958656	0.107986049325078	-13.9960249926393	13.9964415685356	89.5579443370882
1670375	2.35894972930716	-16.2375286762252	16.4079852918216	81.7340337572383
1424531	-5.3944526466883	-15.5338364207567	16.4438497105814	109.150637212043
1214875	19.5839972338816	-10.6853512223173	22.3094078451437	28.6176089370685
1036062	15.1055434530563	-8.36009782744569	17.2646656120712	28.9621456480145
883578.1	4.37518142456039	-19.1287236628357	19.6226981189374	77.1167387736175
753531.2	10.2419722428048	-2.60684200465679	10.5685202682129	14.2800162041179
642624.9	-1.80513883072279	18.7296965474566	18.8164837033381	-95.5050743632076
548046.8	13.3721217098118	-1.42369322155891	13.4476965094819	6.07723155265976
467390.6	9.82227787898178	0.193920294579594	9.82419196741313	-1.13103816815328
398593.7	0.625307383609541	-7.73553391308358	7.76076634389045	85.3785037005064
339937.5	11.9540554531971	6.92725101463244	13.8161589596327	-30.091846532674
289906.2	1.13693699328383	-7.48937772671849	7.57518346049548	81.3680283177087
247234.4	17.7797906928621	5.07680452332429	18.4904002458041	-15.9360533081184
210843.7	11.0537279703008	9.62955614862502	14.6599199745746	-41.0610490359402
179812.5	10.7438803533833	-2.99231640703066	11.1527988651997	15.5632411299826
153343.8	13.2758262781444	-8.93832321454922	16.004411431078	33.9515194237932
130781.2	22.1651769388731	-15.5803723781812	27.0932292681095	35.1041959160374
111531.3	46.2691982186276	4.22048688268296	46.4612872542459	-5.21186360086833
95109.37	19.5068087837125	-106.90241730381	108.667577567194	79.658837919054
81109.37	34.2960491098218	-125.882454906666	130.47073019598	74.7599341791264
69171.88	-33.7240463658083	-349.104818793849	350.729932866257	95.51773673048
59000	-40.0318639996411	-405.623220075707	407.593850296924	95.6363962898516
50312.5	-45.0309516085264	-472.014965140215	474.158110675213	95.449612048639
42906.25	-160.713470085561	-556.742893578443	579.475166868297	106.101699601034
36593.75	-167.714899546361	-641.349024457026	662.915423490677	104.65486657677
31203.13	-186.25192114349	-741.709519454568	764.737072057558	104.096175430738
26609.38	-193.459691315902	-864.809725116417	886.184243157131	102.609579135491
22703.13	-213.615013490464	-991.808467914433	1014.55182766348	102.154650646157
19359.37	-233.828570573449	-1152.52003014529	1176.00094400579	101.468762869606
16500	-252.673618213681	-1344.79549206416	1368.32703430769	100.641239926099
14112.02	-270.07182453565	-1543.01306330977	1566.46994990412	99.9278501753815
12011.13	-327.925565753868	-1781.18344576984	1811.11834073854	100.43165196464
10236.38	-333.498634505555	-2086.9293144885	2113.40845623569	99.0792996807927
8750.684	-379.753149316967	-2401.41193474423	2431.2531202547	98.986194039084
7449.463	-433.456840665815	-2773.47041779091	2807.13786463744	98.8827178612834
6363.206	-468.723743370765	-3248.16905595189	3281.81415738961	98.2113259169491
5414.761	-533.734865523451	-3752.66455339286	3790.43060310653	98.0947863014194
4620.567	3114.98515558838	-1801.73769503841	3598.52625963161	30.0455057062038
3941.215	-912.477038012147	-4339.8748294482	4434.76356530734	101.873729439205
3361.769	3.22336211498045	-4.93909206408596	5.89785501193511	56.8706333699393
2867.244	-781.725223908761	-6777.20957253415	6822.14511101484	96.5797712995345
2442.658	-1642.00130376691	-7836.64479727962	8006.82021531032	101.833908872443
2083.003	-1778.92909622014	-9100.55320541992	9272.7912396461	101.060415849017
1777.843	-1948.4568141039	-10532.3811135107	10711.0940560087	100.48104092658
1513.548	-2145.2126929526	-12256.5531915249	12442.8707955473	99.927678288043
1292.065	-2385.10393023872	-14194.0952630609	14393.0907415637	99.5385826493696
1101.762	-2597.2777207608	-16382.5509186829	16587.1584716008	99.0086539846531
939.101	-2930.07336872292	-18975.6052064222	19200.4927774289	98.7778665847744
801.2801	-3221.10303472546	-22028.2961172033	22262.5545386757	98.3191565739927
684.3433	-3626.32050008194	-25647.8829403266	25902.9747266605	98.0476318748802
582.9476	-4006.56974758025	-29327.6277585341	29600.0397142532	97.7792584436409
497.0677	-4612.71310613935	-34160.5297262857	34470.5513936171	97.6901635064981
423.5089	-5177.46554148718	-39680.2471135904	40016.598561458	97.4339367805156
361.5036	-5935.83811749794	-46452.6939884691	46830.4062863381	97.2819310774673
308.1262	-6693.52810788176	-53800.5709501406	54215.3553257019	97.091938272602
262.7298	-7542.11542566727	-61822.8773694873	62281.2304899056	96.9554597258018
224.2111	-8639.7581443943	-72172.621161848	72687.9127927419	96.8263723345588
191.2854	37789.150722465	33962.1750435633	50807.9643955041	-41.9469277308817
163.1722	86405.1862681116	-11936.3441585364	87225.7560924414	7.86527813265838
139.1537	48174.5926917783	-116644.335967089	126201.000369339	67.5591724972608
118.6706	10609.0187346452	-112733.978580035	113232.067918041	84.6239182843191
101.1982	22516.665791312	-78678.8459318603	81837.4060899235	74.0296994692322
86.24196	202468.532620468	-68934.9709349372	213882.063107887	18.8022975965721
73.61024	419437.109022245	394454.069166541	575779.038440078	-43.2418123478774
62.69291	-228775.07860298	-406680.591815277	466612.409124558	119.359599205684
53.57697	-232570.231907582	-474492.594401816	528424.199778656	116.111558760867
45.65746	-242531.867558319	-548736.252496439	599944.315403656	113.844593948653
38.96512	-254635.376390353	-639242.874300009	688092.019465997	111.719321599174
33.18414	-267577.771415721	-740493.58787659	787355.458126855	109.867350117972
28.30617	-282403.04978753	-864127.109174763	909102.38331006	108.097769967711
24.17237	-301253.549805343	-995556.616535424	1040137.81682899	106.835715832376
20.61345	197161.329180565	-522286.915920865	558261.777543812	69.318668590328
17.55618	-340531.31970272	-1345043.14850036	1387480.68492006	104.207329242993
14.98558	-371811.280629818	-1548437.87318734	1592452.03240931	103.502247380305
12.76553	-404276.79658285	-1795341.85245283	1840296.74113281	102.690251593046
10.8809	800845.394029601	-1849790.40594639	2015707.78910777	66.590358161474
9.278505	962898.021826669	-1788702.11941465	2031410.31611936	61.7054345917477
7.923394	755631.56255543	-1315371.17139106	1516964.1976186	60.1242429645251
6.75822	1481973.77689186	-2610326.44302468	3001674.60170969	60.414904453995
5.761429	2402826.97386453	-233866.311883865	2414181.21071413	5.55906857626627
4.919708	2678140.87841457	4847.12693998866	2678145.2647821	-0.103698657312476
4.191257	1469469.64666329	-754897.678003831	1652032.55013947	27.1905257680023
3.564097	499985.61046804	-3511982.86988244	3547394.71852552	81.8974986161891
3.051758	-913747.807746438	-5488850.19664237	5564387.79537717	99.4515503602892
2.604164	-597149.531357049	-3348026.20921702	3400862.69355351	100.112858247429
2.214424	-401047.334767182	-4983893.2105769	5000003.04991491	94.6006031878141
1.892567	-728288.71640269	-5789068.49696147	5834699.52242197	97.1703761947554
1.607507	-6001463.05169121	-7077299.45561188	9279317.1270961	130.29753540207
1.376413	1901656.55422361	-13476033.566235	13609547.3226891	81.9678005376517
1.17375	7511346.23682006	-8207775.4953491	11126001.1177172	47.5368071125812
1.001604	11645214.5737554	-6758581.25041889	13464376.8139234	30.1297706091337
