EC-Lab ASCII FILE
freq/Hz	Re(Z)/Ohm	-Im(Z)/Ohm	|Z|/Ohm	Phase(Z)/deg
6999984	23.1557627955127	92.9117849401331	95.7537943446817	-76.0056590172998
5969734	18.9548559110302	97.9450420219396	99.7623066056887	-79.0472054727518
5091109	15.7481966297138	103.390836174225	104.583319424723	-81.3394377237317
4341796	14.213678543269	113.566096685476	114.45211651213	-82.8660837688578
3702781	16.960350247524	125.548325563523	126.688734828015	-82.3064758903535
3157797	16.1498793194652	139.683811691094	140.614315951778	-83.4048932793988
2693047	16.0069027630018	158.503727380712	159.309926023595	-84.233390251158
2296687	16.074314823311	183.388367509767	184.091490664116	-84.9907258647619
1958656	17.4890091282506	211.084457262796	211.807727758497	-85.2636829583622
1670375	19.2375519765311	243.708690455611	244.466785493732	-85.4866208364476
1424531	23.6974676082165	283.618746220069	284.607032904119	-85.2238050958211
1214875	28.8626827299296	330.778717155289	332.035561615419	-85.013185810331
1036062	33.0417918828391	377.335357246639	378.779265323853	-84.9955960060205
883578.1	26.4865299252205	435.151843332895	435.957180263723	-86.5168562478724
753531.2	70.1175235772475	609.458237040363	613.478450973588	-83.4370362117056
642624.9	83.7418399935567	684.141837964032	689.247959894196	-83.0214699228973
548046.8	123.397576967252	797.989991599622	807.474450799871	-81.2096627831346
467390.6	155.916644542859	905.944443192046	919.26347376367	-80.234832390499
398593.7	132.46059775162	1009.91791274946	1018.56762193236	-82.527752190833
339937.5	188.51917136878	1240.92619784496	1255.16425477765	-81.3617830777418
289906.2	154.181606011281	1368.17100943866	1376.83110028087	-83.5703634906326
247234.4	260.29761781711	1545.56272088714	1567.32861073781	-80.4401804642739
210843.7	214.549467546926	1872.83663109282	1885.0858125793	-83.46476736899
179812.5	295.231832696231	2055.76617486599	2076.85733760418	-81.8275404694037
153343.8	270.145205126598	2499.06634914923	2513.62508129254	-83.830371738063
130781.2	441.726005777808	2853.48299543369	2887.47070451107	-81.2003235710739
111531.3	495.734382758153	3333.1468774483	3369.81018529114	-81.5404886140431
95109.37	525.200724220981	3924.27262200525	3959.26147312124	-82.3771788822727
81109.37	665.175216980157	4398.17658555734	4448.19236848289	-81.3998274753385
69171.88	1167.36364055882	5709.4671467149	5827.58551792383	-78.4445111680537
59000	1380.1197719617	6645.8763937825	6787.66555057002	-78.2683839418305
50312.5	1789.78550064312	7614.6940831194	7822.20545100971	-76.7730786880981
42906.25	2238.25070883595	8928.38488442131	9204.66310518573	-75.9265908415718
36593.75	2217.17377311414	9959.95445633455	10203.751874308	-77.4500856188246
31203.13	2834.42410514496	11436.1338660538	11782.1525117497	-76.0798570517693
26609.38	3231.59994655398	12848.1416737299	13248.3199947315	-75.8816709504335
22703.13	3952.5461664947	15003.8476348605	15515.7360459755	-75.2415625017134
19359.37	4432.61217553478	17412.9459540189	17968.2702978412	-75.7182060914827
16500	5491.80238565092	19982.8428189162	20723.7520871234	-74.6330240275049
14112.02	6285.67240778428	22824.1242698592	23673.8321001049	-74.602657264363
12011.13	8794.18166410083	25853.6331611631	27308.3866014307	-71.2141275681798
10236.38	9974.1968956706	30224.761241462	31827.9876180853	-71.7370661477957
8750.684	12766.6429491616	32903.2908375974	35293.2531815204	-68.7934954753111
7449.463	23303.4919826517	41054.6452226087	47207.379009428	-60.4198318910331
6363.206	26949.79820142	45368.9692953714	52769.6408744803	-59.2890996823425
5414.761	30979.2316975739	47262.5130383985	56510.6886816711	-56.756299641921
4620.567	37070.6752659318	50582.1735526373	62711.9705158536	-53.7630477990206
3941.215	43079.2173816585	54490.6559818637	69462.5838819001	-51.6708121960091
3361.769	53366.9465671335	56324.1827092911	77591.5236592819	-46.5443009719658
2867.244	61471.6024518045	60631.3058615012	86341.838980089	-44.6057040017186
2442.658	66692.9922025504	62751.162543582	91573.2690772831	-43.2557695997668
2083.003	76879.2814705001	62852.114221208	99301.6222500729	-39.2674734132186
1777.843	83153.5966701249	59929.0988860032	102498.866005757	-35.7804293537406
1513.548	90963.0855600951	59220.3766299587	108541.862628238	-33.0656349992738
1292.065	97490.3446011155	60876.0554079467	114935.901321022	-31.9819598142972
1101.762	104085.86040893	56725.1825133998	118539.498346525	-28.5897001628677
939.101	109050.613882524	57598.6553810323	123327.375265422	-27.8422423416518
801.2801	113941.159403957	56555.113704227	127204.829674097	-26.3976725006782
684.3433	118816.721284193	55820.7684925673	131275.936301466	-25.1644037649709
582.9476	123161.799503752	55284.211105489	135000.640200551	-24.1741035118668
497.0677	126993.465518668	54898.1553793624	138351.536849063	-23.3784026443009
423.5089	128882.267588247	54961.649696125	140112.175902054	-23.095751104807
361.5036	132937.769068441	57390.6396610529	144796.878300601	-23.3503678193852
308.1262	136801.155756405	59329.2167672161	149112.414568672	-23.4458684246776
262.7298	140063.373528842	62123.4877098411	153222.310155912	-23.9191258338777
224.2111	143616.206622368	66759.6734561311	158374.457550982	-24.9312557789763
191.2854	146946.470278709	71369.1939940496	163361.032620181	-25.9049918222232
163.1722	151851.897839856	75989.4698968569	169803.999990494	-26.5842218291949
139.1537	155218.757369162	83371.5016428633	176192.139227075	-28.2412501501809
118.6706	159722.468906651	91824.9523229344	184236.502742386	-29.8947318624151
101.1982	164847.778549192	100948.293523909	193301.184833391	-31.4821687296046
86.24196	170410.018680175	111421.869763741	203603.554802527	-33.1784962257586
73.61024	180259.300691635	119744.966937772	216407.653729635	-33.5958043062642
62.69291	187526.313511536	133631.624364235	230268.385345124	-35.4737479643189
53.57697	194640.676409757	149368.299672326	245348.490641882	-37.5028264295731
45.65746	203723.917387741	167648.778038938	263836.213006775	-39.451696533087
38.96512	212817.101910218	187787.913604889	283822.866171035	-41.4248944245821
33.18414	224333.80143317	210551.728185444	307664.890274035	-43.1848316951516
28.30617	235689.639805483	235341.941469991	333069.716015286	-44.9577063527352
24.17237	250972.883648513	263865.237990841	364159.652002817	-46.4344764217951
20.61345	267257.060462851	296147.375169124	398910.521529335	-47.9354482281214
17.55618	285213.96353379	332214.376895585	437850.884675109	-49.3531234301915
14.98558	306012.93888805	371191.786829216	481068.87383863	-50.4976066259653
12.76553	329155.185787784	416390.761459966	530777.168461682	-51.6737743878099
10.8809	356197.817226041	464931.022550572	585694.238256205	-52.5431748165635
9.278505	385906.695871635	519858.881232767	647438.981152005	-53.4124033579785
7.923394	420128.306932346	580490.291026281	716572.935758542	-54.1049603632649
6.75822	460710.829760458	647124.265862777	794370.369617981	-54.5515809645694
5.761429	502845.019001848	720730.149549026	878808.887986421	-55.0969680305985
4.919708	551520.591196366	801293.358397941	972751.771381702	-55.4608306079743
4.191257	606414.367832342	894250.782689162	1080473.43690332	-55.8577986867527
3.564097	671907.820150476	994033.698706902	1199817.94991752	-55.9436392236192
3.051758	737521.610959693	1100297.3849762	1324610.3057194	-56.1663307298527
2.604164	819013.905236162	1220691.72633907	1469990.49919475	-56.1406622206309
2.214424	904623.382537537	1357303.45994276	1631139.52395442	-56.3171103032194
1.892567	1005356.31669257	1497526.66779212	1803698.26863093	-56.1247798305499
1.607507	1119718.64780523	1666742.99142202	2007934.77227155	-56.1067774966268
1.376413	1236244.88061841	1835816.13226083	2213260.55319394	-56.0435401447782
1.17375	1376626.99285665	2030970.88105459	2453557.53899378	-55.8699052849639
1.001604	1533058.11972242	2245947.4671612	2719291.67683326	-55.6830007226142
