EC-Lab ASCII FILE
freq/Hz	Re(Z)/Ohm	-Im(Z)/Ohm	|Z|/Ohm	Phase(Z)/deg
6999984	2.33235414885247	2.30053651499033	3.27602566114388	-44.6065118722097
5969734	5.22952437371969	2.24651429431794	5.69163874906895	-23.2475333543151
5091109	6.2726481804399	-2.1095992898803	6.61789425417477	18.5886760122355
4341796	2.18370645915486	-4.85749070704499	5.32576659916514	65.7934884600061
3702781	1.72623613427304	-6.78021855688023	6.99651733867164	75.7160288518612
3157797	0.411139379541999	-8.03699154738978	8.04750077491298	87.0715366893385
2693047	2.32979154425005	-7.65856257696646	8.00509271557614	73.0798500364643
2296687	1.59097179911095	-7.97959608321341	8.13665440563879	78.7242291636366
1958656	-2.24614598962517	-12.8047267764519	13.0002384449784	99.9493360926989
1670375	4.25394434853079	-14.6958590012195	15.2991605751466	73.8560932573075
1424531	-8.54508745673334	-14.6924644202533	16.9966770394577	120.182137416374
1214875	16.717268544695	-6.23528039731036	17.8422473144089	20.4547307960412
1036062	15.9112062840051	-1.52958361315755	15.984558531339	5.4911111981014
883578.1	4.07443725449261	-8.77708718014329	9.67668839575983	65.0986625418509
753531.2	9.5305066582637	2.02713633439138	9.74370765578578	-12.0078489351235
642624.9	4.53075255273886	-4.44127546825057	6.34449733856308	44.4286142063996
548046.8	7.79985826714016	2.80920826393323	8.29032207200815	-19.8070650340033
467390.6	1.50338347636054	4.69966997038263	4.93427397977759	-72.2609787556633
398593.7	2.59185532436514	-3.84516184797758	4.63713097287345	56.0178143397769
339937.5	1.36285622293973	-4.00608941857758	4.23156348340005	71.2118930327788
289906.2	3.72772237017006	1.34005694161861	3.96127084101131	-19.7727047550293
247234.4	5.15126196384484	-3.15045745686549	6.03828469084342	31.4495158648601
210843.7	6.35747324492634	-6.85708304875721	9.35077825624732	47.1651809570814
179812.5	10.5307016669594	2.23693882249791	10.7656663934055	-11.9925509619935
153343.8	17.7146143936095	-1.73884883563404	17.7997516383646	5.60613705913627
130781.2	18.3543379351409	-10.5620403888982	21.1763646127958	29.9183606418863
111531.3	20.8576159432813	-27.0088391109755	34.1250279554462	52.32283243729
95109.37	77.7820422162242	41.6635380837355	88.2377271748392	-28.1754917840337
81109.37	220.925950116763	72.5029628418192	232.518719796572	-18.1686807596708
69171.88	-12.8166961780401	-208.007622637134	208.402108377225	93.5259062514872
59000	-51.7381835921331	-298.004967222004	302.4628905013	99.8492403658895
50312.5	-45.7377051550592	-423.538281594081	426.000720244131	96.1634601655925
42906.25	-152.759745076623	-498.574331575484	521.451727221049	107.034704074625
36593.75	-159.315753204037	-574.546246254982	596.225543150124	105.498145859643
31203.13	-170.268317287752	-665.520645507386	686.956351938441	104.350855170673
26609.38	-185.108196237715	-768.561683468728	790.539123390276	103.541781468169
22703.13	-195.943033416635	-890.296441752718	911.603766195634	102.412195175069
19359.37	-217.805411257433	-1031.31927732441	1054.06766810958	101.925123753428
16500	-235.617229749645	-1196.13764589119	1219.12294165643	101.14355202509
14112.02	-255.880937514543	-1373.92956293072	1397.55411275497	100.549910453555
12011.13	-282.69776364278	-1594.22607514095	1619.09691007917	100.055505172137
10236.38	-312.918310558406	-1852.12207369236	1878.37005005435	99.5896331889158
8750.684	-350.405080529305	-2150.96161155762	2179.31630904174	99.2525621180403
7449.463	-389.273810940414	-2496.50909849885	2526.67603360059	98.8626070426743
6363.206	-447.026544871521	-2872.53356488736	2907.10884096628	98.8454756045999
5414.761	-520.230197849665	-3307.33216254649	3347.99723598589	98.9391542041037
4620.567	-473.140837888918	-3863.91188794501	3892.77244779104	96.9811855308032
3941.215	-396.126770391993	-6318.5555503586	6330.96048488606	93.5873273271253
3361.769	2047.79861615829	-3717.94933530164	4244.59967867521	61.1545929675089
2867.244	-733.008685372317	-5986.02740236177	6030.7400702283	96.9813001223622
2442.658	-1542.76525344179	-6945.17465520533	7114.46242653188	102.524036536678
2083.003	-1659.07512329348	-8044.53797910723	8213.83720084772	101.6530833923
1777.843	66.3781808883389	0.789177502907359	66.382872031693	-0.681163739530255
1513.548	127.50951945969	-282.912561460993	310.319504680678	65.7387709905711
1292.065	9.95126242311416	-0.663284617185319	9.97334298503158	3.81331315704186
1101.762	20.0498260935882	-8.25532666873616	21.68284909302	22.3789522552086
939.101	30.2442779070677	-6.92079532105765	31.0260173724556	12.8890752127686
801.2801	0.510372379951737	-21.3492411210839	21.3553406999841	88.6305548498895
684.3433	21.572737520891	22.1854995089844	30.944779731134	-45.8022805202257
582.9476	793.492023331701	-22288.2525560385	22302.3727794342	87.9610536662791
497.0677	-0.657159465096155	26.0663654447374	26.0746479566104	-91.4441786944384
423.5089	322.358552207975	-84.5817934824158	333.270334668905	14.7020970230569
361.5036	-1836.72556378687	-35565.4659747041	35612.8618731282	92.9563289073477
308.1262	12.0574634049397	2.46150802815626	12.3061547826337	-11.5382756445461
262.7298	114.938826933775	-128.44435124232	172.362656346938	48.176130609122
224.2111	10.5135872211639	-9.42033419144101	14.1165935173984	41.8608236334295
191.2854	16.3621769973012	22.6026222713653	27.9033935146432	-54.0989901430397
163.1722	-11405.5203749301	-63367.369423896	64385.6304056072	100.203442874839
139.1537	74.4153919463707	101.540464518334	125.889302536518	-53.7636379455496
118.6706	-8578.68549558417	-66620.5246738682	67170.5899382582	97.3375652793745
101.1982	18093.3732007198	-71451.8610103114	73707.1136025376	75.7899977032126
86.24196	411.00142027294	-47.6322369813549	413.752338321153	6.61069536697222
73.61024	-13329.1692624123	-72240.6075204866	73460.0035948476	100.454111910209
62.69291	-30532.5405805055	-161484.948116124	164346.051070196	100.706729002082
53.57697	-117283.964139219	-157685.61896833	196520.438310205	126.641262528222
45.65746	26261.5357279641	-320009.700576568	321085.466382232	85.308545553721
38.96512	-153065.558037876	-230324.194334725	276547.101871248	123.606648862092
33.18414	-15978.2656195617	-306692.016784791	307107.958431123	92.9823411912466
28.30617	347745.34365014	210242.660717813	406360.431656503	-31.1566542174569
24.17237	336912.029833884	16419.3127459391	337311.887839485	-2.79008616536716
20.61345	427081.832335005	-124175.802302443	444767.9410525	16.2120069709872
17.55618	-461187.14038229	438470.010602084	636356.447795876	-136.446461163635
14.98558	1401314.33411524	2653487.43545058	3000779.47091934	-62.1613371093333
12.76553	655722.136287745	-1475076.71935699	1614256.12837825	66.0332140014888
10.8809	3164889.00925314	-1712240.24781229	3598373.11949715	28.4138823338538
9.278505	3247905.50215495	1333524.42324513	3511008.05158855	-22.32206327573
7.923394	2306680.18795088	447549.023298798	2349696.49481391	-10.9802720478682
6.75822	4212052.15860124	810672.264597494	4289355.7683369	-10.8942137870395
5.761429	1600842.58842739	-474352.903349677	1669642.97675856	16.5053212550486
4.919708	5625563.93731285	2102336.34623526	6005563.06481721	-20.4912797737926
4.191257	4749331.96316734	953398.205873217	4844081.15490701	-11.3508955272265
3.564097	7286009.17332396	-2474424.51138515	7694719.37995821	18.7581626576132
3.051758	5071022.05505443	1881031.21553249	5408654.46452776	-20.3516957957428
2.604164	2737785.20142132	-4217165.72821337	5027917.52004137	57.0083552351549
2.214424	6710426.4987998	-1969543.88389687	6993491.75350841	16.3572288537411
1.892567	15594234.2877417	-9098387.21199191	18054384.3118594	30.2612357752264
1.607507	14327158.9712588	-11863330.342734	18601238.964342	39.6258069478713
1.376413	1025804.63483809	-23674556.8048775	23696770.1397516	87.5189594315562
1.17375	3282611.25447587	2621043.93012964	4200643.75205528	-38.6060738528314
