EC-Lab ASCII FILE
freq/Hz	Re(Z)/Ohm	-Im(Z)/Ohm	|Z|/Ohm	Phase(Z)/deg
6999984	13.9557590313478	100.748143518599	101.710135348378	-82.1135037049534
5969734	18.039229677227	99.6773670594578	101.296551329518	-79.7418595035684
5091109	14.6152981132616	104.786922492501	105.801257385671	-82.0598175595497
4341796	13.5932218766629	114.872562674733	115.674030518733	-83.2513978860833
3702781	16.0170359020004	126.89032731286	127.897226727754	-82.8057513130305
3157797	15.6786172615654	141.268306082335	142.135686379624	-83.6669641748916
2693047	15.1070014862043	160.727048089902	161.435452988487	-84.6304500031836
2296687	14.9795253974469	185.186054281589	185.790906347744	-85.3754670241922
1958656	16.4050334315204	213.384206508545	214.013889056694	-85.6037334097724
1670375	17.7971815022411	247.105947876576	247.746017415831	-85.8805293206001
1424531	19.7608667505123	286.178850320576	286.86029042992	-86.0499529406202
1214875	22.1009281491167	331.333392763356	332.069673690822	-86.1838531773423
1036062	25.1784688866406	385.706585300101	386.527521968798	-86.2650985926919
883578.1	26.6270339693621	448.501147712089	449.290861733317	-86.6023988466854
753531.2	29.7917582281964	522.690597287991	523.538928210313	-86.7378460694543
642624.9	75.5860632708501	703.082650742564	707.133980753277	-83.8638897690781
548046.8	101.361022689988	803.857340043514	810.222611423919	-82.8133143559262
467390.6	123.41019983706	925.471983783813	933.664002836443	-82.4045089691004
398593.7	139.897756940921	1060.92669759943	1070.11066720986	-82.48810351141
339937.5	164.762171420031	1219.93974311556	1231.01565788738	-82.3083093552979
289906.2	185.57698992999	1401.90892639493	1414.13841511263	-82.4593410300944
247234.4	207.581991193479	1615.15988186966	1628.44457291892	-82.6764347386695
210843.7	229.084378250997	1865.87706052382	1879.88745869205	-83.0004996675955
179812.5	254.943729046172	2160.75408003628	2175.7422869847	-83.2708784511177
153343.8	273.034065837435	2499.44792491075	2514.31651357747	-83.7658566903312
130781.2	296.855531133701	2901.87181419361	2917.0161522309	-84.1590776251295
111531.3	322.404048435573	3370.32892315017	3385.71431468608	-84.5357400796485
95109.37	353.420655191929	3917.19248294605	3933.10349570989	-84.844564331224
81109.37	397.20350979834	4567.99977914034	4585.23637454192	-85.0304318399645
69171.88	1040.126302865	5891.32513073472	5982.43884397811	-79.987486510341
59000	1170.69056796772	6761.84920902167	6862.44279622611	-80.1776512025449
50312.5	1132.16221961507	7786.47154826418	7868.34991999284	-81.7271009679172
42906.25	1597.80040056893	9061.02523013633	9200.8230252095	-79.9994040324797
36593.75	1710.16070017348	10322.2755275366	10462.9834027776	-80.5928737166762
31203.13	1811.42419701935	11846.6883186581	11984.3765687239	-81.3064926505117
26609.38	1970.7437263078	13718.2505733279	13859.0847326724	-81.8249048635461
22703.13	2104.00389865458	15875.0489864922	16013.8693865375	-82.4502882969313
19359.37	2291.93873249472	18408.44521108	18550.5751458773	-82.9029249550847
16500	2463.04493025493	21388.8920889239	21530.241408774	-83.4310201548568
14112.02	2668.92170433382	24818.6362241175	24961.7276463177	-83.8621708956927
12011.13	2903.94292218855	28914.2364666531	29059.6964014572	-84.2648456341107
10236.38	3109.762385588	33594.5849506362	33738.2092011466	-84.7113516438561
8750.684	3781.58559328632	39124.7197399454	39307.0487868095	-84.4792464410486
7449.463	11335.3317023319	52360.5112021953	53573.4344442944	-77.7847502669606
6363.206	10478.5135091535	58692.4039291861	59620.445522893	-79.8774786136759
5414.761	13321.3299170834	66482.9566271911	67804.4346090487	-78.6695689899811
4620.567	12672.7027293587	77246.7676434863	78279.3747153965	-80.6833437525274
3941.215	16687.9031640659	87041.7663060196	88627.0567811262	-79.1467855375456
3361.769	18436.0737443131	101389.288019151	103051.814831841	-79.6942467107931
2867.244	19671.786310821	115977.374690738	117633.883795505	-80.3732589938026
2442.658	19289.1745594944	134672.830423178	136047.210590209	-81.8489690909415
2083.003	22052.2885349611	156234.504964064	157783.154902528	-81.9658524811482
1777.843	22878.6033975789	181235.980207486	182674.330476923	-82.8052356510149
1513.548	27142.964182091	216551.917234956	218246.359334413	-82.8557132327659
1292.065	26788.1650806635	249686.610226934	251119.511617488	-83.8763229532324
1101.762	30648.6960526314	285277.083077728	286918.728386739	-83.8679577694235
939.101	89802.0068677756	390209.603562606	400409.709110513	-77.039733245952
801.2801	98495.8434917189	459882.968775211	470312.423985001	-77.9112593481254
684.3433	96064.8955629797	515165.90658727	524046.157766098	-79.4371605481178
582.9476	129118.458774015	576246.34749087	590534.867211704	-77.3704444853015
497.0677	120287.560841705	662862.687189013	673688.384463237	-79.7146440082997
423.5089	142473.177751072	748934.240587254	762365.465575728	-79.2290622769263
361.5036	175143.105445919	875434.344649518	892782.391838667	-78.686528540717
308.1262	178659.212350072	997071.855189496	1012951.82440656	-79.8413249768031
262.7298	199530.515997177	1154497.26472892	1171612.71804323	-80.1944961617218
224.2111	195530.669357755	1349847.46679789	1363935.63861356	-81.7578115057362
191.2854	260851.766429132	1602706.44954942	1623795.43276748	-80.7557656178319
163.1722	291206.0576696	1773965.36905449	1797708.01261721	-80.6777287661351
139.1537	291608.335489641	2198274.11356334	2217531.17220248	-82.4436419865078
118.6706	317155.75205777	2450040.12833983	2470482.62522504	-82.624123691974
101.1982	325329.893977989	2777328.2735525	2796317.55689333	-83.3189496101292
86.24196	3638829.41423139	154255.749591219	3642097.51958367	-2.42740559992274
73.61024	955707.706837674	3549565.11044968	3675974.65908439	-74.9306756020754
62.69291	1870894.25382943	611085.280528434	1968164.25358517	-18.0884552091966
53.57697	59568.1308518603	4048016.0975087	4048454.35788805	-89.1569311762762
45.65746	1252929.7557847	4890803.68106825	5048741.78579985	-75.6309446192843
38.96512	1329019.80184047	7788479.36042857	7901057.1686013	-80.3163642847461
33.18414	2046466.6841505	7230616.37730599	7514641.64715148	-74.1970031454104
28.30617	2939026.44079568	13744570.030033	14055286.6114561	-77.9301096595852
24.17237	2501530.60168719	12459586.8983593	12708224.1493036	-78.6475674106481
20.61345	2503445.00346128	9391542.49912948	9719480.81938075	-75.0740869381966
17.55618	1979076.29593391	10294691.8036284	10483197.141942	-79.1180803520095
14.98558	3737934.75812653	17269806.6195695	17669702.231032	-77.7870993939206
12.76553	5190230.38012738	19560683.5984387	20237559.9872373	-75.1395760141801
10.8809	6295779.81190383	22436561.6561312	23303135.8917497	-74.3256894661968
9.278505	10079904.1463227	27869127.0875741	29636003.6479687	-70.1155955875755
7.923394	15060754.8360082	30330599.8893061	33864016.6825425	-63.5931586393652
6.75822	11446914.415553	28646029.667549	30848449.9667502	-68.2184177363383
5.761429	-4469521.07340813	29210594.4632619	29550557.4824365	-98.6993713668415
4.919708	26873722.73641	22064941.4853765	34771520.1920556	-39.3880523812039
4.191257	17872818.0358264	28091617.6981468	33295294.1035305	-57.5341299558567
3.564097	26413381.0317061	39262511.0917745	47320307.2132653	-56.0697816117952
3.051758	4587307.5038414	36299835.7028287	36588542.7721187	-82.7975580165601
2.604164	52024386.6012449	41992315.5201268	66857246.1590938	-38.9092888475925
2.214424	34051125.8128938	63161984.1217119	71755943.3588389	-61.6705414620242
1.892567	123458600.466043	-13216883.9721222	124164052.974146	6.11053758929072
1.607507	47688217.5038786	57999696.3669101	75087488.0879032	-50.5724463731653
1.376413	51828040.3925837	-5543029.86693534	52123612.2217276	6.10460174653316
1.17375	87215920.8228588	43760159.3585185	97578524.2359307	-26.6449840033685
1.001604	86762094.5500438	52383633.6751317	101349425.887477	-31.1219730821176
