EC-Lab ASCII FILE
freq/Hz	Re(Z)/Ohm	-Im(Z)/Ohm	|Z|/Ohm	Phase(Z)/deg
6999984	2.16943108154877	1.76273386883515	2.79529281291396	-39.0949901985724
5969734	5.58328454288338	2.05664518394757	5.95002989063544	-20.22165729456
5091109	6.37826319969492	-3.11803382156048	7.09960395775549	26.0518409051152
4341796	3.46530444952518	-4.17801569820376	5.42808899174802	50.3272147072714
3702781	1.68741547128091	-5.2143107310157	5.48054809050187	72.0677773871452
3157797	2.01785121451949	-6.60391172918567	6.90531488426225	73.0092616361042
2693047	1.51422514783584	-7.27447637381989	7.43040270184613	78.2414549254594
2296687	0.927413346487153	-8.74495468704137	8.7939938590864	83.9463383957974
1958656	-2.26429924144065	-7.54950522878425	7.88175616561623	106.695398468349
1670375	-1.24773376047548	-6.95960378557834	7.07056747293077	100.164137970093
1424531	-5.06610257287474	-10.6889863762855	11.8287710702045	115.358864105404
1214875	15.2149991400767	-1.97799469477805	15.3430330067137	7.40707805431431
1036062	12.429936533647	-3.46595128860235	12.9041133196147	15.5805444553956
883578.1	2.37072802270324	-16.7799620927449	16.946606716142	81.9582894382525
753531.2	9.04792396489568	-2.51433703797566	9.39078371676559	15.53013562858
642624.9	11.2224911038376	2.95986612283074	11.6062532300823	-14.7749715250196
548046.8	6.44721116227967	0.782483243873569	6.49452167584084	-6.92001236225154
467390.6	8.66561592909716	3.56191739848191	9.36910641332622	-22.3446378128582
398593.7	3.96366887776725	-2.49793400268954	4.68511955603838	32.219439361223
339937.5	1.87330844381818	4.9196768834214	5.26426682102564	-69.1542297031255
289906.2	1.25629358389293	5.88294415263641	6.01558853911814	-77.9456368158333
247234.4	2.59208170980752	-0.822372730190277	2.71940885077608	17.6023291679178
210843.7	2.94730961820806	0.279295245497197	2.96051343853377	-5.41334191769491
179812.5	3.66345769708276	2.14280280515757	4.24411665250922	-30.3239058988578
153343.8	2.57687465146218	0.15634228288371	2.58161303815378	-3.47195235115425
130781.2	2.53404204115969	-0.78227845328226	2.65204235351445	17.155863265218
111531.3	1.08319547729775	-0.189909804915858	1.0997173164234	9.94423830355671
95109.37	2.56522257441793	0.475365133894869	2.60889610119419	-10.4984718379427
81109.37	-0.0451050847643284	6.05452737468998	6.05469538453769	-90.4268348334041
69171.88	3.1981916771626	-0.585588501769916	3.25136031489548	10.3759161655642
59000	3.22843332185429	-2.05615474161	3.82760421609973	32.4926256379414
50312.5	1.74776736141375	1.99876275758216	2.6551352716426	-48.8327517014978
42906.25	0.530455801208008	-1.98765286306329	2.05721833092137	75.0574138663583
36593.75	0.746845291049834	-1.32844033582507	1.52398543779471	60.6554321363909
31203.13	6.48214021914415	-4.32580070528944	7.79299002710312	33.7168244517517
26609.38	1.69367035425571	0.588676464116615	1.79305862935084	-19.166142985214
22703.13	1.13322997509579	0.0140569428777636	1.13331715512414	-0.710678514430829
19359.37	1.68704665836654	-0.756417280139944	1.84886276645943	24.1499246929123
16500	1.20827623127023	2.0142327825224	2.34884336498637	-59.0417538021845
14112.02	1.53984578762734	0.921575683092968	1.79455476075319	-30.8999175590367
12011.13	1.23969420435666	0.205117263274032	1.25654877024671	-9.39492647663094
10236.38	-0.80525768275163	4.24679583788354	4.32246628954992	-100.736694694768
8750.684	2.97518244260705	0.0408868762636785	2.9754633762572	-0.787345996997284
7449.463	1.77216955903516	0.0878612632690367	1.77434623102541	-2.83830686636317
6363.206	1.44900973878742	-1.9144421776858	2.40098273105059	52.8785212844756
5414.761	0.777998119429912	0.448634155641826	0.898083336581263	-29.9699841392276
4620.567	0.956880223342802	-1.35594385494196	1.65957931403698	54.7896449284463
3941.215	4.00542396546552	0.417197488654417	4.02709260977011	-5.94637945140778
3361.769	2.68170941931505	0.40869085411241	2.71267278230866	-8.66516732170667
2867.244	1.58232500299409	-0.519809602067281	1.66551926962782	18.1858694935247
2442.658	3.31784113935169	-2.27557033136048	4.02321888031742	34.4446183614387
2083.003	0.464486592325689	1.38666745037654	1.46239338496319	-71.4808967175927
1777.843	2.39729990215811	-1.19495257156344	2.6786112949014	26.4943132919829
1513.548	1.42311144109967	1.79987797559725	2.29451670310522	-51.6675979027784
1292.065	1.11928407080263	0.905957001250921	1.439984346883	-38.9869704654564
1101.762	1.53682710154897	-0.224902452204457	1.5531962699746	8.3256840985137
939.101	2.68341091023488	-0.710132342702292	2.77578494435708	14.8228421488028
801.2801	2.24661374494857	-1.47578335484515	2.68797504256083	33.3006049910569
684.3433	7.01692156386674	-0.387858237793502	7.02763276260807	3.16378757400093
582.9476	1.9227555701538	0.750401555321715	2.06399890426006	-21.3194100525629
497.0677	0.701727089892536	-1.19663168225696	1.38720881329026	59.6118468083397
423.5089	4.15541337070005	-7.41099069768858	8.49648417891891	60.7202336630202
361.5036	1.93565297127131	3.54305150677049	4.03732168706187	-61.3511747870183
308.1262	7.54974160143942	-1.30910816432962	7.66239926096386	9.83714676206881
262.7298	5.21337279184226	1.39742814731597	5.39741246280402	-15.0052203445709
224.2111	4.51980193016009	-0.748913116497512	4.58142776260206	9.40820190874412
191.2854	18.2544796393264	-7.69362717212418	19.8095412861133	22.8537280025658
163.1722	-8.20652848171211	-22.5118151467698	23.9609876867271	110.028981511979
139.1537	2.82059000520847	-2.99701665516266	4.11556032744076	46.7370382446698
118.6706	4.38573490551855	-11.2101164153725	12.0374989390524	68.6330672926745
101.1982	20.8922646986239	17.2313315699873	27.0814606679959	-39.5148192933766
86.24196	-771.159745425022	-17735.1302311167	17751.8881155676	92.4897693747727
73.61024	15697.6686577008	8285.9204820751	17750.3036459164	-27.8270646896588
62.69291	12571.6279412028	-10776.093876796	16558.0804543749	40.6023791322041
53.57697	14088.8171121755	-11668.3200975289	18293.2900681842	39.6314620413093
45.65746	9826.741427531	1628.32144827645	9960.73681122391	-9.40859724962276
38.96512	19037.059822021	-5264.40048092412	19751.5457392772	15.4579486759715
33.18414	-21201.922161556	26555.562611288	33981.1625602585	-128.603814863884
28.30617	6177.2542856273	35555.7526192945	36088.3639811195	-80.1441331715298
24.17237	-394.863993665625	45883.016545638	45884.7155913686	-90.4930687545212
20.61345	8644.25980286414	28419.5557759043	29705.1237674437	-73.0820272760858
17.55618	50045.7011672868	-43644.6569238272	66403.5261362223	41.091553308953
14.98558	74285.1223303763	-75610.3431849064	105996.2423682	45.506536895113
12.76553	3304.39320524917	161369.479627068	161403.308421995	-88.8269074862808
10.8809	107209.985218661	97301.0717901325	144780.798112506	-42.2260899574033
9.278505	2794.81715640551	-37741.6665527577	37845.0049163333	85.7649064375427
7.923394	26944.3425599372	16459.5744142824	31573.9637341678	-31.419636115844
6.75822	27128.0364596577	-15706.5104580204	31346.8472565332	30.0698564124968
5.761429	30553.257649576	-8215.23393240503	31638.4516303424	15.0498766751234
4.919708	9202.68501495209	31290.2982316753	32615.5204605355	-73.6110392083301
4.191257	48441.1426570952	25436.3085927344	54713.3447775757	-27.70383865666
3.564097	-8957.65090207796	81379.9173440253	81871.4263745532	-96.2813748798304
3.051758	-61209.7171653711	-45257.2466809527	76123.898038693	143.521515905249
2.604164	229672.156271456	90491.0720784415	246856.098754489	-21.504492609124
2.214424	35507.5868786602	-129020.028344851	133816.876514332	74.6125694342188
1.892567	-6552.39549663509	-96002.4753463666	96225.8237656298	93.9045167625097
1.607507	110097.289645028	-54991.3636267389	123066.905627424	26.5411984283585
1.376413	-69955.1382585048	72566.9323312331	100795.243125518	-133.950141346029
1.17375	306367.794056261	56989.3542040741	311623.18868707	-10.537501722947
1.001604	144935.84097075	-210935.129926415	255929.730658577	55.5066156653832
