EC-Lab ASCII FILE
freq/Hz	Re(Z)/Ohm	-Im(Z)/Ohm	|Z|/Ohm	Phase(Z)/deg
6999984	-14.6387969255316	30.9305498767067	34.2197792380722	-115.327236835113
5969734	-14.8926363669545	33.2788584144954	36.4591968552569	-114.109013971105
5091109	-14.3943667076821	37.5801855783752	40.2426159813244	-110.958376351461
4341796	-14.3578465813127	43.0110042892062	45.3441754629922	-108.459936590013
3702781	-12.9216254232177	49.4368885680385	51.0976942226027	-104.648048379008
3157797	-12.7776825823322	56.6238359333388	58.0476353349601	-102.716321172724
2693047	-12.9896883662913	65.4142873163308	66.6915361118399	-101.231443750863
2296687	-13.046082355081	76.5657806283544	77.6692926969523	-99.6697899844546
1958656	-13.0055855281071	89.380083836112	90.3213410079773	-98.2789349367745
1670375	-12.9528430901294	104.290672364124	105.0919620441	-97.0798488631247
1424531	-12.6554917853755	122.102519374398	122.756615748011	-95.9173747925838
1214875	-12.2520372878367	142.475970845687	143.001799590508	-94.9149851300024
1036062	-11.5859496759794	166.318962449114	166.722018641942	-93.984845445387
883578.1	-10.8004408262155	194.677999836139	194.977365717768	-93.1754279682057
753531.2	-9.9035396785265	227.609495532597	227.824850608461	-92.4914309523785
642624.9	-9.09210424133517	266.092495531674	266.24778409934	-91.9569759210805
548046.8	-7.56804934236874	310.477717332763	310.569941126008	-91.396336718545
467390.6	-6.46107385219923	364.013659358002	364.070995376626	-91.0168667708299
398593.7	-3.69787030989097	425.831013519186	425.84706916874	-90.4975378253233
339937.5	-1.89054493564448	497.421306848926	497.424899524991	-90.2177625339609
289906.2	-129.409140878972	493.643770301247	510.324306397671	-104.689587819155
247234.4	-137.696886697699	598.697778774049	614.328465004853	-102.952437080098
210843.7	-142.936284960352	721.041606945087	735.072636209661	-101.212708030962
179812.5	-145.359586745398	862.127547459368	874.295898164401	-99.5703818069994
153343.8	-146.407929610947	1027.05170037781	1037.43456521456	-98.1129490635251
130781.2	-144.41324111894	1217.15940009747	1225.69661395311	-96.7663836534086
111531.3	-140.775902285273	1446.32812495336	1453.16306713849	-95.559276170627
95109.37	-131.688754562673	1691.78077535352	1696.89838232406	-94.4509466117259
81109.37	-123.957245305239	1992.31257186833	1996.16501890206	-93.5602264234156
69171.88	-112.393591576001	2335.94874456636	2338.65107629773	-92.7546477634616
59000	-94.0401637787103	2731.71957237603	2733.33777175559	-91.9716436406358
50312.5	-84.9738242124958	3195.71361899621	3196.84314370273	-91.5231322786074
42906.25	-51.436957414569	3757.39444249223	3757.74649983997	-90.7843032017862
36593.75	-24.1774877305793	4377.81505954929	4377.88182190081	-90.3164258662824
31203.13	-924.869641181022	4793.25943507575	4881.6718309531	-100.92112980902
26609.38	-929.955229828434	5673.87969797922	5749.58498994719	-99.3080817283885
22703.13	-907.357842216531	6725.88975387992	6786.81745998658	-97.683116125618
19359.37	-862.65581723337	7953.67792515575	8000.32296823799	-96.190102703066
16500	-832.118226958386	9367.83165113232	9404.7164012315	-95.0761008619932
14112.02	-771.133708182267	10944.1312452187	10971.2650094904	-94.0304528858794
12011.13	-665.905675160557	12873.2808230811	12890.4922139582	-92.9611417528268
10236.38	-629.213294949023	15130.1851397814	15143.2629157194	-92.3813657599339
8750.684	-462.427408841535	17558.249751367	17564.3381156202	-91.5086364463906
7449.463	-332.670211478961	20596.125109765	20598.8115920967	-90.9253654109475
6363.206	-150.313493567789	24001.1770513367	24001.6477350194	-90.3588247431221
5414.761	47.2003288779042	28156.9708302066	28157.0103918039	-89.9039535495677
4620.567	218.918651056402	32784.885950838	32785.616849241	-89.6174173562228
3941.215	687.730551044814	38332.3623178525	38338.5311948431	-88.9721522873465
3361.769	-8648.75091870338	41191.5980611191	42089.7688670603	-101.8578012125
2867.244	-8620.74181236245	49142.4222101354	49892.8336544901	-99.949794458935
2442.658	-8412.80587505727	58445.5465479668	59047.9230285194	-98.1910432110014
2083.003	-8104.9537417815	68853.5807229883	69328.9683576316	-96.7135569446976
1777.843	-7766.95566833787	81216.5914209746	81587.1333139941	-95.4627327821475
1513.548	-7070.11032386028	95675.5320893292	95936.405501602	-94.2262898602552
1292.065	-6455.8960691878	112341.302115517	112526.64908841	-93.2889882032006
1101.762	-5769.44967104155	131294.166199893	131420.868311056	-92.5161254333487
939.101	-4218.01476590394	154446.858439822	154504.445665799	-91.5643852398569
801.2801	-3137.28874918777	180030.419629556	180057.753436751	-90.9983602340471
684.3433	-2836.85479155723	209586.261974986	209605.460219327	-90.7754796517412
582.9476	37.0955693484243	245135.496926523	245135.4997333	-89.9913296133252
497.0677	4247.35772398652	281291.763979377	281323.828585964	-89.1349295969431
423.5089	-75908.8702244971	294756.651607096	304374.178020059	-104.441611685422
361.5036	-79200.2607968402	355038.33296349	363764.895480284	-102.575373555122
308.1262	-78379.0063699122	420898.094838541	428133.71144801	-100.548707242185
262.7298	-85183.1012854686	503963.535176414	511111.930531972	-99.5938157808202
224.2111	-74122.7867826865	603384.223977551	607919.985907211	-97.0034162932542
191.2854	-68776.4084083065	710868.255617118	714187.560237274	-95.5261592100685
163.1722	-56781.1984673714	845039.724569365	846945.240614563	-93.8441270109029
139.1537	-25824.9518765954	922353.102216362	922714.5676251	-91.6038047361619
118.6706	-50440.4678963088	1127426.13391184	1128553.91020057	-92.5616755780616
101.1982	48393.4964854105	1251688.43681757	1252623.59604348	-87.7859004683076
86.24196	-280811.790948192	1425580.4903349	1452974.53396782	-101.143494729311
73.61024	479145.295025877	1001008.72712985	1109774.15969897	-64.4213118364473
62.69291	224001.315388978	-91079.2084426136	241809.866437508	22.1267190450581
53.57697	856591.420927458	-216547.75466857	883539.355353524	14.1872256891965
45.65746	434191.144179023	1073535.90061803	1158016.09643357	-67.9791505610917
38.96512	1930803.97333426	790726.205300972	2086444.80281484	-22.2706746910848
33.18414	1246112.43034358	3195176.56802167	3429569.86951593	-68.6943164809739
28.30617	4104848.48215073	6179772.3667099	7418852.17306333	-56.4063198319212
24.17237	1641478.27980146	4000173.6713193	4323868.67790595	-67.6891193251964
20.61345	-462441.166071272	2650606.18312602	2690643.96940644	-99.8965666797673
17.55618	-874374.311935085	3280533.831818	3395060.03762444	-104.92432862782
14.98558	2720950.53730698	4651258.78712444	5388671.46254747	-59.6726949261825
12.76553	5253693.07762148	7788808.04747645	9395042.40300606	-55.9996172002035
10.8809	5779221.76273315	-3773578.79317209	6902122.94088758	33.1427780368102
9.278505	6190891.38290112	5401031.39132817	8215733.45508431	-41.1019582225125
7.923394	546554.18181955	7142617.3196711	7163498.00369414	-85.624245298838
6.75822	-599212.448853832	4740930.41959773	4778648.00987983	-97.2034931553139
5.761429	2936689.16899354	2885622.32524467	4117154.29383384	-44.4974780037963
4.919708	3867850.49299142	4074216.21732723	5617784.72546485	-46.4884318573626
4.191257	5166222.5466429	5307777.17976134	7406912.58159813	-45.7742972615115
3.564097	12646591.2514952	-8000226.0817455	14964621.1993968	32.3174208737683
3.051758	12783922.887084	1879397.58035727	12921331.961062	-8.36329304818609
2.604164	34800670.6958378	14075103.4155501	37539249.0207059	-22.02083071494
2.214424	10207660.8518337	18026657.8077224	20716098.3725888	-60.4791330228292
1.892567	4325281.41717485	15810506.9319734	16391466.9503293	-74.6999454979762
1.607507	17608227.7056196	-8290759.4300769	19462434.9674021	25.2132025803822
1.376413	-4397940.51387576	61014613.725362	61172910.4164476	-94.122756386675
1.17375	39994147.9213054	30305793.1343874	50179407.7830292	-37.153236230874
1.001604	33223834.3349274	11322725.9513398	35100246.3080225	-18.8191769332167
