EC-Lab ASCII FILE
freq/Hz	Re(Z)/Ohm	-Im(Z)/Ohm	|Z|/Ohm	Phase(Z)/deg
6999984	27.7794957924985	95.2102581085119	99.1801070556737	-73.7343397258422
5969734	17.9379171082434	97.1672696973871	98.8091451770887	-79.5404648385799
5091109	14.7526617101402	102.446532979851	103.503300175046	-81.8055388900706
4341796	13.3617312371432	112.222894374041	113.015547086853	-83.2100876290543
3702781	14.0755147785829	124.7861548872	125.577484318704	-83.5644047295632
3157797	13.5239012354016	140.462541805259	141.112088621135	-84.5004458794685
2693047	13.1105102454454	160.292850533773	160.828117601178	-85.3241300057485
2296687	12.9076057090674	185.143004843092	185.592398894647	-86.0119658388031
1958656	14.2370002652002	213.425854776879	213.900181542216	-86.1836239942243
1670375	15.2862519255097	247.737367890034	248.208527144037	-86.469128863538
1424531	17.0695478167705	287.594286679647	288.100404708921	-86.6033155791576
1214875	19.3120558887137	334.370722986616	334.927956273048	-86.6944731643629
1036062	21.2469548563316	387.887947966109	388.469423852155	-86.8646989252963
883578.1	23.7849707946887	452.429355793044	453.054132327488	-86.990635048666
753531.2	27.0496636623219	527.270930451815	527.964315464376	-87.0632288013091
642624.9	71.8141041630939	694.062514543453	697.7678981231	-84.0926718166739
548046.8	88.3859241449135	801.261239012281	806.121358562374	-83.7052377556064
467390.6	107.575940486378	921.025616460811	927.286778266867	-83.338029104707
398593.7	127.018549962828	1059.30814952542	1066.89618411804	-83.162474836279
339937.5	147.825439478459	1219.4204520374	1228.34791464149	-83.0879903229119
289906.2	167.626230498552	1404.56188072619	1414.52911950948	-83.1942739939087
247234.4	190.017120850898	1619.51956493496	1630.62875217616	-83.3081207078012
210843.7	207.987802107358	1873.25379806555	1884.76489721993	-83.6643858648136
179812.5	231.81325711636	2166.52220769031	2178.88867604341	-83.8927095461732
153343.8	251.385049830743	2514.08729879339	2526.6241092083	-84.2899411855374
130781.2	275.062207717194	2918.37177816387	2931.30569093324	-84.6156676920693
111531.3	309.945049175146	3396.34524999737	3410.45847221277	-84.7857215656641
95109.37	333.636943003019	3949.42124120931	3963.48858333813	-85.1712648660076
81109.37	377.573488945893	4591.34294733405	4606.84184660044	-85.2988052712037
69171.88	962.883578075442	5893.73721204169	5971.87433805605	-80.7213308543446
59000	1073.12653666798	6749.6040947612	6834.38044007781	-80.9660984244245
50312.5	1097.54473955526	7749.48761446995	7826.82328548106	-81.9389234647771
42906.25	1467.77347376244	9124.2695916434	9241.57208224169	-80.8614190352541
36593.75	1573.14894745877	10360.9640133064	10479.7124433794	-81.3664813316619
31203.13	1706.14837666783	11954.0299781153	12075.171841464	-81.877273206021
26609.38	1835.12450728734	13802.858812993	13924.3166212444	-82.426797027331
22703.13	1984.6055128143	15980.142281992	16102.9067684751	-82.9205720551747
19359.37	2164.68624489449	18531.1563825746	18657.1601111818	-83.3372842595734
16500	2323.49827943115	21541.0490986604	21665.9973351198	-83.84366435891
14112.02	2571.42405945431	24972.8122654912	25104.8516056361	-84.1210332275328
12011.13	2802.4842423428	29083.2013728843	29217.9143681461	-84.4959195128869
10236.38	3112.40065254063	33839.5003516272	33982.3310246621	-84.7449842664303
8750.684	3452.51047030997	39476.0769813831	39626.7647226932	-85.0017266544284
7449.463	9446.85186504709	51904.3556115654	52757.0387873692	-79.6847929071734
6363.206	10076.6246962715	57923.2594565917	58793.2168820958	-80.1312989169189
5414.761	10896.5616782557	68185.2113754691	69050.4026543324	-80.9204336881525
4620.567	12954.8924793704	75645.5827869149	76746.8789875135	-80.2819295212587
3941.215	13069.3025712185	89497.2166785996	90446.4397470363	-81.6918067677372
3361.769	15400.6686132669	103511.077128427	104650.483429475	-81.5374519377289
2867.244	15461.1620853769	119707.899403596	120702.231597646	-82.6405675806943
2442.658	17460.0814617941	136859.39392285	137968.649154735	-82.7296625178371
2083.003	18747.194015895	159808.929342411	160904.789179929	-83.309209327612
1777.843	20228.3132217661	183865.335439169	184974.71781829	-83.7217389401062
1513.548	25950.2739380546	214451.203270191	216015.590413036	-83.1003089155073
1292.065	28676.1853873686	249155.512549525	250800.305107843	-83.4345151974071
1101.762	26807.0929713899	290009.418941865	291245.743846284	-84.7188573909723
939.101	64632.0627543532	398873.402509565	404075.852737379	-80.7959872550501
801.2801	93412.9903742664	450918.027060147	460492.186577013	-78.2960578033353
684.3433	101377.20322556	498296.445687623	508504.360963359	-78.5002599615199
582.9476	102674.972834511	591855.2577191	600695.260624145	-80.1582852290695
497.0677	118157.177082438	653443.578618815	664040.382005683	-79.7503965747159
423.5089	125053.221078198	761302.300773277	771504.699444351	-80.6717700050658
361.5036	153587.902610394	893776.866440932	906877.241313968	-80.2494428142748
308.1262	156877.23674889	1019790.26140828	1031786.14289645	-81.2545826742728
262.7298	175159.95219803	1182321.75470873	1195226.22984586	-81.572975321027
224.2111	204468.376728193	1367509.26106862	1382710.70589271	-81.4961989764795
191.2854	195593.304053429	1578915.92383829	1590984.67470327	-82.9382764510443
163.1722	240167.627065978	1940123.08232956	1954931.72864897	-82.9432611838619
139.1537	256635.188326642	2085293.86913787	2101026.4492746	-82.9839411873162
118.6706	158536.689992204	2414973.31487276	2420171.48020986	-86.2440710416106
101.1982	409033.611411968	2814462.30627139	2844029.9873045	-81.7309397851446
86.24196	3629285.76403528	636704.087552095	3684712.64173133	-9.95043197732208
73.61024	303130.462007926	3686241.40033068	3698684.05497266	-85.2989771585423
62.69291	552252.50561257	4448437.71779407	4482586.41400791	-82.9232076610323
53.57697	831969.208559441	5550419.69457251	5612426.52957608	-81.4752287211777
45.65746	1347699.25749094	5353611.3084209	5520638.30822975	-75.8701544987514
38.96512	1549653.31154713	6957917.33086399	7128396.66188172	-77.4441268577553
33.18414	1804994.09020116	7692971.70813718	7901886.94982788	-76.7955959294467
28.30617	1852391.34112288	9596773.33898176	9773914.88608623	-79.0749939258157
24.17237	2686028.17526062	11278808.180345	11594233.9689741	-76.6046290963296
20.61345	2330750.84890309	9794450.25030128	10067951.8883082	-76.6144839704059
17.55618	3592132.74225069	13750309.098468	14211770.4013737	-75.3592480328333
14.98558	5643677.73550982	16317469.0035951	17265888.134283	-70.9211742475294
12.76553	4937011.44607847	15685175.0554905	16443807.3006251	-72.5282635670919
10.8809	8342036.93466013	16913530.0916577	18858872.7229558	-63.7467113284603
9.278505	12486586.7135168	22956220.4854062	26132411.039335	-61.4568855002199
7.923394	16988192.0363148	23299960.6919022	28835513.4670236	-53.9039037433756
6.75822	17507700.3762745	27877722.8526954	32919401.6336431	-57.8704561815985
5.761429	-1053440.51887739	31525881.0332567	31543476.5339819	-91.9138321991071
4.919708	36228215.9622346	47879347.608721	60040949.0201733	-52.8867947950373
4.191257	27092456.0929802	28238673.5938708	39133411.0893905	-46.1867466599144
3.564097	27104549.0718076	28070224.7712299	39020431.8158243	-46.0026954273845
3.051758	15356630.4549363	40633608.9869167	43438649.5903258	-69.2969534898925
2.604164	69657561.5890581	6898557.2963001	69998328.4036395	-5.6558617743445
2.214424	39172606.890323	15460754.3343211	42113276.4715596	-21.5382971190367
1.892567	39596353.3911217	15897631.902055	42668558.705068	-21.8750817110146
1.607507	71051811.1103938	-17026400.7460156	73063384.70418	13.4758813978077
1.376413	55868511.1616555	25606064.3391327	61456985.5293914	-24.6232795049376
1.17375	59480074.5039656	27344791.0756059	65464622.9803994	-24.6896738542373
1.001604	60214534.52479	24520915.3076817	65015886.1784074	-22.1574238532992
