EC-Lab ASCII FILE
freq/Hz	Re(Z)/Ohm	-Im(Z)/Ohm	|Z|/Ohm	Phase(Z)/deg
6999984	16.7269229621846	95.4280495531976	96.8829324149016	-80.0580176149216
5969734	15.0425725601784	93.9877236819406	95.183880947044	-80.9070264757465
5091109	11.7306536320547	99.7504570320282	100.437850996194	-83.2928227346712
4341796	11.7601482407846	109.994338480795	110.621225741143	-83.8973505043137
3702781	14.3120674740088	120.734199911381	121.579530775628	-83.2395949555036
3157797	13.8239218853473	134.672299783005	135.379943659081	-84.1391959896385
2693047	13.5090638461443	153.416454449315	154.010075325604	-84.9678075529567
2296687	14.7490965159402	176.722028845037	177.336435419072	-85.2291908990953
1958656	16.4935341025217	203.099463822695	203.768076185297	-85.3572469663071
1670375	18.4971731040234	234.610406185876	235.338454366348	-85.4920066397219
1424531	20.8375975020958	271.946950858397	272.744110020435	-85.6183438335482
1214875	23.8794827220568	314.957525287057	315.861476647628	-85.6642377529382
1036062	26.9135832770883	365.879644673592	366.868171624749	-85.7929813695041
883578.1	31.002595634661	424.677966140919	425.808097459024	-85.8246659355748
753531.2	35.4025185426765	493.926427013481	495.193551675976	-85.9002963645321
642624.9	94.0405272426436	656.907542189562	663.604656214531	-81.8530943870665
548046.8	112.548676923938	758.322674926192	766.629300238742	-81.5579065310151
467390.6	120.369394790189	843.108049305192	851.657192774982	-81.8748667832815
398593.7	156.845228158163	948.040768745632	960.927533583982	-80.6059944501847
339937.5	206.103971948516	1133.39264640155	1151.97992090577	-79.6935591614389
289906.2	207.34237717019	1299.33719417219	1315.77657888026	-80.933439830102
247234.4	234.760052092908	1494.01406169921	1512.34595863963	-81.0699183769022
210843.7	260.004661802682	1721.28440212616	1740.81085048375	-81.4102553072099
179812.5	293.78795665176	1987.45601668301	2009.05270755228	-81.5913672662507
153343.8	327.993703106387	2300.09146586912	2323.35976995415	-81.8843205869011
130781.2	370.597182958271	2660.69755335252	2686.38302228716	-82.0705318703186
111531.3	419.988619519051	3083.2648970848	3111.73791732544	-82.2431640539915
95109.37	532.346734695929	3410.673171414	3451.96821076682	-81.1287038466826
81109.37	528.476584563344	4157.78687069074	4191.23838054101	-82.7562477595312
69171.88	635.418275600067	4820.42287792279	4862.12228424667	-82.4906818214881
59000	1286.92364892725	6039.26937523286	6174.8641333064	-77.970617775701
50312.5	1544.58944072839	6964.58328828078	7133.80522020398	-77.495463876199
42906.25	2004.37600512912	8080.64289356777	8325.52177003367	-76.0691427410003
36593.75	2232.35153698594	9139.03422615346	9407.72767311468	-76.2734021949645
31203.13	2526.66307326768	10466.0639558001	10766.7321417741	-76.4276424334137
26609.38	2906.00890062105	12039.5721371816	12385.3213513776	-76.4299915603737
22703.13	3352.75450093742	13831.4775681384	14232.0319863845	-76.374300062687
19359.37	3949.97744756558	15959.2321113845	16440.785000155	-76.0984208843315
16500	4679.93933479414	18393.0786007872	18979.1246529467	-75.7245659230087
14112.02	5617.89207405104	21116.7970379774	21851.3118255819	-75.1021618701581
12011.13	6829.60228732873	24254.0982752679	25197.3163362577	-74.2735503068399
10236.38	8374.79608929332	27831.0724166912	29063.8228972094	-73.2526541074757
8750.684	10325.8774911132	31717.27832319	33355.8014473071	-71.9668222236431
7449.463	12859.8241476366	36176.0673345249	38393.7875821105	-70.4307796706769
6363.206	22832.2698848722	43622.3005311026	49236.344824951	-62.3720709863824
5414.761	27150.0468783627	47868.278627703	55031.7830374112	-60.4388540898315
4620.567	31962.3932002674	52400.3934827411	61379.1154728919	-58.6182806958033
3941.215	37899.1947816751	56657.5914844119	68164.7389631462	-56.220784638702
3361.769	44315.5734518763	61163.4509372485	75530.3765442874	-54.0750405072032
2867.244	51515.644151256	65323.9296923914	83193.0128242471	-51.7400426863947
2442.658	59449.0814257413	69144.2474134448	91187.2810908193	-49.3116011787784
2083.003	67813.3721146087	72437.4087952924	99226.1640422056	-46.888344939208
1777.843	76604.8200868363	75047.8440256482	107240.278596405	-44.4117807063786
1513.548	85519.7482616214	77188.5557772393	115202.86665577	-42.0688302313738
1292.065	94727.5681631024	78626.7556922255	123107.590670844	-39.6937024465944
1101.762	103243.073827724	79450.4357497069	130274.725231778	-37.5799866558434
939.101	111650.322592781	80123.9348365943	137425.032176714	-35.6644626960061
801.2801	119566.902231099	80815.2169940951	144316.81609204	-34.054743500164
684.3433	127187.700083819	81813.1808666726	151228.660035505	-32.7510525218572
582.9476	134343.829683373	82853.9565938973	157838.660337886	-31.6634067393603
497.0677	141085.146094616	83797.8097598002	164094.763381038	-30.7082803652993
423.5089	147429.460419585	85790.3178097653	170573.809330479	-30.1954487611895
361.5036	154079.695550564	89013.0045000172	177943.439190869	-30.015350937446
308.1262	160531.444056308	92883.2007285575	185465.990166351	-30.053595870271
262.7298	166993.344883211	97721.5545343476	193484.571622371	-30.335416620962
224.2111	173356.910107104	101968.407176813	201122.287039649	-30.4640112685012
191.2854	180315.484576698	109066.469032429	210734.830166565	-31.1682623423862
163.1722	187183.087748694	117020.169722771	220751.508400467	-32.0121489605226
139.1537	194702.184270067	126859.961091139	232384.143795528	-33.0866167137315
118.6706	209876.523322206	129568.498214542	246649.854594298	-31.6893502683239
101.1982	217563.647972335	143247.470445429	260487.578798	-33.3615619708809
86.24196	226903.726534549	156478.453654409	275628.02392598	-34.5911122104978
73.61024	236952.784395701	173715.447326958	293808.915237235	-36.2459862101741
62.69291	248063.767749621	191428.523042084	313337.69690896	-37.6570380201326
53.57697	259569.335309258	211633.130269984	334910.16953918	-39.1911898123749
45.65746	273783.530530899	236062.22604646	361500.755401664	-40.7686400251952
38.96512	289200.994394263	261711.605095966	390038.689620065	-42.1434293362998
33.18414	305869.383494016	291276.845815932	422372.206315103	-43.6001344233743
28.30617	324147.24558702	324623.791746322	458750.523693882	-45.0420858472241
24.17237	344942.990124754	361351.782128762	499560.583797239	-46.3308684637016
20.61345	367483.349374995	397082.570953538	541034.731069029	-47.2170279079627
17.55618	396559.205106697	445131.374342787	596155.301560888	-48.3027542818459
14.98558	428312.745403009	497796.845063667	656698.946877489	-49.2907455150356
12.76553	460915.54191385	545657.072335732	714272.201172452	-49.8122803480535
10.8809	494155.604703559	609563.48629502	784702.112577811	-50.9693113195407
9.278505	537109.439939224	683901.111140936	869601.794094075	-51.8552816877294
7.923394	599498.900113359	752252.489464819	961916.180934257	-51.4473128192844
6.75822	631553.101046407	864498.134179804	1070614.93705332	-53.8502634345954
5.761429	702041.375512207	900612.028339925	1141912.48286444	-52.06301899551
4.919708	798045.180563378	1039408.98790549	1310437.77202855	-52.4833981297975
4.191257	887450.564677867	1082332.77036107	1399647.35935325	-50.6502196642764
3.564097	918645.119951049	1194511.50928289	1506906.30173849	-52.4377333935255
3.051758	1052727.29063706	1331011.92080297	1697005.44541603	-51.6587342456877
2.604164	1166195.76913726	1522259.22409736	1917625.019993	-52.5444410532907
2.214424	1225795.47092959	1731633.0212258	2121586.07102119	-54.7059300649997
1.892567	1397171.46468964	1810519.21269089	2286934.17510558	-52.3427541798267
1.607507	1513628.78701907	1971810.71288874	2485781.48523872	-52.4889329020984
1.376413	1693139.14353861	2166841.85560047	2749895.23192517	-51.9964412997158
1.17375	1853916.39143712	2377400.51747326	3014803.34465141	-52.0526026227945
1.001604	2057469.08640598	2606878.33481593	3320992.87774739	-51.7178634901452
