EC-Lab ASCII FILE
freq/Hz	Re(Z)/Ohm	-Im(Z)/Ohm	|Z|/Ohm	Phase(Z)/deg
6999984	-14.6105639877627	30.9620511462559	34.236197090563	-115.261976942247
5969734	-15.0186327776308	33.2880836310434	36.5192530364008	-114.283536915502
5091109	-15.3391196303346	37.2657346143803	40.2991757655555	-112.372779964521
4341796	-14.5775840474442	43.04676442936	45.4481009999	-108.708428385761
3702781	-13.2030148184256	49.5078690212	51.2381566346395	-104.932407332731
3157797	-12.9429701302451	56.7086353471692	58.1669132645925	-102.856753128311
2693047	-13.0490630180623	65.6734124343548	66.957263582245	-101.238090061287
2296687	-13.146047336762	76.7118088628155	77.8300724629338	-99.7242782707715
1958656	-13.1903244274064	89.4255532246104	90.3931094056834	-98.390661706825
1670375	-12.9851130705777	104.426697626052	105.230928621478	-97.0881567511541
1424531	-12.6108013090561	122.19922131317	122.848207146875	-95.8919927622595
1214875	-12.4802531352143	142.90800987441	143.451929246641	-94.9910166294163
1036062	-11.7617742554479	166.686057244011	167.100511708343	-94.0362397596103
883578.1	-11.2073201051218	194.798028036046	195.120157212602	-93.2927697246485
753531.2	-10.1380227924021	227.825804849246	228.051259284719	-92.5479245909784
642624.9	-9.1259453360641	266.108257916087	266.264695011208	-91.9641378935196
548046.8	-7.07270556727047	312.032681328613	312.11282796637	-91.2984755271366
467390.6	-5.07205452520125	363.208504642092	363.24391747344	-90.8000595411523
398593.7	-4.3493843881187	425.283244440361	425.305484500583	-90.585945213112
339937.5	-1.05992564638391	497.226328313813	497.227458021791	-90.1221358779536
289906.2	-129.951527740186	493.894152449584	510.704252367161	-104.741325908055
247234.4	-138.157528130385	599.109650688973	614.833210007203	-102.985668632215
210843.7	-143.755129914754	721.314195617539	735.499630303228	-101.271149726066
179812.5	-147.063046162821	863.062843428485	875.502719158284	-99.6701337591316
153343.8	-147.0003366212	1027.41994436009	1037.88286479527	-98.1424563899743
130781.2	-144.543306368816	1217.90171076262	1226.4490794544	-96.7683317099121
111531.3	-140.189568211123	1440.48341939828	1447.28905081072	-95.5585886212729
95109.37	-132.721484607366	1690.88588303273	1696.08669056619	-94.4880742768504
81109.37	-123.557997296309	1993.77695726341	1997.60184571661	-93.5461889574349
69171.88	-102.749494548626	2332.08075952187	2334.3431897564	-92.5227717437722
59000	-74.9230904132481	2725.90424309658	2726.93370143262	-91.5744120012716
50312.5	-87.5782058193836	3202.18798469634	3203.38537042738	-91.5666197752579
42906.25	-50.1827351981842	3757.18622542703	3757.52134251432	-90.7652237072084
36593.75	-22.1165464674773	4380.62787159718	4380.68370132353	-90.2892676667932
31203.13	-929.055537596896	4766.40710489405	4856.10758545607	-101.029648015418
26609.38	-929.471903594458	5682.643420158	5758.15545641454	-99.2892314169287
22703.13	-912.755380952829	6741.82990337898	6803.33688946486	-97.7102170293276
19359.37	-879.916025818779	7957.41721071517	8005.91911512218	-96.3100227695869
16500	-826.607032219866	9353.86484699598	9390.31771355913	-95.0501458738738
14112.02	-792.315163684331	10946.9572093485	10975.5927157448	-94.1397159374109
12011.13	-684.437542165888	12876.8295988397	12895.006602041	-93.0425590555149
10236.38	-620.804221187734	15118.4354739207	15131.1760633517	-92.3514000672486
8750.684	-448.340754204469	17596.3540513049	17602.0648030496	-91.4595339633479
7449.463	-360.523386967949	20616.1146211996	20619.2666985756	-91.0018552765974
6363.206	-246.67728745633	23967.781841345	23969.051213564	-90.5896694387803
5414.761	94.1064269402154	28172.71563889	28172.8728121459	-89.808613372458
4620.567	97.8550895502954	32538.7964870431	32538.9436282704	-89.8276928670358
3941.215	510.318523106939	38197.1465671031	38200.555373761	-89.2345669575164
3361.769	-8695.43949296386	41187.591828417	42095.4675541213	-101.921113048862
2867.244	-8813.77844219595	49226.6336257131	50009.4405942349	-100.150959940805
2442.658	-8535.44105657518	58539.7356169641	59158.7220968669	-98.2956080086128
2083.003	-8219.69712103228	69143.9921338709	69630.8485440922	-96.7793897953581
1777.843	-7763.74665069817	81318.6134396559	81688.3875089013	-95.4536800489844
1513.548	-7011.35691710699	95859.9315653114	96116.0007778375	-94.1832607298408
1292.065	-6282.59330267913	112335.857367609	112511.403107075	-93.2010391816481
1101.762	-6099.31783094812	131698.481515964	131839.643930093	-92.6516299518971
939.101	-4402.82826729149	154320.536776922	154383.33125007	-91.6342287950833
801.2801	-3049.3249907149	179654.190528822	179680.067223566	-90.9724052459277
684.3433	-2654.68970297297	209074.220337495	209091.073427707	-90.7274657885093
582.9476	520.034864667884	246073.674804521	246074.224306532	-89.8789152939205
497.0677	1965.2042815806	283479.53853209	283486.350278518	-89.602806932447
423.5089	-78020.5490839854	296361.3300336	306459.204493275	-104.749118134069
361.5036	-78157.7525458475	356277.050725192	364749.189384239	-102.37317674922
308.1262	-82414.1049800371	423318.287058313	431266.109099295	-101.016871056587
262.7298	-82328.6873633197	509095.250363045	515709.207504752	-99.1860990138051
224.2111	-68216.502653133	601357.468152346	605214.256058815	-96.4718260509319
191.2854	-65915.6477208695	707930.352823694	710992.445152227	-95.3194933333648
163.1722	-77534.3112248221	821332.826932588	824984.35258748	-95.392774635362
139.1537	-79972.06596364	946946.200485776	950317.124937218	-94.8273225873474
118.6706	-37683.989056329	1154560.28744999	1155175.11243439	-91.8694279699845
101.1982	-65401.0080792654	1346758.51581188	1348345.57579636	-92.7802016811245
86.24196	50387.9175526066	1606162.81985103	1606953.00059059	-88.2031283347219
73.61024	658729.805983707	1261940.59584828	1423523.45422942	-62.4355547100829
62.69291	324199.902855142	191753.145826302	376662.774833891	-30.6028618605732
53.57697	692428.126376453	537479.089682221	876550.33058167	-37.8194600958963
45.65746	56472.3888456926	1571436.86586318	1572451.25650871	-87.9418595801422
38.96512	3006495.19257631	533983.973619751	3053547.48236657	-10.071285965049
33.18414	1190746.30495536	2830405.21553269	3070679.15075468	-67.1835986625525
28.30617	2072016.63556813	8847623.33492073	9087006.74670735	-76.8194882695037
24.17237	-1415941.27563288	3147455.01641958	3451284.22133351	-114.22148558629
20.61345	576469.839668018	2879926.55994674	2937055.40750146	-78.6807989627657
17.55618	464952.682178608	3345613.93867377	3377767.55021912	-82.0880643788496
14.98558	-1256122.56946059	8692890.35555126	8783176.34134397	-98.2223267066156
12.76553	901668.912312255	7877500.10692544	7928935.28552482	-83.4702677638232
10.8809	1010368.32489235	10992557.1515474	11038892.919219	-84.7484793089806
9.278505	673195.823891234	12923863.9682338	12941385.2615057	-87.0181943186118
7.923394	1775987.81017003	14777113.1686314	14883454.1118791	-83.1467757926924
6.75822	13347897.5386124	-1516840.58804469	13433807.1324116	6.48321798713356
5.761429	583996.82250567	4935999.44448016	4970426.82318181	-83.252486505894
4.919708	369896.962964813	9544320.91380116	9551486.03458293	-87.7805719608129
4.191257	8135578.40800497	156415.512437665	8137081.89987835	-1.10143916845682
3.564097	-4103886.40690933	16139927.7749585	16653502.7012845	-104.266229304333
3.051758	8208659.29925412	4537373.04347475	9379223.93521353	-28.9318189919182
2.604164	6277164.1025857	32160787.1504861	32767652.0261929	-78.9558187044285
2.214424	31303746.4354954	37931432.3548804	49180464.6317078	-50.4680992995161
1.892567	14977953.5723935	-12920192.1470785	19780557.5840067	40.7815143868518
1.607507	14705039.0524479	21021189.0597708	25654016.508544	-55.0258983456905
1.376413	22233693.0485676	-52029788.8020514	56581233.8975034	66.861710973248
1.17375	-17051267.6208326	51511194.2368409	54260011.6032314	-108.31560852142
1.001604	20281506.0430412	58876949.2300299	62272262.1879873	-70.9925647888027
