EC-Lab ASCII FILE
freq/Hz	Re(Z)/Ohm	-Im(Z)/Ohm	|Z|/Ohm	Phase(Z)/deg
6999984	29.3306299510072	102.485436586226	106.599955748548	-74.0292411029961
5969734	18.5950406670302	98.3990145075746	100.140609112739	-79.2986766490347
5091109	15.5523183637522	103.694577689058	104.854375438508	-81.4702439883601
4341796	13.6245850330266	114.327331359571	115.136301890947	-83.2040142764259
3702781	16.2454573798622	126.467135389546	127.506279136044	-82.6801016685583
3157797	15.5853471804604	140.742428075378	141.602733403309	-83.6810016408724
2693047	14.7151207069994	160.005581128079	160.680803985902	-84.7454999284459
2296687	15.1135700349461	184.72371923839	185.34096268355	-85.3226403154812
1958656	16.4294864036292	212.600688175851	213.234567170364	-85.5810442810852
1670375	17.8229109686695	246.27390962487	246.917991886609	-85.8607049808885
1424531	19.0003710011284	283.009252608128	283.646348751384	-86.1591014005927
1214875	18.5638741567539	336.165908688487	336.678088963425	-86.839202303413
1036062	18.7174535693546	379.030785001599	379.492660070059	-87.1728929232972
883578.1	16.618892402365	450.290206104465	450.596779058931	-87.8863399697941
753531.2	40.9237547694185	524.244711808205	525.839587291881	-85.5364108688445
642624.9	75.0968046453139	706.373508676611	710.354181959988	-83.9314987889036
548046.8	113.826028774108	815.398200027821	823.304675946332	-82.0531139533467
467390.6	116.830991588019	888.472418895443	896.120929190563	-82.5087872878142
398593.7	111.056365322077	1078.87060481716	1084.57148137736	-84.1228093966977
339937.5	155.54499350125	1256.94687268877	1266.53451818945	-82.9456103108219
289906.2	237.338464753195	1387.13921266538	1407.29696303422	-80.2907530713038
247234.4	201.766627872872	1664.94181954773	1677.12284421926	-83.0902821540925
210843.7	263.054491242676	1913.75940134278	1931.75379165949	-82.1734923861036
179812.5	307.246110425153	2101.93107262461	2124.26796954532	-81.6837853586053
153343.8	350.548751433063	2511.46620825548	2535.8128760499	-82.0540306858189
130781.2	317.418692911649	2813.79028134115	2831.63740157169	-83.5637744759886
111531.3	426.72480882727	3343.4618861982	3370.58325025932	-82.7266831373025
95109.37	284.563620956981	3859.93150837328	3870.40665869944	-85.7836421574434
81109.37	442.926048478864	4660.07387845765	4681.075948658	-84.570518617813
69171.88	964.275428704706	5915.37828984254	5993.45705034616	-80.7415562645127
59000	1349.29620722567	6824.06144896043	6956.17818302705	-78.8153867488419
50312.5	1125.11452492969	7867.3568863377	7947.40127785259	-81.8612876835369
42906.25	1454.98615128659	8966.19596497174	9083.48252504023	-80.7826946342031
36593.75	1940.38186974013	10162.243796191	10345.8339815425	-79.1900438510779
31203.13	2109.82780063057	11768.8213206944	11956.4429755151	-79.836397539765
26609.38	2111.51397199315	13631.1334900479	13793.7047770868	-81.1946512889021
22703.13	2343.09330114495	15643.5077003497	15818.009337106	-81.4815312569241
19359.37	2668.272558379	18167.0876874234	18361.9920893221	-81.6444804538594
16500	3087.88595742393	21239.8404078157	21463.1279229178	-81.728189587728
14112.02	3214.70242771331	24704.068847372	24912.3529461679	-82.5858501112593
12011.13	3741.03084841584	28964.4395271988	29205.0349928494	-82.6404529891353
10236.38	3574.7846078844	32931.935790688	33125.3902605655	-83.8047605246206
8750.684	3915.88869755595	38149.6160392466	38350.0637318061	-84.139367876977
7449.463	12420.059058155	50867.7210058883	52362.0368906802	-76.2789025897977
6363.206	14425.7935994806	57846.5655170936	59618.1907063458	-75.9971792419319
5414.761	15699.7065078413	68135.1487421568	69920.5211547238	-77.0243779770424
4620.567	17727.9033632752	71474.3337831957	73640.0634669016	-76.0699448819135
3941.215	23005.4033225423	85514.5205674855	88554.9649083536	-74.9425931242141
3361.769	26629.846790246	97084.4425868038	100670.441205263	-74.6612708468049
2867.244	29059.1724338214	109758.936242808	113540.563622396	-75.1709168055737
2442.658	33959.5185989566	131736.838897801	136043.535775347	-75.5448290626761
2083.003	36838.7618850955	146207.036542687	150776.629196376	-75.8579504977151
1777.843	44990.8761548268	173580.371730214	179316.269164787	-75.4690840421598
1513.548	52842.4926465491	196486.878780601	203468.480512445	-74.9472340823547
1292.065	65117.467380374	224975.290733396	234209.662479177	-73.8572964686773
1101.762	89119.345023557	254414.121631684	269571.517306724	-70.6950278057913
939.101	109031.211263333	289442.096251207	309296.834952837	-69.3588902275462
801.2801	196488.376162122	367600.823867498	416818.962710301	-61.8748009159884
684.3433	239931.194514925	405744.482937998	471376.244136234	-59.4026599173374
582.9476	275874.772892041	441839.928160897	520892.899198541	-58.0202846450252
497.0677	319628.4734275	469755.847071532	568183.875944651	-55.7680792256132
423.5089	385765.673671481	506567.38723158	636730.455365409	-52.7096820814064
361.5036	454572.897643002	525395.684880611	694749.699505312	-49.1336061101431
308.1262	501289.20604771	545782.294511462	741059.499029694	-47.4331991544877
262.7298	583913.546627583	553149.108418862	804318.945493506	-43.4501799092326
224.2111	643461.424019719	569303.281417288	859155.88249978	-41.5008342507488
191.2854	713447.154882883	580400.152523789	919712.552844701	-39.1288806521544
163.1722	798452.898725057	579924.785496921	986833.212004995	-35.9913007406605
139.1537	849141.103095811	580760.411911199	1028748.39927459	-34.3697327776151
118.6706	913654.396811933	563730.424829594	1073571.77156086	-31.6748429769512
101.1982	967494.498943126	556198.010704382	1115975.73118627	-29.8939469102358
86.24196	1010810.03310825	558472.186682784	1154828.17177732	-28.9206348557573
73.61024	1067827.75859657	555711.676004552	1203773.89441587	-27.4930646725652
62.69291	1092822.6508547	551675.892058195	1224176.30923789	-26.7854388772669
53.57697	1134886.64805698	570333.834270822	1270137.15261465	-26.6816762205687
45.65746	1174630.97124179	585680.855345138	1312547.13550342	-26.5012288925702
38.96512	1209125.04272474	600825.036091516	1350175.5785595	-26.4231920408733
33.18414	1246459.69235417	628259.942152856	1395841.07962818	-26.7497264178964
28.30617	1272782.29760637	671269.168573135	1438949.99001946	-27.8072976457268
24.17237	1312043.66600773	714864.643800855	1494151.94691421	-28.5836783764409
20.61345	1359755.32881853	769183.082337926	1562234.67136191	-29.4958672933348
17.55618	1402503.91453535	831128.830211851	1630273.70790806	-30.651133554813
14.98558	1438347.33173182	915492.170208073	1704983.56602413	-32.4763020703581
12.76553	1485171.62417589	1005550.26773842	1793562.40320934	-34.1003566702344
10.8809	1542141.87631607	1110396.11848136	1900310.79211431	-35.7552077515989
9.278505	1597618.21131656	1231654.61875638	2017264.74440869	-37.6297709586623
7.923394	1667797.87664916	1366520.88606328	2156137.53953745	-39.3296966297698
6.75822	1732529.12365621	1530750.78439163	2311894.27271935	-41.461735610809
5.761429	1820766.34166224	1692463.92474881	2485884.99482704	-42.908499880138
4.919708	1912408.90054906	1901613.80146985	2696932.11869336	-44.8378321228379
4.191257	2032475.13756187	2131105.64569688	2944922.14802501	-46.3570182574714
3.564097	2141017.28692643	2399655.93843119	3215945.21809154	-48.2600689261087
3.051758	2291903.07477895	2683595.00874234	3529093.63365836	-49.5012788568565
2.604164	2425025.85856217	2997323.63861897	3855476.54762926	-51.024934062292
2.214424	2587083.78035856	3369958.14596887	4248484.48180952	-52.4869046315037
1.892567	2795398.65554256	3775037.21478191	4697356.66267716	-53.4802129130322
1.607507	3048967.40930475	4243116.82841367	5224963.41447189	-54.3001900023778
1.376413	3289213.14481801	4752024.18749331	5779330.15068053	-55.3101427078549
1.17375	3570923.1846402	5318912.69833417	6406428.38741692	-56.1240349854162
1.001604	3911433.65674796	5921678.33771126	7096871.67605978	-56.5541257543311
