EC-Lab ASCII FILE
freq/Hz	Re(Z)/Ohm	-Im(Z)/Ohm	|Z|/Ohm	Phase(Z)/deg
6999984	22.2154689120006	94.1873079406271	96.7717729303467	-76.7285025716369
5969734	18.7145448462804	94.6358227208013	96.4685084929085	-78.8138970585745
5091109	15.2171135666954	100.189489608299	101.338513770793	-81.3637311342452
4341796	14.2312278267551	110.725489057537	111.636292362689	-82.6760909639924
3702781	17.0805618277473	121.825331617794	123.016897278939	-82.0188510771978
3157797	16.9585385646199	135.560001587681	136.616639033098	-82.86934962829
2693047	16.6582806347425	154.127381307665	155.024991477066	-83.8313457663147
2296687	17.6377571477005	177.820216140285	178.692808320253	-84.3354340344708
1958656	19.7686003445549	204.210463688966	205.165082408399	-84.4707093699012
1670375	21.9121678208542	236.152395415574	237.16681251626	-84.6988038681427
1424531	25.0139711699736	273.212922561161	274.355608304447	-84.7688766064872
1214875	28.8795058586611	316.444601975843	317.759676451073	-84.785492382546
1036062	32.9839110624885	366.700860650917	368.181286313008	-84.8602060790311
883578.1	38.0380029523364	426.609609150016	428.302052630771	-84.9047821954923
753531.2	44.572196256576	496.290852788367	498.288361534302	-84.8679983050449
642624.9	102.572345824432	661.394273801898	669.300733262609	-81.1845099359283
548046.8	125.62958155667	757.877256064909	768.219192042596	-80.5879462796381
467390.6	155.101634402979	867.784499714837	881.536417251043	-79.8663632324504
398593.7	185.166831867144	990.25484089707	1007.41818801518	-79.4086272499203
339937.5	223.214780249972	1138.18841512518	1159.86969373599	-78.9043097986462
289906.2	259.510234707177	1304.96805271197	1330.52139423485	-78.7527051660546
247234.4	308.964838175382	1496.13996818906	1527.70876663109	-78.33198225709
210843.7	370.342847500958	1721.84478192044	1761.22209778375	-77.8614693157286
179812.5	431.400028082962	1980.80760687057	2027.24067630518	-77.7134170214668
153343.8	516.195569023342	2279.49982055055	2337.21571477032	-77.2404976573658
130781.2	619.868260211302	2629.50191039692	2701.5767538233	-76.7354926567375
111531.3	755.722758137849	3024.81074599716	3117.78718585272	-75.9723128736232
95109.37	938.478591925728	3479.40672416028	3603.74988305718	-74.9051789801921
81109.37	1155.62143859324	4003.45413421392	4166.9060361485	-73.8988932046038
69171.88	1441.43874321431	4561.3716294616	4783.70743174125	-72.4629463784469
59000	2515.91614332639	5497.94873581724	6046.26118704152	-65.4106953570792
50312.5	2907.99620296117	6195.44077301136	6843.97021386915	-64.8557284367155
42906.25	3824.56423281317	6787.70601460933	7791.0361641875	-60.6007146669559
36593.75	4463.80237879991	7380.4441639845	8625.33986198066	-58.8338274183315
31203.13	5262.67536505903	8008.76379212067	9583.1127237439	-56.6905011687282
26609.38	6179.96954411796	8646.12567378122	10627.6767326187	-54.4440482455792
22703.13	7190.4096461756	9243.25290279784	11710.6667233295	-52.1203319637569
19359.37	8357.41658689157	9769.02787363506	12856.1392961771	-49.452967055571
16500	9547.59333108951	10204.2692389552	13974.3926206813	-46.9041700335095
14112.02	10768.4832981607	10543.8438317737	15070.9281496396	-44.3961045811038
12011.13	12008.7813586743	10774.9704290603	16134.1506583881	-41.9002832367801
10236.38	13270.5893519826	10973.4788781435	17219.9239382181	-39.5874187755976
8750.684	14428.6278798237	11101.3280101495	18205.0758329472	-37.5745378272117
7449.463	15599.5638803196	11179.7113465931	19191.9863237059	-35.6279652844563
6363.206	16598.8085001883	11282.8947989007	20070.4797817337	-34.2055631805763
5414.761	17566.5991256502	11415.3904712158	20949.857862325	-33.0172200655852
4620.567	18568.7950366998	11601.6803286144	21895.185214159	-31.9969140127501
3941.215	19506.8121006549	11778.5156871935	22787.0390819808	-31.1242305358304
3361.769	20354.1654022124	12227.4521791114	23744.5285489748	-30.9946962375073
2867.244	21145.8377044432	12708.8191484008	24671.0465195422	-31.0062069596114
2442.658	22045.0009515477	13335.0676263546	25764.4347027678	-31.1698322467449
2083.003	22848.2363368555	14113.9917670075	26856.0359566329	-31.7047800217467
1777.843	23651.1821033949	15074.3415723404	28046.6430919555	-32.511848371968
1513.548	24611.0412945896	16222.8342865179	29476.8333762604	-33.3916307959693
1292.065	25526.882921887	17596.2000330558	31003.9998598735	-34.5792863616063
1101.762	26553.3962523017	19048.6699749125	32679.2698869617	-35.6546078219299
939.101	28457.372948591	20158.9752433042	34874.1502834886	-35.3134515619751
801.2801	29575.8855066208	22325.5294438981	37056.2041829854	-37.0475427064063
684.3433	30807.9940556231	24823.0677262288	39564.0896403829	-38.8595962180208
582.9476	32201.7948644893	27617.832936538	42422.8745914887	-40.6180036912773
497.0677	33856.7912408867	30841.5037372122	45798.2605117428	-42.3316402424223
423.5089	35575.4465198113	34449.249843446	49521.3409537759	-44.0786000189321
361.5036	37576.785755698	38642.1161516326	53900.1666825427	-45.8007851003804
308.1262	39747.9838946571	43222.097309569	58720.115118482	-47.3976815007675
262.7298	42256.3763408061	48305.7080461727	64179.7691745452	-48.8215446470251
224.2111	45282.8834015833	53971.3628551073	70451.7390672441	-50.0027830853565
191.2854	48359.5949377807	60371.9813906787	77352.6118471941	-51.3043254719316
163.1722	52101.9357469866	67659.1535688946	85395.3908020941	-52.4013964101583
139.1537	56308.22420252	75764.3836438502	94397.3407558379	-53.3802031298921
118.6706	60814.0628662218	84735.2504391283	104299.630436922	-54.3331866417994
101.1982	66156.2474916114	94744.5128110865	115555.924945376	-55.0749664512655
86.24196	72289.0466642504	105946.858593203	128259.280808035	-55.6937264925391
73.61024	79193.6443875978	117647.680869551	141818.934297833	-56.0538304667788
62.69291	85635.3433531921	131468.660181181	156899.396560515	-56.920801554481
53.57697	93868.6524681392	146358.783318003	173874.142328612	-57.3255160226496
45.65746	107445.39718964	160996.618383137	193557.289989411	-56.2817759959936
38.96512	117522.780681797	181987.887348616	216636.08914674	-57.1467360018349
33.18414	129351.728074588	201854.504839917	239743.843883529	-57.3475748977622
28.30617	141869.728087177	227975.944875728	268514.526961784	-58.1059418353973
24.17237	155804.932128997	252611.424374787	296795.735482132	-58.3346665872135
20.61345	172258.870220399	277693.26076285	326782.290589182	-58.1878175043215
17.55618	189771.654413632	310484.545169277	363887.253978289	-58.5662561280054
14.98558	210637.335712428	348610.600139876	407305.091701435	-58.8588083781992
12.76553	232639.463605481	388929.675633086	453196.880632142	-59.1141183717095
10.8809	259629.713133815	433775.590397007	505538.179335863	-59.0980182576663
9.278505	287231.74640695	483223.507148751	562145.029334179	-59.2724266105042
7.923394	321464.539078522	537066.446280152	625923.17228631	-59.0971015251941
6.75822	359386.075769591	599729.879243224	699166.84669266	-59.0679952692015
5.761429	390127.749114569	667345.44532817	773013.327200413	-59.6895971811389
4.919708	446762.162520091	734805.809378807	859962.794169883	-58.7003855478455
4.191257	496669.505603912	815403.438133066	954758.275542066	-58.6540332622195
3.564097	565696.446069548	906366.153690966	1068415.68392282	-58.030196814881
3.051758	612964.668571901	986409.953711279	1161348.47556543	-58.1427830216242
2.604164	701012.038923843	1108668.06375306	1311702.23538047	-57.6947873216114
2.214424	784753.253556175	1227798.50511962	1457163.97091782	-57.4151266218081
1.892567	877646.254415631	1364650.98207285	1622508.93703616	-57.2537645179654
1.607507	982298.509894282	1491571.64689931	1785972.09955095	-56.6324548145035
1.376413	1127887.61487333	1659264.56908098	2006312.38395025	-55.7940342137326
1.17375	1223957.78858925	1793194.01603319	2171086.69734433	-55.6842211227179
1.001604	1361540.59379718	1965428.65547035	2390962.69069627	-55.2879176749818
