EC-Lab ASCII FILE
freq/Hz	Re(Z)/Ohm	-Im(Z)/Ohm	|Z|/Ohm	Phase(Z)/deg
6999984	2.24399305434553	0.60819401356472	2.32495264168691	-15.1646744989558
5969734	4.25655561188964	0.857099553061927	4.34199093976118	-11.3848318174321
5091109	6.16885182972093	-1.6444332067941	6.38426921962556	14.9262667604019
4341796	3.79637039236217	-4.77382075525074	6.09932723825069	51.5066024919246
3702781	2.67571922198927	-5.10539581085398	5.76407319006345	62.3411312654453
3157797	3.16730482473734	-4.75815574928423	5.71593089419834	56.3499579736142
2693047	1.45797111667466	-6.48038954120238	6.64237370092821	77.3205971571251
2296687	-0.337167664108766	-6.53649297272883	6.54518314612004	92.9528338647974
1958656	-1.03069236899551	-8.21445660124514	8.278866106735	97.1516977706341
1670375	0.70640519323104	-10.8183586212178	10.8413971218797	86.2640672686606
1424531	10.1179496497295	-6.30975519491704	11.924173587056	31.9484876199056
1214875	-2.67209206566388	-10.3974738469781	10.7353406283162	104.412791908327
1036062	-4.01411618540859	-10.4638686552681	11.2073938087613	110.987654494792
883578.1	11.5440341164832	4.22774251093588	12.2938411581288	-20.1141188459919
753531.2	3.49292370642397	-9.36488625125001	9.99507931523057	69.5454452856408
642624.9	1.71183203573939	-9.66192319549789	9.8123966875725	79.9529944510741
548046.8	5.80061240205539	-4.14321147522076	7.12834521942364	35.5371342851942
467390.6	2.90382408617179	-5.02565238711717	5.80425501159003	59.9806597410654
398593.7	3.41607680979171	5.98068580547119	6.88753827387995	-60.2656489483634
339937.5	2.18652533335659	0.180784513818685	2.19398634313133	-4.72653225205143
289906.2	3.84580574979669	1.10480597869053	4.0013520359648	-16.0280646004384
247234.4	1.93293812876637	-2.09430811703601	2.84997829793873	47.2945892046896
210843.7	3.63707213730937	5.60989164258226	6.68574438439778	-57.0433686860154
179812.5	2.30132069076319	-4.93161810556564	5.44214425211953	64.9840709828248
153343.8	-0.0192238296726373	1.14746934326363	1.14763036268528	-90.9598001744348
130781.2	0.602102055060816	-1.56817238044097	1.6797891235171	68.9956349854333
111531.3	1.43085077603061	-2.00152015678988	2.46036925710422	54.4397052254921
95109.37	-0.0557747354979626	2.73936170037799	2.73992944190497	-91.166408755359
81109.37	4.7975208017583	10.6881246256713	11.7154689986011	-65.8263762374466
69171.88	0.745118541065544	1.1528585113853	1.37269238633905	-57.1244995098059
59000	8.04628255453767	-5.35602508516685	9.66590232003168	33.6498055784553
50312.5	1.65490181491295	-0.234824271863279	1.6714791221126	8.07613806042242
42906.25	1.46626231823611	0.743883840907104	1.64416798248897	-26.9002023236316
36593.75	0.266224675116951	1.31853204724046	1.34514026675334	-78.5848858278607
31203.13	-0.281713263991274	-3.15408150150726	3.16663740918642	95.1039466108365
26609.38	1.58336900557303	0.130013803760252	1.58869789355231	-4.69414753155505
22703.13	1.59406528938301	-0.450993364369407	1.65663489083171	15.7972829301377
19359.37	2.7094729448329	0.519928177727828	2.75890720191471	-10.8625979759042
16500	1.53820057960169	-0.237752952429713	1.55646634704257	8.78642810946815
14112.02	2.3401140102018	0.134445583249568	2.34397295112339	-3.28817556540824
12011.13	1.39782398710283	1.24278838970749	1.87041035083529	-41.6399082963609
10236.38	1.96923356988451	-5.07114248785606	5.44007049447882	68.777739135945
8750.684	1.5459068298345	2.86987688363064	3.25975785200779	-61.6901366186177
7449.463	2.1839862283396	-0.782315983817734	2.31987373451956	19.7078058255748
6363.206	1.2610996937621	-2.24923519826442	2.57864914533142	60.721551465949
5414.761	2.10949867615805	-2.11010392162294	2.98370964149682	45.0082183119539
4620.567	2.72196212032445	6.29104501055552	6.85465718393828	-66.603192416085
3941.215	2.10123215147663	0.0711035889478868	2.10243484435556	-1.93809219442968
3361.769	2.35795030096746	0.323396629733621	2.38002415995208	-7.80948350256854
2867.244	1.56795727399914	-0.618938016819412	1.6856969721012	21.5412134742139
2442.658	1.12382616012412	0.339796614829799	1.17407281615286	-16.8230550003384
2083.003	0.797662463936223	-0.545498678134324	0.966350978795542	34.3671143604914
1777.843	0.650488795259684	1.07979450258447	1.26059186121839	-58.9344388071565
1513.548	1.84977312683817	0.687039467885867	1.97324196468795	-20.375914721743
1292.065	0.698356709942439	0.16876430605751	0.718459104835272	-13.5855856268414
1101.762	2.7201919696927	-1.19732289608695	2.97204079202737	23.7572308792855
939.101	6.92751782643985	3.49919637393813	7.76111322549952	-26.7990466249012
801.2801	2.09852805909101	-1.60637653171774	2.64277611167609	37.4332521645104
684.3433	4.99034000138933	7.03992205809933	8.62925233804065	-54.6685846759131
582.9476	1.62732460941152	3.40809561751763	3.77667858343005	-64.4760866016618
497.0677	2.99993839438697	-0.344594650742692	3.01966485614506	6.55268911979317
423.5089	7.09987516550367	-3.56515315752309	7.94471801905723	26.6631983316757
361.5036	3.01234903671347	-1.69394330764069	3.45596450336071	29.3504849823983
308.1262	4.94265888272966	-4.13581280803061	6.44475169530188	39.921201068729
262.7298	7.85597433641142	-3.95961808448505	8.79743758996538	26.7493081587059
224.2111	4.41213979629708	1.34968219806454	4.61395921284971	-17.0089740752803
191.2854	15.5008783969986	8.24281643954009	17.5562311996194	-28.0024585299042
163.1722	14.3849495051487	3.82163624236745	14.8839401985715	-14.8780409027857
139.1537	7.46068491882948	-1.0122893105158	7.52904702510445	7.72688590682248
118.6706	9.38270955710026	-3.8506495375628	10.142127020208	22.3131709707496
101.1982	24.8210198578037	-1.12405564397561	24.8464590610461	2.59295029566989
86.24196	18616.285189514	1182.15510730045	18653.7815189048	-3.63346800768604
73.61024	12407.5060177608	-177.570977563792	12408.7766130607	0.819936982299916
62.69291	10731.7641891778	-9725.08219444683	14482.6788371787	42.1827457002017
53.57697	-16211.7886738925	10462.1004171392	19294.4975872722	-147.164266975131
45.65746	13435.8449602762	-12945.8317258769	18657.8800744163	43.9359106096327
38.96512	19179.2627055867	14845.3930946378	24253.4495291748	-37.7410737399444
33.18414	21913.0718816146	-5322.16469963607	22550.1254182512	13.6514528549696
28.30617	-3310.56032067175	13370.8222044414	13774.5670008023	-103.906526400549
24.17237	-29699.9299921541	-26822.7877110373	40019.3425999257	137.913977964303
20.61345	27403.4886526561	-61492.2545745385	67321.976820323	65.9802727012188
17.55618	8446.40915003187	-36559.3089081081	37522.3252926603	76.9910318333658
14.98558	66885.5050513071	83199.4425303602	106751.196823882	-51.2035823028138
12.76553	61785.1493763868	-125394.907757217	139790.155500677	63.7694004571474
10.8809	262667.379999645	146274.619812535	300649.990715416	-29.1126272833277
9.278505	25031.7443849497	39737.8983806875	46964.7612010037	-57.7923047383427
7.923394	77743.9546834111	58054.9273700458	97028.3313355309	-36.7503609572278
6.75822	65491.5529347026	51717.3796172473	83449.570761469	-38.2974501364841
5.761429	-15655.9329932477	-71972.2207010762	73655.3378278416	102.272221585718
4.919708	-2299.68619408007	79253.5762412772	79286.9340031709	-91.6620745439267
4.191257	74888.3854210959	41838.0944339327	85782.8445368961	-29.1908990477205
3.564097	-34900.3846780914	89563.9335621266	96123.5405392445	-111.289374069708
3.051758	31427.8133245181	-102322.2370155	107039.934782383	72.9258962769126
2.604164	190422.101266452	-361339.481872236	408444.363176219	62.2112417332892
2.214424	142893.816718639	-93359.2009840763	170688.55633816	33.1584598916629
1.892567	29427.0772321732	-117416.009362366	121047.396209136	75.9302004756811
1.607507	114582.954296389	-66380.8530538657	132422.320880761	30.0848163405277
1.376413	206850.299220928	180059.899998947	274241.889352116	-41.0390531861851
1.17375	248581.096811646	-75688.9769562394	259848.76933471	16.9346557196739
1.001604	397452.217385283	40649.3786726115	399525.514943599	-5.83961449586311
