EC-Lab ASCII FILE
freq/Hz	Re(Z)/Ohm	-Im(Z)/Ohm	|Z|/Ohm	Phase(Z)/deg
6999984	51.4754811665824	30.3433300489994	59.7531826750148	-30.5181385914072
5969734	19.8843891118734	59.9600513822391	63.1711697858536	-71.6530705350295
5091109	100.328405392084	14.9431576047944	101.435136356788	-8.47149612779654
4341796	112.353438476082	51.5053898558248	123.59652228764	-24.6278058715191
3702781	79.7889310411301	17.174659067675	81.6164348080525	-12.1476334484016
3157797	15.8897211114376	83.8943368492494	85.3858477288513	-79.2751280836549
2693047	112.553448107206	109.759172931595	157.211178748361	-44.2798800923616
2296687	122.384162627664	162.527726301102	203.453053746264	-53.0200762373406
1958656	51.4812071177904	142.282030698595	151.309255982643	-70.1086055024749
1670375	148.974505835957	221.219311995554	266.704681977752	-56.0427093559753
1424531	114.894768675088	138.911366142565	180.269729884126	-50.4055609561776
1214875	413.767812406292	421.853567813543	590.90120600698	-45.5543960597403
1036062	88.1720770832662	216.278377359828	233.560809406411	-67.8203266602814
883578.1	427.20410156289	801.905500715916	908.600999598064	-61.954155570614
753531.2	146.159020421152	862.70787309011	875.001333451631	-80.3843170792486
642624.9	1319.59183127468	394.009573392589	1377.15872182253	-16.6248058736451
548046.8	1020.94494452192	577.295495039539	1172.8591852127	-29.4860811741939
467390.6	789.931410212918	1246.71689478819	1475.90468817986	-57.6412730635462
398593.7	1446.65504828912	381.592263836167	1496.13618516497	-14.7766560209373
339937.5	7.6214433361661	-5.56801421715887	9.43870652414164	36.1508236499809
289906.2	20.9826581024633	1.81221364172078	21.0607706252194	-4.93622735661798
247234.4	-9.58927007101015	-13.176452545738	16.2964107147819	126.045558308625
210843.7	16.9344360610869	15.0502603257744	22.6558041256677	-41.6286783235763
179812.5	1224.50504132389	2204.99289042396	2522.18283299364	-60.9551463590239
153343.8	1282.52540680338	2452.35805798453	2767.47745495023	-62.3914942556373
130781.2	1339.81599303464	2787.49998534028	3092.77594782801	-64.3286645609746
111531.3	1395.72066467374	3124.07775056183	3421.680576172	-65.926701147374
95109.37	1475.96681835109	3557.28842270632	3851.33469997011	-67.4657803766544
81109.37	1562.23046969158	4129.11266349377	4414.7633490661	-69.2760978261498
69171.88	1610.25248662022	4675.93907135849	4945.43418414637	-70.9978360005179
59000	6630.22448602019	9052.85654561296	11221.1446996494	-53.7813136935294
50312.5	7126.25060327806	9727.16964950497	12058.2451895361	-53.7730115350779
42906.25	7928.47993021574	10311.363080979	13007.1135380457	-52.4430619010203
36593.75	8602.41891720922	11105.6890388792	14047.7023123157	-52.2387909879002
31203.13	9256.49343052474	11959.3107138113	15123.0877594104	-52.2601680432365
26609.38	9311.20004222893	13230.0670246642	16178.1679958984	-54.8624678642074
22703.13	9662.71221457541	14611.6982828073	17517.6977382731	-56.5233464615767
19359.37	9726.56815144865	15455.9356980225	18261.7654213983	-57.8174002897694
16500	10096.8246389613	18672.1771634547	21227.248239312	-61.5980623009402
14112.02	12143.4120793522	18448.667021641	22086.551831473	-56.6460052663583
12011.13	10414.7947380637	23782.322417231	25962.7966327422	-66.3503461410938
10236.38	847.868923829327	21588.8301990534	21605.4731740722	-87.7509500428046
8750.684	13270.0916359257	30681.3411163803	33428.1322350734	-66.6108700505397
7449.463	16384.345218336	11554.223609004	20048.6122073443	-35.1914516586579
6363.206	0.000604004902233315	-0.000253700113159347	0.000655122636869573	22.7838615290275
5414.761	0.000558068452579699	-0.000187203290564172	0.000588630163823392	18.5439566563256
4620.567	0.000606250625061618	3.74165425885954E-05	0.000607404163672663	-3.53169809819931
3941.215	0.000852656789359427	-0.000508139845855768	0.000992587378212644	30.7927801809252
3361.769	0.00076911068511965	-0.000468696672584907	0.000900670759410663	31.3581634740044
2867.244	6.15716317071508E-05	4.55401395533245E-05	7.65830930533449E-05	-36.4876884560501
2442.658	0.000723656471710578	0.00033359564621809	0.000796846750777255	-24.7490494705467
2083.003	0.000584796385309963	0.000663084503564261	0.000884119828495358	-48.5898519738301
1777.843	0.000442497514786447	6.29254961780353E-05	0.000446949290928438	-8.09349868161489
1513.548	0.000372952859591867	0.000268662982055268	0.000459645116807065	-35.7677383385784
1292.065	0.000211860219274345	0.000264196926673219	0.000338651396829465	-51.2737810918732
1101.762	0.000540325543793092	0.000314351606525896	0.000625114890080785	-30.1900686874932
939.101	0.00100718514362165	0.000204234169989582	0.00102768356497684	-11.4628514803951
801.2801	0.00818788483165282	-0.00593452414820617	0.0101123703888877	35.9343487358245
684.3433	0.00015087385944591	-0.00044636990963795	0.000471178328973538	71.3246511268605
582.9476	0.000261266241170045	0.000474757279473433	0.000541898997220091	-61.1753340396926
497.0677	0.00064976794662483	-0.000208025424995922	0.000682255789206498	17.7526446454704
423.5089	0.000986491270290939	0.000225332723305653	0.00101189913655096	-12.866666833401
361.5036	0.000959941293090838	0.000623325264957671	0.0011445617816944	-32.9971493540218
308.1262	0.00272080355010056	-0.000156751300403042	0.00272531519799415	3.29728731322421
262.7298	0.00160152731062812	-0.00168290471316133	0.00232315690392801	46.419310228958
224.2111	0.00311418851565985	-0.00122545367965697	0.00334662618648281	21.4799642859145
191.2854	0.00442645062641097	-8.91037795421318E-05	0.00442734735836062	1.15319960271114
163.1722	0.000850345136075393	0.00327933258766935	0.00338778822699962	-75.4631252810905
139.1537	-0.00100619937878925	-0.00585117541903589	0.00593706080263675	99.7574525271096
118.6706	0.00457150439550793	-0.00360427458792184	0.00582146439852444	38.2530229890497
101.1982	0.0114759099623426	-0.00782730702894772	0.01389112107748	34.2964973122415
86.24196	0.0109005230670774	0.00414150756542199	0.0116607670438241	-20.8036162566523
73.61024	0.0185697061334841	0.00197359154973818	0.0186742884600499	-6.06663183344984
62.69291	0.00293166073735976	-0.00785427721127389	0.00838357353343508	69.5315797069986
53.57697	0.00983891775672092	-0.0121590855804787	0.0156412168572948	51.0208259549009
45.65746	0.0117025772480531	0.0109975180652573	0.0160591319143443	-43.2209796024464
38.96512	0.0234831856498456	0.00225156967557628	0.0235908790482485	-5.47678209660297
33.18414	0.0122947141536121	-0.024226774017433	0.0271679328512641	63.0929091884365
28.30617	0.0343366121707499	-0.0110214316373166	0.0360620977024429	17.7956909646186
24.17237	0.0293416502907815	0.00195420071645461	0.0294066547268932	-3.81036299735473
20.61345	0.0497030125400931	0.0148194032750681	0.0518652501101629	-16.6024261421673
17.55618	0.0166127143873449	0.0368033555789004	0.0403790695928283	-65.7059978046896
14.98558	0.0578121303171474	-0.0723060669249749	0.0925765074193544	51.3560062650524
12.76553	0.049334264725715	0.00359974078070399	0.0494654203430557	-4.17326758929705
10.8809	0.0708182186226329	-0.029340348200556	0.07665556810443	22.5044758489658
9.278505	0.13607800450177	-0.0215349607931009	0.137771469635568	8.99273875233886
7.923394	0.00426671127446392	-0.174263737660877	0.174315963378683	88.5974378893309
6.75822	0.0625947716429269	-0.197644345864265	0.207319542950353	72.4267927415742
5.761429	0.112573688202995	0.284365893107306	0.305837859720377	-68.4025663716933
4.919708	0.172145163002601	0.178142048136975	0.247726757657763	-45.9808027100326
4.191257	0.161664361113748	-0.0395534707478897	0.166432697215783	13.7481452124759
3.564097	0.21999269182331	-0.285317575523465	0.360281700004669	52.3661595057578
3.051758	0.263708749776666	-0.151118870693842	0.303939496920941	29.814958948599
2.604164	0.36436955453355	0.181241940456552	0.406956770740375	-26.4463223470628
2.214424	0.306824781482016	0.0260288542927607	0.307926854605572	-4.8489607277994
1.892567	0.330666449727458	-0.230745131806727	0.403216587986984	34.9080438148744
1.607507	0.22727494487371	-0.312804234545353	0.386652802546228	53.9988772274964
1.376413	0.25689662322422	0.150454611432951	0.297712050688996	-30.3558884029821
1.17375	0.471418612852857	0.271122424239465	0.543822468706099	-29.9040825336316
1.001604	0.031562027983851	0.406840408833725	0.408062838139478	-85.5639701387903
