EC-Lab ASCII FILE
freq/Hz	Re(Z)/Ohm	-Im(Z)/Ohm	|Z|/Ohm	Phase(Z)/deg
6999984	2.42695933051286	2.60108383745103	3.55749472542299	-46.9833986374202
5969734	5.32641176257222	4.67074655732237	7.08424559619488	-41.2476212827686
5091109	17.1816255933687	-0.384810230278948	17.1859342761466	1.28301694218512
4341796	2.72714670266343	-7.32394771714447	7.81521204455219	69.5766714854754
3702781	2.23425100885945	-9.5144844829357	9.77329486645183	76.7848816186778
3157797	1.83744185266238	-9.73136850369935	9.90331891421795	79.3075001990798
2693047	2.48034676407362	-12.8506738531046	13.087854619796	79.0755095878313
2296687	0.348667888579916	-11.2244272292175	11.2298413132388	88.2207754348119
1958656	2.24900287288432	-11.9390174796928	12.1489979958288	79.3319654969318
1670375	1.33192491762845	-16.7834763438715	16.8362437072969	85.4625566090521
1424531	-3.53349884383842	-11.5279561610174	12.057337489253	107.041121201931
1214875	-7.60318938132074	-11.5002953200774	13.7864165473564	123.469883836394
1036062	12.6796039926672	-6.92052909258405	14.445278825006	28.6257162898696
883578.1	11.9728759010457	4.13508745386567	12.6668348687806	-19.0534421869118
753531.2	3.58275542257778	-18.5013955503333	18.8450994618735	79.0404445707693
642624.9	3.93173501286616	-11.2534650248528	11.9205291525579	70.7416092745354
548046.8	19.4705222275909	3.37111883633177	19.7602044023786	-9.82278843972283
467390.6	18.04980130367	-3.17132245499848	18.3262820347048	9.96507104898767
398593.7	16.9157307701294	-5.43630744116179	17.7678188330006	17.8161512874827
339937.5	10.9589261322677	30.800429421673	32.6919640666015	-70.4142211903977
289906.2	67.5192511188128	-5.2903850223839	67.7261946762873	4.48018446437257
247234.4	56.7086057954865	-70.7010662562026	90.6339160636449	51.2672551025866
210843.7	-6.55391561902481	-103.430710979275	103.638148302735	93.625715499399
179812.5	-24.1818781787928	-137.147260070521	139.262824102863	99.9996417871114
153343.8	-12.6305476069929	-134.368860321191	134.961184630501	95.3699709151158
130781.2	-11.640972677412	-173.494441762717	173.884540909861	93.8386266160696
111531.3	-1.39267833957672	-200.535850925101	200.540686792511	90.39790046475
95109.37	-23.0906569718392	-238.658472241385	239.772902580719	95.5262738016275
81109.37	-21.077757539309	-275.862172513316	276.666243128164	94.3693001259198
69171.88	-16.2695743331879	-319.081382642965	319.495896371659	92.9189147633256
59000	-33.5147795056141	-354.970282849284	356.548933740392	95.3936340720547
50312.5	-33.039246033744	-419.129010566807	420.429208401591	94.5072110672078
42906.25	-19.0143166073916	-501.63332940497	501.993567096194	92.1707464744438
36593.75	-57.4284023362073	-593.563655704472	596.335337514176	95.5262738016275
31203.13	-36.6126270315415	-672.874372656632	673.869724676964	93.1145225545833
26609.38	-65.8192959716606	-767.185092062785	770.003341035342	94.9035832698793
22703.13	-111.567810131671	-917.439026398985	924.197891913574	96.9335727380278
19359.37	-124.069774828245	-1033.99566630305	1041.41266890672	96.8422432654839
16500	-129.021863797628	-1183.1453541474	1190.15947266674	96.2235061425222
14112.02	-45.0438093908088	-1443.25848021358	1443.96121328547	91.7876095968398
12011.13	-0.665162116506817	99.2220432242792	99.2242727473573	-90.3840921818874
10236.38	5.98933409190228	0.787073501311597	6.04082838366476	-7.48648427514149
8750.684	-0.107485189601966	-1.59710522305305	1.60071801373231	93.8502003635313
7449.463	1.27950030619601	0.68202020204797	1.44992158048539	-28.0592386474017
6363.206	2.78799843601618	-0.619670931632387	2.8560334981822	12.531073993637
5414.761	4.18657587394371	2.06175010204618	4.66671522932083	-26.218720592525
4620.567	2.83731795545214	-1.25343783166562	3.10185099225957	23.8343338097763
3941.215	62.0216281584434	34.1127428325371	70.7839076555048	-28.8113947225376
3361.769	7.56381473147429	0.460835009893624	7.57784020670872	-3.48650834393955
2867.244	12.3736208209586	1.30194921000298	12.4419276627976	-6.00654574947447
2442.658	10.0654466026961	-0.247035814006869	10.0684776408913	1.4059255565654
2083.003	11.3580626788142	3.02096395922128	11.7529490366795	-14.8944274957264
1777.843	4.1909778949578	5.81978543754366	7.17176395701017	-54.2413644255517
1513.548	-2787.11677870379	-10496.0995283084	10859.840019369	104.871043552873
1292.065	14.5615873157079	-8.35581275637431	16.7886697499407	29.8483108218536
1101.762	-2390.20992192706	-7613.22982810484	7979.62228970919	107.429930361706
939.101	9271.39588492971	-14288.4761967553	17032.8897630536	57.0215791010666
801.2801	21.8072015624496	19.3435458395251	29.1500738529273	-41.5738462625823
684.3433	-90.8326267766594	213.778445757413	232.275246114611	-113.020222273018
582.9476	33.6102196776322	28.3735509742028	43.9852846036533	-40.1708616983793
497.0677	4.2633231177122	-42.0606447580694	42.2761606756163	84.2121908127381
423.5089	312.884795466613	-532.331300885694	617.473488610515	59.5545510288266
361.5036	1344.54570558483	-1480.25758469421	1999.74140114449	47.7505432884768
308.1262	-4701.07728382508	-48014.3934020424	48243.9851317715	95.591992060729
262.7298	-22661.7893670616	-15139.6334591241	27253.718986474	146.254352700684
224.2111	-23809.4142692959	-91970.4799435126	95002.4072794316	104.514148142286
191.2854	-25694.9614998222	-105525.314508171	108608.577232766	103.684963621172
163.1722	-28702.1284929742	-124339.101545091	127608.872548376	102.998330999488
139.1537	-29758.1705898203	-142692.505997499	145762.477972554	101.780050839701
118.6706	-32727.1717890697	-165035.866353737	168249.531816406	101.216432256631
101.1982	-36663.1179157282	-189485.816992496	193000.152996354	100.950694431249
86.24196	-42306.1065308436	-219211.044026556	223256.105119237	100.923364344421
73.61024	-46124.1819079334	-251765.433571737	255955.608843098	100.381632749125
62.69291	-50881.1214438856	-293224.988293116	297606.757784304	99.8440837457334
53.57697	-56369.476341553	-335608.638535343	340309.676798306	99.5345146490242
45.65746	-63602.7564935227	-386397.20123668	391596.868931703	99.3473293373549
38.96512	-70914.4116572211	-443029.315530687	448668.951678494	99.0940246961276
33.18414	-80974.6805326003	-515776.133647616	522093.783651788	98.9223665407064
28.30617	219713.995381058	-1017319.89876573	1040775.6800536	77.812825198922
24.17237	-141847.296278216	-959200.657452949	969632.175992324	98.4119757368039
20.61345	-315043.35868146	-1039534.05911555	1086224.36812591	106.860066538669
17.55618	-161553.976932642	-646408.183113734	666290.647284765	104.032233340801
14.98558	-375223.981945898	-1380384.64831393	1430473.63272732	105.207026003937
12.76553	-68254.2020337478	-1553317.5133281	1554816.36642629	92.5160108417896
10.8809	-296071.629983459	-960241.652440797	1004849.46194109	107.136117604363
9.278505	-167860.577024673	-1216715.02750439	1228239.64741171	97.8550607599367
7.923394	-59273.9877785773	-1351072.99236498	1352372.59522856	92.5120574330033
6.75822	-342908.075073444	-714271.531667256	792319.234211099	115.644770045174
5.761429	-268415.330376709	-1680629.18936763	1701928.68879273	99.0741430606366
4.919708	19191.8476514275	-2183235.47913951	2183319.83098899	89.4963513741117
4.191257	29594.1218162455	-6306872.02938871	6306941.46216149	89.7311494785563
3.564097	154870.938520113	-2762644.78930249	2766982.3345042	86.7914176232991
3.051758	-1339017.14522126	-2988451.49852916	3274722.77822989	114.135427325461
2.604164	363583.709075492	-3955310.14382629	3971985.83171696	84.747963646965
2.214424	-1701061.03081556	-4880327.24275651	5168288.17181769	109.216240879586
1.892567	-532256.279464171	-8148024.7721588	8165390.64801816	93.7374422694495
1.607507	1881797.95881824	-3997142.45131793	4417953.29693971	64.7896091071574
1.376413	-8416663.20374299	-17912363.7626338	19791235.3088471	115.167897272287
1.17375	12615140.394581	-12889961.7878251	18035877.6350523	45.6173469326913
1.001604	5227822.41428821	-14795910.4682952	15692325.9519149	70.5402146095469
