EC-Lab ASCII FILE
freq/Hz	Re(Z)/Ohm	-Im(Z)/Ohm	|Z|/Ohm	Phase(Z)/deg
6999984	22.3231827362022	88.2194047156389	90.9999332739072	-75.7998525772888
5969734	18.4521068434037	96.4114709945005	98.1613568889703	-79.1652347785488
5091109	15.3642416755046	101.766124516422	102.919405465419	-81.4145524906734
4341796	14.2561707959301	111.809935259726	112.715127771506	-82.7337878139621
3702781	15.2651102047894	123.953088593812	124.889518221145	-82.9792429333961
3157797	14.8591601985728	139.235364503523	140.026002478954	-83.9084658855393
2693047	14.4224129531789	158.936617262365	159.58964346785	-84.8149997089953
2296687	14.5406941392228	183.540278709674	184.115359747293	-85.4702915392864
1958656	15.8626584039032	211.480904300885	212.074979230363	-85.7104181512257
1670375	18.02430045253	245.49637162735	246.157152829238	-85.8008881870769
1424531	17.4686974666126	281.21323983223	281.755286814851	-86.4454084108195
1214875	23.127119047181	321.648448334505	322.478817833694	-85.8874048141416
1036062	17.6910308319437	374.457491581052	374.875159984054	-87.2951048209986
883578.1	15.392107746329	453.544816560689	453.805925049403	-88.0562792518299
753531.2	26.8591111307973	505.352225189085	506.065493147178	-86.9576326796665
642624.9	74.2624614844816	676.446418794577	680.510595571988	-83.7349742651737
548046.8	102.238500210866	786.848084688278	793.462424632055	-82.5967936051463
467390.6	145.191098083397	933.607689894401	944.830023651145	-81.1603884127533
398593.7	180.367329248871	1035.57526911709	1051.16531119862	-80.1198397610162
339937.5	100.098113961168	1181.27607682858	1185.50951160507	-85.1564825548932
289906.2	229.664262342926	1363.82170120903	1383.02397162385	-80.4412117883051
247234.4	155.532999788677	1538.70449529594	1546.54519425304	-84.2281190394428
210843.7	181.627689726052	1778.5692879154	1787.8191546102	-84.1691616823238
179812.5	303.63739919674	2183.06019160763	2204.07519617024	-82.0816472515442
153343.8	345.277778772366	2505.55638316682	2529.23497005358	-82.1537826379511
130781.2	359.731037111423	2944.78708450748	2966.67783760612	-83.0353355015394
111531.3	330.442447591597	3450.21089979295	3465.99876864093	-84.529208360784
95109.37	234.043924623807	3913.15697269117	3920.1497486161	-86.5772459994791
81109.37	257.985349320642	4548.23804797156	4555.54890013051	-86.7535451130409
69171.88	1042.40814796014	5650.19183908792	5745.54458388667	-79.5469965574444
59000	980.565962430329	6634.65607068017	6706.72578706556	-81.5928569565181
50312.5	1074.80705896058	7673.59502780786	7748.50120118653	-82.0267005989911
42906.25	1527.98315610554	9439.25406123286	9562.12579700996	-80.8049826924337
36593.75	1295.36746451789	9884.15171182243	9968.6725259913	-82.5336536561229
31203.13	1585.20055431885	11295.5166051717	11406.2069144446	-82.0113453300816
26609.38	2426.26355809342	13765.86831555	13978.0501263372	-80.0041595821793
22703.13	1927.81179763974	15159.2932381678	15281.3818029614	-82.7525808296424
19359.37	1997.28580801849	17756.3105189975	17868.2879382993	-83.5821664212123
16500	2184.98812225429	20558.8291200381	20674.6131253119	-83.9333895496275
14112.02	2520.76622064855	23978.7433972623	24110.8771563979	-83.9988213298314
12011.13	4108.53971558099	29335.7338079797	29622.0420742249	-82.0274454441248
10236.38	3718.72372962258	33262.9894664807	33470.2162291262	-83.6209556639426
8750.684	4685.13104801991	39013.9338483761	39294.2424187385	-83.1522188917461
7449.463	11488.1185571438	50035.1588103874	51337.0624905991	-77.0689540935036
6363.206	12817.1255911736	57987.4053621111	59387.01784944	-77.5361438796533
5414.761	12621.1334515119	66329.5768050238	67519.669495151	-79.2265985584073
4620.567	19879.6981137317	72284.4066474919	74968.2455541883	-74.6226534914131
3941.215	20269.002655645	86813.2512171952	89148.0401105621	-76.8581056248955
3361.769	22615.1101133145	99848.4530391775	102377.520871303	-77.2381485304058
2867.244	26360.6917423685	115053.547510747	118034.761252539	-77.0953101520796
2442.658	31535.2430623592	125261.856588369	129170.446584995	-75.8691804704997
2083.003	36483.8839104177	150108.252116999	154478.351683365	-76.339120454066
1777.843	52721.416610675	169076.990802307	177106.116744171	-72.6815297772893
1513.548	57988.8813337134	194428.454524825	202891.927604939	-73.3926276968262
1292.065	75551.8284630502	218515.981739281	231208.375842208	-70.9271903043783
1101.762	87965.6815662077	267006.934443537	281123.93027692	-71.7654848544342
939.101	108102.773196464	295109.184888107	314285.92169884	-69.881485032485
801.2801	197554.438959684	351537.004965224	403244.370342098	-60.6651724189082
684.3433	222170.825620496	389657.621014385	448545.357095002	-60.3095375154705
582.9476	289399.804299374	414036.396789139	505151.843107248	-55.0475332320346
497.0677	309568.796312304	454289.877566692	549738.239992279	-55.7281326081367
423.5089	344965.39348251	462189.252656853	576732.197793779	-53.2633483875752
361.5036	427779.735210955	467891.136741147	633969.729323158	-47.5642002247664
308.1262	487052.825916254	530827.289327173	720415.204120126	-47.4625174048645
262.7298	572073.799792586	520512.416133922	773434.940870079	-42.2980992930954
224.2111	635125.678692182	519814.334076586	820726.245252149	-39.2983787566879
191.2854	682722.095459884	564464.480375793	885849.653855014	-39.5834367189214
163.1722	730751.009912291	605772.190790402	949187.539753254	-39.6577837224176
139.1537	789576.890528149	561340.756934194	968780.218342403	-35.4104934237364
118.6706	829569.141606552	623774.463951161	1037920.77856809	-36.9404511649184
101.1982	933869.732578796	576022.397484115	1097230.36771233	-31.6667986495075
86.24196	937248.294544053	642833.712388695	1136516.40877251	-34.4451913192339
73.61024	1008105.32760107	594780.770427174	1170487.29869555	-30.5405469707748
62.69291	1164767.15888308	654205.527427146	1335914.44581185	-29.3212698644246
53.57697	1068108.69448844	737813.442634245	1298162.10827986	-34.6354075776393
45.65746	1130855.70463496	653238.428982279	1305969.0156373	-30.0128643006152
38.96512	1127964.43463343	781811.912135377	1372418.8980609	-34.7265078670651
33.18414	1204897.72230115	824925.807557348	1460233.2379386	-34.3972519405153
28.30617	1253186.98788091	951703.75959351	1573600.22642934	-37.2140098642036
24.17237	1294773.20761853	974034.3961888	1620240.9278023	-36.9534802251796
20.61345	1360845.92143894	1051131.38907163	1719528.6618689	-37.6828669575371
17.55618	1402582.76107839	1114007.54006704	1791159.17801867	-38.4585143022734
14.98558	1478990.44111945	1322475.12643051	1984024.49202375	-41.8022616171891
12.76553	1622532.16208522	1472178.62369227	2190872.09052866	-42.2185269145076
10.8809	1695607.74362755	1544123.746759	2293338.99926609	-42.3229026360466
9.278505	1795532.09862588	1774633.31332896	2524531.42463562	-44.664609792636
7.923394	1965243.35194857	1923805.27978702	2750128.75824286	-44.3895327551937
6.75822	2015400.644152	2222412.45461576	3000159.47490788	-47.7966033656273
5.761429	2166841.80926402	2327740.28351343	3180185.25464567	-47.0502169754884
4.919708	2346594.31926133	2599223.69126397	3501780.78931526	-47.9240922046219
4.191257	2358399.42988765	3191236.26663077	3968127.61644001	-53.534718388083
3.564097	2568305.09731718	3423924.44085947	4280122.62086266	-53.1262281280445
3.051758	2758152.42932549	3621512.70295307	4552225.72826135	-52.7070178276591
2.604164	3087858.66166405	4063590.37664912	5103688.65269122	-52.7693670949252
2.214424	3482070.09753084	4556630.47362803	5734779.28409752	-52.6137861352354
1.892567	4080421.1622099	5155374.16217564	6574779.05431343	-51.6387781256833
1.607507	4192220.29017585	5847120.5008345	7194687.56185014	-54.3605453765169
1.376413	4798114.60394856	6108103.29000249	7767292.29229618	-51.849208335101
1.17375	4913327.95286877	7159434.23649515	8683218.88236963	-55.53923415266
1.001604	5401944.45022231	8097278.13924743	9733802.80813321	-56.2915220080888
