EC-Lab ASCII FILE
freq/Hz	Re(Z)/Ohm	-Im(Z)/Ohm	|Z|/Ohm	Phase(Z)/deg
6999984	2.21304894931662	1.78998790308852	2.84633841018151	-38.9670888299653
5969734	5.33709125071973	1.36836215226359	5.50971487449727	-14.3801577675509
5091109	7.35732806423996	-3.47816749683314	8.13805415199969	25.3023834611943
4341796	2.42565793718666	-5.51171581293127	6.02186247192289	66.2461251181595
3702781	1.96411458825885	-5.84281748191269	6.16411082336745	71.4194756419547
3157797	0.877421182414222	-6.70395825015702	6.76113334813015	82.5434512344196
2693047	1.2633265343186	-8.33385334799999	8.42906314831512	81.3801750229655
2296687	1.20923407829822	-6.65147423078636	6.76049972257471	79.6961947672965
1958656	-0.0463905073786597	-9.37994226909261	9.38005698547109	90.2833662015034
1670375	-6.26033897942783	-12.1112664182154	13.6335842092363	117.334537174574
1424531	-2.12116534630086	-9.78947210029225	10.0166414745037	102.225754708533
1214875	15.8534217558866	-4.11794704540623	16.3795137058091	14.5608686561351
1036062	-1.42826904817379	-11.1611053808698	11.2521209465972	97.2924162051182
883578.1	7.86161596396719	-9.45416467717428	12.2957811995836	50.2547641940771
753531.2	7.9663284481904	2.30710214122754	8.29367887215947	-16.1513708475285
642624.9	5.06112552356594	5.36708774820838	7.37703344592249	-46.6805675243818
548046.8	9.46901202943936	-3.66512505855743	10.153587075932	21.1596866080143
467390.6	1.56866841196294	7.3509089277172	7.51642086702725	-77.9538874080832
398593.7	-0.565381920775288	5.14209967914686	5.17308861577122	-96.2745566820683
339937.5	10.2991474132635	-5.47899724708428	11.6658410872808	28.0123305927143
289906.2	8.245133164536	-5.70947350754934	10.0289734586516	34.7012805353455
247234.4	16.6549745282855	-8.99972409144945	18.9310118657206	28.3851255821162
210843.7	2.35389000232447	-19.2689720160624	19.4122147293615	83.0352782057599
179812.5	17.6217481965191	-9.57395951056849	20.054593244729	28.5153932664172
153343.8	27.4522159905391	-57.9163343293294	64.0931037237071	64.639150390156
130781.2	18.6960773382957	-85.6829793745355	87.6990094718099	77.6909570758976
111531.3	13.6789456963437	-124.052941738798	124.804831274326	83.7075868825664
95109.37	20.1230175870168	-222.427645747026	223.336054924797	84.8305268652433
81109.37	-17.2045594112837	-252.184103119578	252.770288465165	93.9027978891243
69171.88	-17.455389725089	-298.422295849808	298.932362401138	93.347544489863
59000	-55.9354162348459	-382.709718040469	386.775773636329	98.3152604609858
50312.5	4.40301434691402	-398.03857648872	398.062928327301	89.3662326588375
42906.25	-29.3911404113279	-469.143994519486	470.063747515566	93.5848063128267
36593.75	-48.9132049921489	-547.969617603874	550.148346757072	95.1008526387428
31203.13	-64.8204195813144	-615.866543381342	619.268347367424	96.008303194671
26609.38	-64.0982991154496	-743.476131717861	746.234112315731	94.9275329057158
22703.13	-78.4013563412027	-865.556016354601	869.0995283187	95.1756809267869
19359.37	-116.916025079827	-1042.55947768946	1049.09466753034	96.3986020447142
16500	-235.334693775635	-1182.06867898133	1205.26709899638	101.259633274384
14112.02	16.3808692586607	5.52259275569088	17.2867552887911	-18.6308514355351
12011.13	22.2489851356463	-23.4633038651162	32.3348723181797	46.5216691390581
10236.38	4.92092872339598	-11.243125194114	12.2728726723316	66.3618052969964
8750.684	0.717340652812842	0.157197309314685	0.734362721162867	-12.3603554889998
7449.463	1.97297568392038	0.728853843766752	2.10329764296798	-20.2751658230472
6363.206	0.941833376875089	-4.68645588517925	4.7801588753437	78.6366812125406
5414.761	0.245909588027461	0.418556374942455	0.485449239868398	-59.5649788606979
4620.567	3.90365141936174	13.1604299601339	13.7271778286535	-73.4785713660958
3941.215	3.12764651645283	-1.6663489910031	3.54385266224438	28.0478195985447
3361.769	2.40270670648619	3.29212235007152	4.07566793117817	-53.8767168959966
2867.244	9.23562141624473	-0.918774126268779	9.2812094491666	5.68118192522692
2442.658	6.78924016896771	0.284153142540619	6.79518396221474	-2.3966274530839
2083.003	4321.70251884235	-6305.04189837204	7643.9954213484	55.5718583695148
1777.843	4970.47885383969	-7287.78489921752	8821.42101782533	55.7048877103882
1513.548	4.58410621162355	6.57312700815045	8.01373997735905	-55.1080375752004
1292.065	8.19916389046962	-7.48459235206242	11.1015949835748	42.391336715097
1101.762	10.4563559853142	-4.75505942339922	11.4867737251011	24.4538100482938
939.101	15.9502821185303	3.14104263893432	16.2566186065956	-11.1405398023222
801.2801	11.3401554825147	6.5618186226399	13.1017781237522	-30.0552058816753
684.3433	30.5886442902851	8.24455343656507	31.6802433842603	-15.0844661372154
582.9476	5.93024677956176	-16.0136981512938	17.0764854506791	69.6792309308038
497.0677	12.9722664384475	-16.387705026423	20.9006356980625	51.6353804859582
423.5089	15.0039391087674	-2.35550338466677	15.1877116437854	8.92217327029055
361.5036	203.864695023319	-12.6716859274928	204.258134479868	3.55677703384998
308.1262	333.234533419978	-110.280854612038	351.008719489405	18.3114790309513
262.7298	39931.0034660346	34558.5465340113	52808.8834984029	-40.8747632680093
224.2111	47173.249004587	-69964.2617781463	84381.9491823325	56.010268485615
191.2854	9055.54962600043	-48804.1472004451	49637.1611093107	79.4883829750026
163.1722	-12354.3362968773	-62633.630144806	63840.4358573208	101.158219744645
139.1537	-15287.0923684081	-44403.7028151953	46961.5163381723	108.997313706066
118.6706	-37146.3057564474	-113778.294320756	119688.547028912	108.080810416975
101.1982	-13128.7783575702	-159264.821654459	159805.031953906	94.7124445494237
86.24196	67701.7287732551	-157508.260350569	171442.048977344	66.7405303995778
73.61024	-57849.9915318988	-164195.968184114	174088.878128844	109.408525515632
62.69291	-80996.2431965757	-141109.664982014	162703.192849112	119.855608768929
53.57697	-141841.141468619	-336775.503373239	365426.667178819	112.839568680214
45.65746	-54157.2221533979	-261129.809978569	266686.674528023	101.716796299118
38.96512	-133695.807032543	-420925.477671484	441647.853579127	107.621069082162
33.18414	-246715.81986704	-671174.89689838	715083.518198551	110.182820679971
28.30617	-261488.034356248	-778994.006802944	821710.20119407	108.55556324602
24.17237	-276921.085249506	-905102.127210255	946517.37867632	107.01178576282
20.61345	-214107.358006145	-577217.712148585	615647.827877609	110.351327567519
17.55618	-308991.498456871	-1211722.80270261	1250499.05905926	104.305648800638
14.98558	-350994.151085171	-1407763.18022789	1450859.76775888	103.999975816935
12.76553	460137.411796325	-858120.754152391	973703.068928967	61.7991131912516
10.8809	-255471.333832462	-1235346.61570056	1261485.97429102	101.684137704796
9.278505	-740687.51726791	-3485360.66137226	3563194.76566715	101.997660210292
7.923394	-360530.798821695	-1567803.07085835	1608722.76228438	102.950546319374
6.75822	-110603.781965999	-1737894.8598148	1741410.84766229	93.6415291345446
5.761429	-1043790.3383434	-4855133.79408373	4966067.09870828	102.13316472884
4.919708	-850520.576916493	-2056964.35026734	2225867.82851748	112.464281324403
4.191257	-3649340.6781797	-6592767.82274142	7535401.4458416	118.966149087768
3.564097	-348539.793130408	-3528730.40056179	3545901.60992157	95.6409226564331
3.051758	1270050.4490684	-4507866.48087824	4683362.93197574	74.26529971459
2.604164	1256181.74169723	-11718980.1523477	11786114.2188294	83.8817087565067
2.214424	-10278334.1244138	-7938903.17296253	12987314.4245746	142.317788873458
1.892567	-871986.55528861	-6306270.80979423	6366271.44245883	97.8725359726882
1.607507	41312.3677378291	-12824599.1386026	12824665.6789787	89.81543157022
1.376413	-2057269.39377007	-7822551.38333341	8088551.63199411	104.734679597632
1.17375	13432796.1910889	-23175608.4504484	26787102.1306865	59.9030239598251
1.001604	-496417.387929436	-19991216.2382082	19997378.7508723	91.422463594003
