EC-Lab ASCII FILE
freq/Hz	Re(Z)/Ohm	-Im(Z)/Ohm	|Z|/Ohm	Phase(Z)/deg
6999984	22.817157877507	97.5341740386596	100.167548632332	-76.8330100734688
5969734	19.890610103825	96.6491595508899	98.6746999599987	-78.3707714998204
5091109	16.4186641749744	101.255743393808	102.578253560505	-80.7896274235242
4341796	15.0589501802298	111.19250372385	112.20759718	-82.2872818042166
3702781	15.8576866419896	123.106480858765	124.123615219124	-82.6599908499492
3157797	15.5160866712933	138.373680193637	139.240885934851	-83.6020480567033
2693047	15.1093080913876	157.757426614011	158.479326231769	-84.5291510650045
2296687	15.1122999135104	182.108734480024	182.734706015557	-85.256177211246
1958656	16.7672115810368	209.803028252475	210.471969744458	-85.4307001556429
1670375	18.0850767832413	243.154081979148	243.825711493636	-85.7463426049804
1424531	20.4233844535037	282.214643735455	282.952681152282	-85.8608195724476
1214875	22.7740024833184	327.158900491949	327.95060811075	-86.017981895652
1036062	24.0431352716838	380.699866301103	381.458333970265	-86.386279166362
883578.1	28.2006595643078	442.813281494143	443.710355375523	-86.3560269947791
753531.2	31.5987098755969	515.409528067208	516.377245904836	-86.4917034006661
642624.9	76.9679306689503	677.77484975657	682.131079275825	-83.5212610075899
548046.8	92.67405705202	781.502013958637	786.977686260473	-83.237188532764
467390.6	114.956724889895	896.863193362902	904.200550877134	-82.6958580079244
398593.7	135.203580284619	1030.8791745625	1039.70759383032	-82.5280959655101
339937.5	158.617116783303	1184.88148939867	1195.45118413771	-82.3752881215487
289906.2	179.914841620796	1364.28392148113	1376.09591549694	-82.4874732578353
247234.4	203.078830983152	1574.07054709063	1587.11659899696	-82.6485889898261
210843.7	229.414389162275	1818.24464249723	1832.66050918455	-82.8087879893447
179812.5	252.710468902094	2103.7438099155	2118.86776341764	-83.1502135394632
153343.8	286.587860939706	2438.48521497724	2455.26836531174	-83.2969480307962
130781.2	319.087682873208	2829.22018751703	2847.15714684232	-83.5652068704764
111531.3	360.008632452945	3284.50660812691	3304.17763963592	-83.7448864350294
95109.37	414.37112022918	3816.91364529774	3839.34020385535	-83.804130271046
81109.37	472.139184948375	4435.6639458549	4460.72079943598	-83.9242222249054
69171.88	1080.7387142971	5655.51274917079	5757.8486107759	-79.1815067799305
59000	1241.44281451316	6476.52273582252	6594.43151525075	-79.1489627771671
50312.5	1339.36554030261	7432.84547479831	7552.55532272223	-79.7851751128803
42906.25	1781.29108149641	8726.08961457267	8906.04501889429	-78.4625020428208
36593.75	1997.44677104953	9882.98144040584	10082.8128889999	-78.5738850381942
31203.13	2261.70724185172	11374.6629732497	11597.3392380693	-78.7541375605424
26609.38	2597.95278420869	13100.9919478156	13356.0978090798	-78.7836448869916
22703.13	2993.54695651596	15124.6726660379	15418.0753220258	-78.8044432549549
19359.37	3558.46983718884	17437.6397999513	17797.0219243284	-78.4661116769301
16500	4189.66386568453	20225.7431341121	20655.1196712704	-78.2969745358075
14112.02	5052.36760887567	23330.2665273062	23871.0652190128	-77.7807968581742
12011.13	6194.02595859261	26983.0476483857	27684.8481659331	-77.0715896993612
10236.38	7603.95638011073	31148.5189800597	32063.2248422046	-76.2813090125373
8750.684	9494.14009196534	35677.2556918963	36918.9012538403	-75.0982657571512
7449.463	17533.034516725	44888.2927586084	48190.9340659341	-68.6647518587452
6363.206	21376.1703005994	50117.6367349558	54485.9446886738	-66.9007866948759
5414.761	25776.2889574346	55894.0779505904	61551.3202325006	-65.2425895399878
4620.567	31051.4369509345	62070.4824856098	69404.1535696118	-63.4229901742114
3941.215	37237.7217859298	68348.5419702788	77834.2541126288	-61.4175232996944
3361.769	44590.7370047428	74990.9738872418	87246.66177673	-59.2636603562386
2867.244	53043.0852921317	81511.7930477958	97250.9192921848	-56.9462867172084
2442.658	62644.6754450444	87929.3709196678	107962.630719816	-54.5322894756073
2083.003	73244.3669621713	93767.0654963693	118983.191516658	-52.0054997624568
1777.843	84860.0063339662	98857.5886232831	130284.471459231	-49.3569908953087
1513.548	97295.544170495	102897.452059376	141613.235807054	-46.6028629882061
1292.065	109931.346346205	105992.467066425	152706.594436247	-43.9549270788531
1101.762	122442.511385962	108307.65416613	163470.843105037	-41.4946634952952
939.101	134352.652644689	109643.608772431	173413.829371554	-39.2174771160155
801.2801	146185.886141659	110647.061857069	183338.718236559	-37.121820954967
684.3433	157280.672180859	111496.462861684	192791.781651422	-35.33287483123
582.9476	167552.011708029	112479.43006275	201805.101062012	-33.8738779129751
497.0677	176982.309458005	113706.55031672	210361.397233471	-32.7196945417297
423.5089	186151.06365367	115889.745345161	219277.567424392	-31.9046391598443
361.5036	194793.833433691	118830.382176992	228178.213841994	-31.3845080734245
308.1262	203403.558555508	122959.851917912	237680.737159574	-31.1534571129601
262.7298	211636.054688424	128374.72099213	247527.551262256	-31.2402659485003
224.2111	232882.1234007	124215.337723476	263938.503302144	-28.0746970487143
191.2854	240019.640738641	133325.712195822	274563.605513967	-29.0512233964235
163.1722	246360.325087196	143382.054687557	285047.054683072	-30.1994651953334
139.1537	254581.409296261	157415.172790147	299317.942301864	-31.7297208745688
118.6706	263675.269040659	172531.377895462	315105.893093371	-33.1980398161505
101.1982	272692.12186459	189936.661411672	332320.520996258	-34.8581449204964
86.24196	283188.752957722	210518.293548638	352865.160819795	-36.6265619664339
73.61024	295918.716850491	233022.095395732	376652.603767794	-38.2187715720568
62.69291	306802.379732296	258060.853523927	400902.861465091	-40.0682163093816
53.57697	322493.228291555	287655.916581304	432143.273276513	-41.7321659605328
45.65746	339901.375954507	322117.15980075	468286.675033434	-43.461197887633
38.96512	355705.850636756	361612.915255648	507238.16167251	-45.4718156527281
33.18414	377479.735653072	404341.589199752	553157.366022811	-46.9677969966588
28.30617	397986.173883596	455734.32330167	605051.04581162	-48.8697590454853
24.17237	423606.171810847	507714.865481991	661223.542705216	-50.1604496114206
20.61345	456726.873159073	567454.889218768	728426.034655509	-51.170488260567
17.55618	490740.203333635	635646.569854405	803039.543818116	-52.3306704999274
14.98558	527627.688724867	717246.424810131	890411.933776755	-53.6607003480764
12.76553	571190.574207232	805313.338711231	987313.651059994	-54.6527824999233
10.8809	623740.236414616	901622.881917419	1096346.52538312	-55.3246213513379
9.278505	679782.246810492	1008514.22145157	1216225.65256156	-56.0183242722145
7.923394	748938.164385516	1131014.05981745	1356503.29066239	-56.4881553937998
6.75822	820686.378608071	1275352.3741269	1516591.51066593	-57.2388103195125
5.761429	921620.381964124	1408217.54655115	1682991.61818063	-56.7969051608619
4.919708	1014094.26191758	1573638.39003367	1872091.06473001	-57.2011956402621
4.191257	1124779.3258838	1753201.14226974	2082988.90472118	-57.3174946135178
3.564097	1263782.90230499	1952746.11243547	2326019.04630858	-57.0897668082651
3.051758	1394420.86382302	2179549.94322609	2587440.3375695	-57.3899164788223
2.604164	1576686.73530278	2395655.84593842	2867944.90767495	-56.6493226919921
2.214424	1774165.66179204	2653811.89430019	3192237.67376604	-56.2358935357596
1.892567	1990410.00271939	2914167.22039801	3529037.05950613	-55.6664708902247
1.607507	2229529.0591903	3231139.6796926	3925692.73574206	-55.3938117346778
1.376413	2488998.99808499	3562331.80499015	4345724.78434984	-55.0580240892635
1.17375	2790676.0890051	3892624.44503768	4789613.56518975	-54.3627398048722
1.001604	3142767.23524849	4262226.59440974	5295617.19132389	-53.5966665848926
