EC-Lab ASCII FILE
freq/Hz	Re(Z)/Ohm	-Im(Z)/Ohm	|Z|/Ohm	Phase(Z)/deg
6999984	18.5728954436376	94.7085580131913	96.5125038847211	-78.9047681648823
5969734	14.3858382094952	92.7254644094319	93.834770159758	-81.1811867807166
5091109	9.34157056763692	97.1939771125422	97.6418666742065	-84.5100142746471
4341796	6.06366932382747	106.903354736302	107.075185451833	-86.7536024088204
3702781	6.75681004847107	119.684479533758	119.875056301541	-86.7687857903914
3157797	6.50067201128107	134.651421869547	134.808249555022	-87.2360328723206
2693047	5.95687272822054	152.622425308763	152.738629821762	-87.7648729172263
2296687	5.3854923763142	175.836170710726	175.918624535172	-88.2456990989001
1958656	5.5909068106615	203.096864470494	203.173803913575	-88.4231441280521
1670375	6.17520342564008	236.13383500523	236.214565959902	-88.5019831206621
1424531	7.48707781757181	274.784729641553	274.886711171035	-88.4392442420953
1214875	8.84454268656053	319.55839810144	319.680771602692	-88.4146070569047
1036062	10.9611330461761	372.399238749999	372.560517848087	-88.3140529638592
883578.1	12.6978143967715	433.969805633206	434.155532835616	-88.3240224294945
753531.2	15.4964854413424	506.738145242377	506.975037753061	-88.2483920005372
642624.9	72.7708840883895	670.479889070106	674.417439883094	-83.8056199613133
548046.8	90.4530479182991	771.1129539245	776.399988142632	-83.3096676938481
467390.6	107.056805232497	886.448993041662	892.890237829469	-83.1137161279133
398593.7	124.742885041526	1020.19744276185	1027.79550961575	-83.0288610784545
339937.5	144.148982060014	1174.802644283	1183.61318936689	-83.0047395552794
289906.2	161.980914611347	1353.2910713189	1362.95067423945	-83.1745069499767
247234.4	183.109935194556	1563.47279043795	1574.15895474593	-83.3200955257194
210843.7	201.13249982259	1805.97829640936	1817.14388246681	-83.6451344828972
179812.5	221.121086460928	2098.4857285544	2110.10352538072	-83.9848411596302
153343.8	243.491848962158	2428.30431321718	2440.48153406253	-84.2739556630532
130781.2	268.552807692531	2820.62272106148	2833.37839779437	-84.5612367015318
111531.3	293.086988174297	3279.76972579209	3292.83911493705	-84.8934949269282
95109.37	327.608575729708	3819.13620671431	3833.16171643303	-85.0971241273177
81109.37	388.678095008705	4408.29347000342	4425.39512125351	-84.9612758340922
69171.88	986.785642390667	5680.5619591658	5765.63353639042	-80.1453363828996
59000	1084.68545889457	6502.75325214293	6592.59754595962	-80.5300202465504
50312.5	1069.31483327034	7554.51612821777	7629.81966655532	-81.9435071271381
42906.25	1476.8183219297	8707.34040791486	8831.69119338386	-80.3738892473772
36593.75	1589.35951378184	9961.01032337572	10087.0109708697	-80.9344138583537
31203.13	1705.61251277953	11482.0741850297	11608.0636470634	-81.550744558576
26609.38	1870.28114460396	13279.2214875143	13410.2824308186	-81.9830412150022
22703.13	2038.89447864557	15378.238605552	15512.8112637375	-82.4475953952942
19359.37	2223.00173293508	17829.8870198839	17967.9327649693	-82.893127376788
16500	2436.23166154374	20707.508324394	20850.3267531604	-83.2900152414751
14112.02	2714.10571140974	24037.6704272863	24190.4106906753	-83.5579876022578
12011.13	3049.3037831063	27991.1273681933	28156.7303660082	-83.7828162410671
10236.38	3405.27628389696	32589.4521573639	32766.8780704964	-84.0348030793656
8750.684	3803.79043050471	37882.2998136383	38072.7916077818	-84.2661061412599
7449.463	10020.5635039921	49306.2808907395	50314.2229216952	-78.5121774836586
6363.206	11580.8732524906	56197.0006101248	57377.8659664563	-78.3557027098084
5414.761	12781.8999843751	64501.0249878641	65755.2978222716	-78.7911506341079
4620.567	15215.3714284563	73930.1415840832	75479.6221661746	-78.3704850209228
3941.215	16936.4789491913	85074.8274481826	86744.2827195801	-78.7409022354749
3361.769	19390.177998079	97708.3353231373	99613.7429997278	-78.7755088863008
2867.244	21841.4263340767	112551.803548231	114651.456101815	-79.0178700336411
2442.658	23685.3267344514	130276.827172417	132412.410296881	-79.6957364010604
2083.003	27345.8032719397	150682.867425565	153144.113475439	-79.7139564589455
1777.843	31786.1033186847	173831.925676052	176714.161142877	-79.6376384806341
1513.548	38565.9209741036	202658.711033466	206295.62142306	-79.225452642817
1292.065	44930.6081708939	234146.635666752	238418.553272737	-79.1375036212644
1101.762	55716.6462677103	270568.764070033	276245.906325698	-78.3640678936173
939.101	68965.4643974913	311327.419095528	318874.579043618	-77.5095013421797
801.2801	138636.363657745	403845.288390084	426978.990446969	-71.053126427748
684.3433	167111.714902367	454736.77057154	484470.696500256	-69.8220693091299
582.9476	199522.197436001	511128.37274945	548690.550947609	-68.6764974935454
497.0677	240052.869996989	574102.560210243	622269.338818608	-67.3084461661115
423.5089	290827.324155055	643616.289041475	706273.643848267	-65.683480563341
361.5036	345978.480337886	717300.378051319	796379.897542296	-64.2503985261598
308.1262	410562.860387889	809962.558423923	908075.552131271	-63.1199527963666
262.7298	499289.442252328	895190.280356493	1025014.91949599	-60.8495502373813
224.2111	591134.885758447	972129.42194805	1137750.44107999	-58.6969478010747
191.2854	717835.840152695	1058296.99935882	1278780.99464279	-55.8512154016867
163.1722	849950.336128532	1121778.43211705	1407409.82824762	-52.8494780538404
139.1537	1019290.92847509	1215024.58733356	1585950.42315222	-50.0065244997587
118.6706	1135667.97067756	1243764.77048481	1684248.36170976	-47.6011388138185
101.1982	1290640.98428435	1295783.6738791	1828882.03004078	-45.1139232955776
86.24196	2814239.95807786	434454.903859008	2847577.49765116	-8.7758914156157
73.61024	1614743.88386855	1294404.71459492	2069512.35213913	-38.7162249889453
62.69291	1703321.9013079	1219879.95921417	2095092.5073532	-35.6093670744263
53.57697	1885924.26981656	1179214.62499842	2224243.12594044	-32.0165664651231
45.65746	2145473.19069836	1154021.96379695	2436148.99070873	-28.2752265474322
38.96512	2260591.2474459	1227234.25255165	2572231.85165432	-28.4967377606077
33.18414	2374311.32184074	1164069.06027246	2644316.74163757	-26.1176279191521
28.30617	2488973.69442103	1279282.83374548	2798491.49011315	-27.2022599436466
24.17237	2580147.81073177	1178406.01913151	2836512.55437893	-24.5471448731206
20.61345	2584715.47466398	1058832.731789	2793184.71263094	-22.2765360493289
17.55618	2651971.54403163	1131742.40274897	2883365.03698952	-23.1106136300127
14.98558	2870112.58103611	1234361.44719193	3124291.02519844	-23.2712939140792
12.76553	2885596.91000721	1234124.58012219	3138428.42937432	-23.1556366535541
10.8809	2989114.00749252	1269477.01076345	3247518.19558334	-23.0109361623938
9.278505	3117993.18301179	1335926.33784172	3392135.11957398	-23.1930565271541
7.923394	3227421.54759762	1409030.06602465	3521592.76079146	-23.5851544646739
6.75822	3333289.99335097	1413077.30587785	3620443.29497932	-22.9734819113261
5.761429	3408857.62812128	1545286.04789395	3742755.57559085	-24.3854962903803
4.919708	3573234.17847614	1643015.24882988	3932874.47067886	-24.6935298601986
4.191257	3693529.69728324	1726659.20742019	4077194.33474566	-25.0552495754206
3.564097	3817703.42815751	1845982.11064711	4240578.90130519	-25.8052570588248
3.051758	3952379.71323786	2028388.4391381	4442484.10887909	-27.1672063857405
2.604164	4182544.99421848	2047828.22654653	4656960.71210642	-26.0869689475347
2.214424	4234683.0636342	2255713.37307391	4797997.86065967	-28.0431499925144
1.892567	4378921.58104216	2350506.38028637	4969892.80132717	-28.2259006108494
1.607507	4731694.5042883	2519240.38331707	5360550.81039697	-28.0316507295662
1.376413	4732119.5423105	2799265.53422016	5498076.29028461	-30.6062595002983
1.17375	5115212.54907732	2967921.96535075	5913878.61007052	-30.1229409522157
1.001604	5336211.46449188	3233245.93955137	6239313.43173269	-31.211950374265
