EC-Lab ASCII FILE
freq/Hz	Re(Z)/Ohm	-Im(Z)/Ohm	|Z|/Ohm	Phase(Z)/deg
6999984	16.064577277579	83.5871661553511	85.1168901510716	-79.1210024367647
5969734	23.067275898453	86.2237962237147	89.2560488292196	-75.0225207366349
5091109	21.2475371637349	86.346082796131	88.9218974705365	-76.1756555951152
4341796	20.1500379760264	91.5814707389301	93.7720097531285	-77.5913197153244
3702781	22.9803695869248	99.4914703463059	102.110969332494	-76.9940112139005
3157797	23.0641644097582	107.909257022128	110.34656057616	-77.9353235755209
2693047	21.7758603079625	120.608682439259	122.558730296482	-79.7655226605073
2296687	21.7644886407516	138.261350173656	139.963902194944	-81.0541620375361
1958656	23.5106987929318	157.891183472845	159.632010499735	-81.5306337399669
1670375	24.6120026966462	182.148193131477	183.803468242037	-82.3047570169681
1424531	25.1119151129963	209.47242332147	210.972283518029	-83.1639072307668
1214875	30.2643762399637	240.762511856268	242.657205919242	-82.8353732310388
1036062	29.7331660302575	277.308872947069	278.898318706579	-83.8801044746803
883578.1	34.3381158625817	322.379972427371	324.203566950249	-83.9200969287804
753531.2	34.15400499526	377.669192987861	379.210384073693	-84.8325895133058
642624.9	49.4806669852031	435.521699080408	438.323495577394	-83.5182816270552
548046.8	45.5330385965817	522.528077504592	524.508197633253	-85.0198321207545
467390.6	138.957705052151	704.841124383194	718.408139162639	-78.8473004980307
398593.7	196.159363094616	800.74728091563	824.423861629114	-76.2353005015883
339937.5	223.482354333227	924.381912032873	951.013292226702	-76.4087348261744
289906.2	216.713227520333	1067.40599362195	1089.18326199146	-78.5233501606637
247234.4	272.418897856323	1197.24851178731	1227.8501760745	-77.1813111171288
210843.7	290.634304897161	1385.09443802103	1415.25789219486	-78.1495524951203
179812.5	270.728235076132	1582.27825458411	1605.27201813187	-80.2906957755242
153343.8	312.504132363501	1832.67795952821	1859.13080123071	-80.3231251867286
130781.2	306.504499758154	2077.79137398681	2100.2766489646	-81.6085560001047
111531.3	340.506931341478	2436.24851305032	2459.92922411021	-82.0434882623885
95109.37	385.523309019165	2768.87270758898	2795.58299691285	-82.0733966592943
81109.37	421.32966366113	3241.59778972096	3268.86446886447	-82.5944444781863
69171.88	500.169867486082	3704.91730332145	3738.52673131967	-82.3114606231711
59000	491.932884999181	4447.48927779384	4474.61270273024	-83.688220909091
50312.5	1369.10550693488	5772.39478353511	5932.53667718142	-76.6570547345841
42906.25	1816.31950218235	6746.39420929548	6986.61945158197	-74.9316496303271
36593.75	1916.8554780291	7608.65013272285	7846.3935515518	-75.8596693711005
31203.13	2050.423128739	8665.7892326159	8905.06249450219	-76.6879944555211
26609.38	2175.6283319798	9904.88834715859	10141.01433825	-77.611602421272
22703.13	2300.20171421842	11383.8857903538	11613.9478048557	-78.5767498271699
19359.37	2421.15298725522	13149.6003207757	13370.6383685986	-79.5673365591716
16500	2593.81183286391	15241.1886466989	15460.326360998	-80.3416890192909
14112.02	2827.7788460624	17606.6788613265	17832.3154337321	-80.8757429801323
12011.13	3099.14630255434	20528.5238918118	20761.141610743	-81.4150108569095
10236.38	3273.20928199734	23540.4487350232	23766.9229318818	-82.0839963785042
8750.684	3562.30012358345	27314.6329819368	27545.9462917576	-82.5695781098776
7449.463	4138.55628806128	32882.3127633712	33141.7280903941	-82.8264923852142
6363.206	4436.21884469716	37976.9887448122	38235.2155971643	-83.3372842595734
5414.761	16117.7722074961	50566.8385706881	53073.418431139	-72.3207382536955
4620.567	15092.5500220059	56924.6038664711	58891.388093009	-75.1506913954056
3941.215	18146.3490210381	66219.7446452546	68661.0847837118	-74.6753083127856
3361.769	18896.5412164699	75130.1443409112	77470.1094528199	-75.8819574293311
2867.244	19156.4375759571	85121.8820731842	87250.8103588879	-77.3170448187953
2442.658	22824.183117094	97492.9941727821	100129.052965345	-76.8237281571876
2083.003	21860.5544508261	110849.179955777	112984.178263001	-78.8438627512599
1777.843	25678.3612233221	128542.349665452	131082.08837454	-78.7029724294372
1513.548	26407.8416958381	148122.304689544	150457.938473098	-79.8912868965385
1292.065	28647.0312187259	172097.990104534	174465.958271713	-80.5493289242463
1101.762	29598.4222473295	202703.911243687	204853.465269738	-81.6924943170913
939.101	32262.8040561763	235147.076302473	237350.028479392	-82.1876444436434
801.2801	41178.6928906966	275118.378690256	278183.045927212	-81.4873754264345
684.3433	133160.875029746	393446.040160651	415369.239540898	-71.3017328150553
582.9476	146763.396319421	433635.532615568	457798.284887568	-71.3016755192758
497.0677	156545.993076254	485290.576709572	509915.279033037	-72.1212343494309
423.5089	180330.523233078	553128.776585913	581782.211052336	-71.9430444751452
361.5036	195895.661094804	637004.459297876	666445.640094637	-72.9059573456421
308.1262	195245.908398131	715145.806012294	741319.42413725	-74.729510120205
262.7298	218236.012232783	837785.729967133	865743.545382713	-75.3994123742719
224.2111	227153.675778407	948151.673174034	974982.249972973	-76.5272797939869
191.2854	249610.132747067	1085848.29231069	1114168.62829827	-77.0539998950507
163.1722	299401.323137642	1269098.64922923	1303937.31972516	-76.7256950784408
139.1537	325641.497491958	1436926.30169624	1473363.3568795	-77.2311011495256
118.6706	362522.384464572	1713724.33597757	1751648.81724609	-78.0557020082779
101.1982	403399.071838041	1965335.41959026	2006308.58111503	-78.4007371925057
86.24196	507188.212606243	2255961.77747084	2312272.35083069	-77.3293634113906
73.61024	455312.658243793	2386239.19135214	2429289.42184786	-79.1973777108556
62.69291	1537555.03186045	-26406.2287646399	1537781.76765006	0.983910627772816
53.57697	975463.394026216	3187320.9543653	3333248.22046322	-72.9835358311028
45.65746	487761.402639224	3435399.18766291	3469852.84479034	-81.9190991250656
38.96512	1780115.46916937	4860897.27657798	5176594.77040837	-69.8866989484207
33.18414	1301064.39772284	4965736.22626885	5133352.20259634	-75.3180523673634
28.30617	3351231.2138929	5746210.3775044	6652043.6221893	-59.7489556087145
24.17237	2034864.11274207	8057608.02714209	8310578.74497259	-75.826896185219
20.61345	1099469.8389872	7041057.70777834	7126382.5024417	-81.1248650294552
17.55618	1296082.49499333	8332861.36936758	8433054.51393069	-81.159127905604
14.98558	4780648.46388882	9455378.6329394	10595224.6237411	-63.1787955619266
12.76553	5543693.05054318	10441905.5955285	11822263.9585052	-62.0358020564201
10.8809	6823595.22555467	11335605.9969761	13230926.4649492	-58.9536901890729
9.278505	7606100.44467512	12162885.4552203	14345331.873864	-57.9800630078071
7.923394	9354706.58761374	12444461.8572241	15568402.8164822	-53.067213475146
6.75822	12009372.1564665	12031175.4149824	16999241.2024358	-45.0519636396121
5.761429	4211869.17317108	13115610.1734782	13775306.6083682	-72.1964064121521
4.919708	12403069.715178	15307573.8503198	19701724.6844676	-50.9836352644189
4.191257	13868237.1476808	14026865.3790726	19725135.0805752	-45.3258145473729
3.564097	14848000.5543506	15351283.0674083	21357083.421612	-45.9547675078218
3.051758	9849316.70134195	17033444.1568934	19676058.0231239	-59.9620386127236
2.604164	18265782.792101	18659485.1911589	26111591.4606385	-45.6108725096064
2.214424	18989483.8435568	19963353.2180997	27552422.186721	-46.4321674018807
1.892567	31406700.0627671	22203245.4535486	38462513.14596	-35.2587398221181
1.607507	19189802.9706793	25919295.4614321	32249936.6707984	-53.4849570035759
1.376413	34690628.6628302	10536278.1051915	36255384.0599201	-16.8946460768399
1.17375	25048629.0967974	27901103.1766874	37495404.7598514	-48.0836208435202
1.001604	23471637.9363629	29056673.9869932	37352484.3966519	-51.0691320266083
