EC-Lab ASCII FILE
freq/Hz	Re(Z)/Ohm	-Im(Z)/Ohm	|Z|/Ohm	Phase(Z)/deg
6999984	19.703525495535	92.2911885763429	94.3710358414449	-77.9486734921475
5969734	15.3332730307976	91.2786257510131	92.5575322749612	-80.4643019874489
5091109	10.3451911469571	96.3416913709862	96.895533829426	-83.8710517415172
4341796	7.16451500388363	106.460109881835	106.700915044311	-86.1499340758706
3702781	8.13080645740589	118.973319923715	119.250831725898	-86.0904037609565
3157797	8.05120096156283	133.796886603059	134.038907417195	-86.5563903357364
2693047	7.62539137371343	151.744366476711	151.935839587046	-87.1232174824593
2296687	7.1492819814581	174.614712752636	174.761008644766	-87.6554379783563
1958656	7.48559598789423	201.657406129699	201.79629232038	-87.8741359687578
1670375	8.10688685159882	234.322587842148	234.462783373963	-88.0185213331307
1424531	9.40704709939521	272.343952295134	272.506368525333	-88.0217298967835
1214875	11.5769503355274	316.824508679841	317.035952344989	-87.9073102250958
1036062	13.3310479839644	369.107099000348	369.34775939865	-87.9315463398299
883578.1	15.694765929726	430.129017578092	430.415261625658	-87.9102896056305
753531.2	18.4942428662629	501.483950244198	501.824859260401	-87.8879442516204
642624.9	76.3008784289496	664.326983555169	668.694373483536	-83.4480370013722
548046.8	92.9502159015859	764.971512080041	770.597921701179	-83.0720620962073
467390.6	111.218555247248	878.085989528345	885.101447313955	-82.7813433109579
398593.7	129.784617540257	1009.95167714299	1018.25656742985	-82.6772941753622
339937.5	151.076715282594	1161.68946307214	1171.47197256845	-82.5903191820613
289906.2	171.140629161224	1339.82788022797	1350.71383482434	-82.7208389677921
247234.4	193.978437947426	1546.25745995018	1558.37728642331	-82.849582584358
210843.7	216.598780600981	1785.97324287345	1799.05960324213	-83.0850682381568
179812.5	242.640925778123	2069.48161415487	2083.6575462843	-83.3127616659418
153343.8	271.080066109686	2399.72063380506	2414.98313090418	-83.5550082217231
130781.2	304.717621623917	2785.98015112593	2802.59491032789	-83.7580644643174
111531.3	347.265676676075	3241.86080694942	3260.40717423944	-83.8858340526316
95109.37	395.74562988316	3772.43244145777	3793.13341828819	-84.0113118097653
81109.37	449.234659023352	4380.14112402262	4403.11799129003	-84.1441234266766
69171.88	1107.25725863417	5594.95157497795	5703.4640143641	-78.8056464663247
59000	1260.7799130801	6387.03008522248	6510.27797400106	-78.8335495109475
50312.5	1301.03650245862	7424.58307168775	7537.71382908121	-80.0607678123382
42906.25	1790.63491004605	8513.36620183978	8699.64237585106	-78.1219932251746
36593.75	2001.06003791407	9728.88615924115	9932.54585566111	-78.3773605144644
31203.13	2255.79345559861	11203.9800005657	11428.8132353012	-78.6163412108134
26609.38	2617.87820499607	12902.0515556407	13164.961854886	-78.5301683584258
22703.13	3012.16117163077	14899.8326700982	15201.254175916	-78.5710775449981
19359.37	3574.73082948968	17224.8702772998	17591.8974693781	-78.2756605058287
16500	4249.48590907123	19922.3219967474	20370.4944523564	-77.9591013240189
14112.02	5110.8216024396	22937.2337520683	23499.7274377595	-77.4386837587015
12011.13	6239.65882302843	26197.9460333574	26930.7578540691	-76.6032539976213
10236.38	7751.72678094863	30436.5093382433	31408.1258400346	-75.7113878937207
8750.684	9458.85699243187	33416.7764954489	34729.6836575006	-74.1954561593635
7449.463	11665.6622817984	34419.4007954724	36342.575962531	-71.2770956298647
6363.206	22281.2237148271	39680.6953000603	45508.3564823693	-60.6852259417377
5414.761	25222.4079560575	47439.2956401114	53727.6151893204	-62.0014245887123
4620.567	31559.0557639034	59949.7836822716	67749.1739009438	-62.236566467834
3941.215	37473.5043110768	65905.4569912281	75814.1991092362	-60.3776621973115
3361.769	44543.3218924284	72261.6898035105	84887.3332039078	-58.3496207856665
2867.244	52455.7901614156	78106.7137615094	94086.4956095232	-56.1150338184547
2442.658	61166.4426912304	83992.6816925284	103904.303517236	-53.936568067276
2083.003	68834.6190618285	86421.7968978382	110484.984321121	-51.4628170572207
1777.843	73340.8388263719	87015.4191847919	113800.535216935	-49.8741769786615
1513.548	93397.637799465	97731.9254714755	135183.756431319	-46.2990864948057
1292.065	104568.063747532	100869.608787454	145289.909948496	-43.9686264997347
1101.762	111632.313056213	98959.1400844745	149180.041307606	-41.5561533258687
939.101	87970.4694443455	62192.6522805209	107734.53249513	-35.2592382953998
801.2801	87039.8225997596	56703.2854256028	103880.6685397	-33.082783626082
684.3433	91272.5125858614	56897.2658373921	107554.499736213	-31.9385009655365
582.9476	94837.6591635735	57141.7826795626	110722.016434964	-31.0698912185402
497.0677	99483.9443797366	58648.2603550823	115484.516849784	-30.5204075042759
423.5089	103301.604098483	60696.5682977158	119813.583589003	-30.4370707929741
361.5036	107919.371841082	63548.8702760132	125239.968588032	-30.491920042702
308.1262	110907.724304029	68074.4567643157	130133.220101768	-31.5413380811077
262.7298	115545.990495931	72492.3633547174	136403.88067954	-32.1037362640743
224.2111	119717.739490473	77310.2887301108	142510.41327651	-32.853216626307
191.2854	123834.959576746	82762.5364570385	148945.408301757	-33.7559689283151
163.1722	128902.826945193	90676.9152625659	157601.528406285	-35.1245359177646
139.1537	135013.644470536	98300.2831499774	167007.873648466	-36.057488825154
118.6706	143242.314821414	106088.16072558	178249.98906461	-36.5243978619841
101.1982	146114.961199565	120040.879158475	189101.545618988	-39.4048457741791
86.24196	153611.293346368	132309.574190152	202736.905535039	-40.7392129128373
73.61024	167900.535048341	140175.724786868	218723.166329136	-39.8576142126254
62.69291	163958.177650147	162542.799001232	230873.223924976	-44.7516248929825
53.57697	189452.49881334	178390.101606391	260221.593373335	-43.2774216748448
45.65746	194571.414716141	196042.448716116	276207.670283161	-45.21577227324
38.96512	200695.860247574	223426.82810413	300330.444406134	-48.0678473154202
33.18414	212666.327101548	250487.733111359	328589.51766928	-49.6684450231638
28.30617	227203.028953541	274187.19795973	356089.645862768	-50.3534275263986
24.17237	244723.398009668	307328.493277757	392861.736891969	-51.4699503817701
20.61345	260791.794082324	351529.59020815	437704.709424729	-53.4291222664404
17.55618	281031.747003079	391409.531985638	481850.873769903	-54.3216816492732
14.98558	294414.967642533	436298.400548356	526342.538175481	-55.9884502527764
12.76553	308099.5662442	501299.108334413	588409.839088999	-58.4250220315057
10.8809	338849.01391999	565723.969737268	659440.872383448	-59.0798554955607
9.278505	363919.588331395	644337.457057136	740005.557640041	-60.5423875634116
7.923394	387506.715771949	725985.769082682	822931.826872029	-61.9082043554445
6.75822	421314.768005857	816317.577941278	918629.697862933	-62.701006056567
5.761429	471539.995084008	908538.214505838	1023616.94699789	-62.5702570877181
4.919708	508713.167063275	1026322.6909721	1145481.27542433	-63.6339532343785
4.191257	553019.332205677	1117085.14125381	1246478.87852272	-63.6620281663399
3.564097	610461.279730547	1270503.27942734	1409553.67300642	-64.3362848996499
3.051758	664096.670442899	1384271.46556673	1535327.93828407	-64.3708915504758
2.604164	780932.138042815	1611147.62449588	1790433.37551187	-64.1402760379356
2.214424	825934.147634409	1827183.537822	2005185.00321449	-65.6758029288862
1.892567	945258.133397318	2158151.25114238	2356083.56421439	-66.3468510985435
1.607507	1084770.96188146	2492192.0463123	2718041.43372457	-66.4780584336284
1.376413	1353039.62196755	3073660.37313301	3358288.89584893	-66.2406820191057
1.17375	2303966.6828006	3854504.53800307	4490597.70063423	-59.1318227675791
1.001604	2626422.99310619	4213471.41985423	4965021.56537565	-58.0630845923215
