EC-Lab ASCII FILE
freq/Hz	Re(Z)/Ohm	-Im(Z)/Ohm	|Z|/Ohm	Phase(Z)/deg
6999984	-14.612842681021	30.8812212321345	34.1640892752654	-115.323283426326
5969734	-14.9428173621644	33.4480319480124	36.6341184132259	-114.072573855335
5091109	-15.3480449868851	38.0053340999271	40.9874115426496	-111.990789002507
4341796	-14.4557230527517	43.1315250682981	45.4895194929017	-108.528806116988
3702781	-12.9861217958564	49.4624117325482	51.1387283152108	-104.710729961795
3157797	-12.7647810270268	56.632067638406	58.0528269739634	-102.702111819405
2693047	-12.8842573899511	65.3904649878327	66.6477081362554	-101.146531405625
2296687	-13.0503772679125	76.5595458608846	77.6638681064737	-99.6736860974614
1958656	-12.9832951563656	89.3516770226892	90.2900223717121	-98.2675330766514
1670375	-12.6146865277698	104.627286400897	105.385005460024	-96.8748445640269
1424531	-12.7002378482279	122.042688891753	122.701727589023	-95.9410379495227
1214875	-12.223630987672	142.42259884025	142.946192026698	-94.9054740306032
1036062	-11.746917154705	166.660648304869	167.074120545459	-94.0317706888082
883578.1	-10.8809098037518	194.657269382465	194.96114156825	-93.1993776040422
753531.2	-10.2301911340737	227.423612766037	227.653588713633	-92.5755984524833
642624.9	-8.94595921483634	266.04816055694	266.198523515824	-91.9258643128049
548046.8	-7.65907226765791	311.260414819412	311.354632567999	-91.4095720436125
467390.6	-6.2087818205393	363.952313802343	364.005268771997	-90.9773326829658
398593.7	-4.23549399581671	424.823720863144	424.844834283524	-90.5712201977771
339937.5	-2.08863109018849	496.855651147346	496.860041115086	-90.2408527331047
289906.2	-129.537597925528	493.429661603238	510.149801750625	-104.709641341984
247234.4	-137.632214636134	598.734532239587	614.349791732531	-102.945790769674
210843.7	-143.249567485495	720.777704829247	734.874777335363	-101.240668371365
179812.5	-146.098624146071	863.482016662097	875.754532432585	-99.6033268802194
153343.8	-146.173235020712	1025.72100679317	1036.08406918223	-98.110485345006
130781.2	-143.568705724795	1216.13198941921	1224.57706533816	-96.732808326614
111531.3	-140.561974879318	1440.4997663675	1447.34144060301	-95.5731990450487
95109.37	-130.827187471648	1692.26026166539	1697.30979676474	-94.4206944401431
81109.37	-121.362297761341	1988.46073448898	1992.16086195929	-93.4926174035901
69171.88	-107.668589539368	2332.99383852002	2335.47699105467	-92.642348035616
59000	-94.6203125703014	2733.94189756106	2735.5787875312	-91.9821860640663
50312.5	-78.6380046831649	3195.80454431952	3196.77190635708	-91.4095720436125
42906.25	-51.8162921292474	3752.75048793628	3753.10819892473	-90.7910641037688
36593.75	-21.9741083243405	4374.94589925195	4375.00108375051	-90.2877779765259
31203.13	-946.519059511016	4775.46329018294	4868.36193867121	-101.210989157577
26609.38	-930.974873018621	5682.73538560355	5758.48900988643	-99.3038418407045
22703.13	-922.411808864054	6723.41989901734	6786.39953757765	-97.8118597421838
19359.37	-854.928872551275	7922.266678649	7968.26284109366	-96.1592202779085
16500	-804.169243100582	9325.8149637136	9360.42268858482	-94.928449638188
14112.02	-771.748407720336	10887.4782597034	10914.7963086964	-94.0545744090544
12011.13	-763.279613181256	12777.8539495985	12800.630739349	-93.4184766649002
10236.38	-449.362726841495	15169.2152069569	15175.8695584552	-91.6967957863116
8750.684	-554.191427689556	17417.3229994329	17426.1375125154	-91.8224454307838
7449.463	-293.514849605602	20282.0116096679	20284.1353254616	-90.8291085013655
6363.206	-228.187839654088	24301.285944341	24302.357256834	-90.5379886456595
5414.761	253.902384542376	28094.0899804171	28095.2372876373	-89.4821993165719
4620.567	53.5442584302509	32923.4022283623	32923.445768603	-89.9068183385434
3941.215	-8535.38579851816	34220.2119185164	35268.6222367378	-104.00524702865
3361.769	-8713.80420609293	41139.6066506296	42052.3200205488	-101.959100150679
2867.244	-8689.30409381339	49123.8564914511	49886.4438723332	-100.031039874285
2442.658	-8941.97458985355	58602.6170601735	59280.9044791569	-98.6756509141231
2083.003	-8120.0622730184	68925.5337719184	69402.1946127179	-96.7190000437513
1777.843	-7707.68696855959	81117.2398516601	81482.6057484482	-95.4278969482035
1513.548	-7357.53911177594	95633.2740813842	95915.8823829842	-94.3993804101642
1292.065	-6392.06112937707	112251.502064887	112433.349862507	-93.2591371020743
1101.762	-5007.65523622523	130849.507852414	130945.295128094	-92.1916594339661
939.101	-4298.59643312639	153658.67475093	153718.789539559	-91.6024296374536
801.2801	-4993.23455687501	179310.455823663	179379.965322301	-91.5950957776759
684.3433	-2025.07196961043	210157.531571211	210167.288112558	-90.5520834074197
582.9476	-536.743152445254	246023.235565714	246023.821065023	-90.1250006669292
497.0677	1019.69314214444	288428.468731436	288430.271207557	-89.7974406954529
423.5089	-77159.5960978558	288799.404358232	298929.25455307	-104.958534208189
361.5036	-78423.0484821069	354770.000922288	363334.457611203	-102.464964588
308.1262	-80628.114499068	418099.622806911	425802.991345711	-100.915171047951
262.7298	-76900.0523260854	503092.430881353	508935.764176446	-98.6906624083555
224.2111	-75558.1695283006	600335.054720356	605071.247795299	-97.1735274626286
191.2854	-68883.5699894892	720415.271234052	723700.980544955	-95.4618160496753
163.1722	-73109.4834929955	816107.394440382	819375.540174883	-95.119072696628
139.1537	-73943.6226013247	956404.519228314	959258.705315594	-94.4209809190406
118.6706	-25575.2014450443	1137359.95251949	1137647.46407843	-91.2881622868243
101.1982	-7136.3128604055	1414611.41950465	1414629.41972596	-90.2890384836752
86.24196	-237993.673014759	1509647.04128498	1528291.58790315	-98.9588639522562
73.61024	62164.4969592899	1156699.86391677	1158369.11209997	-86.9237135781948
62.69291	208976.646810326	228162.457095482	309401.59298222	-47.5130694711289
53.57697	-30219.5978829173	1445034.23415739	1445350.18662712	-91.1980360256502
45.65746	61644.7974272614	1670587.95397672	1671724.91547562	-87.8867410402507
38.96512	-46226.3283947108	2178138.63391019	2178629.10610526	-91.2157977172993
33.18414	537852.310134231	2435843.37471219	2494517.5993859	-77.5484624722486
28.30617	4554706.25745922	2726821.15225856	5308568.79847506	-30.9082025287543
24.17237	911107.931757699	3826820.67255859	3933786.23252886	-76.6080668431004
20.61345	-233234.315689739	3365609.08332643	3373680.8900346	-93.9642189647623
17.55618	-1393799.79422103	3928969.57415279	4168870.32431916	-109.532112512041
14.98558	-1558498.18435803	8832961.98367137	8969399.86819803	-100.006345393314
12.76553	2046497.12955766	9622248.18932232	9837469.73150131	-77.9930204254906
10.8809	1419144.28533105	9129047.88333411	9238695.02466635	-81.1638834553036
9.278505	454674.367608505	9445137.54706265	9456074.87615727	-87.2439969856729
7.923394	-1883654.45344097	8094979.62879841	8311248.35933984	-103.09928616299
6.75822	-2104588.6830416	8603058.01863997	8856743.23873467	-103.74644199259
5.761429	3546966.92680858	-4785380.87908772	5956579.93632354	53.4538282065664
4.919708	10399915.5777909	1097577.23531723	10457672.7723076	-6.02453089466363
4.191257	4219975.04763038	5489978.82966806	6924453.549041	-52.4516448087913
3.564097	6895754.53172857	9187486.7714571	11487442.8720039	-53.1095951632518
3.051758	-10168276.7703915	6954621.47177306	12319115.7269883	-145.629714112433
2.604164	8584658.96163063	40392249.6161648	41294433.0211963	-78.00132831352
2.214424	37405061.1011574	39003223.3454571	54040633.1135834	-46.1982287341288
1.892567	14090146.6508028	13816831.9393442	19734160.1666048	-44.4388758805104
1.607507	14808489.7781383	19030180.1293872	24113048.8587849	-52.1114396587765
1.376413	15550640.8177814	18866504.7938652	24449282.8725218	-50.5030841024868
1.17375	12649832.3218413	46501719.1663218	48191577.5130278	-74.782107645798
1.001604	67180550.8056991	-13250042.0164228	68474740.0140671	11.157264440362
