EC-Lab ASCII FILE
freq/Hz	Re(Z)/Ohm	-Im(Z)/Ohm	|Z|/Ohm	Phase(Z)/deg
6999984	20.6140878942149	99.8999087179356	102.00457039546	-78.340805807135
5969734	15.7785859906697	94.6110422477684	95.9177412738331	-80.5317391199358
5091109	13.3150150498723	100.141001566017	101.022323376684	-82.4262240695358
4341796	12.3384619604134	110.174657183877	110.863396705736	-83.6100694658352
3702781	14.7892749518602	121.416212505747	122.313610497125	-83.0552171370305
3157797	14.360582100491	135.431094537067	136.190336242234	-83.9471978324901
2693047	14.1716525034739	154.197603977155	154.847463030476	-84.7489376752167
2296687	15.0609306298073	177.80864192214	178.44535514726	-85.1584306113967
1958656	16.7436928134477	204.504263517073	205.188559733947	-85.3193744560489
1670375	18.3921293779526	236.498323200634	237.212409666457	-85.5531412364623
1424531	21.2490437481202	274.099619034703	274.922030792694	-85.5671214066635
1214875	23.8246367771364	317.838772341683	318.730448061101	-85.7132256444219
1036062	27.2543698932217	368.828699104269	369.834300682378	-85.7738445791467
883578.1	32.2865811510286	428.680116095729	429.894248924395	-85.6928283469152
753531.2	37.1386823227376	498.756895950348	500.137704020298	-85.7414724637218
642624.9	97.7591062053642	663.668865999022	670.830236753308	-81.6205308180229
548046.8	119.044989485159	759.708244540965	768.978755457546	-81.0942690831952
467390.6	143.853753854073	869.412068035031	881.232799289074	-80.604905830374
398593.7	169.96183190248	995.022285097995	1009.43368883017	-80.3067385937879
339937.5	197.803510930321	1139.95294896856	1156.98701582969	-80.156107989448
289906.2	227.664585329526	1306.40501507666	1326.09397360471	-80.114453957742
247234.4	259.920341847014	1499.68072155865	1522.03838674343	-80.1673379622326
210843.7	294.536073754021	1725.35721648173	1750.31683509244	-80.3124108759597
179812.5	338.854960733866	1985.01984182881	2013.73445540072	-80.3126400590778
153343.8	381.145870053177	2292.251344964	2323.72296170345	-80.5594702772201
130781.2	432.224611779402	2646.06297555295	2681.13173596897	-80.7228778403914
111531.3	498.305554744509	3060.28236792232	3100.58649247291	-80.7516976174865
95109.37	574.68562961965	3539.49088180865	3585.84150169774	-80.7777099013855
81109.37	679.328414871503	4087.47242541741	4143.53929917402	-80.5638247564631
69171.88	787.876117294667	4728.11246660686	4793.30744612595	-80.539359458611
59000	1598.95777507228	5919.77241998211	6131.9141767351	-74.8848389784649
50312.5	1750.44583085753	6745.10461634063	6968.53620871314	-75.4518953083059
42906.25	2240.04757287271	7783.15976745668	8099.09804203464	-73.9438130957421
36593.75	2497.78854749718	8763.4997627073	9112.51204218568	-74.0912924322087
31203.13	2804.99670522775	9989.38363938084	10375.7309145461	-74.3153762258844
26609.38	3243.66219002474	11421.0723781987	11872.7519417803	-74.1450931691715
22703.13	3733.99159622703	13079.1863306605	13601.7575449951	-74.0664260639001
19359.37	4344.74007593631	14948.8352105927	15567.4159859915	-73.7939846323154
16500	5096.27633535169	17139.4529874349	17881.0760636701	-73.4405842642787
14112.02	6022.56184473941	19567.4506730035	20473.3088926567	-72.892435541677
12011.13	7198.65655011196	22396.969998957	23525.4101188619	-72.1819678757148
10236.38	8668.0147428773	25493.9251138473	26927.211093858	-71.2218052026345
8750.684	10383.056043947	28986.0125499026	30789.5562870733	-70.2920092926962
7449.463	12612.6519596848	32931.1597631981	35263.8663904771	-69.0431331866496
6363.206	15278.0295854127	37177.6528930713	40194.4780119165	-67.6599557734243
5414.761	25249.9735808802	43486.5755625374	50285.6184210896	-59.8589062096001
4620.567	29691.7771473533	47687.7711017664	56175.8412738302	-58.0924200314322
3941.215	34531.2226481765	52077.2104107399	62485.5277783777	-56.4525403372544
3361.769	40208.5417419957	56644.2235980043	69464.3426229494	-54.6312049093587
2867.244	46831.0834739092	61150.4067255913	77022.8707725536	-52.5538662090206
2442.658	54219.7732826016	65664.9119526021	85156.7054116098	-50.4533800137592
2083.003	62551.2679796478	69620.886665096	93593.4238389421	-48.0617166670123
1777.843	71727.6643348325	73026.4382914789	102360.7274323	-45.5140598309631
1513.548	81801.2807946922	75648.6059651479	111418.854437309	-42.7621893775734
1292.065	92006.6250798079	77285.4042612246	120159.280833389	-40.0302005596747
1101.762	102668.603569065	77810.9883378067	128823.103769969	-37.1579402143721
939.101	113150.183450374	77292.9223814876	137029.777293564	-34.3369939692014
801.2801	123253.119098334	75745.4433908689	144667.562231302	-31.5728851373076
684.3433	132920.32416148	73648.5538516813	151960.264739296	-28.989979937702
582.9476	141781.677306742	70651.1045668716	158409.666991734	-26.4874950942209
497.0677	149856.291139726	67522.9417585513	164366.22420036	-24.2555952990683
423.5089	156828.295269175	63982.2038974658	169377.792560337	-22.1942879578379
361.5036	163269.163078379	60769.2437113033	174211.711987334	-20.4154087025614
308.1262	169014.556204302	57529.8741072107	178537.40959174	-18.7977597708347
262.7298	174180.707308861	54710.1687946778	182570.866701556	-17.4375063989926
224.2111	178724.260350842	52265.2952561365	186209.619316959	-16.3007867813428
191.2854	182801.975447616	50242.4442988521	189580.762306395	-15.3680630570713
163.1722	186441.675893278	49020.5979008235	192778.415618679	-14.7312032790496
139.1537	189842.022356524	47761.9359616847	195758.003614726	-14.1218340160382
118.6706	193627.718784219	47193.3276725576	199296.020176997	-13.6977593039721
101.1982	196505.724934263	47583.2390291213	202184.728821053	-13.6119817924631
86.24196	199738.169646479	48652.2354785378	205578.151637728	-13.6895259004561
73.61024	204886.526369641	44868.9961267771	209742.021305323	-12.352448671427
62.69291	207750.505612928	47239.0085487503	213053.506216387	-12.8102935159381
53.57697	210742.744915142	50511.2028652926	216711.527495118	-13.4784940853535
45.65746	214480.657138633	54468.8147022893	221288.960550888	-14.24941452828
38.96512	217719.406570885	59083.9396829506	225593.997983184	-15.1830607146015
33.18414	221574.309005601	64202.7410756441	230688.46172476	-16.159323501725
28.30617	225981.341580407	70476.7724092203	236716.163773625	-17.3211272116456
24.17237	229879.808449087	76859.2213215822	242388.25515018	-18.4871135134707
20.61345	235158.700358184	84761.2013026271	249968.149171878	-19.8213202239461
17.55618	239560.574308987	93673.8297852626	257223.745307252	-21.3566694979803
14.98558	245509.274147155	104038.461576214	266643.592046402	-22.9655750937533
12.76553	250977.815259859	115730.906899695	276375.662033468	-24.755374924605
10.8809	257905.577225774	129463.553330525	288575.983763593	-26.6557556099169
9.278505	264142.713445762	144358.692462401	301016.287193806	-28.6573893967844
7.923394	271694.705185659	162493.642250307	316578.894744569	-30.8825626674222
6.75822	280280.692851244	181920.728006147	334144.307243831	-32.9862402376025
5.761429	290215.70366297	204353.92372724	354944.616518284	-35.1510982411468
4.919708	300425.877819327	228109.77522413	377213.172644217	-37.2089678356064
4.191257	309998.773847633	257701.416856125	403124.372913237	-39.7366857403851
3.564097	324109.292021661	293898.035695265	437519.015084279	-42.2013267214978
3.051758	337618.61246359	328858.358987212	471311.094456307	-44.2469407487195
2.604164	353490.225411522	373224.160596785	514054.095903012	-46.5554851081267
2.214424	372154.748157758	422703.743693178	563185.23729639	-48.6388226765799
1.892567	395203.347155756	478641.106712174	620711.683986831	-50.4542680983417
1.607507	418003.078401772	543219.859157524	685430.075891391	-52.4220228907831
1.376413	445647.955002662	613660.10632741	758406.76809732	-54.0123589244159
1.17375	471370.914447718	697368.366400827	841732.248071699	-55.9441319673231
1.001604	512072.411127967	790240.454681367	941646.499729821	-57.0569363266041
