EC-Lab ASCII FILE
freq/Hz	Re(Z)/Ohm	-Im(Z)/Ohm	|Z|/Ohm	Phase(Z)/deg
6999984	0.157511003880945	93.2388301188801	93.2389631626914	-89.9032087044341
5969734	17.3435824955846	99.9105387115054	101.404711919143	-80.1520972848821
5091109	13.9853396565642	105.126931344207	106.053106598341	-82.4222706607494
4341796	12.9744844830383	114.792066567508	115.522966523717	-83.5514558833933
3702781	15.4161740895793	127.113569127753	128.044983814112	-83.0850109423773
3157797	15.1229126628177	141.351810555817	142.15849195463	-83.8932825039683
2693047	14.3875216841235	160.654630078367	161.297585058884	-84.8824941372617
2296687	14.6636196025689	185.374455357402	185.95351687694	-85.477167032828
1958656	16.1923250831971	213.217329863045	213.831291315201	-85.6571330762786
1670375	17.1167198073151	246.973222450682	247.565657361106	-86.0353998126239
1424531	19.5420926878047	285.880732782928	286.547878657517	-86.0894870284843
1214875	21.582831910319	331.482082573983	332.183969662676	-86.2747242836501
1036062	23.1654614925736	385.168620963436	385.864620276385	-86.5581665049013
883578.1	26.2192550559914	448.200666343844	448.966910414071	-86.6520742875232
753531.2	29.3589479337887	522.351018169809	523.175433298253	-86.7830524394901
642624.9	75.8827283817024	703.921316345839	707.999581972129	-83.8472739930193
548046.8	98.9895362693108	802.943747886948	809.02261436968	-82.9718517778389
467390.6	120.652413157305	923.822010283046	931.667382430065	-82.5592075737857
398593.7	143.718229775951	1059.73854411318	1069.43943795292	-82.2768539723452
339937.5	164.466571390721	1217.48485589679	1228.54329489971	-82.306647777692
289906.2	186.0625553623	1400.49555860141	1412.80114813452	-82.4322974221642
247234.4	207.211585112963	1614.01393418588	1627.26077220315	-82.6842269646832
210843.7	228.879482305906	1862.89902082936	1876.9066517085	-82.9956295263369
179812.5	251.582051458795	2150.9475272325	2165.61048979816	-83.3288044842054
153343.8	274.147011852424	2497.7886554864	2512.78824248765	-83.7365212512205
130781.2	296.516329939336	2898.09797416301	2913.22738586751	-84.1581608926573
111531.3	325.595657254786	3369.24827194574	3384.94408373795	-84.4802204693003
95109.37	356.551745768559	3915.27587872428	3931.47737548251	-84.7966077637716
81109.37	410.423587377528	4571.00613879538	4589.39480127619	-84.8692588121942
69171.88	1029.3433174933	5898.85584050685	5987.99197497374	-80.1016197031311
59000	1171.30177914687	6747.27494079636	6848.18713124365	-80.1518108059845
50312.5	1132.3287567763	7768.13974475356	7850.23334095506	-81.706646374631
42906.25	1613.62398668449	9040.29215814813	9183.1729089176	-79.8797131490769
36593.75	1713.27700964174	10295.6831368264	10437.260625552	-80.5521364174424
31203.13	1821.28539011207	11890.3294060391	12029.0071849822	-81.2914811562792
26609.38	1988.15306147992	13693.5706603168	13837.1467443603	-81.7390184900559
22703.13	2152.91476590579	15825.7959791151	15971.5641175757	-82.2531335196268
19359.37	2332.5641737985	18365.0911479084	18512.6288920799	-82.7615762670259
16500	2525.94961831301	21350.1272787244	21499.0315198613	-83.2526583932326
14112.02	2703.15627955897	24738.061669207	24885.3119132794	-83.7639659296073
12011.13	3035.95312392256	28799.6757617	28959.2530178129	-83.9823201453316
10236.38	3404.98582698932	33504.3884501715	33676.9650340108	-84.1970647269467
8750.684	3817.76281992046	38852.5877105875	39039.7090762478	-84.3879742642843
7449.463	10024.8406105577	50188.2005050302	51179.6140978047	-78.7041183450275
6363.206	11348.3523210762	59774.0048804547	60841.7353455003	-79.2500898280076
5414.761	13120.0803394171	65843.8849100453	67138.3175851171	-78.7308181782806
4620.567	17101.7682307252	77121.3206600582	78994.7376536498	-77.4968962706868
3941.215	17025.7058111693	86718.879013982	88374.4229729968	-78.8922776849484
3361.769	18153.2986126952	98989.7792659949	100640.541779405	-79.6082457457439
2867.244	18329.9912890495	117393.846719239	118816.260790335	-81.1254379872504
2442.658	20602.7176395212	134142.583526687	135715.52854905	-81.2682763655765
2083.003	23352.6073368252	154285.642803942	156042.955127278	-81.393066573356
1777.843	25464.3479019306	180953.238183444	182736.168896978	-81.9897448212052
1513.548	28666.8260669214	210409.456695963	212353.305563726	-82.2416170679447
1292.065	33223.8996300492	243288.253409197	245546.333211321	-82.2236834889571
1101.762	43510.7102708356	284639.434370578	287945.810018265	-81.3088990732512
939.101	108161.163328456	385902.482029871	400773.705336789	-74.3428209042712
801.2801	121166.994748612	451608.927808576	467581.077774563	-74.9812104796059
684.3433	125062.453810413	489350.791083286	505079.017666463	-75.6638896925043
582.9476	157098.624849984	553700.781829853	575555.847619279	-74.1600473676244
497.0677	169180.110417957	645362.811011996	667169.444442967	-75.3106039160267
423.5089	206879.016880031	751446.321867302	779403.940375686	-74.6073555182831
361.5036	254758.349098338	822549.517332751	861097.860234046	-72.7913084908364
308.1262	277065.346357354	954085.423981655	993500.982589537	-73.8067615911468
262.7298	361400.898811395	1114335.86279542	1171475.57583319	-72.0311080882568
224.2111	416054.222349442	1247186.57403364	1314753.00584732	-71.5515997095118
191.2854	507935.993725238	1391517.01915707	1481323.25585114	-69.9467449253504
163.1722	584664.388880277	1551245.65449934	1657768.23718752	-69.3485769872338
139.1537	695619.450549836	1838966.82294498	1966134.63320181	-69.2800512349362
118.6706	934699.495770149	2147295.07220491	2341909.32243511	-66.4769125180381
101.1982	1135152.71698293	2239762.86643657	2510997.68792046	-63.1232759515784
86.24196	111443.496698958	2334308.35467294	2336967.08313412	-87.2666861143601
73.61024	1604980.03336717	2965521.0078275	3371983.94945372	-61.5771493414179
62.69291	1887437.29781511	-785178.702840784	2044241.94961808	22.5874344081228
53.57697	2011125.97177362	3252339.31332773	3823916.66794132	-58.2688910323325
45.65746	2481945.70076984	4131341.35176805	4819547.26363365	-59.0042250666034
38.96512	2984151.70701787	3296508.92672588	4446586.61385125	-47.8471554318917
33.18414	3596500.06932664	3939461.82434562	5334245.2337836	-47.6057339353354
28.30617	3635715.26177839	3192887.60661679	4838693.70111556	-41.2896248187297
24.17237	4540367.79457681	2630038.96042619	5247098.68816949	-30.0818598783048
20.61345	6024464.5504913	3901761.35402785	7177598.12081392	-32.929225207409
17.55618	6534226.38799221	3155156.61878869	7256109.68623131	-25.7743230674656
14.98558	5859026.33755281	3248194.01158795	6699175.61801848	-29.0036106036481
12.76553	6305651.9882149	3111804.74655427	7031683.70855488	-26.2660870134485
10.8809	6488183.83428763	3139638.16088248	7207902.41670771	-25.8223827673212
9.278505	7143449.43446418	3428732.89751527	7923703.62300673	-25.6402051067814
7.923394	7075708.47296595	3051666.79972995	7705732.97298681	-23.3299476035667
6.75822	7757002.32226667	3568130.4614672	8538304.28233269	-24.7018778552736
5.761429	7808581.0407386	3733969.34155805	8655429.79368892	-25.5565647278482
4.919708	7790870.36730885	3142877.22836313	8400912.94757746	-21.9694020232491
4.191257	7946770.94505993	2546165.15193965	8344706.43187647	-17.7655877620624
3.564097	8142683.00115548	2983932.44589412	8672204.98483322	-20.1256467568299
3.051758	7124243.47752766	3318387.25911625	7859169.11184385	-24.975539686962
2.604164	8833804.73458252	3449411.48286344	9483382.60679399	-21.3295800534265
2.214424	8784574.10957175	3262197.21110456	9370734.91945518	-20.372740535558
1.892567	9760202.94052128	4261990.449373	10650170.1409277	-23.5894631072933
1.607507	9644256.00618968	4039826.15675609	10456188.0859966	-22.7280382510479
1.376413	10699355.4444824	3953305.37312686	11406350.4373909	-20.2787697275786
1.17375	10143608.345479	4590354.50653865	11133918.6615572	-24.3484946759708
1.001604	10631241.9422929	4846233.3286648	11683718.7021697	-24.505788779468
