EC-Lab ASCII FILE
freq/Hz	Re(Z)/Ohm	-Im(Z)/Ohm	|Z|/Ohm	Phase(Z)/deg
6999984	1.94710109716068	1.82828462146122	2.67092256339189	-43.1974195779107
5969734	4.82665256930032	1.64026656955641	5.09774944891741	-18.7695702473142
5091109	7.09159841168274	-2.34143102053668	7.46813679953123	18.2716584641897
4341796	2.20750332981024	-5.15198594519826	5.60500045768452	66.8060194755613
3702781	2.26606906388145	-5.04750102759647	5.53284155076467	65.8223655328807
3157797	2.34100860026172	-5.97518789802206	6.41741316132666	68.6053361353901
2693047	0.0834804050936768	-6.89640402412049	6.89690926734142	89.3064731608053
2296687	1.02656055589815	-8.14554342461685	8.2099758987006	82.8170385815946
1958656	0.857878030335363	-9.43169584224759	9.47063045291086	84.8028530037385
1670375	-1.84397015266693	-11.6418388573716	11.7869689871881	99.0004033924032
1424531	9.78413338539829	1.77908596971103	9.94456700871828	-10.3057116469268
1214875	6.4559021713801	-9.92073959424917	11.8363738933566	56.9460116974668
1036062	11.5350718262475	3.64452199899175	12.0971245607303	-17.5340039508485
883578.1	20.2515561721467	-5.74597029769795	21.0509311446225	15.8402203873048
753531.2	17.0113241758597	-8.10225609057717	18.8422849987331	25.4678078358045
642624.9	11.7612953369574	1.80003748559918	11.8982436919362	-8.70145846845025
548046.8	10.6900574568287	2.11693082108376	10.8976476604611	-11.2012504102942
467390.6	11.9372333697975	-1.81154357484869	12.0739070167275	8.62912254681499
398593.7	14.4028093791946	-0.192515813481515	14.4040959574649	0.76580106502698
339937.5	12.1869654650037	4.27490504277472	12.9149889806354	-19.3296880582562
289906.2	22.4616600601286	10.5312577572851	24.8079334610353	-25.1197588935743
247234.4	-10.8846705853261	-41.7067632207464	43.1037139015012	104.626848940588
210843.7	140.165625026652	-38.9355676553607	145.472955795079	15.524365943583
179812.5	-31.5104271575791	-80.376689881063	86.3326085317111	111.406887713489
153343.8	-18.6682126952216	-102.662235839094	104.345756179712	100.306116911727
130781.2	11.3949082539335	-134.315337019992	134.797825252894	85.1508102727214
111531.3	-4.39613935111641	-167.110766696391	167.168580741269	91.5069175730052
95109.37	-1.35274145952848	-203.67180483978	203.676297089646	90.3805398435575
81109.37	-23.9438930615404	-246.083185327455	247.245311615507	95.5573854099031
69171.88	-29.3861541686743	-287.725551794086	289.222300682427	95.8315457148732
59000	-34.6834283723999	-334.703922491819	336.496145498091	95.9161142854345
50312.5	-41.1819148247135	-389.202857221638	391.375541108686	96.0400450565213
42906.25	-47.7839206797153	-448.838960403612	451.375359818988	96.0768862427482
36593.75	-51.1485409020127	-491.850117864401	494.502489053018	95.9369699491772
31203.13	-39.3478179107352	-565.328073373423	566.695757279373	93.9814649943958
26609.38	-41.0054542600452	-663.786394271334	665.051745730218	93.5349589846503
22703.13	-54.9732805797686	-748.9848932527	750.999621769852	94.1978138578371
19359.37	-51.0274317150353	-882.400007400767	883.874183268357	93.3096146838253
16500	-98.4865491642176	-1051.50878101442	1056.11093968233	95.3508341247584
14112.02	-96.6555482984814	-1224.04288117867	1227.85311417167	94.5149459974421
12011.13	-108.587909119586	-1386.14008344224	1390.38687599251	94.4793080225849
10236.38	15.169666916528	-9.23597364818547	17.7601239744654	31.3349300354118
8750.684	2.84076036581281	2.29601955857108	3.65261896032338	-38.9465712113217
7449.463	25.2068000380139	-28.5935475944222	38.1178925465575	48.6020330565545
6363.206	1.18156865836673	2.19594097813124	2.49364417547302	-61.7166645645322
5414.761	2.42473836158022	-3.1594018543152	3.98260921999248	52.4949317702134
4620.567	1.56014800863706	-1.94962107116317	2.49701504400306	51.3321081954175
3941.215	6.72567268800338	-1.26269318525424	6.84317668822325	10.6330653535968
3361.769	-1.72481166154427	3.78725245989646	4.16152093143732	-114.485733721404
2867.244	44.2299636182156	38.6392627674618	58.7305909120761	-41.1404380680335
2442.658	69.7215749976413	49.3141736056729	85.3989797278759	-35.2718261781589
2083.003	11.7629009798848	11.1431243289309	16.2029336625374	-43.4501054247192
1777.843	3.34694288490093	0.556582501658692	3.3929059456374	-9.44164545524591
1513.548	1.84219059731041	7.26421006217746	7.49415866020057	-75.7698868846035
1292.065	1.48197912266771	-4.32156613677165	4.56860985361131	71.0718048518693
1101.762	-3279.29830988388	-13083.6019963599	13488.3074773806	104.070850696193
939.101	-2763.96213581505	-14946.8611515292	15200.2679243266	100.476743743117
801.2801	36.7805970588699	13.3796391549064	39.1385623640222	-19.9898156523382
684.3433	8.69242283742529	94.2343437020885	94.6344004458629	-84.7298008848593
582.9476	1178.96858477006	1187.01398952631	1673.01199493783	-45.194830665828
497.0677	146.44614268347	7.7152954910978	146.649236245479	-3.01575418734637
423.5089	-4939.66949723594	-31362.3779689349	31749.001348204	98.9507279515654
361.5036	-20431.7586204709	-52809.1766624013	56623.8986655449	111.151348536861
308.1262	-6430.19651126464	-41882.0095236839	42372.752434972	98.7285349186136
262.7298	-22790.8823441992	-69697.8535006838	73329.4967978773	108.107510250228
224.2111	-21810.0525396215	-74631.3796029429	77752.9498682823	106.290317307191
191.2854	-185160.842591615	-98684.0430266388	209816.772392772	151.943995493672
163.1722	-28065.3549773555	-105257.645615726	108935.008654567	104.929714431094
139.1537	-28324.2781993673	-115446.250832189	118870.103754997	103.785002052202
118.6706	14535.1150741508	-56711.3116595489	58544.3630110132	75.6245274919788
101.1982	-36513.7432204166	-160404.325658969	164507.754024165	102.824037238209
86.24196	-38102.8246247596	-177743.480830605	181781.655351041	102.099360218927
73.61024	-44760.688315917	-211816.226915998	216493.95650559	101.932113838529
62.69291	-42786.6194645026	-235304.783801625	239163.199688267	100.30577313705
53.57697	-218697.141329841	-354884.394681496	416858.936829111	121.643408977076
45.65746	-227237.90740788	-410217.726858201	468951.64995106	118.984025370976
38.96512	2090897.26229036	2498.02960213239	2090898.75450851	-0.0684521845167517
33.18414	-252361.702743616	-552311.942793585	607235.465996579	114.556551304882
28.30617	-267062.715290363	-633933.195884387	687890.827633611	112.84466800459
24.17237	1667921.87662441	1828301.2227281	2474802.76942454	-47.6264406300514
20.61345	-305827.924445375	-844383.468150793	898061.334574052	109.909920882151
17.55618	555926.072721576	-2285354.39660085	2351998.83426724	76.3280050728405
14.98558	-363994.112628779	-1125635.95545977	1183024.94405327	107.919522797646
12.76553	-394693.872100636	-1293554.14530001	1352429.50999179	106.968183674611
10.8809	-101728.011095053	3984611.95102801	3985910.30863924	-91.4624560481031
9.278505	7817796.34260563	-1892379.30413327	8043571.28924521	13.6073064568548
7.923394	7585812.58424695	-8987818.34138284	11761183.2355855	49.835284603528
6.75822	8717580.56638953	6676393.98737563	10980457.5317314	-37.4468427234109
5.761429	5993841.14454496	-3692271.36638553	7039815.30361916	31.6335212607663
4.919708	7706715.33286553	4889572.25971576	9126958.86398128	-32.3933320520452
4.191257	2083256.57158346	-9488381.43005205	9714388.30319245	77.6167017456487
3.564097	11417459.5936228	-10903217.1307819	15787290.0579227	43.6802052752438
3.051758	473604.935145043	-328095.775211993	576149.696090954	34.7127683391379
2.604164	102265929.770286	46581031.4525599	112374876.564851	-24.4887547442188
2.214424	18296169.792502	19777805.6892177	26942743.4934996	-47.2285214413331
1.892567	40882694.7721735	-77823323.9537318	87908273.1205783	62.2858408382152
1.607507	12040970.9206824	-5177038.84641622	13106742.9947345	23.2653809896334
1.376413	122572244.111973	-128222947.723808	177383988.425188	46.2907213109968
1.17375	168616438.720038	-180335990.505743	246885748.633484	46.9235531957188
1.001604	-9788194.36651888	-12817414.8883959	16127457.1268388	127.367658420889
