EC-Lab ASCII FILE
freq/Hz	Re(Z)/Ohm	-Im(Z)/Ohm	|Z|/Ohm	Phase(Z)/deg
6999984	19.0787226395504	104.948581369207	106.668657013042	-79.6966531335326
5969734	20.2928486871544	96.7205476859977	98.8264339765384	-78.1506984107106
5091109	16.3082345902591	101.989837189407	103.285455923729	-80.9152770679964
4341796	14.7489460571658	111.872345346986	112.840387553537	-82.4895932016773
3702781	15.3035005498111	124.383754310195	125.321648031683	-82.9858892438196
3157797	14.6040459271037	139.962524948678	140.722374011563	-84.0431682631746
2693047	14.0585604818584	159.900230980221	160.517061368411	-84.9754278916319
2296687	13.99080270192	184.85238220598	185.381082550161	-85.6717435000544
1958656	15.3721619652948	213.182728245376	213.736236950193	-85.8756591793415
1670375	16.5707077268027	247.463820811374	248.018005324474	-86.169070866228
1424531	18.3970946146309	287.056057499317	287.644977771751	-86.3329940914149
1214875	20.6163208255626	333.246538535988	333.883644598833	-86.4599042430363
1036062	22.1450111370861	387.214469211605	387.847195020264	-86.7267879840083
883578.1	25.0439655920474	451.526562471206	452.220562148206	-86.8253367247708
753531.2	28.1189766111271	525.940476233598	526.691618868652	-86.9396418048994
642624.9	73.2725597695041	691.747635115265	695.617465783269	-83.9535576640161
548046.8	91.6698556306908	798.020003644696	803.267881001371	-83.4470629731204
467390.6	109.275868824928	918.344707398516	924.823343733445	-83.2141556293998
398593.7	128.686566052427	1056.20261409938	1064.01324912462	-83.053383672086
339937.5	150.18681252691	1215.47276899929	1224.71634709258	-82.9560954384728
289906.2	169.153400249973	1399.00942719609	1409.19844244863	-83.10586660612
247234.4	185.548878233426	1616.35511837081	1626.97026859657	-83.4514174523634
210843.7	209.988091844616	1867.76517936016	1879.53232585844	-83.5853176890855
179812.5	233.54632342532	2162.88501270413	2175.45752966258	-83.8371326400455
153343.8	255.682757987914	2507.39237496764	2520.39484898263	-84.1775841619122
130781.2	280.443524683343	2913.30465045954	2926.77169538829	-84.5014772034997
111531.3	309.668866756169	3387.81622066228	3401.93967495317	-84.7772990860757
95109.37	344.993340305532	3941.79989024675	3956.86830455658	-84.9981170203191
81109.37	374.117504991597	4589.48850941298	4604.71157463471	-85.3397717535556
69171.88	969.412954199091	5873.22964237993	5952.69585212442	-80.6274803675021
59000	1083.64051283931	6723.05296050929	6809.82509840593	-80.843657343605
50312.5	1116.38796085944	7718.79828830172	7799.11335310889	-81.7702446898906
42906.25	1491.32636051443	9091.15588140491	9212.6635439252	-80.6840885976611
36593.75	1602.83495388345	10317.8955934755	10441.6497435631	-81.169956807932
31203.13	1757.38387794919	11905.4561148377	12034.4623227132	-81.6031129010509
26609.38	1885.56484579605	13745.8777871997	13874.5994871323	-82.1893060212493
22703.13	2040.43526430264	15915.9290019887	16046.1887083554	-82.6944829092161
19359.37	2246.48601474704	18469.7037685076	18605.8231935832	-83.0651293068862
16500	2431.81625640115	21455.1846623863	21592.5607374853	-83.5334650086262
14112.02	2666.54541349083	24843.0421336578	24985.7400710266	-83.8735727558158
12011.13	3015.75501069231	28971.2128409255	29127.7522606658	-84.0572057291552
10236.38	3425.52172995196	33690.3809352966	33864.0807742919	-84.1943145295301
8750.684	3778.90509973215	39189.4747716976	39371.2465720137	-84.4921952872186
7449.463	8746.27583967225	50967.5904449905	51712.5963072047	-80.2626208435628
6363.206	12045.2407136787	57894.2969905413	59134.063346598	-78.2469553202926
5414.761	11355.9267311688	66409.1605818103	67373.0931537534	-80.2963107619165
4620.567	15293.0184683063	79001.7044041795	80468.2901063352	-79.0442833879967
3941.215	15196.6294374922	89131.8066599474	90418.0098471908	-80.3243283980984
3361.769	17031.6180490677	102699.68033604	104102.355182263	-80.5838209835132
2867.244	20505.8662965467	115748.653768839	117551.016166898	-79.9537965919873
2442.658	21547.901153883	133680.149742168	135405.666348296	-80.8432562731484
2083.003	24243.7782098367	155132.124263829	157015.084499853	-81.1177603527956
1777.843	28376.5501656624	179284.676741089	181516.456315842	-81.0060335827451
1513.548	34821.4442010951	209373.242845606	212249.117303077	-80.5574076291576
1292.065	39850.7184741616	241842.135546951	245103.444057436	-80.6428929321912
1101.762	48610.586669313	286754.7664742	290845.810064384	-80.3787020928563
939.101	98245.011955981	389974.389737279	402159.305531022	-75.8598985542186
801.2801	133857.861375238	432964.802985947	453184.783147683	-72.820185563711
684.3433	139021.825790461	477293.915775484	497128.303441283	-73.7606957844182
582.9476	165673.850863844	552988.418546093	577272.912846397	-73.3219247049071
497.0677	208569.491831494	609477.757618204	644177.281463854	-71.1085314465372
423.5089	262920.675680618	691088.204712118	739412.055888035	-69.1709600707433
361.5036	300275.610566019	808158.394863528	862140.031253154	-69.6171796015912
308.1262	359772.651776348	891703.478190395	961546.386807747	-68.0275654947802
262.7298	479033.841562532	1017237.25102106	1124386.51994189	-64.7834784587495
224.2111	541944.326858416	1102887.46281266	1228846.78013305	-63.831108011683
191.2854	656657.255975201	1242238.26100887	1405117.30789256	-62.1387052764256
163.1722	751146.480702339	1465572.96358378	1646853.10427471	-62.8636114788251
139.1537	898610.473327727	1500543.70612364	1749037.505819	-59.0844391579217
118.6706	1116389.37889521	1603156.97698466	1953570.45897112	-55.1478294940723
101.1982	1391024.34533215	1747037.98243634	2233179.44674895	-51.4725401510041
86.24196	580509.481820901	1108682.21640507	1251466.14634869	-62.3633047321169
73.61024	1859806.38564519	2124688.03404234	2823681.82238887	-48.8033188595619
62.69291	1805699.3406439	1967032.57963754	2670162.40670063	-47.4486460966444
53.57697	2280222.7842877	1967223.29528933	3011541.70476083	-40.7854219590146
45.65746	2399467.28159422	1836902.44962596	3021862.64493987	-37.4357158830294
38.96512	2666720.20275236	1701232.56260113	3163161.21495918	-32.5358151965383
33.18414	2992847.41213474	1684944.31588114	3434555.71798476	-29.3790927651092
28.30617	3277407.78518863	1626186.88295456	3658672.65120952	-26.3897255760598
24.17237	3407109.12431078	1480204.88242039	3714754.24206002	-23.4823429179156
20.61345	3503656.59831228	1540388.86889162	3827323.79428529	-23.7327770405893
17.55618	3739952.34925529	1556868.64955239	4051059.56098639	-22.6010020487115
14.98558	3695494.98518644	1471229.3247889	3977587.07153683	-21.7082077531828
12.76553	3864017.67559047	1341547.04721616	4090278.85078389	-19.1464733441072
10.8809	4011154.21795665	1644440.95628128	4335152.15637546	-22.2920116393754
9.278505	4165260.89275018	1403603.78968966	4395395.53431829	-18.6227154348443
7.923394	4161814.89144643	1327040.44477622	4368265.04836155	-17.6854538848354
6.75822	4248726.76669583	1653845.64479655	4559263.59786865	-21.2688121496749
5.761429	4378687.11291688	1675547.82489368	4688321.80490315	-20.9398427020226
4.919708	4475385.82775401	1534084.63344293	4731014.05301518	-18.9208253756508
4.191257	4617577.97817928	1571168.59847514	4877560.57362701	-18.7912910773277
3.564097	4713758.6262696	1713465.88105657	5015524.47030976	-19.9763626033085
3.051758	4944034.74874503	1736423.52739348	5240099.8333318	-19.3520849784679
2.604164	5204706.79604758	1859092.9904035	5526771.17128901	-19.6564516183972
2.214424	5192166.06913947	2223776.13404785	5648342.12702134	-23.185184087049
1.892567	5385737.97033635	2274402.84239204	5846287.86278983	-22.8943850877083
1.607507	5441476.95173262	2357985.43884735	5930410.33538603	-23.4288000119606
1.376413	5709248.79939481	2511882.24680789	6237393.22756067	-23.7479203151147
1.17375	5825066.60311715	2573954.32491539	6368409.67569624	-23.8394617820427
1.001604	6020524.67765213	2889977.21966387	6678224.74347744	-25.6419755463684
