EC-Lab ASCII FILE
freq/Hz	Re(Z)/Ohm	-Im(Z)/Ohm	|Z|/Ohm	Phase(Z)/deg
6999984	13.2736824830225	-90.346355056175	91.3162335983944	81.6419021437813
5969734	-50.5900562843238	246.68662120181	251.820656171841	-101.589427781261
5091109	285.775357176285	-66.6702997690784	293.44928631798	13.1320035883261
4341796	231.928818918944	186.240430295941	297.449953642547	-38.7647029479913
3702781	106.559928017653	-135.934873717693	172.723212544732	51.9069510216943
3157797	100.6443752457	102.10869076832	143.371806848549	-45.4137922168152
2693047	623.11970507874	97.5671506811702	630.711911849981	-8.89903150494521
2296687	66.9003055195128	-258.217039908404	266.74274231488	75.4748709158906
1958656	-31.6713888337623	-122.374848247718	126.406805015836	104.51013743772
1670375	353.477203935512	265.252520761824	441.933290749372	-36.8848971771025
1424531	223.344000171233	-80.3163871427855	237.346296487132	19.7790130203537
1214875	3994.08886723517	791.689877248346	4071.79551808651	-11.2115808393404
1036062	150.528361482858	28.9346831391566	153.28406146458	-10.8807263605421
883578.1	123.464985592763	92.8295153349154	154.469808003818	-36.9383770577
753531.2	197.906404751565	-58.0128661753808	206.233939213634	16.337593590102
642624.9	1091.31732051907	-21.7640029991232	1091.53431732194	1.14249102152015
548046.8	20.4998564904322	-79.2701422953818	81.8779553705294	75.5005394251125
467390.6	81.6353423669879	-53.1658824599919	97.421456471996	33.0746132479235
398593.7	56.1835199694002	-84.8516385932915	101.766342609522	56.4899315629647
339937.5	34.7651474921158	-78.5978258775909	85.9432005037784	66.1393830809266
289906.2	-24.016623740495	-59.930248825285	64.5634024827772	111.838095750104
247234.4	73.2460784431644	-5.18346186102025	73.4292604086875	4.04794624964147
210843.7	51.9886034208419	-92.02000020357	105.690564021177	60.5348245205159
179812.5	60.5141971977503	-104.931996595413	121.130887770164	60.0279860549432
153343.8	-2.68255665891335	-124.422776246286	124.451690864615	91.2351063949952
130781.2	339.414439680967	-67.0018511271258	345.964463375079	11.1668557538525
111531.3	37.6061822301846	-157.020126630439	161.460661180886	76.5314050901119
95109.37	-57.6190986036565	-291.167644036668	296.814011559026	101.193628536385
81109.37	-18.3247283968805	-187.990941651587	188.881946765353	95.5674121713179
69171.88	116.267238698116	-194.019286548926	226.189200333347	59.0675941987449
59000	2.12303117313347	-320.340335784763	320.347370821202	89.6202821451985
50312.5	-85.2580279698323	-348.494914409442	358.772402370289	103.747186837724
42906.25	-44.3907767248927	-290.180362090128	293.556099580637	98.6974806061176
36593.75	-45.4592550155417	-402.164578260654	404.725699547407	96.4491369222447
31203.13	-128.629095494058	-467.675466146622	485.042045438413	105.378340384681
26609.38	-141.48143285506	-549.971386309903	567.878086918625	104.426657486969
22703.13	-143.432145782232	-625.024787444878	641.271210459514	102.924591331254
19359.37	-172.391455038489	-736.683779125432	756.585622515268	103.170791295822
16500	-167.11356441624	-843.707098943474	860.098024773638	101.20359800202
14112.02	-190.584180965451	-1036.80310865617	1054.174091957	100.415781033715
12011.13	-204.839878730215	-1136.92507462994	1155.23071342503	100.213412340475
10236.38	-231.233568138201	-1310.61092646511	1330.85309617691	100.005829731299
8750.684	-281.709838936245	-1530.95442403237	1556.65727821437	100.426323457145
7449.463	-389.199552375159	-1636.31199980142	1681.96113280395	103.37929063747
6363.206	-296.457113407629	-2011.402937843	2033.13270556878	98.3843591710786
5414.761	-426.442324154036	-2331.91347433715	2370.58505597776	100.363298099681
4620.567	-614.992870539875	-2873.70680258227	2938.77644914044	102.079478583436
3941.215	-494.328308118841	-3135.39030918768	3174.11922699127	98.9595515016104
3361.769	-556.126774830136	-3615.80215314301	3658.31958696293	98.7438328917437
2867.244	-1126.11017720509	-4245.18692802376	4392.00821778247	104.856547720656
2442.658	-1208.52394375261	-4879.25661191078	5026.69625176402	103.911396541808
2083.003	-1289.34467916539	-5642.35041338689	5787.79127898884	102.871764622543
1777.843	-1459.25860125488	-6498.05631811803	6659.89276030553	102.65684815359
1513.548	-1608.91314833047	-7562.26972789229	7731.52798328162	102.010895535359
1292.065	-1921.85995873926	-8586.32354213893	8798.77819195906	102.616454629033
1101.762	-1978.24864645616	-10150.08437799	10341.0676715474	101.028673987166
939.101	-2334.01026645326	-11448.6543792261	11684.1469957752	101.522850085467
801.2801	-2471.90855760415	-13352.6423726035	13579.5209874209	100.48814560324
684.3433	-2757.55275680167	-15612.2225532544	15853.8824979527	100.016715929406
582.9476	-3009.82382462923	-18263.2937452449	18509.6444558076	99.3583301270214
497.0677	-3073.76948760465	-20695.6450737137	20922.6619692633	98.4479574863381
423.5089	-5948.26143278543	-23849.9008679094	24580.4716285483	104.00410111306
361.5036	-6293.73327428098	-29103.6802545992	29776.4215930951	102.202435326271
308.1262	-18710.4954713482	-38237.6029980624	42569.9063167958	116.073514363271
262.7298	-17684.1265693026	-51445.3013903393	54399.8838938279	108.970212802357
224.2111	-15312.0720460098	-54751.1311097947	56851.9648573743	105.624540349249
191.2854	-30850.3769392904	-57067.3311035838	64872.3826954303	118.395483123818
163.1722	-38385.6608640564	-77745.7440355747	86705.5919512429	116.277086267881
139.1537	527.436262665406	-99396.6886479992	99398.0880258693	89.6959698699353
118.6706	-42275.1915454384	-104273.964096784	112517.782633062	112.068825854204
101.1982	157784.352934703	-539897.736945673	562481.527154521	73.709072287077
86.24196	1377313.0643615	-605490.481853154	1504529.82718045	23.7311154629835
73.61024	-956380.351033551	-2525604.50010181	2700618.71925261	110.740365910413
62.69291	-1072861.63763986	-2590786.9186937	2804141.39293896	112.494762679104
53.57697	-820113.3438098	-2667107.16170198	2790348.81487904	107.092229037256
45.65746	-895006.869038062	-2555352.36203353	2707556.64571873	109.302700210871
38.96512	1020901.02396755	-2495787.88369984	2696515.54068596	67.7530041193535
33.18414	-1289964.76828205	-3108625.32632065	3365644.14679436	112.536645893928
28.30617	-727656.855924055	-2370519.43369142	2479686.85230252	107.064440584192
24.17237	883356.789985242	-2311260.8447769	2474317.26159195	69.0832975280883
20.61345	-229481.16008575	-3880601.50953241	3887380.82500538	93.3842710845309
17.55618	-441590.739880603	-4057230.85647201	4081191.56671883	96.211645916163
14.98558	5192308.80102128	-3223886.79087751	6111752.34491365	31.8360045455656
12.76553	-3603190.25367558	-4731169.8771869	5947011.72110695	127.292371766609
10.8809	-516959.536445685	-2513052.57239903	2565673.47765914	101.624149023646
9.278505	-694260.497898436	-2807773.57878866	2892332.98717245	103.888592821562
7.923394	754318.80877732	-4306343.88766424	4371909.71362612	80.0646066295656
6.75822	668440.714059418	-2258367.76094526	2355215.05003029	73.512089397111
5.761429	174363.360361877	-2140034.12575908	2147125.66955223	85.3420062889566
4.919708	2547779.76585881	-2131803.67416186	3322012.73936293	39.9202327700552
4.191257	6852295.19183036	111477.009854905	6853201.91733088	-0.932037893790647
3.564097	1049582.36246568	7027229.4990082	7105179.62949074	-81.5051371180835
3.051758	2391259.99416255	-8344332.90936819	8680208.29600576	74.009130284387
2.604164	-4678042.46558808	-9580972.67585802	10662041.02062	116.024583767566
2.214424	14450197.4775889	-2507193.07855438	14666090.9677551	9.84315708933973
1.892567	2233194.21456357	-9885929.37452721	10135026.1962217	77.2707498289487
1.607507	3624594.26075984	2383592.44235573	4338109.78265748	-33.3295737371787
1.376413	5480971.63003104	10168130.4373127	11551273.8085204	-61.6738073214565
1.17375	3613704.89997349	-11170697.5112923	11740670.5938326	72.0736788524351
1.001604	7422474.28494365	-4326772.36415775	8591512.30004875	30.2391310634903
