EC-Lab ASCII FILE
freq/Hz	Re(Z)/Ohm	-Im(Z)/Ohm	|Z|/Ohm	Phase(Z)/deg
6999984	19.3689548753265	89.7038845324643	91.7711464087494	-77.8156899878976
5969734	21.8502174286825	93.4131059303692	95.9345629126389	-76.8346716510746
5091109	18.5429707298008	98.4948224131105	100.225105665579	-79.3380961453397
4341796	17.392651174467	107.689748196363	109.085224395757	-80.8255518772789
3702781	18.27063827688	119.392223316569	120.782114617678	-81.2995025654111
3157797	18.1800536192776	134.099003186255	135.325744059093	-82.2793749866438
2693047	18.2622291472043	152.907226384793	153.993924861065	-83.1892319653116
2296687	19.2543264587333	176.295034868522	177.343363018391	-83.767059901701
1958656	21.6518947084303	202.825999648319	203.978407381283	-83.9066897163744
1670375	24.3681796712229	234.551368571892	235.81380934847	-84.0686648850579
1424531	27.9476717687236	271.530389150077	272.964877940889	-84.1234396502724
1214875	32.1388697372004	314.293431111564	315.932378505059	-84.16136945631
1036062	37.3207960165727	364.335043422603	366.241540081215	-84.1512853991157
883578.1	43.7604019069288	422.432308471375	424.692863155846	-84.0857390273528
753531.2	51.369555086846	490.11790200701	492.802586293511	-84.01664031726
642624.9	101.7036714367	640.694008398767	648.716000405249	-80.9801358904052
548046.8	127.744047934176	734.591321058411	745.615819814032	-80.1350231425872
467390.6	154.451103498612	838.265274440753	852.375394826229	-79.5602891782915
398593.7	184.469137517328	959.498006889116	977.069745678666	-79.1173355068758
339937.5	217.861945202718	1095.19850059378	1116.65732562428	-78.7493247150633
289906.2	252.607223182797	1251.81796835629	1277.05075666702	-78.5913602509457
247234.4	293.279407160278	1435.03847898866	1464.70073627426	-78.4494959008713
210843.7	337.282904650289	1644.07293199064	1678.31330909149	-78.406581362016
179812.5	390.839632705662	1884.40052637359	1924.50538120592	-78.2825359993702
153343.8	450.225500398584	2167.53057705744	2213.79579087325	-78.2657483359729
130781.2	522.097031911309	2493.63742957203	2547.70738918212	-78.1747053423266
111531.3	613.570821075695	2864.14140292671	2929.12531798052	-77.9085664464883
95109.37	714.534810871924	3299.24493888696	3375.73357401306	-77.779880125702
81109.37	853.335284344077	3791.84195318058	3886.67550811833	-77.3171594103543
69171.88	993.657310895503	4360.13200713481	4471.92419112148	-77.1617732563148
59000	1754.18068041756	5348.48337786607	5628.80309682795	-71.8416882411866
50312.5	1963.14044588701	6063.14543919404	6373.04111293007	-72.0589538371002
42906.25	2512.49812462335	6957.37213761159	7397.13957469034	-70.1439569984344
36593.75	2849.41155705062	7771.35005790962	8277.25968808673	-69.8642390028516
31203.13	3279.71176671239	8801.52146864128	9392.72534654693	-69.5630923857308
26609.38	3827.49792576905	9951.92550192119	10662.5776230495	-68.9633201657879
22703.13	4480.21324203585	11256.9719755902	12115.763647139	-68.2977150951844
19359.37	5299.66761663833	12728.2284050761	13787.4680481454	-67.3945617227197
16500	6271.32392203545	14366.802923419	15675.9219816716	-66.4180124566987
14112.02	7451.34548986163	16116.340060293	17755.5334064704	-65.186668859183
12011.13	8967.3398462885	18071.3310366971	20173.8987148425	-63.6085139082747
10236.38	10748.7059796879	20129.8685322417	22819.8660680363	-61.8992089180609
8750.684	12850.4007792255	22250.6838891655	25694.858118353	-59.992348080086
7449.463	15412.6583312784	24391.5930381318	28853.0734545657	-57.7118614639063
6363.206	18410.38539759	26455.5920518592	32231.0508873383	-55.1660323632236
5414.761	21579.3890893775	28508.3097206983	35754.6326593074	-52.8760690251124
4620.567	30134.0029831103	29488.4417683092	42161.9061915975	-44.3796549628056
3941.215	34339.5329744864	30383.8232779725	45851.7201628565	-41.5025932311798
3361.769	38346.7483262036	30889.1584221279	49240.361647946	-38.8522165216196
2867.244	42662.4785343289	31097.3478035865	52793.2961190084	-36.0888926419052
2442.658	46977.605991265	31467.4857110547	56542.8874540907	-33.8157628038149
2083.003	51110.9250102044	30181.6752898455	59357.0566883198	-30.562411040237
1777.843	54947.606648384	29541.6225622694	62385.47058408	-28.2639220901342
1513.548	58646.9912822312	27828.1912007799	64914.3883277449	-25.3844940428145
1292.065	62188.0009659401	26448.0998385365	67578.4688285327	-23.0396929141314
1101.762	64674.3149250804	24854.7279826832	69285.8175539674	-21.0220678752018
939.101	69761.6132752605	26652.734440096	74679.6554618544	-20.9095790712838
801.2801	71831.9963572794	23447.4158348817	75562.0077155581	-18.0777294392717
684.3433	69000.824986749	18819.4781052862	71521.231847664	-15.2559466757201
582.9476	71229.6328330781	16856.6707031172	73197.0487159724	-13.3142442742233
497.0677	74714.8028210814	19002.9964065363	77093.5511766056	-14.2700639272165
423.5089	77405.3655022355	15319.9523245348	78906.8536171649	-11.1952114351335
361.5036	75564.2795612682	14333.9736748972	76911.7880882127	-10.7409590359979
308.1262	76965.4323308119	13351.1661397935	78114.8603734344	-9.84114600747882
262.7298	79780.5726159656	14151.0987877912	81025.8808272591	-10.0582397160539
224.2111	78822.6117236094	12813.6982284011	79857.3414359595	-9.23344405165127
191.2854	80927.4658187778	14008.7333724486	82130.9888808713	-9.82071433250446
163.1722	80448.7328827338	13893.4429205322	81639.6128029986	-9.79829449398099
139.1537	81409.6932952165	14129.0038518942	82626.6719181407	-9.8458557205548
118.6706	83257.2722458838	14236.5901144306	84465.6964685163	-9.70345279015299
101.1982	84007.5365724673	15189.8011570961	85369.7619779191	-10.2491836308592
86.24196	83975.1101728105	15725.0582373669	85434.7504538068	-10.6062910358304
73.61024	84860.6068793007	17221.3396006484	86590.3986453699	-11.4716349233944
62.69291	86039.8634820003	18157.9913040528	87935.0371365095	-11.9169262626142
53.57697	87376.5474282361	20244.7431980155	89691.1961545412	-13.0449884879796
45.65746	88422.3277273201	21791.0443223672	91067.8738819402	-13.8442588826091
38.96512	89382.2639034928	23990.90396092	92545.9484438715	-15.0245175631109
33.18414	90787.8465921947	26625.8838373191	94611.6841566954	-16.3451394442638
28.30617	92002.8453963403	29535.2380772395	96627.396991237	-17.7979426887534
24.17237	93922.7867634245	33307.0901559582	99653.6608864162	-19.525628165035
20.61345	95513.1542762246	36947.1966896286	102410.243545341	-21.1478836774346
17.55618	97571.9858993713	41538.1342482469	106045.787418325	-23.0603193947561
14.98558	99457.9206321098	46427.109578875	109760.441327064	-25.0232384234066
12.76553	101821.691886482	52403.6538692422	114515.500599146	-27.2331137209144
10.8809	104476.111122064	58890.944509236	119930.81814271	-29.4090240803268
9.278505	107408.141526696	65945.2312542618	126036.829503906	-31.5486203746838
7.923394	110468.625691025	74624.8736094787	133312.373856647	-34.0402075609015
6.75822	114049.753426542	84594.6779047062	141998.611917357	-36.5656164457658
5.761429	118041.433829903	95760.4373613938	151999.478499976	-39.0504942962025
4.919708	121669.341650699	108308.155431124	162892.864271603	-41.6749790430008
4.191257	126265.070166118	123795.649443868	176828.252169397	-44.43420627448
3.564097	131880.003366096	140591.918586678	192765.201371318	-46.8313299090145
3.051758	137043.027880461	159811.797081125	210524.587582884	-49.3859997484761
2.604164	144411.845454177	181740.423634218	232130.05555125	-51.5291712994748
2.214424	151961.96914451	208212.692697601	257769.209694762	-53.8765335495022
1.892567	160675.860748766	236185.987564592	285658.104994797	-55.7727889386892
1.607507	171298.907084473	270974.088728158	320578.02845858	-57.7005741953423
1.376413	182001.442045383	307793.589158279	357577.150323583	-59.4037485371481
1.17375	195695.363156942	351113.712400418	401967.056108745	-60.8666243796761
1.001604	211248.400032427	401120.441559892	453346.991997811	-62.2266542979782
