EC-Lab ASCII FILE
freq/Hz	Re(Z)/Ohm	-Im(Z)/Ohm	|Z|/Ohm	Phase(Z)/deg
6999984	20.8496041306274	91.9306305383758	94.2653002095003	-77.221647345906
5969734	15.8267263251734	91.3893571069122	92.7496623098255	-80.1750155966873
5091109	11.0946984266988	96.3472004371764	96.9838922979525	-83.4311347464158
4341796	7.49251984624119	106.76879898041	107.03137058529	-85.9858389633451
3702781	8.36970504248228	119.450050975622	119.742918957978	-85.9919123159735
3157797	8.21823416927732	134.415905328369	134.66690379639	-86.5012717958448
2693047	7.61071033605025	152.498772986025	152.688567594507	-87.1429272306118
2296687	7.06923570599632	175.646116561248	175.788316894253	-87.6952585451179
1958656	7.36737490252718	202.872598927296	203.006328986241	-87.9202017754863
1670375	7.98396716935421	235.847465426478	235.982564355621	-88.0611493930885
1424531	9.409836504056	274.341110378225	274.502440547603	-88.0355381796461
1214875	10.8521738804677	319.00856617709	319.193099819364	-88.0516382936893
1036062	12.2658615253068	371.475302827271	371.677752857998	-88.1088194816434
883578.1	14.5895529793779	433.631956040556	433.87731947602	-88.0730096194477
753531.2	17.3027774777061	505.697467027766	505.993393501083	-88.0403510251252
642624.9	74.3726114288749	669.896064119936	674.011885692034	-83.6649015268292
548046.8	91.883861271066	770.71238913175	776.170233082441	-83.2013213747888
467390.6	108.576748713125	885.653759817577	892.28442362294	-83.0106983163488
398593.7	126.917372148405	1019.23648735825	1027.10809388079	-82.901950926833
339937.5	145.438011989777	1173.13629689695	1182.1171627333	-82.93289064777
289906.2	163.35418591059	1353.16950184536	1362.99387041136	-83.116580916889
247234.4	183.250705815522	1561.40407262055	1572.12070121156	-83.3062299470773
210843.7	201.944863898608	1806.17923514599	1817.43367348786	-83.6203827061475
179812.5	223.576850545096	2090.41437568485	2102.33652638429	-83.8952305604718
153343.8	243.644707890561	2426.55335290829	2438.7545834285	-84.2662780285985
130781.2	268.707294034614	2818.54117314771	2831.32088513405	-84.5541320248722
111531.3	293.542672235719	3279.32044402248	3292.43221266697	-84.8849005600012
95109.37	325.99141540618	3810.44146062583	3824.36066915437	-85.1101302692672
81109.37	355.404687442958	4439.85856776225	4454.06068588971	-85.4233090000857
69171.88	978.901578046331	5681.4255307567	5765.14044590725	-80.224003488171
59000	1077.35044587947	6512.21725941467	6600.73159710763	-80.6063382248618
50312.5	1067.11826533474	7555.49470607737	7630.48108875018	-81.9608677483306
42906.25	1453.22908456883	8717.02811761177	8837.33296733075	-80.5351768667066
36593.75	1569.56303035569	9951.13011956383	10074.1510194532	-81.0367441205641
31203.13	1654.61702450005	11475.8792640403	11594.548821778	-81.7955121286558
26609.38	1814.0661917806	13285.9220152824	13409.1968418816	-82.2248867003269
22703.13	1956.79690985503	15383.6519981524	15507.6046811452	-82.7509192520365
19359.37	2133.74636551671	17859.5090080545	17986.5209410029	-83.186940134131
16500	2326.55186246848	20743.8766009183	20873.9373382906	-83.600672957995
14112.02	2535.88051947745	24096.0984406913	24229.1694053377	-83.9922896109669
12011.13	2747.45401834801	28048.7504802562	28182.9896761612	-84.4055640685948
10236.38	2976.03977774272	32786.8224264126	32921.6120136882	-84.8135100187279
8750.684	3405.49789863197	37855.7618349942	38008.6321780381	-84.8595185296769
7449.463	9325.47187535624	49896.3272985643	50760.2984977779	-79.413726574297
6363.206	12276.3539772471	56495.8195337528	57814.2412539076	-77.7404033336174
5414.761	12199.2331493732	64455.1740462811	65599.4721836172	-79.2825765349916
4620.567	13083.3040901329	73997.2727304654	75144.9879729963	-79.9732771570218
3941.215	14466.1348296685	85849.6040780091	87059.8850060179	-80.4351957314562
3361.769	16267.7287881034	98650.20492213	99982.5081256793	-80.6360174386496
2867.244	18119.3161257568	112736.880733955	114183.684887497	-80.8693831486064
2442.658	24007.801905344	133795.33324664	135932.210130292	-79.8272875108224
2083.003	22765.8138689992	155705.155319275	157360.661139046	-81.6816654147633
1777.843	20586.288019647	173135.190961527	174354.780845586	-83.2191976579969
1513.548	24642.2408662217	197487.183486473	199018.661628322	-82.8874550946162
1292.065	28461.7507766983	238498.881603382	240191.148428369	-83.1946750643653
1101.762	31360.8054678198	277274.177604378	279042.057198865	-83.5470441083708
939.101	76220.4343095806	368450.118808037	376251.305188431	-78.312215213158
801.2801	96805.9772788005	425673.042758455	436542.021537612	-77.1877855402138
684.3433	103341.575615803	478916.948071465	489939.715067929	-77.8233103265729
582.9476	125305.508532215	547679.184670599	561830.899639712	-77.1128999563902
497.0677	142686.975975501	624916.704730981	640999.579535635	-77.1381673951554
423.5089	170461.004528824	719710.168870612	739621.309347386	-76.6752174966897
361.5036	177249.232017907	838372.884276832	856905.119217754	-78.0622910229219
308.1262	178780.035792523	936990.234585548	953893.600411837	-79.1976641897532
262.7298	194936.308418848	1088212.90039023	1105534.9297583	-79.8440751742198
224.2111	255690.256989634	1286061.51195531	1311232.90076637	-78.7552834761327
191.2854	295295.297849463	1448520.06298381	1478313.12170278	-78.4775708328328
163.1722	243549.02136529	1677157.60180155	1694748.87434355	-81.7375287997886
139.1537	347600.314076878	1902538.08877893	1934031.32280761	-79.6460609602226
118.6706	1329083.63308691	493083.348434567	1417601.66910276	-20.3546006917642
101.1982	280413.262521522	2371381.59691862	2387903.32216409	-83.2561534357828
86.24196	734549.648473182	3146855.53454175	3231449.04668914	-76.8610850054302
73.61024	814042.4070754	3551311.65186358	3643415.90944256	-77.0895232783488
62.69291	2195769.13631346	1159636.84159105	2483175.32694774	-27.8395780879044
53.57697	1542298.0496189	4566177.82371913	4819612.34869389	-71.3367978321173
45.65746	1036082.18029475	5503364.68953785	5600043.67754184	-79.3380961453397
38.96512	2240446.36566918	5315725.24481326	5768581.69707124	-67.1457834480739
33.18414	3102266.00756539	6394428.56838566	7107233.71628389	-64.1195922615314
28.30617	3623239.89489429	5811591.48151553	6848537.28061529	-58.0585009299605
24.17237	4874038.30150745	7240547.1378054	8728217.01261738	-56.0531830244703
20.61345	3185003.00957247	10169271.087313	10656374.5532074	-72.6095089824414
17.55618	5855394.39991986	9813099.55150703	11427272.9199228	-59.1758259262451
14.98558	6729004.15076028	9081107.40524866	11302477.9834606	-53.4619470185234
12.76553	7609131.95103038	9006303.93605605	11790351.9725583	-49.8066252546155
10.8809	9044505.36009795	11441262.659358	14584428.972341	-51.673052460988
9.278505	10923633.3376562	10661444.560919	15264080.890152	-44.3040761000499
7.923394	12264635.6700294	9351702.70568326	15423217.2912801	-37.325278268018
6.75822	10838752.6665225	10627014.6958542	15179328.0718202	-44.4348537167885
5.761429	15484087.6266453	7783987.10736723	17330534.4671562	-26.6890788352818
4.919708	14208023.0628139	9764190.5491936	17239702.3302148	-34.4980466758347
4.191257	15519329.5300531	12006392.9375269	19621494.8572394	-37.7270133556519
3.564097	15793916.6386952	11839483.539326	19738824.0092469	-36.8560716704294
3.051758	25662815.7087047	15532841.5584334	29997487.8444569	-31.185113031141
2.604164	17197043.8729842	16274359.6884114	23676847.3669349	-43.4209647912589
2.214424	22610794.1961564	14862126.0219917	27057915.7378114	-33.3170087727315
1.892567	18832231.424753	13577313.9117669	23216295.8607551	-35.790152447524
1.607507	22762634.7635576	14968148.2244936	27243035.8559675	-33.3279350778847
1.376413	16972312.346843	17643981.6836541	24482023.5285386	-46.1115860563491
1.17375	23500849.3916756	19001360.8372065	30221542.5780344	-38.9569016403679
1.001604	27830446.4522444	21088573.9956914	34917928.1015211	-37.1530987210032
