EC-Lab ASCII FILE
freq/Hz	Re(Z)/Ohm	-Im(Z)/Ohm	|Z|/Ohm	Phase(Z)/deg
6999984	2.08842568472004	1.67910933833885	2.67972573423011	-38.7995330523573
5969734	5.29151105484395	1.63153468819919	5.53732739526326	-17.1361305987537
5091109	6.52999796782874	-1.95826205907537	6.81730619466821	16.693308707631
4341796	2.75110159126191	-4.27128973726588	5.08059799483453	57.2147575512729
3702781	2.26906452530504	-4.2338054504528	4.80351563048166	61.8113744880674
3157797	2.798539813188	-5.33085867394201	6.02078726476373	62.3018836564789
2693047	2.00019519121603	-5.40625841120299	5.7644089733178	69.6966488477758
2296687	2.00877282855189	-7.82174052331088	8.07556766368359	75.596624447356
1958656	-3.37027462749595	-8.54842198590224	9.18881219275918	111.517182089052
1670375	-3.20111186493432	-8.82520787844451	9.38783315092372	109.936907194301
1424531	2.80706270744899	-11.0310139617219	11.38256869372	75.7229616411823
1214875	6.39103640788869	-12.9298884293783	14.4231536483229	63.697551549638
1036062	-4.65540480239433	-18.6078573032637	19.181375010483	104.046213511002
883578.1	18.0746681297297	-0.0694114770521716	18.0748014083976	0.220029773500437
753531.2	10.4411217818364	-5.83309817180801	11.9600191615686	29.190601109667
642624.9	13.6248746618419	-4.86911417661387	14.468776120177	19.6653381937997
548046.8	13.6427983717079	-1.92274570431807	13.7776231061294	8.02213678823134
467390.6	13.0348810632504	-1.8958964687458	13.1720365833567	8.27552164355
398593.7	-3.22910758990903	-18.7221751462044	18.998604633824	99.7858139379686
339937.5	29.683938758631	8.06408237736647	30.7598056693327	-15.1984446314008
289906.2	9.27109148303731	-31.5276641494182	32.8625431761658	73.6133883352901
247234.4	-1.16007827304713	-72.5909419109495	72.6002109440354	90.9155678326507
210843.7	4.18583649892376	-96.0828724045162	96.1740068661915	87.5054949233706
179812.5	11.9098472421448	-93.7913906588041	94.5445367170607	82.7631805488523
153343.8	3.72053613075531	-134.673450522311	134.724833140314	88.4175291416598
130781.2	-1.50109132991097	-144.335036685497	144.342842185487	90.5958573829677
111531.3	-6.34851177123365	-165.20290181685	165.324838939638	92.2007121671292
95109.37	-6.36949859572796	-195.965807992287	196.069294930213	91.8616357439707
81109.37	-18.5967342911164	-224.874093802816	225.641743899333	94.7275133394356
69171.88	-21.6917119045741	-251.31435763225	252.248759595486	94.933147892108
59000	-19.861109710883	-289.198729904535	289.879921790633	93.9286955814642
50312.5	-18.803732534173	-357.586960316406	358.081016734403	93.0101296443105
42906.25	-24.643162168341	-423.150263965959	423.867233147498	93.3329913618667
36593.75	131.415021043214	-14.9526560778475	132.262956565967	6.49130815120081
31203.13	-73.8097683214337	-628.987798567144	633.303665429157	96.6928731682933
26609.38	-49.5544275985684	-654.061743480134	655.936281645476	94.332688122811
22703.13	-57.7813481709941	-758.278952397246	760.477253995886	94.3575544911196
19359.37	-192.516212979888	-942.062060375649	961.531808033062	101.549721806058
16500	-228.698434314742	-1097.21787555605	1120.79884024643	101.773862895513
14112.02	-250.512582062206	-1266.79787937877	1291.33009760093	101.186065493489
12011.13	-276.577100624049	-1470.26614446959	1496.05395229019	100.653615814474
10236.38	-306.647555046322	-1701.25817449076	1728.67350858614	100.217709523938
8750.684	-343.48189476104	-1963.72504675884	1993.53853017609	99.921433048076
7449.463	-382.445290518985	-2277.46393821187	2309.35194158355	99.5325092967412
6363.206	-433.18133532887	-2633.01144216854	2668.40688873862	99.3425737876553
5414.761	42.8137423060898	-3460.82679432913	3461.09160769788	89.2912324834548
4620.567	-963.375877046209	-3241.99775235254	3382.10622345507	106.549580709488
3941.215	-1871.92415161292	-4035.74058212515	4448.74162832632	114.883595614343
3361.769	3730.02850162045	-4176.332116262	5599.54128194644	48.230842348979
2867.244	-836.060954909449	-5470.77979893533	5534.29575725431	98.6888862391906
2442.658	-935.105697080134	-6306.51162155299	6375.46166936126	98.4341492034754
2083.003	6095.89763417602	-10377.7611740025	12035.6925413948	59.5700208892951
1777.843	-1710.6367488725	-8726.5267724515	8892.61196707165	101.090897203718
1513.548	-2211.78937649115	-9910.84180564866	10154.6441366772	102.580472879499
1292.065	-1009.39159218071	-9159.33536934026	9214.78680135426	96.2888233311671
1101.762	-2306.61125444732	-10855.9076715135	11098.25152227	101.99554026645
939.101	-4533.26169434173	-11884.1012966871	12719.3681139947	110.87965195041
801.2801	3.26042093552473	-20.5959256362206	20.8523978834459	81.0044865966982
684.3433	5224.37405936537	-6375.23087917549	8242.43004671332	50.6660676768897
582.9476	6805.84632956727	-10514.7784984139	12525.1790858411	57.0864379234754
497.0677	-3084.93923937814	-27899.3071620132	28069.3460955366	96.3097935864689
423.5089	3260.53888872857	-7267.80180857981	7965.6799442174	65.8376635060107
361.5036	-5719.88918358844	-36381.1529148368	36828.0520756294	98.9349716121993
308.1262	-19518.7203121401	-56349.9733550033	59634.7209244173	109.105258954669
262.7298	-20402.7298283176	-65797.3425537665	68888.037216813	107.227848147364
224.2111	-23602.8037701983	-76977.2124687523	80514.493013829	107.046621596764
191.2854	-24474.6997008176	-87481.7504950334	90840.8916464412	105.629983448303
163.1722	-26780.6609206269	-102215.359161245	105665.431659592	104.681623705802
139.1537	93369.3199298872	-121238.337628058	153024.718313692	52.3990415536204
118.6706	-31233.464423303	-133919.589865921	137513.584237115	103.128163235864
101.1982	-17673.0320030096	-205366.242658555	206125.276673851	94.9185374683322
86.24196	-39847.1864379156	-181519.39664281	185841.571303591	102.381198158352
73.61024	-44909.2838547886	-209864.131100401	214615.463792515	102.078676442523
62.69291	305742.446758084	-414569.731864993	515117.9538011	53.5914698576907
53.57697	-197431.481026533	-467595.422693638	507567.403429704	112.890791107098
45.65746	-48781.4120533753	-429032.852105815	431797.191222883	96.4867229536053
38.96512	-200040.090893044	-506730.069039695	544785.646684521	111.542449527817
33.18414	-153038.37708488	-578147.828523004	598059.910449312	104.826410140632
28.30617	-163161.020289014	-697427.791209621	716259.061020022	103.167353549051
24.17237	-285962.747472751	-727319.427087817	781516.629356992	111.463438647868
20.61345	-311740.028505666	-846036.004209699	901642.260429172	110.227396796433
17.55618	-28110.2316815057	-605877.226129491	606528.975620749	92.6563855015967
14.98558	-373028.460488513	-1121945.16874912	1182332.94549967	108.391124358818
12.76553	-75101.0786534957	-1880635.62721923	1882134.56861649	92.2868277237373
10.8809	-444277.132622171	-1484607.82843832	1549658.85756554	106.660104268169
9.278505	-490269.528278906	-1710760.90971413	1779625.55066079	105.991233338133
7.923394	-547516.285073186	-1959520.44687441	2034574.76248459	105.611075841064
6.75822	-608880.387567301	-2254334.62182327	2335114.53969932	105.114550615803
5.761429	-680212.46766975	-2584419.27851786	2672435.5947989	104.745680387298
4.919708	-779502.738768127	-2952822.72933447	3053978.81306032	104.787907376799
4.191257	-860045.571054681	-3379548.73957962	3487266.56100233	104.277860347574
3.564097	-990972.588560152	-3891844.35188674	4016027.7801069	104.285537982028
3.051758	-1091834.99705155	-4434620.81182516	4567052.15707675	103.831526225167
2.604164	-1269354.56978839	-5102718.90075203	5258231.75639251	103.969379870675
2.214424	-1374216.42272621	-5867995.88102558	6026760.85772645	103.18047428256
1.892567	-1545923.23675126	-6586597.24298429	6765585.11107618	103.20866380608
1.607507	-1613625.45856915	-7610138.24420106	7779331.02627688	101.971476039054
1.376413	-1611486.00347528	-8048552.17251018	8208293.31913858	101.322085674053
1.17375	-1835628.28611897	-10104787.059161	10270163.2273196	100.296032854533
1.001604	-1977625.71251875	-11604608.9644083	11771913.7218908	99.6712796747219
