EC-Lab ASCII FILE
freq/Hz	Re(Z)/Ohm	-Im(Z)/Ohm	|Z|/Ohm	Phase(Z)/deg
6999984	27.9209224958823	96.3172425918578	100.282546504962	-73.833919790636
5969734	17.8330844305543	96.3381981586157	97.9748300572958	-79.5127336812956
5091109	14.7961492812428	101.643069908758	102.714359726523	-81.7176471642976
4341796	13.7582322509743	111.459015599171	112.304946965875	-82.9631428193529
3702781	14.817660176063	123.447733225414	124.33384853525	-83.1554274553989
3157797	14.5024059293883	138.769281612919	139.525027493659	-84.0338290511139
2693047	14.1263919121483	158.125004673363	158.754754421424	-84.894927321416
2296687	14.4558733796432	182.567020864926	183.138443213495	-85.4726979620259
1958656	15.8676252877846	210.379375806089	210.976925982045	-85.6866976985073
1670375	17.2036609795089	243.704713499199	244.311181350393	-85.9620612148472
1424531	19.3527416586248	282.66204575667	283.323773660191	-86.0832990842969
1214875	21.6168229051191	328.162282809744	328.873487668759	-86.2312367869996
1036062	24.1188444928797	381.449912052199	382.211661340025	-86.3820392786781
883578.1	27.3954168516957	443.718038704805	444.562939004723	-86.467008919696
753531.2	30.9774859551073	517.224296676504	518.151114742218	-86.5725477455591
642624.9	76.6227472585389	682.464875347205	686.752758625783	-83.5940266475715
548046.8	94.9290790386643	783.003274718135	788.736748393564	-83.0873600693373
467390.6	114.206133332029	900.856729462747	908.067116412091	-82.774868887873
398593.7	135.493558239081	1035.1614369067	1043.99123788614	-82.5428782766245
339937.5	159.320314076409	1191.52061493239	1202.12492623948	-82.3840543758142
289906.2	182.415535154826	1370.99650885895	1383.07875942379	-82.4211247451592
247234.4	207.58389574317	1583.66221738794	1597.2091574224	-82.5323358531941
210843.7	233.260870781611	1826.86783615698	1841.6994121253	-82.7236464609883
179812.5	264.43303774237	2115.95716051848	2132.4163609856	-82.8766261922882
153343.8	297.848209412589	2449.99409145814	2468.03253706876	-83.0685097578775
130781.2	336.865297369631	2842.12813016553	2862.02210628258	-83.2405116879758
111531.3	385.563621162573	3301.39765500122	3323.83600413912	-83.3387166540612
95109.37	443.656660891051	3835.06423783659	3860.64100132169	-83.4011117579509
81109.37	519.216723003365	4463.11996195963	4493.2199812928	-83.3643278675035
69171.88	1157.48529050886	5694.13398838316	5810.58810064908	-78.5096564693601
59000	1347.94507456391	6494.85606513342	6633.25796504565	-78.2752594353721
50312.5	1478.19703461072	7453.68630287213	7598.84899012709	-78.7827854502989
42906.25	1969.31635938616	8719.13062419838	8938.76086295969	-77.2726405896726
36593.75	2242.55489763213	9878.68127795175	10130.0244945532	-77.2100735984443
31203.13	2603.47306808648	11339.6428380033	11634.6711044933	-77.0695270512987
26609.38	3029.88432069751	13043.5959768092	13390.8773052045	-76.9227352641862
22703.13	3565.71273593609	15011.889608311	15429.5540093462	-76.6383763104628
19359.37	4298.18479317093	17282.0503982147	17808.5276899209	-76.0334474703637
16500	5240.13380078667	19935.5425195033	20612.7353303018	-75.2727314057685
14112.02	6344.14381512931	22772.8956918796	23640.0706204586	-74.4330617570043
12011.13	7893.92242103971	26213.2747201023	27376.0804853607	-73.240736585337
10236.38	9815.30182634605	29906.781469167	31476.2724569918	-71.830343676843
8750.684	12298.0340134495	33795.2502448773	35963.3227011887	-70.0036396344069
7449.463	21416.5132603116	41845.3349123717	47007.4365835626	-62.8965565520451
6363.206	26186.6415212397	45321.6754238194	52343.0459314697	-59.9808889241834
5414.761	30828.4479047613	49385.8207186147	58218.1456958888	-58.0260715187561
4620.567	36367.6826540993	53473.115003163	64668.2485441717	-55.7799279928165
3941.215	42663.9621400806	57019.2814119752	71213.8477982215	-53.1947882578098
3361.769	49503.3506229175	60096.9502807363	77860.2925498023	-50.5208687124477
2867.244	56904.8201820501	62772.3480232273	84726.183888457	-47.8068478510043
2442.658	64807.6185333929	65236.4321000728	91955.5299757289	-45.1889292005382
2083.003	72643.026932714	66933.0986084314	98777.7761000571	-42.657389667266
1777.843	80046.7245529008	68450.6099340292	105323.141388721	-40.53485032647
1513.548	87510.3758316697	69121.6473953764	111516.22311059	-38.3040792581738
1292.065	95409.1206191374	69457.9861423048	118014.033641181	-36.0546756023799
1101.762	101041.983085637	69983.1073347066	122911.015202459	-34.7070215724527
939.101	107781.686714712	70609.1374254531	128850.852845586	-33.2293118526088
801.2801	113808.403447967	71793.2628495529	134560.860899298	-32.2447812845016
684.3433	119172.079113608	73851.3666198799	140199.888701397	-31.786644231515
582.9476	125074.503579537	76067.3992738975	146389.482811991	-31.3069926133213
497.0677	129088.288394116	79270.4534100244	151484.62293036	-31.5532269553567
423.5089	132973.183799708	82320.5593444783	156392.269951614	-31.7606720546618
361.5036	137448.083211103	86603.4012701264	162456.531693745	-32.2142426340212
308.1262	143827.449860947	91201.8150100641	170305.920022274	-32.3790195663228
262.7298	151492.567479251	100346.968362668	181712.718490021	-33.5200420970141
224.2111	157057.992890468	107200.738799391	190155.755973669	-34.3156913983784
191.2854	162271.864955614	115885.296949605	199403.009519092	-35.5322584143576
163.1722	169996.873971224	128888.340627518	213333.404580022	-37.1687003617646
139.1537	176506.176867452	140277.67512494	225460.099819952	-38.4758004389525
118.6706	186425.129915488	148407.635124472	238283.770381545	-38.5222787752935
101.1982	204237.591401283	167959.713999987	264430.443157279	-39.4329951906539
86.24196	212275.455834639	184279.805186218	281104.812746552	-40.9617840979338
73.61024	225722.993341923	205277.288503416	305105.940451104	-42.2840503679588
62.69291	237194.208766713	252296.424444183	346286.844191036	-46.7671815542717
53.57697	250430.220285575	254137.515993801	356792.898286641	-45.4209713779882
45.65746	266751.762805534	280000.262827434	386725.548862875	-46.3880782995454
38.96512	290284.653887623	318273.537809858	430770.50172065	-47.6332989348591
33.18414	311119.476141252	352715.190235016	470322.584889276	-48.5854516579634
28.30617	328899.409500765	397110.131039677	515627.072353946	-50.3673504008203
24.17237	356552.882988559	437716.136817736	564557.680665223	-50.8345802940156
20.61345	385148.943581703	481160.440133351	616323.841735351	-51.3241784595329
17.55618	420183.324536067	545463.405267757	688537.83679946	-52.3920915755654
14.98558	458072.146699993	606227.297263267	759829.99909813	-52.9248964884135
12.76553	497942.836791035	666049.203047735	831606.042301297	-53.2179644006229
10.8809	544135.975788063	740858.646502889	919214.607284349	-53.7039586616088
9.278505	602329.772793315	826111.055961455	1022379.8863314	-53.9036573715237
7.923394	662717.037427265	910171.36095973	1125880.00160215	-53.9407621183363
6.75822	726639.823674429	972922.665168674	1214324.481244	-53.2453116761845
5.761429	819305.038058157	1129078.35057609	1395019.23539681	-54.0338391121553
4.919708	895331.129674815	1254537.13988022	1541259.63649984	-54.4855189307908
4.191257	976366.51154877	1349600.73186957	1665747.18980306	-54.1162017952054
3.564097	1083618.01041793	1521187.40309857	1867682.81778461	-54.5358246252033
3.051758	1175884.31301897	1685615.35502026	2055237.95281329	-55.1003943182134
2.604164	1324711.55649468	1798075.48763849	2233368.7933606	-53.6194932234506
2.214424	1444645.73452819	2018756.98766326	2482414.36378573	-54.4120542822991
1.892567	1551309.70777815	2228946.14931394	2715651.44044448	-55.1627206671677
1.607507	1802589.28559333	2477298.46788734	3063712.75277772	-53.9587472635255
1.376413	1918749.78532756	2746793.72373859	3350593.45481726	-55.0640974418919
1.17375	2193438.83292349	3012054.23166258	3726076.30199023	-53.9371352954931
1.001604	2407573.13634081	3319168.90212313	4100401.27397932	-54.044587800392
