EC-Lab ASCII FILE
freq/Hz	Re(Z)/Ohm	-Im(Z)/Ohm	|Z|/Ohm	Phase(Z)/deg
6999984	20.5094848784943	90.9871805073196	93.2700701546468	-77.2972204790837
5969734	21.6908406134146	85.8413511973589	88.5394270475299	-75.8190466634257
5091109	19.2101438305003	85.6981358314188	87.8248262791838	-77.3654024567043
4341796	18.8754041355253	91.7241364104294	93.6461322293583	-78.3717455280721
3702781	22.4136812668595	99.5847940514809	102.075973246441	-77.3157270158665
3157797	22.3250569113763	107.921115136948	110.206058175123	-78.3123871004965
2693047	21.4031012031794	120.78581549422	122.667460908414	-79.9515620565863
2296687	21.0871314362451	138.286206876146	139.884745860304	-81.3298120327735
1958656	22.9424541223996	157.678729335104	159.339065787055	-81.7214859815249
1670375	23.7977898153524	181.706158776679	183.257913710354	-82.5385237973815
1424531	26.1151484388648	209.175550783821	210.799459258554	-82.8835589816093
1214875	28.2540463300409	240.924269785594	242.575338618215	-83.3112719756744
1036062	30.1571498267682	278.767224871836	280.3936863562	-83.8257307799224
883578.1	32.3562236775165	323.178131661044	324.793826903457	-84.2826646215392
753531.2	35.0803483922019	375.351361674223	376.987102636166	-84.660644878987
642624.9	38.2464662422812	436.797570441205	438.468824117931	-84.9958824849181
548046.8	43.8269868896169	507.071371291985	508.961865333501	-85.0601110537523
467390.6	153.969234329193	716.379409907138	732.738687431486	-77.8701209784351
398593.7	178.336881985762	810.966051137769	830.343290196525	-77.5976795468504
339937.5	203.868196392592	921.088633799891	943.380364866536	-77.519699990933
289906.2	227.416375276593	1045.45230553265	1069.90127156083	-77.7276836705655
247234.4	250.764740291795	1192.1076134645	1218.19683017715	-78.1207900138048
210843.7	273.207914455653	1365.70034530407	1392.75984925071	-78.6873306816301
179812.5	293.412811960823	1562.70811541974	1590.01501006169	-79.3659991899626
153343.8	316.051812217757	1802.99819502346	1830.48934420935	-80.057501952906
130781.2	339.543992370126	2078.67567532359	2106.22474725197	-80.7228778403914
111531.3	365.223228071976	2406.41306228158	2433.97038450403	-81.3700336699917
95109.37	389.095669911511	2785.33226729824	2812.37822484755	-82.0475562627339
81109.37	420.719270118825	3231.36483207884	3258.63827115641	-82.5818967024729
69171.88	448.362220450019	3756.94893202494	3783.60858950424	-83.1943885854677
59000	486.032939809368	4348.61619063789	4375.69317846416	-83.622674537328
50312.5	1351.29852459141	5776.28381243182	5932.2392386286	-76.8330673692483
42906.25	1860.34746510529	6752.16541911101	7003.75831521636	-74.5961255454985
36593.75	1990.23374485451	7556.26807360299	7813.97578440767	-75.2440835160119
31203.13	2106.35180666566	8581.756056683	8836.47299265148	-76.2096319923664
26609.38	2263.66250584726	9850.67144712939	10107.4178650963	-77.0582397827347
22703.13	2400.59327009327	11329.4511400473	11580.9892143605	-78.0365652179206
19359.37	2615.67164907142	13057.7311546283	13317.1348676172	-78.6726629620748
16500	2805.1505511038	15111.811758785	15369.9617516541	-79.4840857915391
14112.02	3028.55174241651	17454.1314126358	17714.9323743009	-80.1563371725661
12011.13	3388.69060328859	20302.0141301444	20582.8812789998	-80.5238895981425
10236.38	3720.79954305753	23523.4599462115	23815.9089072963	-81.0117631606964
8750.684	4162.57647458936	27340.1061543399	27655.1703563254	-81.3431046536205
7449.463	4740.74713177188	31820.256372135	32171.468709958	-81.5261073733853
6363.206	5483.59545062494	36894.14356195	37299.432277662	-81.5459890088764
5414.761	16711.2772351406	50107.3114416113	52820.5400079965	-71.5559541887549
4620.567	18822.3813876953	56293.3743158456	59356.7690576885	-71.5120083258683
3941.215	21084.494163668	63873.3537320498	67263.3719874146	-71.7320241191985
3361.769	23513.1938839006	72446.5072639898	76166.7033642209	-72.0186749041025
2867.244	26505.2013883023	82541.6376606123	86692.8350460998	-72.1974950319628
2442.658	29877.5448049597	94490.9669318845	99102.020742742	-72.4533206874887
2083.003	33614.2815448047	107974.992297122	113086.333769103	-72.7078285400858
1777.843	39074.4569579664	123989.860410032	130001.148729768	-72.5081527484828
1513.548	45933.639641359	142333.774031139	149562.035559327	-72.1141869685508
1292.065	54554.2496701213	162911.503828348	171803.155491055	-71.4858241546308
1101.762	65508.3867437646	186945.248697	198090.572072862	-70.6887825658243
939.101	79188.2843627444	212368.976224658	226652.523575239	-69.5504873142379
801.2801	96085.8893204653	240622.180994655	259097.533977321	-68.2320541318624
684.3433	116476.425357628	271468.210857725	295400.993854769	-66.7777153604818
582.9476	241036.435231833	368101.524832219	439996.926913216	-56.7828333174135
497.0677	282001.426628733	393844.987530362	484395.168043026	-54.3965271260511
423.5089	325786.446084731	421881.094587124	533029.517402695	-52.3238408430094
361.5036	374900.088454096	443746.424914008	580913.905795732	-49.8071351870532
308.1262	426220.341606734	465331.607116875	631028.750677285	-47.511883448493
262.7298	479905.704061302	483461.157203891	681207.879663395	-45.2114579010427
224.2111	534377.427308749	499276.09607254	731324.726046203	-43.0550682137104
191.2854	591584.618189106	510908.723002022	781664.943385276	-40.814791775593
163.1722	640114.847889817	520970.882821191	825322.772760145	-39.1411419489702
139.1537	689142.740999334	531075.605392321	870033.916646297	-37.6190050816918
118.6706	730037.413713653	544081.422302772	910482.959487286	-36.6963826033485
101.1982	773502.73676634	565905.960397478	958413.292790959	-36.189750402582
86.24196	820135.977349508	574506.161682543	1001339.27874334	-35.011285079979
73.61024	808494.290093097	536937.864392931	970548.96184169	-33.5889631901904
62.69291	398933.388810261	623752.165221538	740415.162139591	-57.3982243668517
53.57697	816883.401882516	691933.30998574	1070546.68171873	-40.2659497740592
45.65746	846100.845300767	658787.474121008	1072328.11045753	-37.9048881031503
38.96512	1053839.7092065	772859.162189736	1306862.43242395	-36.2553712588584
33.18414	981783.107676283	816027.344569182	1276635.69494321	-39.7322968836744
28.30617	1193970.91335899	955439.454877883	1529192.955086	-38.6674949284694
24.17237	1161358.21042207	1156895.88246157	1639256.22639394	-44.889713451187
20.61345	989941.100269618	1167572.21446489	1530754.1468157	-49.7066269306313
17.55618	1009502.32517086	1349640.73687771	1685415.39780707	-53.204299357209
14.98558	1244402.70141611	1516605.53471884	1961792.65755368	-50.63049272739
12.76553	1310373.09122299	1719232.25789864	2161674.62741287	-52.6858928737526
10.8809	1387284.96419647	1944314.6740559	2388497.25217232	-54.4918214665372
9.278505	1451548.64342561	2200611.55004938	2636225.45667882	-56.5906976503943
7.923394	1579812.69711912	2463234.27217503	2926317.0090741	-57.3256306142086
6.75822	1819349.39192754	2797024.53179531	3336671.76110745	-56.9576541998638
5.761429	1713926.36598923	2740092.90672661	3231973.5032216	-57.9740469509582
4.919708	1865729.20781007	3649138.51952011	4098433.53142649	-62.9202770047636
4.191257	2455632.77011659	4172252.95452303	4841262.95693559	-59.5205173357958
3.564097	2384368.42251173	4785933.2969551	5346996.38088288	-63.5173563230694
3.051758	4082752.26937506	5867914.51559911	7148516.40940034	-55.1707420762996
2.604164	3146419.99197424	5896185.85984285	6683185.35278694	-61.9139912291753
2.214424	3551411.83122778	6701364.1706472	7584247.34186713	-62.0784874121574
1.892567	3520948.89542759	7171671.32882106	7989364.85415748	-63.8511615345126
1.607507	4249863.63883593	8489606.9978447	9493933.21687874	-63.4076349053018
1.376413	5294973.79014741	9623530.079291	10984037.446466	-61.1799177020537
1.17375	5791847.37026542	10903975.3305191	12346747.5056801	-62.024171013179
1.001604	7183474.04300364	12023858.9973006	14006265.9018553	-59.1444278390719
