EC-Lab ASCII FILE
freq/Hz	Re(Z)/Ohm	-Im(Z)/Ohm	|Z|/Ohm	Phase(Z)/deg
6999984	19.9676069500102	94.3098273925083	96.4004609434769	-78.0456752468631
5969734	15.6834867725351	93.029153093972	94.3419052315882	-80.4306693648747
5091109	10.9354874063448	98.2081173263744	98.8150757405227	-83.6462803984874
4341796	7.99562169678819	107.858480819126	108.154435188428	-85.7603800709611
3702781	8.66134174697243	120.485886888057	120.796803683125	-85.8882642508343
3157797	8.64461935034343	135.513343525567	135.788790837796	-86.3499536421508
2693047	8.51101179348612	153.536912384451	153.772626908365	-86.8271701897152
2296687	7.52476804787141	176.475608240183	176.63596020606	-87.5584362236407
1958656	7.91783725174004	203.905970486619	204.05964066134	-87.7762747773494
1670375	8.424472795345	236.926668319243	237.076396764284	-87.9635746805777
1424531	9.91707836206479	275.667104319842	275.845429266693	-87.9396823405207
1214875	11.9470249487888	320.798449117754	321.020834777874	-87.8672031794367
1036062	12.983987202323	372.927499319449	373.153458609629	-88.0059735574174
883578.1	15.3977136917589	435.220901260857	435.493194529198	-87.973773329331
753531.2	17.8633086319658	507.511337136963	507.82561486974	-87.9841438654229
642624.9	75.0172210240641	672.415680937486	676.587342048901	-83.6341909890102
548046.8	93.7405423169937	775.302197471396	780.948645352471	-83.1059239018995
467390.6	109.364145973792	890.086678745861	896.780247388073	-82.9952284558803
398593.7	127.861148829255	1023.41860135917	1031.37486249564	-82.8786315445711
339937.5	146.219417591008	1177.52969351517	1186.57334252485	-82.9215460834264
289906.2	163.933236721035	1355.36893263587	1365.24688230969	-83.10351747916
247234.4	184.163948051646	1566.95207423457	1577.73735542707	-83.2967761434576
210843.7	201.252192885026	1812.04394564235	1823.18559287861	-83.6624951040896
179812.5	219.876646861547	2094.67505104681	2106.18358870091	-84.0076448798764
153343.8	243.911001323978	2434.93716508917	2447.12312205564	-84.2796852410045
130781.2	268.502294721867	2829.71870500188	2842.4287909653	-84.5796286467555
111531.3	294.242543977074	3286.25092085012	3299.39748885677	-84.8835254612929
95109.37	325.204091008453	3824.74520379428	3838.54576301442	-85.140038666173
81109.37	364.950744414094	4448.30445254984	4463.25011044902	-85.3098060608703
69171.88	974.139912870952	5704.74470007411	5787.31895292388	-80.3096606785431
59000	1072.33870392868	6523.76599186311	6611.31099045667	-80.6655247650988
50312.5	1050.63406084823	7580.40279238137	7652.86472012656	-82.1091492257105
42906.25	1449.56482915322	8738.08582360401	8857.50427911764	-80.5809561945375
36593.75	1564.76044793653	9997.12429226682	10118.8422941786	-81.104181253051
31203.13	1685.31485782132	11523.0485639861	11645.6401446196	-81.6791444004648
26609.38	1808.57748422531	13334.248761668	13456.3420941388	-82.2758799440935
22703.13	1941.52964172982	15443.9736213787	15565.5343168025	-82.8346856816846
19359.37	2124.70181213942	17933.4461293274	18058.8717217881	-83.2432618853924
16500	2283.10357355326	20826.9994147849	20951.7652371112	-83.7440842941163
14112.02	2485.0576321825	24142.1064829025	24269.6686600183	-84.1229812840363
12011.13	2733.08718717754	28163.0136558115	28295.3194671864	-84.4570729743771
10236.38	3001.63840262397	32816.5792454677	32953.5689489647	-84.7738613393049
8750.684	3276.98760705143	38035.7094697276	38176.6138184399	-85.0758100973388
7449.463	9241.58146462471	49699.5156190728	50551.4458817724	-79.466209508331
6363.206	10562.6323682114	56691.2717108564	57666.8838306713	-79.4457549150448
5414.761	11855.5155191811	65391.8981412338	66457.9084138151	-79.7239259245808
4620.567	13066.4886538687	74594.628584411	75730.3884803709	-80.0644920380066
3941.215	13855.0516757431	85742.4809056866	86854.6802930017	-80.8209682149178
3361.769	15668.181851095	98843.3158202638	100077.435043387	-80.9926836661185
2867.244	16969.7157608875	113705.42399386	114964.754158084	-81.511668836948
2442.658	18432.3195568744	132267.798210828	133545.950323426	-82.0665784615322
2083.003	20045.801327621	153306.98210942	154611.981794311	-82.5504986152997
1777.843	21772.2408044226	177769.956653812	179098.26341521	-83.0175165141109
1513.548	23855.9080186498	207170.155777264	208539.151700993	-83.4312493379748
1292.065	26132.3736508909	240563.984783152	241979.196889688	-83.8002914538186
1101.762	29228.8528819484	279476.88319486	281001.163842978	-84.0294745718709
939.101	35000.55434401	322922.6899824	324813.950608433	-83.8140424409017
801.2801	87170.3999207299	429733.023587056	438485.062668745	-78.5332623305195
684.3433	98283.1329515771	489760.651980794	499524.844678851	-78.6528386223633
582.9476	113760.902908333	560203.655521136	571637.71629395	-78.5210010337037
497.0677	126749.667776801	640958.584741958	653370.787253258	-78.8140689459131
423.5089	140517.853702229	736853.503839378	750132.223897527	-79.203336471925
361.5036	157011.411782774	845229.481134342	859689.164296403	-79.4765800444228
308.1262	171850.726392468	975918.410598271	990933.608425042	-80.0130977237834
262.7298	189185.674508633	1153583.02766362	1168993.16557148	-80.6864950204006
224.2111	194572.222663097	1303872.28248746	1318310.00863648	-81.5125855694202
191.2854	240372.176538923	1519059.08169842	1537959.45230832	-81.0082108223666
163.1722	313301.589313249	1775602.5980744	1803031.4673224	-79.9932733840718
139.1537	242637.83351556	2077772.5430229	2091891.93286675	-83.3392896118563
118.6706	355796.164011363	2401955.9608205	2428164.60480881	-81.5741785323968
101.1982	408627.221157333	2682595.39456817	2713539.06491672	-81.3389793574956
86.24196	-1569812.35941334	2423847.17804702	2887792.58020609	-122.929240860908
73.61024	591257.475662804	3655535.9019447	3703043.09088266	-80.8123738479909
62.69291	861586.306096834	3785973.86999031	3882773.37828297	-77.1793630606253
53.57697	1050014.30746778	5148533.04006154	5254514.48856052	-78.4729298746922
45.65746	581060.769631983	6012035.5035113	6040049.87673825	-84.4795329199462
38.96512	1639565.62107847	6759152.01178464	6955164.36500495	-76.3651327379649
33.18414	1705426.3477478	7587612.65605006	7776911.00925319	-77.3324573834843
28.30617	3158925.07118371	8088378.41435772	8683356.08962346	-68.6668145068077
24.17237	2678122.98219919	10490684.6759277	10827132.9389422	-75.6790730740753
20.61345	2703609.31616263	12673184.8096512	12958360.8745093	-77.957439746413
17.55618	4038220.70113792	14180698.4573575	14744471.3424931	-74.1046996446148
14.98558	5672139.31743863	13701224.8861853	14828915.2610114	-67.5110440424698
12.76553	7959743.97128592	16260558.6938433	18104234.121452	-63.9176819345273
10.8809	10339489.8722525	17459222.6389959	20291118.8941478	-59.3656468437719
9.278505	14619281.5354692	19244708.7041209	24167792.7357833	-52.7778067632475
7.923394	14120078.0715622	19209886.0333964	23841063.8639112	-53.6825414992268
6.75822	17741533.298149	21386588.6467989	27787554.3673191	-50.3221383012065
5.761429	15327505.7671687	19097103.5724871	24487380.3805325	-51.2491610954164
4.919708	22105051.752455	22210302.5388515	31335775.9094302	-45.1360795735153
4.191257	21810292.1074705	21725681.429902	30784640.2513783	-44.8886477496881
3.564097	28475244.8294311	20925801.3662451	35337356.0261034	-36.311309128397
3.051758	33378251.8985197	19580580.3428345	38697633.3431804	-30.3970325022504
2.604164	31193046.8632388	19010886.0250845	36529713.3861048	-31.3605985446337
2.214424	29679420.9183302	17888012.3620262	34653268.4217725	-31.077689174132
1.892567	30003278.5660506	19563714.9407729	35818091.3365837	-33.1064639717548
1.607507	36272697.7302691	15895542.2495454	39602738.0876443	-23.6641538854665
1.376413	39548748.6933992	23040268.0817134	45770705.4401707	-30.2241768650374
1.17375	43576324.6545974	17535541.9574181	46972239.6969023	-21.920339647252
1.001604	44383780.7397183	18817328.4348408	48208005.9966812	-22.9754185086736
