EC-Lab ASCII FILE
freq/Hz	Re(Z)/Ohm	-Im(Z)/Ohm	|Z|/Ohm	Phase(Z)/deg
6999984	20.4963879685498	95.4415605200357	97.6175875252864	-77.8796320778342
5969734	18.1051424827279	96.2009529502422	97.889833654239	-79.3415338921105
5091109	15.0989159351981	102.3221108103	103.43012918436	-81.6058630984675
4341796	13.9169658082533	113.592238230683	114.441594377064	-83.0151100913713
3702781	17.5667104174668	124.973701927692	126.20228004439	-81.9987402585887
3157797	16.9487584105361	138.875426486986	139.905841527797	-83.0418672204039
2693047	16.0933058921781	157.988986438982	158.806531133187	-84.1837148103201
2296687	17.3499066288864	182.003125453969	182.828217009969	-84.5545903911083
1958656	19.2218029850126	209.158288649941	210.039680586709	-84.7492241541143
1670375	20.9543000688502	242.333454144492	243.237714363904	-85.0579911099103
1424531	23.885125607451	280.635169068978	281.649777815744	-85.1352258206939
1214875	27.3724017245443	325.257261509772	326.407007493721	-85.1895422196723
1036062	30.9584009938968	377.271077957381	378.539151020371	-85.308889328398
883578.1	36.180476092375	439.464344036845	440.951172500999	-85.2935340594885
753531.2	41.9799590096967	511.715894220332	513.434974808076	-85.3100925397678
642624.9	104.114366491668	680.514764774918	688.433109594987	-81.3015652134736
548046.8	126.178118326765	778.820055747729	788.975029249582	-80.7973623537584
467390.6	156.584271529843	895.006246943182	908.600471141113	-80.0763522643658
398593.7	185.663587620442	1024.80701978244	1041.48950813893	-79.7311451927995
339937.5	221.604058474752	1174.4536459959	1195.17769612955	-79.3146621715189
289906.2	259.998925918817	1348.38015864095	1373.21829790297	-79.0859947154822
247234.4	306.070180620859	1549.8874239873	1579.81960441668	-78.829023144366
210843.7	358.60743623585	1789.15941271615	1824.74400874053	-78.6661885389898
179812.5	428.364084157424	2050.75544950292	2095.01639665707	-78.2016343586977
153343.8	511.289152997924	2368.59958911648	2423.15509440401	-77.8189558473299
130781.2	617.553452746641	2734.04701359198	2802.92442629667	-77.271895744539
111531.3	754.030758528526	3153.09806068368	3242.00397363949	-76.5508856551463
95109.37	927.498870117229	3634.98305381704	3751.44718150287	-75.6858912718373
81109.37	1158.32005281715	4178.35247398415	4335.93527876141	-74.5055982138678
69171.88	1446.00514281055	4786.99500251682	5000.6251636326	-73.1920351727509
59000	2583.26309996509	5782.75927049927	6333.52611301054	-65.928821091216
50312.5	3038.16467893343	6481.97850337734	7158.66537383642	-64.8870692281091
42906.25	3976.82483211535	7229.18471474959	8250.83313279928	-61.1845013644147
36593.75	4661.51460799557	7833.11624789978	9115.23058368068	-59.2429765798344
31203.13	5481.93598151433	8533.61846128838	10142.6952112475	-57.2835984303578
26609.38	6568.85819131534	9228.97727897136	11328.0148107857	-54.5580897651221
22703.13	7731.09431779686	9841.37155013747	12514.8876678349	-51.8478561547045
19359.37	9040.81846463391	10359.8297807426	13749.9989671427	-48.8894401457481
16500	10451.2263187881	10759.2567777131	14999.6579286094	-45.832022759371
14112.02	11885.6610736761	10989.0343282639	16187.2732301046	-42.7553081544539
12011.13	13363.2792658932	11068.0714692896	17351.6408096627	-39.6330892414475
10236.38	14782.414157557	11030.4402307194	18444.2505949419	-36.7298089611165
8750.684	16103.0904201182	10850.7114171445	19417.7099405839	-33.9731886876051
7449.463	17335.4364648419	10573.3695732613	20305.5042182985	-31.3801879716492
6363.206	18449.7516795736	10233.6600308069	21097.89408126	-29.0161411906276
5414.761	19445.7232665104	9957.35998666343	21846.8572399261	-27.115130251741
4620.567	20389.0686566836	9775.27140462353	22611.2815143461	-25.6147772398335
3941.215	21099.9388458424	9520.91971164456	23148.5492300029	-24.2863115664652
3361.769	21797.8680059432	9390.86461603076	23734.6874392974	-23.3071381537426
2867.244	22397.8003070324	9466.71029548311	24316.2509941872	-22.9119577032849
2442.658	23064.6728754136	9471.42804372915	24933.6536439684	-22.3253348647402
2083.003	23634.5294072906	9687.24373507679	25542.7812010922	-22.2875826756191
1777.843	24222.9672799778	10014.8563548784	26211.6289393796	-22.4623863693355
1513.548	24796.9185361937	10486.1291279998	26922.9655309313	-22.9225459633389
1292.065	25429.9768435833	11031.1356096915	27719.4818693385	-23.4504635461945
1101.762	26162.741912345	11704.9136426437	28661.7178088426	-24.1031999847194
939.101	26614.7325894303	12771.9321859642	29520.6070833537	-25.6355125824393
801.2801	27502.5448019829	13738.8672440641	30743.2341131361	-26.5443726145435
684.3433	28728.178122837	14315.1333749777	32097.2157951566	-26.486887758958
582.9476	29520.270957152	15890.7378269061	33525.5416968487	-28.2935440081425
497.0677	30456.1554674854	17620.8271931987	35186.2324898846	-30.0521176391596
423.5089	31470.9993834996	19593.9179850157	37072.1650864871	-31.9064898135225
361.5036	32683.1243322994	21781.5365934246	39276.2263015585	-33.6813125276095
308.1262	34006.9467934441	24253.5903899949	41769.7148304581	-35.4962823944014
262.7298	35473.4125648008	27035.1490999701	44601.1466876153	-37.3119054330796
224.2111	37139.059565526	30085.1090910395	47795.6434670717	-39.0097741857026
191.2854	38917.5065705357	33570.0521887747	51395.7266864157	-40.780895592433
163.1722	40870.4313726005	37549.6960546705	55501.097596179	-42.5752332490222
139.1537	43408.0875949147	41807.1511860717	60266.9060010786	-43.9237123381744
118.6706	46023.0893362629	46662.065037274	65539.8586022004	-45.394993471557
101.1982	49072.9127972031	52049.6928380466	71535.4548104428	-46.6861481333063
86.24196	52437.7840814775	58110.8075097706	78272.5184775172	-47.9376713043665
73.61024	56238.0748273708	64778.5248030108	85784.4877349235	-49.0368163498116
62.69291	60719.4163653442	72274.1736069024	94394.934685653	-49.9655064512053
53.57697	65555.142488301	80240.1385945324	103614.461096563	-50.7516274644366
45.65746	70971.317650235	89634.8506150049	114329.936472408	-51.6284305079032
38.96512	77355.9088319762	99109.3322702655	125724.28712973	-52.0275758263032
33.18414	84147.7867605324	110493.102942446	138886.917362817	-52.7083356305879
28.30617	91906.8894764664	122589.577490842	153215.798280146	-53.1406609349038
24.17237	101763.62809533	135195.801070201	169215.072112794	-53.0307504410639
20.61345	111527.252146118	150003.494773671	186920.775772996	-53.3692825543169
17.55618	122559.265041413	166134.146850086	206449.335666399	-53.5833338569999
14.98558	134650.226606255	183727.656016515	227786.160928267	-53.7630764469104
12.76553	148310.968965745	203397.593846775	251727.481015116	-53.9016749375525
10.8809	163599.23806866	224718.121920607	277962.128744494	-53.9446410426094
9.278505	180381.869085483	248171.623550009	306800.869343976	-53.9887244153667
7.923394	199131.337993808	273232.292629387	338096.399724568	-53.9154832204151
6.75822	220198.662418189	301261.405168095	373156.649645447	-53.8360999178998
5.761429	243815.515026138	331395.881706738	411423.426386548	-53.6572339534158
4.919708	268617.68278706	363517.753181248	451996.257046264	-53.5378352784885
4.191257	296817.310460763	400468.02190937	498472.820082665	-53.4550428770921
3.564097	328978.619756017	439668.296147854	549122.156622851	-53.1945934521595
3.051758	361342.297491251	482182.474990705	602551.404565965	-53.1525097021071
2.604164	399513.24952575	528063.191991135	662164.308372544	-52.8901867051844
2.214424	441555.446680142	580599.836690254	729429.491354476	-52.7464315943861
1.892567	486175.438409882	635816.770675045	800393.355035312	-52.59676928872
1.607507	538418.753945811	698885.631136456	882233.461170887	-52.3894846175976
1.376413	591011.49924161	765329.729471155	966966.487034689	-52.3235600936898
1.17375	650789.761317098	837789.862118617	1060857.75036236	-52.1601697192524
1.001604	717573.320256816	918107.664171144	1165260.98061944	-51.9895772653301
