EC-Lab ASCII FILE
freq/Hz	Re(Z)/Ohm	-Im(Z)/Ohm	|Z|/Ohm	Phase(Z)/deg
6999984	30.0114766345999	97.4730042368528	101.988603700348	-72.8866486679462
5969734	19.2871643174426	96.3162307867364	98.228361588555	-78.6763871877431
5091109	15.9114116704836	101.801274665284	103.037238631595	-81.1166144372053
4341796	14.6910221095611	111.879316078366	112.839742541298	-82.5192151196856
3702781	15.5365679414949	124.130835110857	125.099357187475	-82.8657972899602
3157797	15.0573126859074	139.676895235578	140.486147815263	-83.8472166972398
2693047	14.4574132086774	159.556331802831	160.209986627119	-84.822562751891
2296687	14.5554254448171	184.187098953053	184.761326663946	-85.4815788078505
1958656	15.9338374552834	212.372917379651	212.969817608965	-85.7092722356355
1670375	17.077293349509	246.504414459856	247.095245394041	-86.0370040944503
1424531	18.7994109596103	285.753117595758	286.370847098869	-86.2359923366992
1214875	20.9962376192246	331.580152362323	332.244246654151	-86.3767680669629
1036062	23.2683409077639	386.151038439807	386.851444584018	-86.5516920818163
883578.1	25.7668266811153	449.408103402751	450.146168217916	-86.7185373917584
753531.2	29.1303910601353	523.743509735975	524.552994152043	-86.8165131747258
642624.9	72.6987890565582	690.224873456662	694.042858812447	-83.9874194697083
548046.8	89.8624631627304	794.932110484993	799.995201589234	-83.550424559362
467390.6	109.887955852449	914.299992702852	920.879926753681	-83.1466039053538
398593.7	128.95100383274	1051.58408697563	1059.46092583438	-83.0089794429634
339937.5	150.086178463192	1209.50016585989	1218.77664573161	-82.9263589289055
289906.2	169.433054915735	1394.01059486831	1404.26959616135	-83.0700567439244
247234.4	192.713630771693	1610.6931563075	1622.18093542644	-83.1771998516138
210843.7	210.121328798465	1857.45573505378	1869.30275249896	-83.54595548856
179812.5	234.819162009539	2151.52886956345	2164.30508833941	-83.7713570851645
153343.8	255.354088977242	2494.62757985709	2507.66275103752	-84.1554679910202
130781.2	281.223491629146	2897.07541664966	2910.69280790672	-84.4555832841097
111531.3	310.170066043817	3366.77918552315	3381.03646149248	-84.7363898995033
95109.37	340.378507579965	3916.30462522243	3931.06848655184	-85.032723671145
81109.37	395.20322818136	4567.22217739479	4584.28882262579	-85.05449606736
69171.88	973.984793091059	5847.96031815392	5928.51467569032	-80.5441150083106
59000	1078.10085119038	6688.08814032801	6774.42428684044	-80.8428552026918
50312.5	1159.89046016055	7724.36881492453	7810.96789575723	-81.4602745227248
42906.25	1456.8900088096	9036.96031561372	9153.64300394911	-80.8418811744401
36593.75	1578.3261107947	10261.0315303009	10381.708981562	-81.2554421109655
31203.13	1758.91078256198	11802.866077448	11933.2063915439	-81.5239301337638
26609.38	1829.65025237832	13664.7121337156	13786.659412031	-82.3736838397223
22703.13	2021.80061040675	15848.5993946938	15977.0391650559	-82.7300635882937
19359.37	2231.79904587632	18361.9751304575	18497.1094410104	-83.0699994481448
16500	2386.04333837893	21353.34931112	21486.2451260179	-83.6241642275954
14112.02	2611.25617586472	24761.8878722184	24899.1917501815	-83.9801429057102
12011.13	2902.90974945996	28862.1489440214	29007.7666613682	-84.2565950418608
10236.38	2967.90420791373	33718.2938130098	33848.6601366702	-84.9697556094601
8750.684	3713.9602581438	39015.7550596514	39192.124766001	-84.5623253213426
7449.463	9296.82910870661	50720.6852911434	51565.6760634407	-79.6132877743411
6363.206	11283.9779335347	54921.8617643748	56069.0561510499	-78.3898509943982
5414.761	12030.8097113639	66728.6006075246	67804.4727237782	-79.7796747180471
4620.567	13337.5772222898	76887.5863284079	78035.8372644833	-80.1589154826442
3941.215	14505.173777336	88234.3673005073	89418.6984876852	-80.6644361452881
3361.769	16367.3488121491	101144.760238798	102460.493024885	-80.8080193687479
2867.244	17791.6666734437	116826.345997977	118173.340996428	-81.3408701182195
2442.658	20197.4328837564	135142.939914777	136643.882058082	-81.4999232021478
2083.003	22687.4540391672	161680.683763589	163264.705533808	-82.0122620625538
1777.843	22320.7463482908	181274.921619826	182643.951243447	-82.9803888489864
1513.548	26943.9271602271	211054.819560273	212767.742081442	-82.7247923765785
1292.065	26073.1412461438	243460.434984274	244852.592588221	-83.8872664471195
1101.762	35915.8978254391	283404.150669779	285670.902146974	-82.7773899021715
939.101	76720.8902555527	382381.906872839	390002.586793105	-78.6548439746462
801.2801	88209.9817258552	450129.952863723	458691.59065888	-78.9125030951166
684.3433	107068.990424879	508335.371891538	519488.805487386	-78.1058358153519
582.9476	120115.190429817	569242.17585851	581776.85906894	-78.0848655600501
497.0677	156271.719771984	642657.466301718	661384.509490385	-76.3329325098786
423.5089	163844.676812816	733250.923591053	751333.477935749	-77.4041916994347
361.5036	198489.726072176	843964.943756275	866991.924786926	-76.7652864620843
308.1262	220023.393468785	1060904.37409324	1083479.75737606	-78.2833954360629
262.7298	192682.430773566	1172599.30699861	1188324.72578097	-80.6685041456335
224.2111	313238.864872102	1340729.07491054	1376834.42678372	-76.8496831453071
191.2854	284606.037340694	1507605.8130728	1534234.62485426	-79.3095055513627
163.1722	464935.76245568	1734463.56875364	1795697.39503733	-74.9942166215554
139.1537	421662.476230803	2011515.33834395	2055235.55833731	-78.1608397636844
118.6706	763616.08194883	1083918.306548	1325891.55509822	-54.8354586337449
101.1982	610096.871305703	2656121.7880341	2725289.18561801	-77.063854769127
86.24196	966152.420111127	2917165.97209978	3072996.55184698	-71.6753585932601
73.61024	1023558.15677933	3367840.66293025	3519946.31083998	-73.0948615306967
62.69291	908181.237441394	3243321.74777474	3368074.98723368	-74.3569156660314
53.57697	1669376.1314583	4226321.72342818	4544074.38079568	-68.4462257556823
45.65746	1760371.84720338	4932414.09143173	5237138.3225747	-70.3585869884904
38.96512	2844493.96026337	5182367.65204593	5911690.14503863	-61.2385312844956
33.18414	3000277.39741529	5790047.4498762	6521220.27946143	-62.6077858232992
28.30617	5693938.33611635	6248130.42419482	8453405.67897013	-47.6570021988437
24.17237	4538589.51840561	7483025.97487279	8751826.81256903	-58.7624368770582
20.61345	4156090.94143493	7771713.80352091	8813207.55215233	-61.8633990558652
17.55618	5673826.8768411	10046210.7076133	11537706.0549369	-60.5434188874428
14.98558	7626496.57750016	9283927.66702812	12014772.6975267	-50.5978169443337
12.76553	8020191.40117748	9010082.26010462	12062547.5105955	-48.3265950557013
10.8809	9893793.42471586	8706535.5652369	13179184.7198408	-41.3477685757796
9.278505	9753334.20847792	8322384.10886179	12821450.9880006	-40.473664163528
7.923394	10482973.8371244	11498991.4539452	15560191.0312097	-47.6463566430102
6.75822	12833217.1150529	7832700.21211279	15034714.9668665	-31.397628806933
5.761429	13276298.2365654	7176141.13697933	15091623.3879619	-28.3922302587758
4.919708	13366509.3280384	10059033.3354857	16728649.773994	-36.9634726091267
4.191257	13730546.7692387	12477048.340488	18552753.1615425	-42.2616534477471
3.564097	15162491.5306403	10665686.3630883	18538015.4011293	-35.1235389712011
3.051758	17924034.2230182	16437072.9017222	24319711.5197623	-42.5220971431018
2.604164	18202195.5476212	12465071.734191	22061231.5180356	-34.4037893889577
2.214424	15292291.1088428	12471180.0910551	19732827.9833662	-39.1979564439354
1.892567	18100740.9240339	12402027.4855942	21941903.0111891	-34.4176492380219
1.607507	22254631.9625677	14597928.0041798	26615186.3755367	-33.2628757202476
1.376413	19623433.1249541	16583330.2664616	25692138.2982438	-40.2004148614521
1.17375	21615943.6540671	19901261.4148302	29382124.2587599	-42.6349984766323
1.001604	22229020.3392743	21749069.9961311	31099057.7178872	-44.3747332553455
