EC-Lab ASCII FILE
freq/Hz	Re(Z)/Ohm	-Im(Z)/Ohm	|Z|/Ohm	Phase(Z)/deg
6999984	36.1456122860127	80.4662298316893	88.2117873691323	-65.8102761234034
5969734	38.1138553832753	76.1849056964219	85.1868876538516	-63.4220734417391
5091109	39.7183072757485	77.3700814759151	86.9693822010972	-62.8260827432441
4341796	44.8464747802818	80.2547785919463	91.9349541092004	-60.8034844306527
3702781	53.3072189978118	82.2948667444007	98.0515409861535	-57.0664989922048
3157797	60.8129594882524	85.3398791661585	104.790796436588	-54.5264338469411
2693047	70.6234826365528	88.9856867691222	113.605144027407	-51.5627294375356
2296687	82.6681029400146	91.7379209463336	123.49032910822	-47.9769303724889
1958656	94.9365107692853	92.2903392664024	132.402597402597	-44.1902637636251
1670375	107.773822342503	91.6002560137711	141.441873870866	-40.362223872375
1424531	120.376832532175	88.8657789249541	149.625226731384	-36.4358529643246
1214875	131.661445379516	84.9229470827252	156.673683625039	-32.8224201448187
1036062	142.157323095773	80.0566844662688	163.14955481854	-29.3862776558601
883578.1	151.364131091182	74.4425683583731	168.679566530092	-26.1884741505201
753531.2	159.212931631037	68.7017400533627	173.403248772649	-23.3406103481341
642624.9	165.742771627798	62.8103881297868	177.245059744634	-20.7548575482867
548046.8	171.02502869108	57.2086542991951	180.339653336446	-18.4953239986749
467390.6	175.516632497311	52.1742191291035	183.10717469539	-16.5551513944911
398593.7	179.253370700565	47.6734348046495	185.484574273947	-14.8933732533834
339937.5	182.228851200216	43.8299527954236	187.425769230913	-13.5239812047089
289906.2	184.751795000484	40.3990261650045	189.117178148844	-12.3345208220173
247234.4	186.885775420267	37.8926500801226	190.68861000209	-11.4618144267859
210843.7	188.772211857907	35.8964607807634	192.154895504412	-10.7666791114214
179812.5	190.54280432986	34.4537943665826	193.632704438434	-10.2494300027111
153343.8	192.180044899235	33.5749894124707	195.090875162114	-9.90989521331657
130781.2	193.679278773306	33.226092287243	196.508616184707	-9.73445553644751
111531.3	195.28160507929	33.4604487749569	198.127501661343	-9.72290470729768
95109.37	196.847652924952	34.0749710110667	199.775128861096	-9.82076589870602
81109.37	198.719446584669	35.4328044296319	201.853665016679	-10.1099147795967
69171.88	200.239408283527	37.0584628383903	203.63975618155	-10.48513911005
59000	202.188790472745	39.5283459720321	206.016497223199	-11.0619242632523
50312.5	204.208461296448	42.2064418324894	208.524529485675	-11.6776418986337
42906.25	206.482883670803	45.4576450959229	211.427478693469	-12.4157318598992
36593.75	208.904840189307	49.6012169241891	214.712628820198	-13.3566660693748
31203.13	210.451152233378	54.3252442058067	217.349763363978	-14.4741916008877
26609.38	214.481127542584	59.7948888211822	222.660240728056	-15.5778630129144
22703.13	217.612195710282	65.8314441636356	227.351812753979	-16.8314717503488
19359.37	221.157302496452	73.0141701661232	232.898307191261	-18.2704266049301
16500	225.13785238568	81.0785486785183	239.292255688836	-19.8053919972415
14112.02	229.418060533592	90.0253592366097	246.4492073525	-21.4254129742401
12011.13	234.215887722166	100.51899658471	254.874774616633	-23.2276746371359
10236.38	239.53762825575	112.402298715637	264.598851295597	-25.1381737571098
8750.684	245.463032597859	125.495436699287	275.683160538475	-27.0788448345754
7449.463	252.124559710854	140.89887186785	288.823970097748	-29.1984792793501
6363.206	258.969275067159	157.900976778278	303.311397570788	-31.371857165308
5414.761	267.231230629784	178.031391601733	321.103888203737	-33.671841535256
4620.567	276.088305286931	200.011587571345	340.924313417244	-35.9213712417648
3941.215	285.530308925558	224.655350259302	363.314717174042	-38.195681372913
3361.769	296.867394565905	252.678160847106	389.841638265366	-40.402709070179
2867.244	309.079314852168	284.37574975441	419.999511806702	-42.6163429708228
2442.658	323.357174230472	321.117638830096	455.715262081633	-44.8008992633638
2083.003	339.012242291626	362.47364743761	496.30277604535	-46.9155604344767
1777.843	356.8459619123	409.308677134348	543.021761728372	-48.9172343283899
1513.548	377.041613691045	462.696685663575	596.865647678608	-50.8241467325663
1292.065	400.179373727487	523.002089760837	658.539837102605	-52.578291399827
1101.762	426.854571026494	591.167038767759	729.166162497721	-54.1686789996614
939.101	458.484779164391	668.713568491454	810.793518357168	-55.5646047238284
801.2801	491.956573566432	754.969341241901	901.11041304074	-56.9107461451765
684.3433	531.171075399037	851.543891014319	1003.62827265097	-58.0451510133339
582.9476	576.728995462025	963.445858298183	1122.87321460553	-59.0948096940136
497.0677	628.793538303156	1086.56007097877	1255.38603690546	-59.941985089894
423.5089	690.064538172833	1228.99261457095	1409.47221097602	-60.6863145615485
361.5036	760.313547375891	1385.0993537428	1580.05598320504	-61.2365832279921
308.1262	839.188962059655	1560.9573588449	1772.23756595294	-61.7370045662594
262.7298	932.866561170047	1757.59420770034	1989.81843892628	-62.0422764795051
224.2111	1037.37860220527	1975.07938484992	2230.93992316523	-62.2900234301197
191.2854	1162.15263409187	2224.9789623785	2510.20519638407	-62.4210015820866
163.1722	1299.41017615152	2504.18569403813	2821.24312956387	-62.5754137078743
139.1537	1456.57983284664	2799.00148910054	3155.31839050239	-62.5078619838284
118.6706	1641.26615882472	3138.6158477479	3541.84472328158	-62.3937287910383
101.1982	1844.1825742788	3510.65287118481	3965.5633835852	-62.2865856833489
86.24196	2080.98943056592	3926.80562268208	4444.13314477128	-62.0788884826139
73.61024	2351.61832858269	4378.22498691157	4969.80510677661	-61.7590061455924
62.69291	2653.28317224219	4886.16301827593	5560.08099161072	-61.4971644332176
53.57697	2996.99719684912	5429.40814271333	6201.65018185348	-61.1015943714593
45.65746	3383.22482440778	6036.11959168119	6919.60619815655	-60.7295155793013
38.96512	3820.73877274342	6695.16133264327	7708.64644666406	-60.287822415035
33.18414	4313.42525139882	7426.74565458256	8588.49162643045	-59.8521453076175
28.30617	4865.36777785203	8223.42306121074	9554.91969916092	-59.3894245922699
24.17237	5475.89022524113	9076.05191099798	10600.0043419813	-58.8959933391032
20.61345	6166.02152068504	10017.0615511416	11762.7098711526	-58.3855452394211
17.55618	6930.29013930779	11050.1698757834	13043.587531759	-57.905463902881
14.98558	7770.59043691597	12148.472845693	14421.0772212353	-57.3955887609941
12.76553	8711.46433591478	13366.0633161159	15954.3492329313	-56.9053030461227
10.8809	9742.95441185916	14692.3847759271	17629.2748312419	-56.4504662300361
9.278505	10867.4643904013	16112.7774664119	19435.1068934223	-56.0018116285589
7.923394	12091.6155450792	17728.494193572	21459.4192107223	-55.7042861047033
6.75822	13419.1557897185	19374.5233112016	23567.8996867568	-55.2928050049742
5.761429	14909.0861716516	21251.0474074666	25959.3502689903	-54.9476724179213
4.919708	16550.3718622757	23239.1692216642	28530.2259874112	-54.542453746893
4.191257	18243.0815831954	25426.2360546495	31293.8253583335	-54.3409215720336
3.564097	20202.4120163401	27963.797862415	34497.9918570337	-54.1538164744557
3.051758	22177.9867141361	30482.2249807295	37696.5400861699	-53.9614458947405
2.604164	24409.3070433726	33468.3429197766	41423.957417579	-53.8957849314186
2.214424	26835.8660085974	36702.7252125652	45467.0621709877	-53.8269154044438
1.892567	29500.9172227779	40260.5039477612	49912.0455913489	-53.7678721036556
1.607507	32371.6321453472	44389.5702218888	54939.571460266	-53.8981455175345
1.376413	35407.8004274575	48597.824248527	60128.7024041046	-53.9233613900982
1.17375	38866.8692210838	53525.1414748193	66148.1238807894	-54.0150117190073
1.001604	42496.9234906431	58981.6172918562	72696.7652962122	-54.2268227567113
