EC-Lab ASCII FILE
freq/Hz	Re(Z)/Ohm	-Im(Z)/Ohm	|Z|/Ohm	Phase(Z)/deg
6999984	19.287277378419	-0.683405279005572	19.2993811156588	2.02930994020348
5969734	11.8848906501097	0.250064565728595	11.8875211062735	-1.2053565237597
5091109	11.8008132792018	-5.89032320767857	13.1892039767949	26.5258718073387
4341796	10.0002785092118	-5.99603198103033	11.6601016195976	30.9463328700203
3702781	6.45655829981501	-5.04875224122583	8.19616033714525	38.023885707621
3157797	3.96553980754932	-4.95275669418246	6.34470683617671	51.3166784419946
2693047	2.82518149251976	-4.05249817084927	4.94008015020129	55.1178867196987
2296687	2.31608611834285	-3.7347754404368	4.39463337470492	58.1952659556582
1958656	1.87149716767431	-3.13763262115877	3.65338748478349	59.1852797298647
1670375	1.43185643105888	-2.75799517645154	3.10753121182952	62.563209706838
1424531	1.29072793921463	-2.34657181018121	2.67812954753992	61.1870796744928
1214875	0.795389225426419	-1.89282771045898	2.05315385721719	67.2072618194914
1036062	0.802183290076057	-1.75656740110138	1.93106889195836	65.4549276988633
883578.1	0.739681497395546	-1.51012473748291	1.68154852452944	63.9037017643261
753531.2	0.665790186201891	-1.30368672046688	1.46385642641771	62.9466903591191
642624.9	0.63557431964979	-1.19935987899259	1.35735729825842	62.0796333277476
548046.8	0.583246885469199	-0.973181132811987	1.13457412568362	59.0649012971078
467390.6	0.523488212663985	-0.869665323078929	1.01506535896173	58.9544923299861
398593.7	0.513597137458902	-0.757841961755218	0.915481544654493	55.8741107951801
339937.5	0.487438716637732	-0.656647568591194	0.81779125197948	53.4129820453516
289906.2	0.466571244587816	-0.569740063017537	0.736405096182428	50.6852846813384
247234.4	0.449084946972369	-0.49374552269526	0.667429345158565	47.7119946880204
210843.7	0.434648865883967	-0.425736108751931	0.608416691839938	44.4064923059296
179812.5	0.424120425855982	-0.365692904790323	0.560008425152911	40.7691728759447
153343.8	0.417443734663097	-0.317878342940794	0.524696019158007	37.2888324226697
130781.2	0.409864621978684	-0.275876104102547	0.494061365788228	33.944133997814
111531.3	0.403757212484154	-0.240019308691001	0.469711778836214	30.7299782770009
95109.37	0.397439111449777	-0.208905996716578	0.448998399522911	27.7277711037626
81109.37	0.391279947982834	-0.180607986158518	0.430951554536801	24.7772218053333
69171.88	0.385875342758885	-0.1571569511909	0.416651037988514	22.1597844394151
59000	0.376380208698291	-0.133708178193044	0.399424509032022	19.5574617001325
50312.5	0.370205889193664	-0.102991204696257	0.384264997935614	15.5465565989884
42906.25	0.401842044188307	-0.102234078366121	0.414643021473662	14.274000147269
36593.75	0.385843424978108	-0.0934046220218377	0.396988125784487	13.6083148625742
31203.13	0.380040426144956	-0.0815579866774176	0.388693234691978	12.112161631305
26609.38	0.375071398175157	-0.0694720908735171	0.381451078304159	10.493607426262
22703.13	0.375836895421966	-0.0614330778856733	0.380824625016462	9.2832856502497
19359.37	0.373057940648553	-0.0548490914478601	0.377068494989431	8.36402643416385
16500	0.370473177832154	-0.0486399301993564	0.373652536861257	7.47966034780148
14112.02	0.368545600598475	-0.0433535066315621	0.371086763786778	6.70910086828594
12011.13	0.366659843120019	-0.0387786455487222	0.368704792357504	6.03726774644939
10236.38	0.364744190262676	-0.0347884971399315	0.366399459420494	5.44826426826593
8750.684	0.363499016710223	-0.031145489961289	0.36483088780177	4.89728226936734
7449.463	0.361597496561469	-0.0285328711126594	0.362721483032717	4.51173667719263
6363.206	0.378055202157674	-0.0664829211421395	0.383856372465108	9.97377427789571
5414.761	0.354652956768854	-0.0699398075730286	0.361483466327635	11.1559409078553
4620.567	0.367310955182255	-0.0257151362429578	0.368210002619286	4.00469595751823
3941.215	0.34389898165117	-0.019346502797521	0.344442733631015	3.21985779679023
3361.769	0.332413091522506	-0.0233445174258747	0.333231796066037	4.01714002787067
2867.244	0.332735145762659	-0.0191212224170716	0.333284110590981	3.28898744660394
2442.658	0.329094802760197	-0.0227376784949003	0.329879358595094	3.95237459758247
2083.003	0.340071299546035	-0.0147878874101507	0.340392670880242	2.48991930607608
1777.843	0.335737715247073	-0.0143271588695612	0.336043272393003	2.44353837256024
1513.548	0.302413143845672	0.00265809914092751	0.302424825471829	-0.503595639043845
1292.065	0.326069488707779	-0.0170543651562679	0.326515180101991	2.9940047094432
1101.762	0.324651878988766	-0.0159823397490571	0.325045039517281	2.81834788156979
939.101	0.323794039593332	-0.0153654139421202	0.324158411925066	2.71689195295479
801.2801	0.322123791456664	-0.0146024363222918	0.322454598616554	2.59554121081947
684.3433	0.321051080125278	-0.014580893374795	0.321382013344267	2.60036494249668
582.9476	0.320029177096326	-0.0141523889026792	0.32034194902417	2.53209472937566
497.0677	0.318317712471375	-0.0139235332140791	0.318622081548301	2.5045778583067
423.5089	0.317426943521839	-0.0132615649295632	0.317703845708543	2.39233026962042
361.5036	0.316007212696893	-0.0128968757504605	0.316270276631526	2.33705645816635
308.1262	0.314695388536883	-0.0126329248214927	0.314948850380384	2.29880980646799
262.7298	0.313640380930449	-0.0123883973841164	0.313884948571836	2.26193481573116
224.2111	0.31181604356549	-0.0117207560202742	0.312036249731537	2.15265973208602
191.2854	0.312531803018882	-0.0134743283033375	0.312822130645291	2.46869064680868
163.1722	0.308876180932282	-0.0116680211601832	0.30909648633575	2.16336086482567
139.1537	0.308260705741805	-0.0107169382342759	0.308446941092877	1.99113318935612
118.6706	0.307369910819418	-0.0118972111690934	0.307600074302233	2.21661213526293
101.1982	0.303390062149832	-0.0114981919934058	0.303607869183913	2.17041626711492
86.24196	0.30724114641904	-0.0113218904666164	0.307449682479302	2.11040466765291
73.61024	0.300599228631208	0.0063187446505812	0.300665632867537	-1.20420831633826
62.69291	0.587117498100561	0.0632809245796267	0.590517935368195	-6.15172752518267
53.57697	0.318813510063149	0.00162580071814863	0.318817655450197	-0.292179311964948
45.65746	0.279855673117627	0.000717629318680455	0.279856593218668	-0.146922306898248
38.96512	0.299892023810886	-0.0203464693111869	0.300581444468583	3.88134043605774
33.18414	0.293822256575	-0.00990267159948276	0.293989083749095	1.93030512503606
28.30617	0.314529506001207	-0.0187263789205934	0.315086476086869	3.4072396329832
24.17237	0.287318976095497	-0.00532411846085208	0.287368300725654	1.06158880788988
20.61345	0.284742188821731	-0.017090445255471	0.285254618567379	3.43481609166285
17.55618	0.282034333150442	-0.0146724320329295	0.282415731391464	2.97804611597542
14.98558	0.293582387360211	-0.00810950950163167	0.293694368881118	1.58225618280589
12.76553	0.292850564495237	-0.00854891067058664	0.29297531807105	1.67210685128051
10.8809	0.291895243340583	-0.00731237531374742	0.291986821479305	1.435037542136
9.278505	0.290260228792748	-0.00759490533049091	0.290359575364404	1.49885071656869
7.923394	0.290778005927867	-0.00698547922561495	0.290861901340478	1.37617529601103
6.75822	0.290442226086202	-0.00195626601944468	0.290448814200794	0.385908389050588
5.761429	0.282995282654839	-0.00460244952960196	0.283032705789569	0.931738809821589
4.919708	0.284436228574426	-0.00467887454897438	0.284474708880576	0.9424101487559
4.191257	0.288165999043743	-0.00687939949065005	0.288248103449495	1.3675648862658
3.564097	0.286671665304843	-0.00818118044067971	0.286788380870033	1.63469213430067
3.051758	0.280707084484737	-0.00290685102271929	0.280722134971201	0.593302953478124
2.604164	0.29300484161181	-0.00283526721097234	0.29301855905065	0.554406453048518
2.214424	0.281885202333763	-0.00595632565275623	0.281948124856379	1.2104982470132
1.892567	0.285653537022776	-0.00460084228163082	0.285690586060029	0.922747383142601
1.607507	0.284423029594213	-0.0024398411598924	0.284433494139554	0.491483311254779
1.376413	0.293630937363757	6.16902458776328E-05	0.293630943844147	-0.0120375281489113
1.17375	0.283918070245837	-0.00441775823810931	0.283952438270867	0.891448990625784
1.001604	0.290828375407332	0.00903719681143529	0.290968752391518	-1.77983552183659
