EC-Lab ASCII FILE
freq/Hz	Re(Z)/Ohm	-Im(Z)/Ohm	|Z|/Ohm	Phase(Z)/deg
6999984	21.4291103902669	-1.66416729175967	21.4936321940524	4.44063089594351
5969734	14.3668298788049	0.583227611465372	14.3786631928458	-2.32467025655122
5091109	12.1021206499005	-5.32210101498993	13.2206687969446	23.7382602466887
4341796	8.28543114029421	-5.99756475607905	10.2283504136258	35.8996045751278
3702781	4.6740585899238	-4.85634634555223	6.7402465481612	46.0957609620476
3157797	4.54133622170316	-4.81933759734463	6.62191434222254	46.7011195204931
2693047	3.70197781045974	-4.39166189514217	5.7438083107273	49.870584533286
2296687	2.36379454785209	-3.7218013144363	4.40900552149746	57.5795082132311
1958656	1.97311251557669	-3.14073688098526	3.70909708078751	57.8616326315535
1670375	1.39299019945434	-2.87263076861486	3.19255841427665	64.1304211638594
1424531	1.18438448228864	-2.47996417610221	2.74827016805779	64.4717321224188
1214875	1.0335542432255	-2.00889069137676	2.2591759965947	62.7746311332413
1036062	0.795595346002976	-1.78460984754651	1.95392022931889	65.9722512920869
883578.1	0.73107578648052	-1.51888949314222	1.68567407821202	64.29743836114
753531.2	0.699794901764137	-1.39919199833889	1.56443317298971	63.4284332732651
642624.9	0.580479318517923	-1.13920290801246	1.278569319533	62.998944110035
548046.8	0.611612634834704	-1.01736826920338	1.18705863809305	58.9869217411905
467390.6	0.51122860216893	-0.893050506990112	1.02902570021885	60.2109314789284
398593.7	0.518645801147323	-0.796206851806454	0.950230928728008	56.9199478473663
339937.5	0.504013910071795	-0.679614030673136	0.84611184380887	53.4387078503529
289906.2	0.482953996290556	-0.585712778405999	0.75914690364981	50.4924500058092
247234.4	0.459381281669243	-0.51382154281736	0.689234169068313	48.2017475521423
210843.7	0.412655820513726	-0.412015740504612	0.583131028695456	44.9555291131137
179812.5	0.395235894502656	-0.37237299665965	0.543022155113953	43.2939744255461
153343.8	0.403615566474298	-0.344503335297075	0.53064872894522	40.4821897755195
130781.2	0.412210096963641	-0.270317508086328	0.492938859511782	33.2559028238808
111531.3	0.382959410511069	-0.257456510836555	0.46145613558725	33.9122087894693
95109.37	0.373768677282619	-0.210104398886969	0.428773696195619	29.3413921421896
81109.37	0.393752624833547	-0.18742681430026	0.436084785657619	25.4545152149575
69171.88	0.384071272601064	-0.169465555651232	0.419796756764011	23.8087340554898
59000	0.353160179227989	-0.136540189586768	0.378636151951627	21.1376964878372
50312.5	0.347495359609204	-0.108388051954276	0.364006860864425	17.3233388287348
42906.25	0.394426569831176	-0.0969049922803822	0.40615624643436	13.8033611551927
36593.75	0.378092712585995	-0.0880806987016265	0.388216832188408	13.1137663417071
31203.13	0.37110464074621	-0.0759763411582629	0.378802136740503	11.570292526138
26609.38	0.361513363917298	-0.0846302819413878	0.371287216198295	13.1756744314709
22703.13	0.354855145398802	-0.0743804692896193	0.362566722725278	11.8382648869207
19359.37	0.349556994802785	-0.0647158504361548	0.355497164423613	10.4887945807829
16500	0.362309003147222	-0.0444625075007195	0.36502702411573	6.99634752929682
14112.02	0.343406473233811	-0.0450367371102255	0.346347099812341	7.47153007668857
12011.13	0.358699363153061	-0.0374975059747452	0.360653983869218	5.96787682788109
10236.38	0.355671771630256	-0.036660015639875	0.357556101725759	5.88484378421073
8750.684	0.343260675602301	-0.0297050152827493	0.344543581202577	4.94592753208954
7449.463	0.352300969616389	-0.0345433843089203	0.353990421610758	5.59999552453026
6363.206	0.352015497397814	-0.0256013734775304	0.352945237582498	4.1596821870167
5414.761	0.349948088336602	-0.0206880545124701	0.350559067961382	3.38324530643871
4620.567	0.337889520967114	-0.0287784103562374	0.339112850364031	4.86819377506635
3941.215	0.348395951610333	-0.0245043416050573	0.349256641820835	4.02325864416487
3361.769	0.342630475736333	-0.01539611998901	0.342976214064507	2.57285838466803
2867.244	0.335424765536947	-0.0147504665391386	0.335748938343278	2.51798736254395
2442.658	0.337996624400422	-0.0146419521233634	0.338313619099295	2.48049185851499
2083.003	0.334278271077306	-0.0211829463375004	0.334948771799465	3.62593934225802
1777.843	0.33541864250922	-0.0164570553993229	0.335822126154821	2.8089204340087
1513.548	0.330273351655006	-0.0185328083976224	0.330792913770133	3.21170116961875
1292.065	0.327428737524785	-0.0146000234848824	0.327754082877443	2.55312342637255
1101.762	0.330971198561451	-0.0139920651469823	0.331266829254426	2.42078220781103
939.101	0.329291214108228	-0.0143754224990328	0.329604848964479	2.49969740380778
801.2801	0.328816448598056	-0.0133412875948233	0.329086989750926	2.3234252192624
684.3433	0.328267505415153	-0.012513372687549	0.328505920201608	2.18302592227015
582.9476	0.326920908738298	-0.0118047711931174	0.327133968265596	2.06799203982615
497.0677	0.325943157122902	-0.012209411958301	0.326171751406544	2.14522331286301
423.5089	0.30832895393032	-0.0271931185288019	0.309525781683993	5.04016877614825
361.5036	0.31872659619735	-0.031044405506497	0.32023491102127	5.56313886844288
308.1262	0.322833885402489	-0.0117823946456883	0.323048823535474	2.09018326818936
262.7298	0.321368520447484	-0.0109728966024811	0.321555796704792	1.9555633964766
224.2111	0.319117648102897	-0.0116421465911692	0.319329943644461	2.0893553441754
191.2854	0.320114706714626	-0.00953800738341999	0.320256770482432	1.70665677928469
163.1722	0.317491475082214	-0.0111245771011904	0.317686312209954	2.00676462392288
139.1537	0.316346935837929	-0.0111900554048974	0.316544785384329	2.02586359906577
118.6706	0.314667654588592	-0.0113087813200745	0.314870801090273	2.05825634097129
101.1982	0.313942714070254	-0.0119720419720034	0.314170904933568	2.18388650487844
86.24196	0.313192320609447	-0.00762404275901406	0.313285102928183	1.3944761409453
73.61024	0.325592952507005	-0.0212526327229835	0.326285833464904	3.73460537176694
62.69291	0.245599778515309	-0.0514402412576875	0.250928973272155	11.8294527960316
53.57697	0.292509143476064	-0.0178777500377327	0.293054965771803	3.49748736120984
45.65746	0.326293150333457	-0.026662238190619	0.327380657491956	4.67140454483512
38.96512	0.298374101524801	-0.0048329163888208	0.298413239554738	0.927967601614037
33.18414	0.309733134530404	-0.0116142398611686	0.309950810925834	2.14744638910812
28.30617	0.300173769232881	0.00450395007284637	0.300207557036351	-0.859628633557604
24.17237	0.292503761610569	-0.0136866998279147	0.29282379737397	2.67900339987838
20.61345	0.309130385380581	-0.0230636405139087	0.309989558984334	4.26682586766396
17.55618	0.305765450097907	-0.0232499989258152	0.306648125583095	4.34832739514794
14.98558	0.299570628578284	-0.00761781117882762	0.299667469962865	1.45666612594439
12.76553	0.303338248409122	-0.0107619631600059	0.303529097120806	2.03191174155117
10.8809	0.297671354281387	-0.00465149345631447	0.297707694813367	0.895246554891911
9.278505	0.298842191445572	-0.0105248575519377	0.299027470334216	2.01705380000784
7.923394	0.297468784948333	-0.00786120148000229	0.297572640723819	1.51380205023263
6.75822	0.283775443069098	-0.00928181421561398	0.28392719870452	1.87338004921642
5.761429	0.302773709673955	-0.00116986288105235	0.302775969734867	0.221379432882647
4.919708	0.292553680466389	-0.0148637658446475	0.292931028553676	2.90852399007204
4.191257	0.275907195315224	0.000373842614423032	0.275907448585596	-0.0776333175217075
3.564097	0.306991384406542	-0.0118515872143363	0.3072200680609	2.21084015843478
3.051758	0.273279242247252	0.00301765290600112	0.273295902772605	-0.632655986678889
2.604164	0.296669112242618	-0.0342224821751755	0.298636468712469	6.58031141509643
2.214424	0.310426975266962	0.021844441158294	0.311194612072435	-4.02521243024627
1.892567	0.287003523560384	0.0083687759313788	0.28712551079043	-1.67022239309232
1.607507	0.252437828409972	-0.00735779268046929	0.252545034252252	1.66952453049785
1.376413	0.322971732430332	-0.0167467255607265	0.323405616472652	2.96824166218514
1.17375	0.328773878398611	-0.0418319449294417	0.331424463089019	7.25113613121355
1.001604	0.274588007081033	0.00744842216545707	0.274689010747587	-1.55381341194
