EC-Lab ASCII FILE
freq/Hz	Re(Z)/Ohm	-Im(Z)/Ohm	|Z|/Ohm	Phase(Z)/deg
6999984	4.76755223255111	3.77111216007563	6.07872035990909	-38.3438367995779
5969734	3.99508287032515	1.72279363012507	4.35071316369684	-23.3270828145911
5091109	2.70223037673055	0.367711129005316	2.72713411538921	-7.74903645518224
4341796	1.95475678595473	-0.296043640133715	1.97704727538309	8.61187651718155
3702781	1.26820229447503	-0.391406246083582	1.32722865746071	17.1518353719183
3157797	1.0083042616371	-0.38635506523742	1.07979059102687	20.9654882929326
2693047	0.829044686382724	-0.332101724953492	0.893088264247445	21.8302305748118
2296687	0.72624218687035	-0.255402409047294	0.769842908999875	19.3755819776462
1958656	0.660940994964655	-0.187922295413241	0.687137386508877	15.8717960913945
1670375	0.621765124148262	-0.136325837360573	0.636534840789697	12.3667611571493
1424531	0.596018030072037	-0.104429413120417	0.605097508254353	9.93802171147954
1214875	0.58218940673845	-0.0813450391788417	0.58784481006255	7.95402356554619
1036062	0.572444175636303	-0.0663662432113253	0.57627841574877	6.61305595308816
883578.1	0.565017169620097	-0.0513373697595318	0.567344628510161	5.19163016929108
753531.2	0.55748237744816	-0.0379024790606778	0.558769361261154	3.88947758266419
642624.9	0.554309968288647	-0.0285302666313793	0.555043707340438	2.9464068135705
548046.8	0.552188016032432	-0.0221880326508422	0.552633616280034	2.30102256947278
467390.6	0.550838210021052	-0.0174224952823993	0.551113669727998	1.81160775044998
398593.7	0.550261750570334	-0.0139232168786758	0.550437871252496	1.4494399822322
339937.5	0.54964478296354	-0.0109432242911705	0.549753709943756	1.14058708276693
289906.2	0.550505308379345	-0.00978681872282123	0.550592295963675	1.01849034958235
247234.4	0.550074735064475	-0.00928417919888364	0.550153078824112	0.966948212247968
210843.7	0.549614182670307	-0.0088926924457897	0.549686119318366	0.926958049979017
179812.5	0.549264335947669	-0.00843485851566865	0.549329097702109	0.879801904566365
153343.8	0.548719744804658	-0.00772528266171556	0.548774123233496	0.806599097787065
130781.2	0.547952414009848	-0.00698411935773263	0.547996921471666	0.730243877218956
111531.3	0.5474088828702	-0.00653469189587967	0.547447885413191	0.683935709343098
95109.37	0.546588873061572	-0.0060030771260725	0.546621837369951	0.629242877093295
81109.37	0.545961948212302	-0.00536261670930621	0.54598828426418	0.562759776631069
69171.88	0.545433382300241	-0.00480037022944471	0.54545450596894	0.504248295268278
59000	0.544883856880049	-0.00423448994083374	0.544900310509672	0.445257305526742
50312.5	0.544581286761264	-0.00351050945462714	0.544592601462033	0.369338048544948
42906.25	0.544256583846804	-0.00278988096303301	0.544263734320395	0.293697879305162
36593.75	0.544039804475221	-0.00217771537789284	0.544044163003063	0.229345780770367
31203.13	0.544028941570501	-0.00171366691211443	0.544031640550994	0.180478554198336
26609.38	0.543997490420057	-0.00107474024827462	0.543998552066015	0.11319537547099
22703.13	0.544115864248349	-0.000798096119131973	0.544116449562171	0.0840400169953013
19359.37	0.544024339485164	-0.000416130173892736	0.544024498636404	0.0438261605439754
16500	0.544245974328964	-3.31208180982823E-05	0.54424597533677	0.00348681143861317
14112.02	0.544260368310359	0.000286833622264788	0.544260443893228	-0.0301957581583989
12011.13	0.544388379134871	0.000456323921133914	0.544388570387561	-0.048027161582388
10236.38	0.54458030302683	0.000541994596869151	0.544580572737348	-0.0570237162336424
8750.684	0.544849694859261	0.000639228307440186	0.544850069836702	-0.0672204971445589
7449.463	0.544954855218388	0.000751130281079567	0.544955372872673	-0.0789727209593848
6363.206	0.545086535519732	0.000853400714278395	0.545087203571761	-0.0897035902086105
5414.761	0.545167329461721	0.000894668910705233	0.545168063577539	-0.0940274735053448
4620.567	0.545327748130086	0.000907512917763611	0.545328503253155	-0.0953492871387116
3941.215	0.545432788641862	0.000837050722517115	0.545433430933189	-0.0879291399170903
3361.769	0.545421488236112	0.000880310500992561	0.545422198646401	-0.0924753308383354
2867.244	0.545487360652914	0.00085893165381175	0.545488036895099	-0.0902186219706536
2442.658	0.545604838560574	0.000799461156372222	0.545605424275502	-0.0839540160302522
2083.003	0.54558954651274	0.00078107744019404	0.545590105615878	-0.0820257838665189
1777.843	0.545623160830027	0.000735328594684647	0.545623656325761	-0.0772166626130883
1513.548	0.545749291178729	0.000692000648588648	0.545749729900971	-0.0726500170985571
1292.065	0.545710607358584	0.000604674885951896	0.545710942363622	-0.0634865884894709
1101.762	0.545827781849836	0.000595365709959483	0.545828106549526	-0.0624957725743511
939.101	0.545888478789287	0.000535681191247212	0.545888741621606	-0.0562244171911231
801.2801	0.545895427428334	0.000456083944394349	0.545895617952487	-0.0478693861943428
684.3433	0.545878363550433	0.000416446208141152	0.545878522402139	-0.0437104803651385
582.9476	0.545713835000334	0.00036370484574727	0.545713956200486	-0.0381862218397154
497.0677	0.545591657365343	0.000216471303379509	0.545591700309386	-0.0227329198514625
423.5089	0.545633480891459	0.000279708006684118	0.545633552584791	-0.0293715239926355
361.5036	0.545589164435543	0.000138156491763676	0.54558918192784	-0.0145086893897326
308.1262	0.54549547856535	0.000176479848923146	0.545495507112916	-0.0185364509092094
262.7298	0.545390903312335	0.000165572175234103	0.545390928444899	-0.0173941048460114
224.2111	0.545448837134434	0.000222824262276838	0.545448882648006	-0.0234062082860986
191.2854	0.545347541002247	0.000113579043193953	0.54534755282975	-0.0119329404329881
163.1722	0.545360723808874	0.000175521191926066	0.545360752054113	-0.0184403143207644
139.1537	0.545403571703927	0.000197379161440748	0.545403607419252	-0.0207350905043546
118.6706	0.545296637458153	0.000163369132521131	0.545296661930588	-0.017165632195625
101.1982	0.54524028822056	0.000101458150431014	0.545240297660211	-0.0106615814630605
86.24196	0.545256264293477	6.01669025095571E-05	0.545256267613069	-0.00632236581572853
73.61024	0.545191804561956	0.000108081605230475	0.54519181527528	-0.011358607539149
62.69291	0.54518506479282	2.50461562644946E-05	0.545185065368139	-0.00263220535308769
53.57697	0.545142609171927	3.52419433327545E-05	0.545142610311073	-0.00370401171733814
45.65746	0.545057072659958	6.40921713553387E-05	0.545057076428193	-0.00673729612138432
38.96512	0.545041270734396	4.14404090135368E-05	0.545041272309788	-0.00435629494624703
33.18414	0.545037513689332	9.03456907961751E-06	0.54503751376421	-0.000949737705997828
28.30617	0.54493484168481	9.03579356542043E-05	0.544934849176124	-0.00950045384333814
24.17237	0.544907420645828	1.22056156272781E-05	0.544907420782528	-0.00128339280249872
20.61345	0.544820076297942	4.95420424115401E-05	0.544820078550441	-0.00521006852409619
17.55618	0.544770149093295	1.22544901041894E-05	0.544770149231126	-0.00128885652803309
14.98558	0.54463339525803	-4.67137946299009E-05	0.544633397261376	0.00491432088827895
12.76553	0.544624952935176	8.78621114569593E-05	0.544624960022393	-0.00924329319614957
10.8809	0.5445215617767	-1.30473192607378E-05	0.544521561933014	0.00137286818361753
9.278505	0.544477611819845	5.73970877223025E-05	0.544477614845154	-0.0060399377297747
7.923394	0.544441249883336	4.1647904597063E-05	0.544441251476297	-0.00438293232710045
6.75822	0.544346418669135	1.7572525772011E-05	0.544346418952772	-0.00184961547874778
5.761429	0.544284662844202	-1.99574435840048E-05	0.544284663210094	0.00210088096318225
4.919708	0.544228884458201	0.000116324735261992	0.544228896889959	-0.0122465316934191
4.191257	0.544271672718342	2.29423627133975E-05	0.54427167320188	-0.00241515518930505
3.564097	0.544152734205322	3.09809876977053E-05	0.544152735087264	-0.00326209853727845
3.051758	0.544127402020555	1.70076160897265E-05	0.544127402286356	-0.00179087584559097
2.604164	0.54399718365014	-2.35403738228705E-05	0.543997184159471	0.00247935854799623
2.214424	0.54385448213698	-5.26439935322707E-06	0.543854482162459	0.000554611342756057
1.892567	0.543708588044147	3.03723664484487E-05	0.54370858889247	-0.00320062704135446
1.607507	0.543573888051707	1.32838097572021E-05	0.543573888214021	-0.00140018910312055
1.376413	0.543407261075221	-1.08990977005568E-05	0.543407261184522	0.00114917915786271
1.17375	0.543234495344513	-1.15917875512884E-05	0.543234495468189	0.00122260369930873
1.001604	0.543067698609575	1.37246078143389E-06	0.543067698611309	-0.000144800013929304
