EC-Lab ASCII FILE
freq/Hz	Re(Z)/Ohm	-Im(Z)/Ohm	|Z|/Ohm	Phase(Z)/deg
6999984	10.0109557381715	-0.128631041016315	10.0117820959279	0.736154509833526
5969734	6.04564794420435	-0.951657240572563	6.12009073207223	8.94563589200115
5091109	3.62893614030794	-0.902760495958318	3.73953927957656	13.9697480988987
4341796	2.38407541612277	0.690710908393915	2.48211545838128	-16.1572837719743
3702781	1.86402818103333	0.237094044947638	1.87904620641326	-7.24878127467556
3157797	1.60165726415796	0.0939110822316229	1.60440807876172	-3.35562129226207
2693047	1.4016339157776	0.0246017898851693	1.40184980719177	-1.00556499468199
2296687	1.30111270678666	0.0136916329442844	1.30118474344514	-0.602902288377745
1958656	1.23155075598753	0.017558879190234	1.2316759228027	-0.816841291332824
1670375	1.17912364509599	0.0126326825259803	1.17919131403359	-0.613821718037349
1424531	1.12993657158863	0.0271166534115366	1.13026190270472	-1.3747423285654
1214875	1.11785465328774	-0.00069622992659791	1.11785487010307	0.0356853470076386
1036062	1.09304109209685	-0.00724596298366883	1.09306510921895	0.379818306054584
883578.1	1.08406160156664	-0.00844745866254185	1.08409451412185	0.446463496277052
753531.2	1.06653443230021	0.0126509181599742	1.0666094603988	-0.679593835171596
642624.9	1.05429413126429	0.0016789985608528	1.05429546819404	-0.091245362339528
548046.8	1.05771407705639	0.00975601148029518	1.05775906924179	-0.528462694901877
467390.6	1.04412047636648	0.00470734464900604	1.04413108768076	-0.25831229235678
398593.7	1.0450534440032	0.0104267584747312	1.04510545789181	-0.571635293948102
339937.5	1.04636976638572	0.00973897332572119	1.04641508762419	-0.533258867309137
289906.2	1.0472043704086	0.0076157343081384	1.04723206254007	-0.416672956789681
247234.4	1.04592122272715	0.00592806675168334	1.04593802212487	-0.3247372376028
210843.7	1.04549146227267	-0.00249093098727431	1.04549442964668	0.136509543816879
179812.5	1.04166412907838	-0.00146901614521925	1.04166516492444	0.0808018314245604
153343.8	1.0388487460131	0.0011754692851079	1.03884941104138	-0.0648308047726273
130781.2	1.04356619487121	0.000135113855416784	1.04356620361802	-0.00741826792005321
111531.3	1.03820957767457	-0.00141100555052717	1.0382105365059	0.0778692615417424
95109.37	1.03920230538233	-0.00278932129267698	1.03920604878206	0.153787143424828
81109.37	1.03922248398812	0.000834935425400268	1.0392228193913	-0.0460327470637391
69171.88	1.03742472664863	0.000519280811700336	1.03742485661109	-0.0286792821141364
59000	1.03732685397077	-0.00267660278689611	1.03733030716902	0.147839325849355
50312.5	1.03682327234303	-0.00210840998796744	1.03682541609703	0.11651245733012
42906.25	1.03804738849063	1.88324010506975E-05	1.03804738866146	-0.00103946805333547
36593.75	1.03772262411388	0.000152913203294006	1.03772263538011	-0.00844279667183844
31203.13	1.03773257317209	0.000167549293295818	1.0377325866981	-0.00925081040242168
26609.38	1.03620419937654	0.000689844965258192	1.036204429006	-0.0381442183037544
22703.13	1.03674935133018	0.000110477255395133	1.03674935721648	-0.00610550701984947
19359.37	1.03643618403902	-2.30549528778494E-05	1.03643618429544	0.00127451310258978
16500	1.03766263015903	0.000746597976167238	1.03766289874751	-0.0412242904413509
14112.02	1.03719743623667	0.000234289110104813	1.03719746269807	-0.0129423545581378
12011.13	1.03755621997503	0.000985038325224771	1.03755668756429	-0.0543956275823127
10236.38	1.03752064993213	0.000818606660217879	1.03752097287354	-0.0452065190048487
8750.684	1.03774669228697	0.000168974219905038	1.03774670604383	-0.00932935718655617
7449.463	1.03744220301225	0.000593233585000372	1.03744237262462	-0.0327630559876652
6363.206	1.03754975302141	0.00058048123729263	1.03754991540323	-0.0320554473811007
5414.761	1.03765577131451	0.000354568547341622	1.03765583189281	-0.0195780538032895
4620.567	1.03754902680176	0.000201266875390604	1.03754904632294	-0.0111144071972862
3941.215	1.03747387802931	0.000421038980761986	1.03747396346463	-0.0232523977659958
3361.769	1.03774453361514	0.000353980381739948	1.03774459398747	-0.0195439055186997
2867.244	1.03769517886916	0.000213585481058227	1.03769520084997	-0.0117930069506833
2442.658	1.03775049786448	0.000336576432700413	1.03775055244585	-0.0185828948680827
2083.003	1.03771728821526	0.000256144329408295	1.03771731982787	-0.014142569358644
1777.843	1.03762987612031	0.000216214468358074	1.03762989864698	-0.0119389163827913
1513.548	1.03767188556533	0.00025159372276992	1.03767191606602	-0.013891923241586
1292.065	1.03769291455817	0.000369103960888083	1.0376929802027	-0.020379919696731
1101.762	1.03772768194951	0.000430784134395286	1.0377277713636	-0.0237847672309195
939.101	1.03769657920729	0.000199310384419256	1.03769659834806	-0.0110048003710777
801.2801	1.03792520162786	0.000268748421575685	1.03792523642117	-0.0148355102456531
684.3433	1.03783589209056	0.000253346954919263	1.03783592301293	-0.0139865185735621
582.9476	1.03778189905654	0.000287904678946209	1.03778193899224	-0.0158951727694358
497.0677	1.03792013013511	0.000294099347385425	1.0379201718023	-0.0162350169560397
423.5089	1.03784538522055	0.000134410318745997	1.03784539392422	-0.00742031910895978
361.5036	1.0379210716467	0.000157062680821049	1.0379210835304	-0.00867024372777152
308.1262	1.03801311404287	0.000228722560335138	1.03801313924198	-0.0126249244804794
262.7298	1.03801542147089	0.000187170790766493	1.03801543834583	-0.010331345778681
224.2111	1.03805054886457	0.000200908561743132	1.0380505683069	-0.011089260079658
191.2854	1.03796479346194	0.000286327577770268	1.03796483295436	-0.0158053157984254
163.1722	1.03800406807975	0.000253765426797017	1.03800409909932	-0.0140073513189931
139.1537	1.03789171615172	0.000317407535582901	1.03789176468643	-0.0175221666428011
118.6706	1.0378988406835	6.50433767607313E-05	1.03789884272158	-0.00359063024517529
101.1982	1.0378389002102	0.000199114999778429	1.03783891931084	-0.0109925046967942
86.24196	1.03784468881647	0.0001783867187754	1.0378447041472	-0.00984810744468967
73.61024	1.03782086510392	0.000304457420926799	1.03782090976207	-0.0168084159286728
62.69291	1.03801195381383	5.34436025072594E-05	1.03801195518964	-0.00294995915190031
53.57697	1.03795862690776	-4.95432184420095E-05	1.03795862809014	0.00273480777025074
45.65746	1.03779965432712	0.000130012427975292	1.03779966247091	-0.00717784337006041
38.96512	1.03788953663547	5.6507252386438E-05	1.03788953817372	-0.00311943319220647
33.18414	1.03783942245902	0.00010338516316819	1.03783942760841	-0.00570756262098813
28.30617	1.03784623188168	3.43047202780145E-05	1.03784623244863	-0.00189384094503834
24.17237	1.0378859480451	0.000151755740438023	1.03788595913967	-0.00837757115644075
20.61345	1.03775592655531	7.84322334702802E-06	1.03775592658495	-0.00043303399581276
17.55618	1.03781321634908	4.67093472319741E-05	1.03781321740022	-0.00257873807756167
14.98558	1.0377856226523	-5.25040861359828E-05	1.03778562398045	0.00289873214135326
12.76553	1.03798311906764	9.31865124989937E-05	1.03798312325062	-0.00514381569537183
10.8809	1.03779626093539	-3.09457457530887E-05	1.03779626139678	0.00170848623352454
9.278505	1.03781065670816	-1.12829633010034E-05	1.03781065676949	0.000622913412330485
7.923394	1.03779215502968	0.000117751426908302	1.03779216170991	-0.00650097394920466
6.75822	1.03778608525966	8.33830608613172E-06	1.03778608529316	-0.00046035474342844
5.761429	1.03772620771423	-2.9392692019565E-05	1.03772620813049	0.00162285310737988
4.919708	1.03762475520545	3.7799497332882E-05	1.03762475589395	-0.00208722050343074
4.191257	1.03777338620454	0.000165997043406058	1.03777339948057	-0.00916474641201508
3.564097	1.03773552014394	8.07316623106316E-05	1.03773552328424	-0.00445738189004196
3.051758	1.03779660431752	-1.46478556370198E-05	1.03779660442089	0.000808694404443859
2.604164	1.03772092407382	6.30282011239044E-05	1.03772092598789	-0.00347998178169521
2.214424	1.03773804761257	0.000129720266067567	1.03773805572027	-0.00716213859689588
1.892567	1.03767476073947	-1.53883431399805E-05	1.03767476085357	0.000849675783698386
1.607507	1.03758369400326	8.65827380975004E-07	1.03758369400363	-4.78113283809622E-05
1.376413	1.03750418633203	3.37770485524102E-05	1.03750418688186	-0.00186532483557468
1.17375	1.03751958904969	2.2596118383094E-05	1.03751958929575	-0.00124784363609983
1.001604	1.03742833793852	4.88500832258584E-06	1.03742833795002	-0.000269792475810478
