EC-Lab ASCII FILE
freq/Hz	Re(Z)/Ohm	-Im(Z)/Ohm	|Z|/Ohm	Phase(Z)/deg
6999984	16.4906533060861	4.52055089368618	17.0990358454486	-15.3297952059345
5969734	18.9363901770993	0.968623666992604	18.9611472423901	-2.92820967399715
5091109	13.2173973151766	-6.66269891589241	14.8017278934276	26.7520125194989
4341796	8.12020456354323	-6.97585721548675	10.7051532471351	40.6650206079458
3702781	6.30287998547295	-6.52082882643558	9.0690410019444	45.973692303795
3157797	3.86752448206166	-6.27490559614601	7.37103695960689	58.3524855746421
2693047	3.20376970304461	-4.93271963330128	5.88182482660802	56.9965351158414
2296687	3.04816829650936	-4.20575731527295	5.19420105105845	54.0668701290446
1958656	2.8455489891539	-3.47276486993295	4.48968204793115	50.6691501898275
1670375	2.68219993833587	-2.913119577477	3.959856333491	47.363263926014
1424531	2.54830379164354	-2.52348144777623	3.58633668689593	44.7195850930788
1214875	1.13646920763231	-2.02362367232866	2.32090823323657	60.6813871245104
1036062	0.839689409163709	-1.84484385003264	2.02695020532448	65.5271203810498
883578.1	0.751738337892673	-1.59487769870062	1.76316346447805	64.7633676401404
753531.2	0.669548779834093	-1.3843307968212	1.53774748369325	64.1886909716242
642624.9	0.627785910834568	-1.21221606239468	1.36513110424239	62.6211357399258
548046.8	0.564176837774447	-1.03946001077418	1.18269717945036	61.5086808848998
467390.6	0.52729372513278	-0.905048671862361	1.04745012817042	59.7743376390387
398593.7	0.494936091380613	-0.784558966929425	0.92762843161499	57.754374932305
339937.5	0.467379661972898	-0.683707563249772	0.828190666737341	55.6436499812446
289906.2	0.444654059373226	-0.592928012609153	0.741134846471091	53.1326968215515
247234.4	0.425437993031358	-0.515161800810423	0.668123616502805	50.4489567795808
210843.7	0.410579753713009	-0.445016251442699	0.60548757064629	47.3048279604886
179812.5	0.39566428203182	-0.385766954832279	0.552599644875316	44.2743510496385
153343.8	0.387691281018579	-0.335125268257603	0.512458266400843	40.8405519580621
130781.2	0.379875627637544	-0.291378768751357	0.478755761690734	37.4895509974599
111531.3	0.372045581957175	-0.254309481649946	0.45065644066286	34.3543202129261
95109.37	0.364755845703124	-0.221246169544859	0.426610706045774	31.2393091089825
81109.37	0.35835728668245	-0.192926499972717	0.406989655040678	28.2964030675402
69171.88	0.350769578321282	-0.166867274529566	0.388437877124021	25.4412569715781
59000	0.340980012434593	-0.141361409615746	0.369121141372918	22.5176195007861
50312.5	0.338895618181927	-0.107889773694886	0.355654949762891	17.6592353361302
42906.25	0.365789600338264	-0.11452736059954	0.383299553928157	17.3851437860955
36593.75	0.349730382480315	-0.10304272099891	0.364594490880878	16.4168050052788
31203.13	0.344229261082274	-0.0908362367160982	0.356012648772471	14.7824085172004
26609.38	0.340454974713395	-0.0808571211495916	0.349924940305343	13.3600694386779
22703.13	0.335898856394737	-0.0709204238753397	0.343304162878853	11.9221172602381
19359.37	0.332468504627529	-0.0623161802010839	0.338258204459432	10.6160485070815
16500	0.330238389167341	-0.055630725157351	0.334891282749152	9.5620582654706
14112.02	0.32691734486899	-0.0494628289787924	0.330638052599478	8.60363738408757
12011.13	0.324357971023028	-0.0482211189805179	0.327922810554418	8.45602053775006
10236.38	0.317491519873159	-0.0409085079051273	0.320116183924512	7.34205880372286
8750.684	0.323899852520678	-0.0376061406973192	0.326075660362842	6.62263007784479
7449.463	0.313942429235424	-0.0328101942610269	0.315652273430251	5.96633557141219
6363.206	0.312041290030806	-0.0329702146631078	0.313778268430147	6.03148087271857
5414.761	0.319840507322766	-0.0273634205721298	0.321008889144665	4.88993752339156
4620.567	0.313807140255827	-0.0189697522277965	0.314379981511425	3.45934040416783
3941.215	0.317413870062861	-0.0218300332126015	0.318163661121672	3.93430293576625
3361.769	0.301145017027926	-0.021419415184948	0.301905800917464	4.06840141588544
2867.244	0.319527148233336	-0.0226534899729771	0.320329172986296	4.0553087573089
2442.658	0.309674793961715	-0.0268365097729381	0.310835448866476	4.95289527183613
2083.003	0.301168681021062	-0.014013757884403	0.301494543628917	2.66412311298104
1777.843	0.302511996700154	-0.0149181029458004	0.302879609652112	2.82320198001014
1513.548	0.302598501281865	-0.018517174217033	0.303164540668948	3.50178397171553
1292.065	0.311199984864569	-0.0254507887387214	0.312238968143201	4.67540092545616
1101.762	0.295196360451881	-0.0223640929991162	0.296042300828294	4.33245531830722
939.101	0.302043227495644	-0.0131898521472774	0.302331082549665	2.50044683260381
801.2801	0.297415165775883	-0.0136671086998782	0.29772902225633	2.63106001045522
684.3433	0.296650776786235	-0.0104386462700651	0.296834379248477	2.01531143535285
582.9476	0.287354485913339	-0.00970366423683189	0.287518280591235	1.93408435465274
497.0677	0.292919999191102	-0.0141270190376579	0.29326046203504	2.76113575389479
423.5089	0.297880924116727	-0.00645094936895134	0.297950767242503	1.24061118985189
361.5036	0.296038682174763	-0.0102118134885119	0.296214757361098	1.9756266595887
308.1262	0.30675045321366	-0.0223446414120164	0.307563202523672	4.16624140785536
262.7298	0.305744894668822	-0.0120109312611782	0.305980723389252	2.24965976792828
224.2111	0.273775632783609	-0.0275519291247292	0.275158510507234	5.74672084853855
191.2854	0.287441448203177	-0.0257516262083169	0.288592675578423	5.11941113104602
163.1722	0.261442546152536	-0.00559417365545687	0.261502389506499	1.22578991760745
139.1537	0.262713538025779	-0.0017223523002966	0.262719183843641	0.375626260346509
118.6706	0.262652409745568	-0.0231491604105499	0.263670574719416	5.03681181642658
101.1982	0.287751443126981	0.00400002282278232	0.287779243873222	-0.79641534593641
86.24196	0.280082235124262	-0.0221505773414381	0.280956769821909	4.52188089495542
73.61024	0.278660812354836	-0.00990400763413109	0.278836758174875	2.03551793791372
62.69291	0.238481718713683	0.00901490223311275	0.238652045084271	-2.16482018832987
53.57697	0.285311137933331	-0.000328233775642559	0.285311326740148	0.0659154138788099
45.65746	0.2770302076597	0.00789960087801422	0.277142814537935	-1.63336401813156
38.96512	0.290049356784704	-0.0254149342644976	0.29116069146588	5.0076264922582
33.18414	0.267058476727395	-0.00503510276919345	0.26710593825644	1.08012284664677
28.30617	0.275655803178461	0.00762303142316104	0.275761187323454	-1.58406329169173
24.17237	0.285419574345079	-0.0301890304335032	0.287011691360894	6.03776621973115
20.61345	0.271713807934017	-0.0111489675718727	0.271942444094191	2.34964376796758
17.55618	0.281891866151937	-0.000859912113654911	0.281893177731326	0.174780431629981
14.98558	0.292246218142192	0.00298136261654956	0.292261424997321	-0.58448513301106
12.76553	0.29259118282507	-0.0202992505994542	0.293294493371207	3.9686798305163
10.8809	0.27822133088179	-0.0353662992280949	0.280460129213986	7.2443408517633
9.278505	0.263594904477276	-0.0179473470109123	0.264205187176775	3.8950776721538
7.923394	0.257162804216881	-0.00180641530968965	0.257169148633659	0.40246205648439
6.75822	0.259584145377755	0.00185681499482299	0.259590786225984	-0.409831840715819
5.761429	0.254477040941243	0.00645984635628308	0.25455901866003	-1.45412906882755
4.919708	0.273014595309482	0.0144727638479959	0.273397933688973	-3.03446355118857
4.191257	0.274745415541001	0.00925419471656527	0.274901224952981	-1.92915290691005
3.564097	0.284980992660616	0.0226901347676729	0.285882857816983	-4.55227630598711
3.051758	0.277751570492282	0.00527218010353673	0.277801603296261	-1.08743722585941
2.604164	0.30355270512491	0.00676914800734129	0.303628170882407	-1.27746956481266
2.214424	0.292396670661061	0.0259360442342106	0.293544700862052	-5.06895933239578
1.892567	0.290062413119227	0.00370175701375514	0.290086032944605	-0.731165193353527
1.607507	0.308741438250299	-0.00761365867365065	0.3088353015626	1.41264520558669
1.376413	0.319861821033179	0.00969451132176365	0.320008700044904	-1.7360139907916
1.17375	0.31162756564218	0.0205412452630039	0.312303830307965	-3.77125347121689
1.001604	0.332471289742306	0.00571829195827374	0.332520461574671	-0.985353335500955
