EC-Lab ASCII FILE
freq/Hz	Re(Z)/Ohm	-Im(Z)/Ohm	|Z|/Ohm	Phase(Z)/deg
6999984	16.7652447995796	4.44420681863506	17.3442903411075	-14.8467516775936
5969734	17.4555589491391	4.57338805997965	18.0447337629026	-14.6815965931471
5091109	10.1157046320095	-3.48629674275058	10.6996142538211	19.0161025274031
4341796	10.4584202323818	-4.60671435210367	11.4280519284335	23.7724830157919
3702781	6.57322767226912	-5.73271600386187	8.72188940611027	41.0926934949653
3157797	4.49390662482846	-5.07854002657349	6.78135425665008	48.4949758925343
2693047	4.46586229223702	-4.30051354385088	6.19986634969411	43.9194323434448
2296687	2.39377706778969	-3.92333056610477	4.59594292623481	58.6110041318051
1958656	1.94951905838217	-3.25994902835744	3.79840653781081	59.1196760623223
1670375	1.26967531150818	-2.84184033963278	3.11257641072754	65.9258990064608
1424531	1.20359427561985	-2.49024761233143	2.76585833892975	64.2044473109903
1214875	1.07133015808301	-2.1219588213041	2.37706910857224	63.2117979309261
1036062	0.910804749675226	-1.84429055282641	2.05693289518052	63.7174904809086
883578.1	0.732664366979001	-1.58230250823925	1.74369673459032	65.1541248564196
753531.2	0.670771556402324	-1.3552075163913	1.51212495957241	63.6664972371419
642624.9	0.624131061346159	-1.18482714040744	1.33916202693444	62.2210966073654
548046.8	0.567642939548953	-1.01575333081366	1.16360359911734	60.8018228530469
467390.6	0.535318794602392	-0.881466519785392	1.03128533265878	58.7294918038382
398593.7	0.502221036891327	-0.764649461853425	0.914830459379732	56.7031291585329
339937.5	0.475305427440505	-0.665459197333066	0.817772090908934	54.463609024705
289906.2	0.454058873268727	-0.5772124783644	0.734400235276132	51.8099664557125
247234.4	0.435156760993458	-0.499054975348797	0.662130859467149	48.9128225533673
210843.7	0.42149551171122	-0.432332742300879	0.603796378308202	45.7271886715959
179812.5	0.410927966948643	-0.373026227836922	0.554986811262023	42.2320830959404
153343.8	0.401696867613858	-0.325039759543178	0.51673128290696	38.9786339295372
130781.2	0.394990081088892	-0.281025531055575	0.484760263701221	35.430896450821
111531.3	0.38802028994574	-0.245516606687032	0.459171154983292	32.3232421249669
95109.37	0.381138525049165	-0.213825294869548	0.437021546382672	29.2931777437293
81109.37	0.374342056939928	-0.185812589304388	0.41792139684158	26.3984746415914
69171.88	0.367775093640498	-0.162064699854552	0.401899846281662	23.7812893771031
59000	0.358403619870338	-0.13648921687391	0.383513312753306	20.8481064294442
50312.5	0.350770316317614	-0.107434524194421	0.366854183291455	17.0288671699273
42906.25	0.380514034627285	-0.107230144128433	0.395334332379746	15.7380161758094
36593.75	0.365127896036188	-0.0970664408570715	0.377809838946092	14.8873113599109
31203.13	0.359381527853736	-0.085638928499747	0.369444324137035	13.4033449409441
26609.38	0.354162464742504	-0.0729351401496477	0.361594505075968	11.6366353092362
22703.13	0.355045784108784	-0.0643110346243306	0.360823250342703	10.2669224041964
19359.37	0.352235757735102	-0.057381956916317	0.35687913641283	9.25264959694405
16500	0.349862388249003	-0.0510736590747469	0.353570656817813	8.30549306581329
14112.02	0.348026198792428	-0.0456090758419306	0.351002026838965	7.46610416636868
12011.13	0.346063591878981	-0.0406210765238266	0.34843949472202	6.69476546425176
10236.38	0.344424565109523	-0.0364582059924255	0.346348786391797	6.04240144829376
8750.684	0.34277802004536	-0.0329610208214236	0.344359114762202	5.49258885625504
7449.463	0.341431460292331	-0.0296911271902622	0.342720009791056	4.96997972737134
6363.206	0.34513316363992	-0.0287158240820269	0.346325712583992	4.7561776613293
5414.761	0.339307190971088	-0.0355215798958243	0.341161475672424	5.9764425469183
4620.567	0.328210856401492	-0.0274802092444709	0.329359269127075	4.78605798330316
3941.215	0.327963926838907	-0.0131603518448276	0.328227866227528	2.29789994948932
3361.769	0.341653175977625	-0.0299389150407539	0.342962434224822	5.00801094693874
2867.244	0.328156845284233	-0.0330585630407535	0.329817803790546	5.75257647720478
2442.658	0.330904236314845	-0.0297084330334884	0.332235164611478	5.13023487675384
2083.003	0.322359727653357	-0.00527747114600085	0.32240292448184	0.937926754009002
1777.843	0.32176672672089	-0.00666609056377838	0.321835770522918	1.18683566303209
1513.548	0.317281971523369	-0.0250553606589794	0.318269729241578	4.51520593664215
1292.065	0.334261989845409	-0.0103972980763484	0.334423655955587	1.78162429607299
1101.762	0.318526653836793	-0.0203251264333527	0.319174466348729	3.65108302213954
939.101	0.331540776623668	-0.00890757629051744	0.331660415906988	1.53900760955603
801.2801	0.315459505582074	0.00692335591181061	0.315535469510431	-1.25726248929399
684.3433	0.323443040232914	-0.0278218794249298	0.324637424290308	4.91635889915622
582.9476	0.333076225355801	-0.0206333428104865	0.333714708595237	3.54481825875001
497.0677	0.31491601387662	-0.0104669741620455	0.315089913110605	1.9036591498157
423.5089	0.311815862675981	-0.0132904316932028	0.312098971146907	2.44062316329861
361.5036	0.314468658123316	-0.00736702716108089	0.314554939606853	1.34201727113871
308.1262	0.329072588932612	-0.0153208681860601	0.32942904818608	2.66563572156018
262.7298	0.321173867735592	0.00255849270890137	0.321184058136735	-0.456412392727483
224.2111	0.324359147291567	-0.00860377509368498	0.324473236766262	1.51944052789451
191.2854	0.302865966110231	-0.0115976253841913	0.30308793829916	2.192951843113
163.1722	0.30399681594815	-0.013083190554276	0.304278218053302	2.46433272981892
139.1537	0.322088256343293	-0.00423525372174455	0.322116100572993	0.753359286505714
118.6706	0.312530802633382	-0.00417821379617223	0.312558730585458	0.765939720813402
101.1982	0.301129522929569	-0.00728318622863781	0.301217586441149	1.3854984652534
86.24196	0.316139214370772	-0.00508811506142145	0.316180157153872	0.922069574070961
73.61024	0.300294661003292	-0.0299169036431788	0.301781219678557	5.68932823915809
62.69291	0.226540336852577	0.115057751799471	0.254084258604164	-26.9255958131118
53.57697	0.3186194738578	-0.0185557921187212	0.319159343498784	3.33303243118903
45.65746	0.269378740451115	-0.0229087284918597	0.270351096998224	4.86089887641874
38.96512	0.287126969887901	-0.0133399147716015	0.287436688964929	2.66004823714207
33.18414	0.281389382564193	0.0107294653393501	0.281593867202974	-2.18364815443567
28.30617	0.320947333772195	0.00545198489046163	0.320993637311905	-0.973199181792845
24.17237	0.336631558385339	0.015252586654181	0.33697692428501	-2.59426523380971
20.61345	0.313702703019455	-0.00295844159296473	0.313716652822848	0.540324296359793
17.55618	0.30708362157939	-0.0169767736090716	0.307552534511565	3.16431183038348
14.98558	0.305247736811295	-0.0348335339252846	0.307228833142564	6.51018138097242
12.76553	0.296329228752037	-0.0293666412532466	0.297780811052818	5.65961235607142
10.8809	0.289225543530212	-0.0286583043290854	0.290641898970821	5.65875864895668
9.278505	0.283330538846954	-0.0284894932045652	0.284759276348214	5.7419137326374
7.923394	0.273307342116399	-0.0290913197387941	0.27485124729365	6.07578769901603
6.75822	0.271746831581429	-0.0195509287795915	0.272449223325541	4.11507627675018
5.761429	0.267176933206545	-0.015161874122487	0.267606793756363	3.24796252255699
4.919708	0.270453664501782	-0.00732824722167371	0.270552929848828	1.55211401911964
4.191257	0.262470484340137	-0.00976087821751115	0.262651917741567	2.12976147380361
3.564097	0.267980926493753	-0.0128637541204952	0.268289495013359	2.74823102547506
3.051758	0.26387707874683	0.00307288192332304	0.263894970189421	-0.667186434118038
2.604164	0.263945067376704	0.00101707010482107	0.263947026927925	-0.22077903040913
2.214424	0.259576983073037	-0.00146163607258837	0.259581098158761	0.322619872070894
1.892567	0.26326374241915	-0.00459218286242658	0.263303790736059	0.999324911335221
1.607507	0.266690383722461	-0.00760744006282297	0.266798864154897	1.63393984071566
1.376413	0.261965483667306	-0.0115899850450929	0.262221742779639	2.53325153116403
1.17375	0.258884850608893	-0.00152869786068754	0.258889363999254	0.338323843094517
1.001604	0.257773012926806	-0.010442753454466	0.25798445164985	2.31986543248125
