EC-Lab ASCII FILE
freq/Hz	Re(Z)/Ohm	-Im(Z)/Ohm	|Z|/Ohm	Phase(Z)/deg
6999984	2.29953973942723	2.28674917298861	3.24300860211149	-44.8402098976877
5969734	5.76117553475826	5.92200273207667	8.26203727303506	-45.7886670430134
5091109	13.4051903529201	2.08849108601748	13.5669054472417	-8.85533201391058
4341796	3.98591387776832	-10.6724298895527	11.3924654569766	69.5204643257731
3702781	3.04415764102113	-7.66249967009592	8.24504681233572	68.333066591144
3157797	1.12084126928008	-9.01659150701249	9.08598962993306	82.9139830405307
2693047	-0.79021595102995	-8.27561240690381	8.31325459483603	95.4544821898976
2296687	5.4733881568595	-10.8587126345319	12.1601652124875	63.2493839622867
1958656	0.504797915979312	-14.5197380222606	14.5285103562292	88.008838346393
1670375	2.80407099069709	-13.4882527374597	13.776638778398	78.2560653492352
1424531	11.3385201557753	-6.12591966264755	12.8875494581451	28.3812466578432
1214875	16.4305490036168	-13.6871420985933	21.3845925700571	39.7953165115608
1036062	-2.3614877403628	-13.6231092050162	13.826269517107	99.8341715758776
883578.1	-3.13567837878151	-9.15025234458636	9.67262099251108	108.915953699158
753531.2	19.7973496945734	-2.77303505445288	19.9906172576649	7.97360153340581
642624.9	10.5413617864603	4.8036129395034	11.5842567990186	-24.4983689760211
548046.8	7.20889411793301	-6.47261774347848	9.68828854115945	41.9195747257422
467390.6	5.97380694055968	2.2516964718225	6.3840822648441	-20.6528424128636
398593.7	6.13775485384169	-2.14363559288008	6.5013235730057	19.2519606037687
339937.5	-3.06981593150536	-5.72724759883737	6.49808701940137	118.191395557192
289906.2	13.6752636187598	-2.82261342102319	13.963523250495	11.6622407931006
247234.4	5.48659006729088	0.304608496470501	5.49503929946064	-3.17772649124087
210843.7	-0.735529818607516	-4.44199065997704	4.50247544550595	99.4020468067899
179812.5	2.1939332877559	-5.221612719416	5.66379578221977	67.2096109464514
153343.8	0.864195198350169	-4.4832245810329	4.56575689068407	79.0893751664734
130781.2	6.51341769923227	5.19509861738163	8.33148604805846	-38.5758445995603
111531.3	8.04437783326336	1.38809481111845	8.16326049620817	-9.7902444369594
95109.37	7.20221053448019	-9.72699750283898	12.103153184324	53.4824531780112
81109.37	1.23289026717093	11.8512738272182	11.9152301588594	-84.0608726590441
69171.88	10.7239419188486	-8.93488349393549	13.958333472483	39.8001007091501
59000	17.425097991766	-30.3292153398025	34.9784982975364	60.1212635839905
50312.5	22.9694083824709	18.7764429956523	29.6672973661186	-39.2644310073264
42906.25	38.6642552144101	-9.74057861267216	39.8723400742254	14.1401228288588
36593.75	16.3725263016887	-38.4348684834232	41.7767726474595	66.9269135703339
31203.13	67.1975796823913	35.6241704030872	76.0565331321348	-27.929881965995
26609.38	157.907017028495	48.4058461697143	165.159777095525	-17.0427384781474
22703.13	171.34884707754	-100.250444275482	198.520978670351	30.3304662656121
19359.37	112.00135359858	-237.363827710618	262.461216017433	64.7394753000834
16500	223.311804896282	-354.274953351182	418.782646223572	57.7753451876068
14112.02	344.510515026199	-358.724934876662	497.36412603432	46.1579555307091
12011.13	352.049170280301	-539.623562654992	644.307541215773	56.8796631847906
10236.38	284.546142915232	-544.384083458421	614.264224719949	62.4042139186892
8750.684	925.925242010908	1612.95738359031	1859.83038879126	-60.1418327688357
7449.463	108.614492710222	-1266.78150755263	1271.42931219317	85.0994159584982
6363.206	1518.50644500307	-1725.12507499649	2298.24244758848	48.6448043559611
5414.761	519.953629472313	-1647.42936749591	1727.53445629585	72.4835155632921
4620.567	171.615330334576	-3702.63810030459	3706.61310679075	87.3462699521037
3941.215	900.899640752615	-8349.85109841719	8398.31134981593	83.8419454855246
3361.769	37.0856493155145	-5219.32717325724	5219.45892664044	89.5928947625912
2867.244	10.8378013541308	7.56920219054229	13.2193328119429	-34.9307386731395
2442.658	2.93251975642725	-0.614754538510754	2.99626355056689	11.8396686335187
2083.003	0.996825290838342	1.27426153450597	1.61783902746115	-51.9647510040671
1777.843	2.05096719809388	2.05308257575335	2.90200181090899	-45.0295323419328
1513.548	2.41537449209752	-2.39834078431913	3.40383202505704	44.7972552517867
1292.065	2.78410920740953	-0.272116636922098	2.79737583153789	5.58231347401473
1101.762	1.90411766262359	3.34150637100552	3.84594967473388	-60.3238614603487
939.101	2.89269108005328	1.12234869941007	3.10279362634502	-21.2059873274388
801.2801	3.27821455521534	-1.35378903723565	3.54674998094948	22.4389294772029
684.3433	1.22068211179904	4.22114553803994	4.39410223724718	-73.8710474557604
582.9476	4.33608138701971	7.42125839234033	8.59515432791876	-59.7031762808835
497.0677	4.40528105691405	-5.70001858473352	7.20393733014893	52.3012204692577
423.5089	10.6886880270952	-10.616822915421	15.0653569674926	44.8067377032962
361.5036	10.6391380750095	-6.15416141348568	12.2908486965853	30.0470412330947
308.1262	7.83643246747041	-10.8712788110814	13.4012826552346	54.214498434538
262.7298	6.06483027318074	-0.147571393221558	6.06662538472476	1.3938642220201
224.2111	7.9463407017009	-67.5884053266363	68.0539261552571	83.2945416080566
191.2854	28.2987968739725	32.1701062416039	42.8455089841449	-48.663161923717
163.1722	64.921555794568	-173.733887041397	185.467711241877	69.5100937896812
139.1537	120.703250929671	-42.9279571448544	128.109657284771	19.5778647272171
118.6706	150.892553658281	32.1150908937046	154.272297618944	-12.0152171723689
101.1982	787.396365661065	-112.010985709228	795.323517554841	8.09628325649922
86.24196	4730.06832868678	-163.402207348222	4732.8898862547	1.97852009645411
73.61024	331806.597187687	-121090.286138014	353211.657981808	20.0491683503358
62.69291	431452.85255242	-163944.919656106	461551.189638449	20.8059596540344
53.57697	381272.128234753	5793.50217461548	381316.142375464	-0.870553219837363
45.65746	275476.601569943	-149908.713359559	313623.947353583	28.554125213368
38.96512	246804.550907336	-186318.048121562	309235.99629474	37.0499376699899
33.18414	227250.63487039	-381483.654561697	444041.247798832	59.2176518452897
28.30617	495671.851979513	-251323.502538508	555746.423985817	26.8866518717767
24.17237	253755.003517434	417452.142549938	488526.246101135	-58.7060005342378
20.61345	474499.181591411	403209.022865474	622677.275521638	-40.3564541873781
17.55618	895862.578603666	138417.745099882	906492.819552888	-8.78319089792566
14.98558	-349152.166821382	-1366902.15309891	1410790.109032	104.32885359134
12.76553	1070473.58710366	-1073687.12164571	1516152.27990938	45.085871281928
10.8809	2943329.08095425	2095519.74865032	3613085.81350824	-35.4491795340636
9.278505	2898119.25236478	-2743472.90895673	3990706.5543719	43.4298112596157
7.923394	3300695.09848996	-1509645.73761477	3629547.95894669	24.5780330278561
6.75822	1577451.46666336	-3533345.39495293	3869480.94835903	65.941769937386
5.761429	3225456.86583521	-379857.45839223	3247747.47818542	6.71670401822732
4.919708	3117596.40738599	-4483238.97338712	5460662.87659687	55.1856618972848
4.191257	6797801.07516035	-3304164.84857276	7558280.54546768	25.9227076772486
3.564097	10310124.4702455	-4470538.36627155	11237632.3073974	23.4418749088455
3.051758	7071597.49390726	9866388.03431053	12138908.6807432	-54.3694605998091
2.604164	-4285750.75894959	-13123243.22396	13805331.2992861	108.085852445572
2.214424	7016571.02928692	-8236564.7831308	10820040.1309671	49.5729616066053
1.892567	572295.515306035	3744934.9278025	3788411.24619735	-81.3113627917703
1.607507	13809138.2188274	-15710174.4147661	20916545.5677808	48.6847452438596
1.376413	2398404.58288499	-19702935.8369771	19848375.8816494	83.059628912053
1.17375	5602649.84381424	-969830.62114003	5685970.1640171	9.82070287334856
1.001604	21862215.930568	-9510551.2634891	23841289.2002558	23.5101141822456
