EC-Lab ASCII FILE
freq/Hz	Re(Z)/Ohm	-Im(Z)/Ohm	|Z|/Ohm	Phase(Z)/deg
6999984	2.44225960091474	1.28206883706341	2.75832058710175	-27.6973126673735
5969734	3.98833700076826	1.27636701150517	4.1875941517482	-17.7459639575792
5091109	6.14589739462382	-2.37052532487754	6.58721831284872	21.092054669877
4341796	4.76655396511702	-4.73614367613733	6.71945634879701	44.816644143574
3702781	3.47445280006848	-6.52026667484465	7.38821357101928	61.9481968095446
3157797	2.08661894656388	-5.30130180149775	5.69717293214123	68.5151525784365
2693047	1.23508997744991	-6.20471602711531	6.32644831082486	78.7420481510651
2296687	2.40469165400931	-9.51867449598534	9.81772408001895	75.8220833397399
1958656	-0.990473513715006	-7.15115972866964	7.21942679485826	97.8855994104172
1670375	-2.17725279016335	-5.99732772124125	6.38031108240366	109.952778125226
1424531	6.7313706333806	-11.5339829241369	13.3545540059645	59.7316522833015
1214875	10.1269158189748	-2.00179823905129	10.3228687967285	11.1815693100315
1036062	-0.649706267433804	-10.0665561556968	10.0875007345596	93.6928088572088
883578.1	-10.8933637000309	-9.93070055558644	14.7405626156492	137.646807744434
753531.2	-5.13242848215989	-4.19506415962044	6.62875444015073	140.738659894298
642624.9	2.78353440545673	-6.4484746150943	7.02359513695635	66.6521803075687
548046.8	-2.81600610287528	-1.85702273422864	3.37319193152018	146.597038757952
467390.6	4.31907299074203	-4.56285642540673	6.28283775520527	46.5722097461666
398593.7	1.01263977993116	3.52727885133319	3.66975958598945	-73.9818574933387
339937.5	2.82204708971829	0.658615926417017	2.89788279872007	-13.1366846535123
289906.2	3.40025499930902	0.887837341450402	3.51425514230252	-14.633720239786
247234.4	2.93376153829897	1.6811305987727	3.38129514442798	-29.8139620020355
210843.7	2.06196964878094	-0.766099274508453	2.19968791670458	20.3819250490139
179812.5	1.1298672130995	3.43588065721671	3.61688758601552	-71.7968829416074
153343.8	1.61411982217089	0.549183406296469	1.7049883325338	-18.7902081870949
130781.2	3.56370004708592	2.4445605857136	4.32155463726014	-34.4486176068487
111531.3	1.21082562460302	0.951835550999214	1.54015895586828	-38.1710499173003
95109.37	2.85559432834295	-0.089968721860709	2.85701125986189	1.80457125576798
81109.37	5.63705970069916	1.42255817341104	5.81378653082353	-14.1633390787175
69171.88	-0.86838676684374	2.05850802451646	2.23417789440053	-112.872571049213
59000	5.12572055224479	-2.72745689468783	5.80620635975719	28.0179742269964
50312.5	2.18431232664261	-1.32720759870552	2.55591477760596	31.2832377831351
42906.25	2.77370412675574	-2.20064928143652	3.5406626276262	38.4283881814054
36593.75	1.56835956505944	-0.450609937873743	1.63180913143174	16.0300413048316
31203.13	4.19441395777618	-2.59324541402323	4.93133148617492	31.7269133813726
26609.38	1.27456865192242	1.32431114185231	1.83802210239635	-46.0965058071813
22703.13	1.45125998688366	-1.23023414013482	1.90253294034107	40.2879685421261
19359.37	1.01813460379446	0.101081359145972	1.02314002590579	-5.66979897271105
16500	0.875510382144423	-0.199058079228322	0.897854413671138	12.8091476003478
14112.02	2.49993459635373	0.708114097798722	2.59828762102035	-15.8149357598057
12011.13	0.911755493053158	1.64271964093392	1.87878308961484	-60.9684962756504
10236.38	2.78541475342316	1.38331991630049	3.11000150151426	-26.4103635158404
8750.684	1.70573866278181	-1.50477396996044	2.27461844852696	41.4181965479571
7449.463	2.19803598991086	-0.270877704174965	2.21466407013852	7.02549389233513
6363.206	3.46070072008742	-0.872303690092376	3.56894426991546	14.147267612564
5414.761	1.77502530961907	3.02825814142771	3.5101370658297	-59.6231340769037
4620.567	-0.669199903242536	-7.10625288533326	7.1376928051582	95.379711197633
3941.215	3.10920355056968	-2.40680243239061	3.9319008974587	37.7430848218053
3361.769	1.55258638695179	-1.45049149331667	2.12472352581036	43.052879514933
2867.244	1.44222753775603	1.01300643532169	1.76244214335251	-35.0838272664205
2442.658	5.07074757309735	1.40629608809383	5.26214306508866	-15.5005595471953
2083.003	0.71832648942568	1.75492955819817	1.89625175007124	-67.739768794286
1777.843	3.18862415988411	-1.3498639822159	3.46257950139494	22.9447595370562
1513.548	3.02324018057103	-0.397410638845157	3.04924849844785	7.48870162180864
1292.065	1.915994148059	-4.22013952210554	4.63471802393992	65.5813794842487
1101.762	1.98757500386083	2.90563479455022	3.52039315350904	-55.6262492530065
939.101	7.78290021166651	3.25045426391141	8.43439319847838	-22.6673906684333
801.2801	1.33479884549497	13.7016604734275	13.7665241686861	-84.4358735359572
684.3433	12.242271996939	-8.69842278696336	15.0178488016027	35.3946912477467
582.9476	13.2184758379971	0.356247471537355	13.2232755299393	-1.54378894235639
497.0677	1.60920070407526	7.04222550098571	7.22374327566599	-77.1284844084177
423.5089	15.6458213856388	-1.21152075200284	15.6926578170763	4.42781383006644
361.5036	27.8710051545171	9.31639077814501	29.386868929068	-18.4831429159504
308.1262	9.10502548683816	17.0232686888344	19.3052626495529	-61.8595602386379
262.7298	19.1172353006381	0.0186664472657979	19.1172444137804	-0.0559447163842741
224.2111	2942.66793935592	-2367.52745951527	3776.83476907212	38.8184635779084
191.2854	12610.122186296	-940.5359010653	12645.1488458818	4.26555275544318
163.1722	27.8713068748108	6.46182950324128	28.6105747484883	-13.0531359478263
139.1537	18.8705373922651	-3.44863455311722	19.1830722709849	10.3566475949139
118.6706	6.76158566698418	-13.2726745541207	14.895735314229	63.0040434344117
101.1982	19.9427625100854	-7.48092744397182	21.2997195276285	20.562068709381
86.24196	31.106321234759	-0.647328556788675	31.113056021877	1.19216417052681
73.61024	509.809024258026	1069.20728088559	1184.52921057848	-64.507713871953
62.69291	5873.06218428287	4671.16361499104	7504.17410102336	-38.4971259280872
53.57697	10759.1936868418	-8229.86741216913	13545.8837442546	37.4129121627832
45.65746	12522.2848409937	-8739.9510515092	15270.7027350335	34.9131832462967
38.96512	17566.6275041073	28760.8418789412	33701.2229370614	-58.5841324112135
33.18414	-35746.9000499503	27231.153487877	44937.4741553356	-142.700696567944
28.30617	35541.3689306675	-7861.65322156619	36400.4738546352	12.4728328337619
24.17237	19328.2616129443	-25525.5779286372	32017.7579722464	52.8665751144471
20.61345	42091.2684651284	11246.6809162746	43567.9092066168	-14.9598077097288
17.55618	55392.2536922269	-13693.991496555	57059.856047941	13.8861535565891
14.98558	163952.88295239	-55953.0118726051	173237.661511624	18.8434875324641
12.76553	99671.7867158809	15269.2124333046	100834.586900872	-8.70970906070013
10.8809	73226.8975571811	-63921.219353268	97201.3416031821	41.1183562746092
9.278505	199108.909219834	-110677.794862364	227802.396840568	29.0681772175814
7.923394	-19442.7385460318	-279068.737168789	279745.205762586	93.9853611074026
6.75822	-11562.3303688472	126108.887898319	126637.826459984	-95.2385343969128
5.761429	34245.8854746106	-63569.3519668623	72206.9469055918	61.6879020832167
4.919708	-27996.4701252295	-196026.231387233	198015.367412113	98.128017853537
4.191257	157884.918067089	52836.260524061	166491.194299331	-18.502841204947
3.564097	115993.802631977	42961.2279740356	123694.095890076	-20.3233802215075
3.051758	173419.69093199	142055.700578871	224174.510749774	-39.3224143361937
2.604164	1033493.2922416	844572.94363632	1334695.41178162	-39.2557678854641
2.214424	625016.032718661	-687654.167867095	929254.161002447	47.7319737263366
1.892567	762737.308338477	-23317.2364080032	763093.634520124	1.75101345291033
1.607507	466732.745390672	243706.829829429	526528.702470648	-27.5715369721863
1.376413	559433.266567492	-13186.6891407169	559588.660100317	1.35029823015174
1.17375	109023.698419901	107987.664544148	153451.955057122	-44.7264663161983
1.001604	28280.1890695403	-118595.116283653	121920.345718597	76.5877268413732
