EC-Lab ASCII FILE
freq/Hz	Re(Z)/Ohm	-Im(Z)/Ohm	|Z|/Ohm	Phase(Z)/deg
6999984	-0.0724229876085767	-0.00261529098889695	0.0724701930527901	177.931871390539
5969734	-0.0445444573170588	0.0104205637991761	0.0457470963839671	-166.833220532618
5091109	-0.0287687252752014	0.0143441105491186	0.0321464315501013	-153.499117541216
4341796	-0.0202875173875275	0.0145065362483972	0.0249403880417946	-144.433435531979
3702781	-0.0160796033490477	0.0139411465444133	0.0212816637233914	-139.074446682561
3157797	-0.0123776443585491	0.0129357557688442	0.0179036269280252	-133.736943750461
2693047	-0.0099645754456821	0.0112660353201049	0.0150404892090165	-131.492095109139
2296687	-0.00866908465862976	0.00981591052341319	0.0130959966486764	-131.449868119637
1958656	-0.00761257812765315	0.00888379678882874	0.0116992816503761	-130.593468103255
1670375	-0.00658355769098157	0.00849821929615597	0.0107500215383989	-127.764890060254
1424531	-0.00569418776489546	0.0073452361505636	0.0092938833869073	-127.783625780154
1214875	-0.0047942598967141	0.00701204264084672	0.00849433163670302	-124.36111968672
1036062	-0.00427287223925948	0.0064049767266318	0.00769942621509742	-123.707947800271
883578.1	-0.00384456333270337	0.00547631008642678	0.00669108656212628	-125.070212253974
753531.2	-0.00330625868131156	0.00556114353017787	0.00646974990482532	-120.732692561715
642624.9	-0.00274589109306242	0.00462779503715319	0.00538111557215223	-120.6826733462
548046.8	-0.0017214773021289	0.00495890077050256	0.0052492076500588	-109.144391972076
467390.6	-0.00153396220988582	0.00355087810174923	0.00386804541788744	-113.364111541656
398593.7	-0.00151000936426918	0.00378377378072156	0.0040739504542712	-111.755704419165
339937.5	-0.0010655013255782	0.00342510791385405	0.00358701230780639	-107.280159194059
289906.2	-0.000883215258633782	0.00319978069741953	0.00331943755848219	-105.430766022936
247234.4	-0.000356682472003375	0.00276606653176043	0.00278896870616355	-97.3477066323484
210843.7	-0.0004473353231166	0.00251418876593104	0.00255367461553771	-100.088736724254
179812.5	-0.000163007909421675	0.00215885418647836	0.00216499953279652	-94.3180204032556
153343.8	0.000313008722897645	0.00208054968792258	0.0021039632754696	-81.4442890002406
130781.2	0.00145965863588457	0.00200741530469368	0.00248199910129532	-53.9778496764151
111531.3	1.80591705492916E-06	0.00122740628257551	0.00122740761112283	-89.9156991843679
95109.37	0.000209332550428759	0.0016636383812371	0.00167675662521256	-82.8282685543792
81109.37	-0.000112677729072736	0.00106235870653996	0.0010683175052344	-96.0543690013996
69171.88	0.00027215797585935	0.000466885928401727	0.000540418757967746	-59.7611596097507
59000	0.00359120416091804	0.00229626490332374	0.00426257901177579	-32.5954028072319
50312.5	0.000212872007938461	0.000563296318871271	0.000602177079120152	-69.2982139970418
42906.25	0.000205674197066961	0.000546096841016726	0.00058354403013619	-69.362327974317
36593.75	0.000232781177231321	0.000365770639822073	0.000433561111527601	-57.5267960960791
31203.13	0.000379143253744322	-2.53259251748361E-06	0.000379151712227033	0.382717357906387
26609.38	0.00074469286862605	-0.000890808381957405	0.00116108011866023	50.1052451278598
22703.13	0.000937731547616803	-0.000237489355787193	0.000967337402103331	14.211874333543
19359.37	0.000533309839511323	6.86468449349697E-05	0.000537709749064603	-7.33469629605543
16500	0.00311195692168479	0.00870785998884301	0.0092472212835919	-70.3344654653154
14112.02	1.65724551382338E-05	0.000104419649464767	0.000105726578794803	-80.9817974680111
12011.13	0.000428841191517712	-0.000787139940138172	0.000896378297875989	61.4180389617101
10236.38	6.85852928671917E-05	0.000131697167416557	0.000148485980157129	-62.4903867710769
8750.684	7.45657971923902E-05	6.42287911686388E-05	9.84144081215818E-05	-40.7406453073251
7449.463	0.000180141012295537	7.65238311165999E-05	0.000195720926422349	-23.0157661966067
6363.206	0.000254527501413895	0.000506787989256898	0.000567114022953982	-63.3325201383602
5414.761	0.00125451001324488	0.00056946274665429	0.00137770940083848	-24.414837459069
4620.567	0.000349504979027828	0.0010580294642878	0.00111426212251264	-71.7197628223827
3941.215	0.000949624503239117	0.000221514232603186	0.00097511807100367	-13.1303133628304
3361.769	0.000636822523283452	-0.000231224852804296	0.000677501187242849	19.9555298578776
2867.244	3.96184316778437E-05	-9.85760292783726E-06	4.08263697148654E-05	13.9722461948854
2442.658	0.000180009693388653	0.000906913998575816	0.000924606127238324	-78.7735035340178
2083.003	0.000507863153644167	-0.000325639752385612	0.000603296138859815	32.6678246725365
1777.843	5.65283670418305E-05	-0.000404887478139052	0.000408814537699208	82.0520253335359
1513.548	0.000338407150301625	2.29472592512308E-05	0.000339184280417607	-3.87926632883937
1292.065	0.000308992241030792	-0.000116764633594801	0.000330318308114702	20.7010052451223
1101.762	0.000260771696271899	0.000595928060817195	0.00065048607306065	-66.3663316635779
939.101	0.00049888165917578	-0.000560986843098152	0.000750725747521164	48.3535298016504
801.2801	0.00910191892844458	-0.00665752002825953	0.0112768568806496	36.183281709075
684.3433	0.000185170897362966	0.000288070249475883	0.000342451061997629	-57.2671831895273
582.9476	0.000272228998559348	0.000281295452963454	0.000391453393796171	-45.938392374037
497.0677	0.000442039826490425	0.000848761427740515	0.000956971874938758	-62.4892408554866
423.5089	0.00103079868990831	-0.00117925197423999	0.00156626343820751	48.8428930544716
361.5036	0.000205480731759223	-0.000563442852372874	0.00059974176027219	69.9637044760863
308.1262	0.00211323382534589	0.000521381466298858	0.00217660190066672	-13.8593448613549
262.7298	0.00130388396264529	0.00164542305076129	0.00209941191861439	-51.6056095989232
224.2111	0.00251488526997233	-0.000776295745932076	0.00263197321534168	17.1544308707302
191.2854	0.00376444393285009	0.00094480572777369	0.00388119775157178	-14.0891582329819
163.1722	0.00230048135159998	0.00190740475320371	0.00298837871455466	-39.6632440102052
139.1537	0.00507168293742345	-0.00391106573984293	0.00640456111213917	37.6378783114634
118.6706	0.00426643462863353	-0.00152452122038306	0.0045306323390672	19.6632870048932
101.1982	0.00105419047215752	-0.00847246088618563	0.00853779310006591	82.9073940258867
86.24196	0.00452586564456735	-0.00775080909288403	0.0089754387874359	59.718416958234
73.61024	0.0110257794363771	0.00446468376813634	0.0118954282532869	-22.0445683563923
62.69291	0.0142331650253831	0.000148895866221508	0.0142339438181681	-0.599360263288247
53.57697	0.0105047257585312	0.0178303089575291	0.0206946655151247	-59.4955363759281
45.65746	0.0174159051396349	0.000858205777683964	0.0174370372767168	-2.82108948461949
38.96512	0.0147287567113793	0.00393273947114663	0.0152447602149366	-14.9498325145156
33.18414	0.0307044064205546	0.0215529722659114	0.0375138799264184	-35.0669536593539
28.30617	0.018104234686826	-0.0109532409784121	0.0211597920955486	31.1743528837485
24.17237	0.0148495670552979	0.0260617574695945	0.0299954137183295	-60.3262105873088
20.61345	0.0520533592674405	0.0165808992858078	0.0546303801208754	-17.6685802777688
17.55618	0.0545286983339273	0.00795898514629319	0.0551064822552789	-8.30422682908605
14.98558	0.0512549377805214	0.0114086811802456	0.0525093006348172	-12.548721093727
12.76553	0.0359942616564482	0.0504395631800022	0.0619656066377333	-54.4879024352186
10.8809	0.0563813157940589	0.042307097619864	0.0704893132303479	-36.8836252107973
9.278505	0.0437432316404392	0.0531505614593299	0.068836418397467	-50.5454142243911
7.923394	0.0738153297985283	0.0188444683774502	0.0761827861245191	-14.3212634357894
6.75822	0.164670479034941	0.215754480504383	0.271415479520445	-52.6480089043385
5.761429	0.109616877140159	0.214968642065909	0.241303495261924	-62.9820418550787
4.919708	0.099688811913349	0.103716298926806	0.143857324748411	-46.1343267512379
4.191257	0.197030131017475	-0.0273597081469907	0.198920652921339	7.90556852481197
3.564097	0.378910912089079	-0.0376329420236232	0.380775153634702	5.67194183486484
3.051758	0.237856093404826	-0.366637810385037	0.43703410069895	57.0265294564165
2.604164	0.0624446055173822	-0.279634514104365	0.286521884393855	77.4119266296689
2.214424	0.158298311830636	-0.154710304876732	0.221345056333953	44.343249224503
1.892567	0.443938907209194	0.0270230028320103	0.444760605288005	-3.48335306536176
1.607507	0.111398072236755	0.391410632808019	0.40695431435634	-74.1132940115418
1.376413	0.351422479354715	0.406645196471951	0.537455184000979	-49.16644805096
1.17375	0.132617604511532	-0.309600503561146	0.33680840374268	66.8120928281897
1.001604	0.314910832209185	0.0852697998283865	0.326251085830307	-15.1509235118727
