EC-Lab ASCII FILE
freq/Hz	Re(Z)/Ohm	-Im(Z)/Ohm	|Z|/Ohm	Phase(Z)/deg
6999984	4.75294878288377	0.762205504703659	4.81367628368557	-9.11065346657678
5969734	6.14362241007385	3.05631258756265	6.86186147852429	-26.4493017275975
5091109	1.05167665106832	0.958404225831903	1.42287119532821	-42.3432483673517
4341796	4.4608506380734	-6.8929764351994	8.21050014015066	57.090717918205
3702781	5.66944081639764	-1.00829698214535	5.75840446433203	10.0844811830709
3157797	1.48672085661844	-0.365601004143824	1.53101371637724	13.8155307787612
2693047	5.17758377804987	-6.84912328388913	8.58591075755143	52.91260081413
2296687	0.20642947648043	-12.0402099185687	12.0419794058933	89.0177597278389
1958656	13.4964432709239	-6.96474196428465	15.1875479124951	27.2956692529868
1670375	10.3547792688244	-5.71232577444211	11.8259088217114	28.8837993991083
1424531	4.98169293367204	-13.5536110785736	14.4401398107716	69.8188607454772
1214875	22.3923110824916	-20.0561584176513	30.0610227053073	41.8499030578543
1036062	13.4456572803768	7.33581945955499	15.316655863619	-28.6164515623223
883578.1	3.79922696728611	3.40554080497614	5.10214011208156	-41.8723286259557
753531.2	4.78921483661495	-8.31678484063285	9.59716045695981	60.0645407622725
642624.9	21.0815637753861	-0.226301359496281	21.0827783634174	0.615021491660353
548046.8	23.4267520868936	-0.607153721889567	23.4346186011801	1.48460870465513
467390.6	3.69618281695699	-5.71661201995752	6.8074532979001	57.1145529624824
398593.7	7.81387386378136	-4.70192439725321	9.1194691619946	31.0370263594115
339937.5	5.47391122160173	-0.660803095023835	5.51365258176197	6.88336025209702
289906.2	6.10191479636882	9.96901621943775	11.6882269213751	-58.5297014206761
247234.4	5.20447182963073	-6.41472228812518	8.26045937337566	50.9464617626708
210843.7	33.3163536479923	-50.438619522979	60.4486042831588	56.5539366782587
179812.5	6.55371061295153	0.0872700427434928	6.55429163668157	-0.762912784781726
153343.8	2.17246232657533	-3.74347204640994	4.32818385961615	59.871969647329
130781.2	4.53885754533608	14.637922419096	15.3254690161289	-72.7726300667151
111531.3	184.346756610921	164.685248113085	247.194169872662	-41.7758482628336
95109.37	-46.221499943072	628.64379699092	630.340741624836	-94.2051477176148
81109.37	24.8617372731131	590.200592301355	590.724000810114	-87.5878862543104
69171.88	184.070743197768	100.461577074765	209.701137263792	-28.6246964249943
59000	303.650809824929	151.792229094962	339.477090715932	-26.5600430102403
50312.5	34.1118350469266	-294.048366517931	296.02036947165	83.3828344042863
42906.25	3.46284295662972	2.87656805444328	4.50176910937507	-39.7162597949886
36593.75	3.6435377118006	-1.61211840484841	3.98425561536457	23.8674564999128
31203.13	8.03161786198939	-4.10333091234693	9.01910250841229	27.0623608388095
26609.38	3.87998160786113	1.14614282770996	4.04572622144055	-16.4570896678544
22703.13	1.85765930234739	4.26240135728418	4.64961970640351	-66.4512440088163
19359.37	1.47455612258827	-4.3017425327142	4.54745033798336	71.079253303206
16500	0.45443391144562	-6.17996311244716	6.19664863059698	85.7944137639919
14112.02	3.52834983006773	8.57432182663879	9.27190634713883	-67.6327402781556
12011.13	7.17384477105692	-3.4064066249538	7.94151464732956	25.4000956835759
10236.38	5.14692699429851	0.0102975374873889	5.14693729551051	-0.114632410916957
8750.684	3.00320221042201	3.00256521832184	4.24671889898069	-44.9939230149654
7449.463	8.51802586713572	0.391536439710761	8.5270197288862	-2.63178422910826
6363.206	6.08781575645822	-10.0832467786391	11.7785129062848	58.8782889432337
5414.761	5.35381464058926	-8.96139536098894	10.4388667019817	59.1445997264105
4620.567	8.14893132184025	3.41946387363692	8.83729680791457	-22.7639512456467
3941.215	-1.15199611974863	-7.32427084744385	7.41431308393648	98.9385239505291
3361.769	6.07617855459082	-4.76159324305821	7.71963185907248	38.0840004394861
2867.244	5.36067892859801	2.25652878717265	5.81625315326401	-22.8282141919486
2442.658	2.17418653937191	4.11658661654642	4.65546694537885	-62.1591025739323
2083.003	7.83425952797116	0.155956283203448	7.83581168187939	-1.14043410303563
1777.843	8.84922576817418	-9.20776437943383	12.7707369232667	46.1375123965788
1513.548	3.85803321386142	-18.232922628287	18.6366275878539	78.0526080361842
1292.065	-0.687572433238696	-25.5497072051827	25.5589572189773	91.5415242238311
1101.762	8.33389737622295	-1.37979662957563	8.44734776225083	9.40086231938849
939.101	8.83252497939979	-11.6703599939001	14.6359420571054	52.8803261015302
801.2801	5.72483034835215	-8.68381503801633	10.4010733163406	56.6050158656947
684.3433	9.21063678490873	0.252227136634433	9.21408967353632	-1.56861463066162
582.9476	4.20073414057916	-7.91579525960466	8.96136049446773	62.0461152967325
497.0677	25.3574066201775	13.3159153038645	28.6410836191774	-27.7052767807258
423.5089	53.4754037472954	75.3807639136992	92.4222828875651	-54.6479639248663
361.5036	14.670631137853	18.1087430683248	23.3056644079834	-50.9876574281407
308.1262	93.5006115442192	-1.80009042164556	93.5179377695481	1.10293229647093
262.7298	23.7691243896816	5.3219743399952	24.3576412061539	-12.6205356237687
224.2111	74.91060343155	-9.59941151948115	75.5231567666454	7.3023642876762
191.2854	381.510994708451	-144.023997555863	407.791062868478	20.6819945054799
163.1722	219.764285088524	-228.061765776454	316.715187525866	46.061475167587
139.1537	40.7928863036151	-17.4378847666901	44.3637171359212	23.1454322752228
118.6706	128.336268552187	-16.2460718813457	129.360475716012	7.21469028586528
101.1982	-26.5544122615986	179.443650620149	181.397796454216	-98.4176480189757
86.24196	314.907856775164	124.349974923164	338.570339105656	-21.5479399987288
73.61024	273.403020006168	-342.573840036283	438.299038586326	51.4071599370017
62.69291	3011.16526224796	3094.49893296175	4317.75866424586	-45.7819577072324
53.57697	336.993558555009	-1316.85998473433	1359.29572864115	75.6456696346191
45.65746	595.166206157833	-270.450317936795	653.732504488206	24.4375896131136
38.96512	192.116368979502	237.183904049969	305.229263948025	-50.9929057215441
33.18414	399.440962492817	-332.682143267674	519.836984992758	39.789879142085
28.30617	182.334050061096	-79.2946360229977	198.829940184324	23.5035767338032
24.17237	145.476352200675	-56.7435921974701	156.151222553932	21.30845509952
20.61345	101.940155752434	-90.4025455137173	136.251295737656	41.5672457887824
17.55618	108.693101297367	121.177449154699	162.78256802643	-48.108699206213
14.98558	77.0227938444093	-47.2452387683289	90.3583054172376	31.5246592796915
12.76553	31.8046833485162	110.475407700471	114.96240076427	-73.9394586164991
10.8809	144.994685174803	-0.814270582949752	144.996971573625	0.321761982364245
9.278505	72.0954669959936	-10.1487495146474	72.8062736176043	8.0127746578589
7.923394	208.434683613618	8.6674924653783	208.614819125455	-2.38120056445
6.75822	128.362934424597	20.9729714031872	130.065016294053	-9.27945256260027
5.761429	83.8132563772586	-21.9824153421393	86.6480728512435	14.6964304704631
4.919708	199.513043297916	-14.0728644381074	200.00874970733	4.03473613471694
4.191257	113.713442315067	50.7044099641038	124.505759517181	-24.0319183054271
3.564097	323.998070921362	-31.2474884797931	325.50139092953	5.50876460072717
3.051758	128.155756305471	-301.867698321229	327.945125232841	66.9966998297808
2.604164	146.720558492646	-46.420732249194	153.888942640286	17.5567847527829
2.214424	149.159035038823	173.858767966949	229.07485443125	-49.3726441022716
1.892567	186.208369155072	13.0195635623338	186.662973775587	-3.99957314187196
1.607507	132.352411705926	-50.188614616297	141.54878283291	20.7669469577639
1.376413	133.909871044449	12.3041165309494	134.473956016576	-5.24979970944174
1.17375	219.521052296089	152.266780745129	267.160373034002	-34.74640669129
1.001604	140.983365334368	288.448857696003	321.059266813984	-63.9522885853532
