EC-Lab ASCII FILE
freq/Hz	Re(Z)/Ohm	-Im(Z)/Ohm	|Z|/Ohm	Phase(Z)/deg
6999984	9.11145778132793	-1.52117903852664	9.23756724295819	9.47824599919887
5969734	5.21998894124489	-1.61377841325605	5.46375011451019	17.1791826474799
5091109	2.81698272934884	0.741509095538414	2.9129413719153	-14.7473263114046
4341796	2.09225334980826	0.0607505130041095	2.0931351376856	-1.66316870967647
3702781	1.4360245933352	-0.175030220541543	1.44665206969968	6.94923320980322
3157797	1.18798427869008	-0.216726824773883	1.2075914718941	10.3389088215767
2693047	1.0113561090784	-0.194935128108674	1.02997130228999	10.9097581320214
2296687	0.893634117322029	-0.151031073217411	0.906306968261375	9.59278026244552
1958656	0.840151203313562	-0.113783296723964	0.847821138591507	7.7127510380166
1670375	0.801585897140732	-0.0782978996385692	0.805400839075005	5.5788814568219
1424531	0.773683518674655	-0.055522015348599	0.77567317941074	4.10469256262902
1214875	0.755599392117871	-0.0449275949721069	0.756933900785844	3.40277457288574
1036062	0.746068370295171	-0.0375765421252625	0.747014062567087	2.88332759807337
883578.1	0.735947245351927	-0.0295258829378628	0.73653928999365	2.29744960466235
753531.2	0.726368819520505	-0.0197723841917231	0.726637880342221	1.55925536507815
642624.9	0.72037164363746	-0.0130896782375298	0.720490558323492	1.04099154811272
548046.8	0.71678042942106	-0.00992897575633232	0.716849195131451	0.793621030769557
467390.6	0.71471154218951	-0.00715507332603533	0.714747356492634	0.573576589549565
398593.7	0.713753337874959	-0.00576724819549371	0.713776637667131	0.462949554691028
339937.5	0.712604735597939	-0.00431985070781369	0.712617829068812	0.347326041380053
289906.2	0.713516028681478	-0.00419991159031354	0.71352838937407	0.337251609876709
247234.4	0.713300805007364	-0.00444514344088981	0.71331465548127	0.357050854036809
210843.7	0.713357514900763	-0.00480559203842738	0.713373701351705	0.385971930070068
179812.5	0.712457461885588	-0.00494252921610674	0.712474605576582	0.397471479497241
153343.8	0.711129472063077	-0.00478096062561756	0.711145543205619	0.385196718173256
130781.2	0.7101760458195	-0.00453564785542177	0.710190529475921	0.365923277381748
111531.3	0.709450071734775	-0.00447986357366805	0.709464215772801	0.361792710045091
95109.37	0.708685750633355	-0.00419740697937804	0.708698180734304	0.339347718674416
81109.37	0.707966364237105	-0.0038517948500217	0.707976842287	0.311723016948419
69171.88	0.707365580652111	-0.00368012527160741	0.707375153658448	0.298083126381755
59000	0.706880405861643	-0.00327456843948096	0.706887990412616	0.265416338762828
50312.5	0.706518099945447	-0.00277499834572348	0.70652354961908	0.225040060235738
42906.25	0.70627769068829	-0.00226819741303467	0.706281332815394	0.184003677032878
36593.75	0.705954800075573	-0.00179460450343642	0.705957081099882	0.145651028142411
31203.13	0.705801429727947	-0.00152954890760429	0.705803087075903	0.124166027557478
26609.38	0.705811402836231	-0.00100307513761879	0.70581211560399	0.0814267564917096
22703.13	0.705925542451503	-0.000963488016366753	0.705926199963287	0.078200545738887
19359.37	0.70560707402753	-0.00063973410138726	0.705607364032868	0.0519468346138134
16500	0.706011119331137	-0.000587525786066648	0.706011363793639	0.0476801840712347
14112.02	0.705874594533708	-0.000156588822646392	0.705874611902274	0.0127103009215318
12011.13	0.705989274038786	-0.000127806086862537	0.705989285607231	0.0103723237201887
10236.38	0.705951799766787	-7.66156078210716E-05	0.70595180392426	0.00621820208857375
8750.684	0.705954259758541	-0.000138325385381585	0.705954273310349	0.0112265923335729
7449.463	0.705904140894448	-1.36618075600447E-05	0.705904141026651	0.00110888131725778
6363.206	0.705948493363866	-3.9426905718543E-05	0.705948494464853	0.00319994350270487
5414.761	0.705962226537591	-7.21395975245099E-05	0.705962230223426	0.00585483798447973
4620.567	0.705973647255889	-5.94559570351509E-05	0.705973649759531	0.00482535773142898
3941.215	0.70582093661366	-8.25501350031689E-05	0.705820941441035	0.00670109664788796
3361.769	0.705926865494323	-3.12628536472024E-06	0.705926865501246	0.000253741521546124
2867.244	0.705766439199689	-4.54323100482723E-07	0.705766439199835	3.68830178755344E-05
2442.658	0.705783550617226	-5.17436106454272E-05	0.705783552513984	0.00420056616344606
2083.003	0.705857590554576	-1.44623867606555E-05	0.705857590702737	0.0011739389560215
1777.843	0.705812348007802	4.98105184431987E-06	0.705812348025378	-0.000404347202221929
1513.548	0.705782508859059	6.19239739951654E-06	0.705782508886225	-0.000502701939475
1292.065	0.705690897484106	-0.000103187605716425	0.70569090502826	0.00837790920153987
1101.762	0.705801348116474	-4.83394239243402E-05	0.705801349771826	0.00392411402729544
939.101	0.705715986043948	2.54528961650068E-05	0.70571598650295	-0.00206647370166905
801.2801	0.705830778939385	-0.000105109638219665	0.705830786765649	0.00853226976112607
684.3433	0.705720255761001	-3.30119845463949E-05	0.705720256533114	0.0026801659312447
582.9476	0.705642023158489	1.5048902834852E-05	0.705642023318959	-0.00122192073361693
497.0677	0.705662862249516	-1.98947530754533E-06	0.705662862252321	0.000161533991181233
423.5089	0.705553294076169	-1.48829976317137E-05	0.705553294233141	0.00120860175671132
361.5036	0.705543421522212	-1.00424157898225E-05	0.705543421593682	0.000815524634319613
308.1262	0.705537351134827	6.19918278557861E-05	0.705537353858274	-0.00503427647818312
262.7298	0.705558073910577	7.41379260051583E-05	0.705558077805672	-0.00602046862389615
224.2111	0.705568793302553	5.90601933806751E-05	0.705568795774393	-0.00479598848780837
191.2854	0.705548095766294	-3.62857177149276E-05	0.705548096699365	0.00294667152007185
163.1722	0.7054519119921	2.64640972942739E-05	0.705451912488482	-0.00214937553800433
139.1537	0.705582016119035	3.74970979089221E-05	0.705582017115399	-0.00304489825855349
118.6706	0.705485251165459	6.70532480255263E-05	0.705485254352016	-0.00544571002241523
101.1982	0.705555137063288	1.76544218099362E-05	0.705555137284163	-0.00143365671384973
86.24196	0.705526290910841	2.28871529457066E-05	0.705526291282068	-0.00185866534712187
73.61024	0.705510147948696	3.60467076266257E-05	0.705510148869565	-0.00292741956519766
62.69291	0.705492075853998	-1.53905212848192E-05	0.705492076021872	0.00124992461881174
53.57697	0.705446811528603	-1.56439250048097E-05	0.705446811702062	0.00127058604986196
45.65746	0.705401784731681	8.52004736393841E-05	0.705401789877061	-0.00692035040735067
38.96512	0.705258959825705	-1.31059965141001E-05	0.705258959947481	0.00106474122167869
33.18414	0.705325721076783	-2.77457999399701E-05	0.705325721622509	0.00225387673730044
28.30617	0.705309763298181	-7.81938847873511E-06	0.705309763341526	0.000635207367740607
24.17237	0.7050926097846	4.63954815917218E-05	0.705092611311024	-0.00377009380463955
20.61345	0.705109873052097	1.85258664291679E-05	0.705109873295469	-0.00150537384106626
17.55618	0.705122876112619	1.24404688008103E-06	0.705122876113717	-0.000101086829203372
14.98558	0.70508449817346	1.45327010684156E-05	0.705084498323229	-0.0011809399273202
12.76553	0.705133546527933	-1.08309358915464E-05	0.705133546611115	0.000880070048814486
10.8809	0.705015192166491	-5.59903467373406E-05	0.70501519438979	0.00455027152666195
9.278505	0.705078316874685	6.99101579528944E-06	0.705078316909344	-0.000568101003788838
7.923394	0.704994741690101	4.49288144024685E-05	0.704994743121742	-0.00365141934836528
6.75822	0.704988652582141	1.52954972554249E-06	0.7049886525838	-0.000124309438893599
5.761429	0.704938305355628	3.20321146420838E-05	0.704938306083392	-0.00260349730276266
4.919708	0.70490956294861	3.6906752646346E-05	0.704909563914768	-0.00299981908514819
4.191257	0.70497291644326	5.52810717323734E-05	0.704972918610717	-0.00449289897080432
3.564097	0.704944699913758	-4.46861202535697E-06	0.704944699927921	0.000363195310727571
3.051758	0.704818511236265	8.05760503995092E-06	0.704818511282323	-0.000655015091676074
2.604164	0.704737789331707	3.55535775171403E-05	0.704737790228535	-0.00289053598009391
2.214424	0.704713947555117	8.48149314393795E-05	0.704713952659013	-0.00689575905878366
1.892567	0.704710923617314	2.0834010327909E-05	0.704710923925281	-0.00169388726890461
1.607507	0.704783493757727	8.44525850589949E-06	0.704783493808326	-0.000686562147875977
1.376413	0.704849457706856	1.41833543601043E-05	0.704849457849559	-0.00115293604212538
1.17375	0.70482864601134	-1.51239804926584E-07	0.704828646011356	1.22943392918448E-05
1.001604	0.704791742320808	2.01642538554008E-05	0.70479174260926	-0.00163924542989857
