EC-Lab ASCII FILE
freq/Hz	Re(Z)/Ohm	-Im(Z)/Ohm	|Z|/Ohm	Phase(Z)/deg
6999984	11.5951356263489	-0.614421750747714	11.6114032003551	3.03324429700053
5969734	7.97889014983115	-0.831622028106409	8.02211214211721	5.95032713061624
5091109	5.68360320885542	-0.702680340567626	5.72687568371549	7.04787935339089
4341796	4.56152455661427	-0.598077717434285	4.600565534441	7.46964504554259
3702781	3.90361823029432	-0.376571786061123	3.92173961373564	5.51012308365943
3157797	3.65125517253984	-0.237817866864372	3.65899189296708	3.72659255700204
2693047	3.46654841239097	-0.162437922073303	3.47035213976591	2.68284279006355
2296687	3.34815627922802	-0.0792812071983502	3.34909480008387	1.3564569534916
1958656	3.18748225536721	0.700999127769238	3.2636548385842	-12.4031840841858
1670375	3.17951776833508	0.56955058173561	3.23012710343012	-10.1557456736293
1424531	3.17723867981256	0.458403641810362	3.21013699510193	-8.20983203233825
1214875	3.17776253296377	0.358948179938661	3.19797099921022	-6.44460063174174
1036062	3.17740888108535	0.270421094513456	3.18889554014519	-4.86457382771671
883578.1	3.16210560011835	0.210498879022309	3.16910422743864	-3.80851578142323
753531.2	3.13665416985899	0.183225159685902	3.14200108854783	-3.34308841345138
642624.9	3.12247086461143	0.156169728242516	3.12637382351608	-2.86325058397419
548046.8	3.11622000879548	0.131961276215039	3.11901281203486	-2.42483187350701
467390.6	3.11271222178827	0.111937021814942	3.11472426910038	-2.05954033939017
398593.7	3.10703379226739	0.0955422112831877	3.10850242084968	-1.76130721265765
339937.5	3.10084356405008	0.083859524391419	3.10197730948212	-1.54913521154276
289906.2	3.09935792530793	0.0709484163572965	3.10016987066075	-1.31134741332315
247234.4	3.09601348492257	0.0615673882873164	3.09662558959312	-1.13923490237042
210843.7	3.09343333956803	0.0539303165333084	3.09390340918917	-0.998782320303232
179812.5	3.09243590471363	0.0476556733865269	3.09280307940353	-0.882880979757398
153343.8	3.09122248248359	0.0424469451179929	3.0915138976498	-0.786704284266738
130781.2	3.09092477524544	0.0382134424670624	3.09116098471291	-0.70831792831489
111531.3	3.09019565049735	0.0355645614008604	3.09040029711045	-0.659378738243791
95109.37	3.09091644401299	0.0333268415755183	3.09109610692377	-0.617749916680766
81109.37	3.09137390683236	0.0324001759471778	3.09154369259847	-0.600485552397884
69171.88	3.09265545189273	0.0302929351181717	3.09280380982045	-0.561201159540975
59000	3.09294311842241	0.0302016472381876	3.09309056984959	-0.559458050040848
50312.5	3.09544443701366	0.0302695484248679	3.09559243250798	-0.56026271196833
42906.25	3.09712082757954	0.0304924184620827	3.09727092909397	-0.564082105926452
36593.75	3.09899869624486	0.0312102032640911	3.0991558521822	-0.577009752657988
31203.13	3.10283366575424	0.0316839495563177	3.10299542861367	-0.585043766861313
26609.38	3.1053195734912	0.0326203771301031	3.10549090201721	-0.601851483781475
22703.13	3.10905073703381	0.0331206334320557	3.10922714863508	-0.610347301967675
19359.37	3.11112458712488	0.0338108241217073	3.11130830494838	-0.622649851744724
16500	3.11514697783585	0.0344197561625703	3.11533712672226	-0.633044452063988
14112.02	3.11902752039702	0.0351498714240697	3.11922557479499	-0.645667285248515
12011.13	3.12312736809846	0.0351046803631992	3.12332465426651	-0.643990810739962
10236.38	3.12806751382258	0.0344826792207091	3.12825757030946	-0.631582263770814
8750.684	3.13250418553205	0.0339775065369572	3.13268845296277	-0.62144893220613
7449.463	3.13606043576178	0.033113606909404	3.13623525388529	-0.604962644609036
6363.206	3.14011369476689	0.0322658351203055	3.14027946211457	-0.588714707454716
5414.761	3.14394587104376	0.0309875609681102	3.14409857812821	-0.564704051613066
4620.567	3.14792782206687	0.028595095871693	3.14805769522265	-0.520448161263587
3941.215	3.151181957501	0.027099638577379	3.15129848152962	-0.492721988712073
3361.769	3.15413415314296	0.025936689075423	3.15424079104038	-0.471137006991889
2867.244	3.15639461961498	0.0233892427759842	3.1564812768987	-0.424560465684791
2442.658	3.15953526162903	0.0219960667033466	3.15961182685906	-0.398875569869989
2083.003	3.16159503441844	0.0198511035526705	3.16165735461191	-0.359745474547309
1777.843	3.16283425594462	0.0173801927116926	3.16288200881339	-0.31484472019941
1513.548	3.16414726964738	0.0160488887525882	3.16418797021402	-0.290607746028683
1292.065	3.16562364923493	0.0142063221650006	3.16565552582478	-0.257123691410781
1101.762	3.16675560140926	0.012649887872237	3.1667808668615	-0.228871887378014
939.101	3.16755121818821	0.0113001887153853	3.16757137474605	-0.204400917243756
801.2801	3.16991846579373	0.0101521392152089	3.16993472262612	-0.183497698003998
684.3433	3.17049635527685	0.0089909208357678	3.17050910351654	-0.162479428838978
582.9476	3.17059787345018	0.00763544221802536	3.17060706728296	-0.137979581631846
497.0677	3.1711506452699	0.0066692440701847	3.17115765830274	-0.120498524710845
423.5089	3.17147010275726	0.00615761357302756	3.1714760804534	-0.111243308262979
361.5036	3.17199880174894	0.00530422768428217	3.17200323662004	-0.0958101170933353
308.1262	3.17227813876419	0.00463925705949804	3.17228153107306	-0.0837914106079941
262.7298	3.17234351229631	0.00412683103916496	3.17234619654648	-0.07453476176564
224.2111	3.17242420543702	0.00394916893266384	3.17242666348302	-0.0713241927606244
191.2854	3.17291392808446	0.0034502089277875	3.17291580395289	-0.0623030868678486
163.1722	3.17285478482412	0.00283879644973324	3.17285605477882	-0.0512633016938002
139.1537	3.17351207324858	0.002742650099508	3.17351325839109	-0.0495168232018384
118.6706	3.17361255949369	0.00227679256719712	3.17361337619447	-0.0411047599861307
101.1982	3.17352972626283	0.00220352929484318	3.17353049126918	-0.0397831182401025
86.24196	3.17343407821675	0.00164730089971023	3.17343450576621	-0.0297417177536475
73.61024	3.17377495772406	0.00172252241196298	3.17377542516162	-0.0310964879193902
62.69291	3.17390556536079	0.0014812002611165	3.17390591098451	-0.026738828760633
53.57697	3.17391644687308	0.00121189784537212	3.1739166782428	-0.021877270409792
45.65746	3.17422106293545	0.00106840888596622	3.17422124274296	-0.0192851463192627
38.96512	3.17411695639494	0.000944224913219507	3.17411709683726	-0.0170441422247455
33.18414	3.17395553941371	0.000940700461666788	3.17395567881663	-0.0169813861574448
28.30617	3.17426495519701	0.000983513967764443	3.17426510756294	-0.0177525185947555
24.17237	3.17418048207362	0.000815320968810444	3.17418058678542	-0.0147170111144642
20.61345	3.17374981176025	0.000628139684445781	3.17374987392007	-0.0113398202530466
17.55618	3.17391434329588	0.000572629062461818	3.17391439495198	-0.0103371498411456
14.98558	3.17388946117083	0.000594815139603337	3.17388951690766	-0.0107377390131893
12.76553	3.17429819785694	0.00025852687639525	3.17429820838464	-0.00466638543454978
10.8809	3.17397668027744	0.000370140274997167	3.1739767018598	-0.00668167337863302
9.278505	3.17427905831252	0.000404210792902884	3.1742790840485	-0.0072960101857282
7.923394	3.17422657195529	0.000539102710597889	3.17422661773522	-0.00973097195305312
6.75822	3.17448423739252	0.000404785471169094	3.17448426320006	-0.00730591089642806
5.761429	3.17375325677705	0.000244408231522475	3.17375326618789	-0.00441230271663665
4.919708	3.17418137721242	0.000423780196917458	3.17418140550155	-0.00764947357912235
4.191257	3.17432410048562	0.00010693837621587	3.17432410228692	-0.00193021173291545
3.564097	3.17391444328303	0.000208400746124389	3.17391445012488	-0.00376206838480315
3.051758	3.17398770016444	0.000208632591547565	3.17398770702136	-0.00376616675191172
2.604164	3.17402550775768	0.000250199385322064	3.17402551761893	-0.00451646300604467
2.214424	3.17407093356578	0.000314640859827867	3.17407094916071	-0.00567964410650479
1.892567	3.17392573045254	7.56722929158473E-08	3.17392573045254	-1.36603795374178E-06
1.607507	3.17385512130347	0.000160875702016831	3.17385512538068	-0.00290419643984542
1.376413	3.17361399877703	0.000113648608943365	3.17361400081194	-0.00205178879337985
1.17375	3.17358162840172	0.00025249104349124	3.17358163844585	-0.00455846826087909
1.001604	3.17326765240652	7.37273515898378E-05	3.17326765326301	-0.00133120383867121
