EC-Lab ASCII FILE
freq/Hz	Re(Z)/Ohm	-Im(Z)/Ohm	|Z|/Ohm	Phase(Z)/deg
6999984	2.46547179441505	3.8403022791647	4.56360304632357	-57.2995610345302
5969734	3.44350746390075	5.59955849022317	6.57364426626286	-58.4101251288323
5091109	8.1783743598967	8.26063645836698	11.6242815635168	-45.2867101778552
4341796	10.7473355748561	10.1802769703337	14.8034881413562	-43.4478823484741
3702781	2.22691090780523	1.10438301682231	2.4857180127978	-26.3780085891493
3157797	8.70230648680433	3.1336582477965	9.24932171590219	-19.8037017717459
2693047	8.54294424756761	-14.7896553442226	17.079689740096	59.987993600843
2296687	9.09408955926892	-14.7105994989117	17.2946292972525	58.2756519343151
1958656	8.53267269649452	-19.6158130059207	21.3912744648081	66.4914656460345
1670375	-0.195541319510126	-30.4308392300812	30.4314674745515	90.3681639551827
1424531	0.993144655338672	-22.9308708519845	22.9523675104948	87.5200480513669
1214875	17.5853632907182	-20.7294704064095	27.1837441386713	49.6911685293187
1036062	-6.24149902482232	-22.9049289861342	23.7400943961204	105.242778570354
883578.1	14.31871578703	14.0631735799756	20.0698398830252	-44.4841395463257
753531.2	3.4137239577538	13.446929707411	13.8734793694947	-75.7554483481662
642624.9	11.9412203070996	-1.73922925002363	12.0672142935653	8.28681464169202
548046.8	0.561122828114928	4.94937984744115	4.98108619705464	-83.5318607267998
467390.6	0.151530562116976	3.27972897743364	3.28322763095607	-87.3546924316922
398593.7	1.71452113564959	-1.04301649406084	2.00685478584578	31.3139368617983
339937.5	-3.04859018759012	-1.69001724460429	3.48569367829858	150.997755695013
289906.2	6.50270274038254	-4.61528290700427	7.97408171775687	35.3651667325636
247234.4	-6.48747949278074	8.77559074992361	10.9132205686221	-126.474188035162
210843.7	-1.12955077614182	-9.63847995382237	9.70444129129124	96.6841069140279
179812.5	-3.3892418139001	7.2768121654098	8.02738782940907	-114.974180241753
153343.8	0.182775317646184	-4.89993067410338	4.90333839621129	87.8637654326659
130781.2	-0.0184335889113141	0.214136472673076	0.214928420942923	-94.9200844543791
111531.3	-0.183806870447339	0.133194222832697	0.22699265763379	-144.071326205456
95109.37	-0.189813238873147	0.117658700844478	0.223321820554832	-148.206649091813
81109.37	-0.186613382384474	0.100583877930993	0.211994506968013	-151.675507470874
69171.88	-0.183600607555707	0.0885508096484277	0.203839223370324	-154.251926788238
59000	-0.178926357015328	0.0700146473674067	0.192137169961356	-158.629381638817
50312.5	-0.182576062248405	0.0700021780893779	0.195535990148592	-159.022487982057
42906.25	-0.1765329649907	0.0585784847727339	0.185998189794087	-161.642738570749
36593.75	-0.176740715127301	0.0515370144403736	0.184101450947941	-163.743488326596
31203.13	-0.175565042746262	0.0449306120096397	0.181223188720587	-165.644963361297
26609.38	-0.173814281890153	0.0406805296548674	0.17851137241641	-166.827261771549
22703.13	-0.172257231973096	0.0360501999660001	0.175989121495113	-168.179671351176
19359.37	-0.171013997965051	0.0320130293145827	0.173984543985628	-169.397206665829
16500	-0.169918144405842	0.0288137973043288	0.17234387344324	-170.375646692574
14112.02	-0.168922033645727	0.0255585180319913	0.170844640814395	-171.396199117261
12011.13	-0.167965787980437	0.0229374363694864	0.169524723621935	-172.223779356548
10236.38	-0.167095763745459	0.0207618503248389	0.168380666023714	-172.917230175995
8750.684	-0.166273751052287	0.0189433644264959	0.167349369119794	-173.500386619879
7449.463	-0.165749859947922	0.0171895995072002	0.166638826219983	-174.07913128874
6363.206	-0.165039210553625	0.0161659428029091	0.1658290647832	-174.405602640406
5414.761	-0.164711953368422	0.0155540554660075	0.165444722562797	-174.605450319348
4620.567	-0.164664934206195	0.0150865563944635	0.165354603023242	-174.76519095263
3941.215	-0.164434263285262	0.01442626410813	0.165065877873909	-174.986123478433
3361.769	-0.16361267154156	0.0135211180193337	0.164170420360853	-175.275753643871
2867.244	-0.162659204370962	0.0126216761533846	0.163148164180647	-175.56297738657
2442.658	-0.161708091729624	0.0118050016729708	0.16213841307764	-175.824704507386
2083.003	-0.160838468083856	0.0110532273083103	0.161217823609832	-176.068669936553
1777.843	-0.159967226435834	0.0103711974535376	0.160303073177633	-176.290519194827
1513.548	-0.159097774955864	0.00970402936109808	0.159393444600924	-176.509618255685
1292.065	-0.158356509753591	0.00915823229345972	0.158621112718579	-176.690099961152
1101.762	-0.157607655773238	0.00859934164765797	0.157842078784805	-176.876941498144
939.101	-0.156909274504243	0.00813528076282737	0.157120028063064	-177.032041173286
801.2801	-0.156279673968165	0.00769229592024933	0.156468872022906	-177.18209881983
684.3433	-0.155643943252637	0.00729377277001876	0.155814749598524	-177.316973084804
582.9476	-0.15504304660608	0.00697709117064665	0.155199955225827	-177.42337134736
497.0677	-0.154492440004939	0.00664923086491769	0.154635462587903	-177.535556483647
423.5089	-0.153792642009407	0.00634271808746724	0.153923379669792	-177.638345112093
361.5036	-0.153333156024799	0.00615482219992752	0.153456634176689	-177.701370469557
308.1262	-0.152851733006709	0.00589484269859538	0.152965360306166	-177.791439434952
262.7298	-0.152339916105938	0.00573047630074571	0.152447657895415	-177.84575583393
224.2111	-0.151814761732507	0.00562771544060183	0.151919034557814	-177.877039329545
191.2854	-0.151424098071559	0.00517233359779398	0.151512410421167	-178.043655456369
163.1722	-0.150902802802302	0.00523414723650341	0.15099355016319	-178.013460580565
139.1537	-0.150429543632599	0.00513053022864865	0.150517008799468	-178.046634836903
118.6706	-0.149869505257046	0.00505801467450563	0.149954833594783	-178.06703213441
101.1982	-0.149369605850045	0.00531870680574612	0.149464269288293	-177.960691167634
86.24196	-0.148908663185322	0.00440535559696507	0.148973813569954	-178.305439872964
73.61024	-0.150685367089533	0.00494239081730154	0.150766399047991	-178.121405829168
62.69291	0.124417430008357	0.0805302100062693	0.148205302245022	-32.9132969807044
53.57697	-0.0401485521230728	0.142403276854127	0.147954721102005	-105.745033373565
45.65746	-0.150070858059012	0.00522512404919284	0.15016179394206	-178.00589753767
38.96512	-0.146224921655916	0.00495638521177713	0.146308897431586	-178.058666950601
33.18414	-0.147189711747608	0.00461512205866734	0.147262047371209	-178.204083639005
28.30617	-0.144497078943194	0.00317115831414245	0.144531872153407	-178.742778557987
24.17237	-0.146159171382585	0.00549022167161198	0.146262250472387	-177.848792510245
20.61345	-0.146820509048339	0.00457900273436584	0.146891896111578	-178.213652034184
17.55618	-0.146389939703071	0.00474127315880667	0.146466699687797	-178.144954394548
14.98558	-0.144197660909692	0.00429701381546508	0.14426167106878	-178.293121280369
12.76553	-0.143812453519624	0.00393218688653728	0.143866201315822	-178.433782419073
10.8809	-0.143707973507968	0.00440526013820394	0.143775477626236	-178.244190684664
9.278505	-0.143100035382323	0.00429982574327841	0.143164620726786	-178.278911927049
7.923394	-0.143108423769053	0.00441553014674484	0.143176526917437	-178.232731528762
6.75822	-0.142003172957812	0.00437702196796213	0.142070614313427	-178.234507697927
5.761429	-0.142662160868942	0.00424668748993171	0.142725353383459	-178.294954745313
4.919708	-0.141878320020017	0.00475692590918657	0.141958043223369	-178.079694501682
4.191257	-0.141528992103628	0.00416040275049484	0.141590128741078	-178.316211479512
3.564097	-0.140368227666498	0.00476363062195317	0.140449035293719	-178.056317823641
3.051758	-0.141533423646934	0.00523808649472302	0.141630320056648	-177.880477076315
2.604164	-0.140264096061017	0.00492524395898127	0.140350542114627	-177.988937986934
2.214424	-0.139603278168353	0.00480336094139972	0.139685888878168	-178.02938880727
1.892567	-0.137606927892106	0.00596274810996707	0.137736055442742	-177.518826116029
1.607507	-0.137976698333333	0.00637929132902969	0.138124091457023	-177.352840242779
1.376413	-0.137510115801549	0.00702774050112501	0.137689582337614	-177.074325458566
1.17375	-0.138551101978155	0.00662149409928672	0.138709235609846	-177.263859897196
1.001604	-0.137862956012666	0.00497137564417939	0.137952561470767	-177.934793475294
