EC-Lab ASCII FILE
freq/Hz	Re(Z)/Ohm	-Im(Z)/Ohm	|Z|/Ohm	Phase(Z)/deg
6999984	27.1629497829059	75.0335837858836	79.7989005980776	-70.0992089946347
5969734	26.6232542318738	74.3510711167246	78.9739162135146	-70.2988274904583
5091109	26.5192162102741	73.0539879013273	77.7184275233007	-70.0486741171042
4341796	28.4474999001648	77.6312760022292	82.6793521038001	-69.8749533136205
3702781	30.7536218429081	84.0004402463154	89.4531118409606	-69.8916836812383
3157797	31.6059581452925	91.3173193603087	96.6322379200367	-70.9086837675955
2693047	32.8051958922805	101.456385153691	106.628227810393	-72.0817575573464
2296687	35.1627520325441	114.954471361221	120.212102620493	-72.9919583106912
1958656	39.6615033091551	130.657074781263	136.544154159519	-73.1141129126131
1670375	42.4190306004433	149.436537353029	155.340441782379	-74.1528853951853
1424531	50.0066262515184	170.336547878412	177.525215708061	-73.639056844512
1214875	57.2458203329042	192.658562933218	200.98359589051	-73.4514131666066
1036062	65.5853159087086	220.901984068954	230.432463486475	-73.46396094232
883578.1	76.246924976025	252.203789609442	263.47740901577	-73.1787425519039
753531.2	89.9731634566084	288.126174307326	301.847415863322	-72.6579812119095
642624.9	107.025156344763	328.716030075138	345.700177204149	-71.9655044207144
548046.8	126.716766043564	373.32855804787	394.247829481205	-71.2515417122018
467390.6	166.738963242522	418.811346432772	450.782459468003	-68.2912979678789
398593.7	183.907254645829	457.060692713097	492.67266530095	-68.0816527106406
339937.5	373.957743975136	647.055324743517	747.345293393831	-59.9747582757755
289906.2	437.850371367837	705.113041889011	829.998403341191	-58.1611749668479
247234.4	510.466226340004	766.703085886535	921.091412478555	-56.344566440762
210843.7	592.392960424822	830.82086652451	1020.38852003216	-54.510322273742
179812.5	686.619226200085	895.977859878041	1128.81454950724	-52.5357893905842
153343.8	792.817435289765	958.655436347778	1244.0175767804	-50.408918488857
130781.2	912.257747222008	1017.86384569035	1366.84344594768	-48.1318008645127
111531.3	1045.19227861109	1068.92238693518	1494.99898613994	-45.6430956560045
95109.37	1189.79434021436	1109.89077952457	1627.10421131524	-43.0100337310131
81109.37	1346.0195086607	1134.55505596876	1760.39305063371	-40.1274200383525
69171.88	1501.12849427045	1142.07383699727	1886.19177324691	-37.2642468036806
59000	1656.37180624599	1136.360055034	2008.70150475462	-34.4522157818022
50312.5	1797.3002557602	1121.14833821333	2118.31579459584	-31.955741265592
42906.25	2001.80223047309	1079.18168136007	2274.16913867684	-28.3293309520264
36593.75	2116.42768537684	1007.6123859245	2344.04540649238	-25.4587035364399
31203.13	2223.34409848469	949.168035004444	2417.47366871718	-23.1181251067069
26609.38	2333.94855253359	873.423373404779	2492.02412409741	-20.5171373590869
22703.13	2417.51555071054	801.206384444451	2546.82412200015	-18.3360875682521
19359.37	2494.91357896866	736.467492285438	2601.34160265726	-16.4459456387391
16500	2557.88178265831	672.458621422838	2644.79863346553	-14.7295646197555
14112.02	2605.1090784109	615.776880875622	2676.89642635642	-13.2990666222303
12011.13	2651.24583051327	558.863290480461	2709.50782085246	-11.9032726783562
10236.38	2664.44825526333	415.108385143247	2696.59034270912	-8.85522315192951
8750.684	2768.04699311267	603.498217123272	2833.07152295014	-12.2993354838184
7449.463	2976.97631843211	472.963598995029	3014.31295098567	-9.02735113274271
6363.206	2644.85667009355	245.521594064702	2656.22808856664	-5.30355804752768
5414.761	2608.19064220747	197.55328386034	2615.66162300528	-4.33150764611408
4620.567	3170.07894731198	451.523305034757	3202.07336380354	-8.1062756404463
3941.215	2613.42592055677	641.734874690451	2691.06274390472	-13.7961934531756
3361.769	2857.5079773733	621.870493189014	2924.39305686688	-12.2776604904286
2867.244	2661.31987845414	500.840862482815	2708.03712400471	-10.657989017685
2442.658	3030.15747136763	630.61544051818	3095.08160394924	-11.7561944123461
2083.003	2793.52929362811	290.408562760424	2808.58381532097	-5.93501196875239
1777.843	3004.68364925083	341.930476592007	3024.07676537778	-6.49228217945253
1513.548	2856.71978234058	543.473992228814	2907.95665288276	-10.7714633090107
1292.065	2965.29235232618	448.233505751973	2998.97849449489	-8.59575348482656
1101.762	3115.10021035209	638.256352220309	3179.81453730956	-11.5791389944948
939.101	2990.40402846239	620.638320940247	3054.12969254149	-11.7248994575761
801.2801	4211.85297422577	440.395026352178	4234.81442990483	-5.9692060899658
684.3433	4213.54165490446	945.271439762796	4318.27180391025	-12.6444566117154
582.9476	4472.87284232997	908.892973799763	4564.28284634899	-11.4861823218128
497.0677	4537.64689680352	986.326729234559	4643.60633310718	-12.2633480047062
423.5089	4507.7894195505	1262.28116376875	4681.1877966406	-15.6434265734112
361.5036	4497.99254958048	1414.38736494409	4715.12763286372	-17.4556806202541
308.1262	4591.40657929513	1551.5170679067	4846.46464842161	-18.6710157769738
262.7298	4646.72059026667	1381.55503109118	4847.75273172442	-16.5581766116494
224.2111	4724.58130363495	1568.17402821086	4978.03558418498	-18.3619394239684
191.2854	4667.13317823209	1774.24018225831	4993.00113435745	-20.8146170463188
163.1722	4874.36242595044	2443.59737004329	5452.57527837993	-26.6253544693073
139.1537	5109.50378996245	2603.09528686596	5734.38174977429	-26.9970894867882
118.6706	5135.43179246968	3058.49116195437	5977.20903790903	-30.7766113119466
101.1982	5081.49151990615	3464.72854001641	6150.27641028291	-34.2874560382343
86.24196	5282.84755716212	3919.45991360016	6578.04259081168	-36.5725263167751
73.61024	5697.51052342601	4047.88799652701	6989.06455807769	-35.3925025489693
62.69291	5440.35568212926	5040.09657238587	7416.20141359793	-42.8128789537086
53.57697	5717.24923022316	5331.10073228623	7817.13334786289	-42.998282366635
45.65746	5885.93169812254	6009.86704871061	8412.05646070813	-45.596909528139
38.96512	6248.27332633932	6886.29536635646	9298.49361097516	-47.7810017248659
33.18414	6514.55186800955	7816.27256029282	10175.1414131585	-50.1901402843643
28.30617	7017.13997989131	9087.37916006154	11481.3201983095	-52.3252102121398
24.17237	7133.94736559416	10221.2038069386	12464.5983600774	-55.0866662494421
20.61345	7339.42324375955	11645.0340981806	13764.9537848417	-57.7783245681415
17.55618	18758.8231358503	12878.0429230074	22753.8443997698	-34.4698285044245
14.98558	19058.8705126401	14636.1753426686	24030.3594205106	-37.5223012650296
12.76553	21813.3438348794	16987.111629951	27647.4941140619	-37.909626464116
10.8809	22353.2521408785	19861.1422324098	29902.0543115302	-41.6214877032474
9.278505	21804.5749292177	24899.9911907854	33097.5686289048	-48.7918195966137
7.923394	19794.4698026682	25095.3915635153	31962.4735040156	-51.7347141789
6.75822	25492.8626404268	30159.4688620507	39490.246993969	-49.7932008534756
5.761429	20556.8576644964	33099.0202476254	38963.1818309424	-58.1567631918254
4.919708	30523.3912846399	41497.8717591849	51514.568580713	-53.6639891258204
4.191257	25589.3824886876	38560.04980857	46278.4392281303	-56.4307851297733
3.564097	22949.7035965513	56737.0125345054	61202.7571806221	-67.9770306172497
3.051758	41794.7502770995	62383.7480270796	75090.1669237142	-56.1794113563156
2.604164	39203.3052809524	55412.5223162982	67878.17598025	-54.7213197113769
2.214424	30230.0581208505	65020.4598346529	71704.3695397966	-65.0648007361587
1.892567	25613.8514977696	84859.246372955	88640.6288534534	-73.2041245822282
1.607507	148139.489907767	134136.728083118	199844.865560709	-42.1600794898263
1.376413	144110.870347337	146982.905380748	205844.401008221	-45.5652822578478
1.17375	140225.433006559	159152.804618429	212115.033130113	-48.6175544832246
1.001604	139411.485570041	163928.497356339	215193.202853513	-49.6208035824987
