EC-Lab ASCII FILE
freq/Hz	Re(Z)/Ohm	-Im(Z)/Ohm	|Z|/Ohm	Phase(Z)/deg
6999984	21.6589079545375	-4.92321933379262	22.2114020807278	12.8061281127675
5969734	13.4016086518707	-13.503994020735	19.025271850093	45.2180297269529
5091109	13.0482610159546	-7.03722122855833	14.8249653679242	28.3389852908743
4341796	9.47557902966561	-3.72919625116014	10.1830006691105	21.4825483255705
3702781	4.98142988202406	-5.75827804799207	7.61396150157785	49.1372386625642
3157797	3.70225387851413	-5.92401465568355	6.98574501551026	57.9963923049683
2693047	2.76606660389584	-4.83075189286409	5.56662270210563	60.204743534741
2296687	2.7366314403013	-4.11952627996519	4.94566966258053	56.4036212007062
1958656	2.65932244539442	-3.40720406435955	4.32215633738147	52.0279654376039
1670375	2.67026100850405	-2.96542288032762	3.99049203892297	47.9980553263953
1424531	2.50934224924678	-2.58898633554098	3.60550256822441	45.8949793618999
1214875	1.3627817825093	-2.47145952596909	2.82228389345271	61.1273201764607
1036062	0.820066784697865	-1.85569052681287	2.02881661632286	66.1584052797249
883578.1	0.732074638612327	-1.6095521934766	1.76821705116332	65.5424756499593
753531.2	0.674160170253729	-1.3853832640127	1.54070721532776	64.0513529881313
642624.9	0.618756430372117	-1.21652008210074	1.36483721750297	63.0408273248591
548046.8	0.575054268499121	-1.04948384724857	1.19670537617022	61.279898837304
467390.6	0.538237330886721	-0.908179715575385	1.05569399929272	59.3466819407531
398593.7	0.507659702989999	-0.788932041705169	0.938153580427523	57.2396468378934
339937.5	0.481041036748329	-0.684457459513422	0.836589799674533	54.9002085941726
289906.2	0.459713724589835	-0.596638454290173	0.753202598053157	52.3855197496553
247234.4	0.441010125865839	-0.516923289149585	0.679484818065443	49.5310382847356
210843.7	0.42576229819508	-0.448256317983647	0.618229133231856	46.474256881511
179812.5	0.412379917567887	-0.386981837501044	0.565519353310726	43.1801563595434
153343.8	0.404036376239472	-0.336602940858426	0.525877298539559	39.7977000159885
130781.2	0.39610246621506	-0.292233647322572	0.492237410574517	36.4188991431667
111531.3	0.388170085415244	-0.255607982840276	0.464770326185905	33.3646960500202
95109.37	0.3809331657424	-0.223165953809456	0.441489659790817	30.3634858233455
81109.37	0.374028175939434	-0.194719463837594	0.421678486519979	27.5015329887773
69171.88	0.367067367817748	-0.169335044872119	0.40424350327308	24.7647599732892
59000	0.356939103985347	-0.142595239793961	0.384368217163906	21.7764412970049
50312.5	0.352726002857649	-0.109200994723569	0.369243131744588	17.2020837705512
42906.25	0.378736263907872	-0.116017298293927	0.396107524672677	17.0312621335109
36593.75	0.363605449710514	-0.104185660784028	0.378237458446661	15.9888570985176
31203.13	0.357755122301439	-0.0913573875802325	0.369235561394623	14.325073605127
26609.38	0.353690815200562	-0.0808935733187287	0.36282359758085	12.8826924629308
22703.13	0.350157042666711	-0.0716215925392433	0.357406780919101	11.5599048013123
19359.37	0.347517443774287	-0.0637048235759489	0.353308191631976	10.3877878510793
16500	0.344852386610177	-0.0567055743147277	0.349483462711898	9.33783123234615
14112.02	0.34261721949502	-0.0509535848382923	0.346385373395546	8.45895408166113
12011.13	0.34002275922124	-0.0454071986926389	0.343041237290123	7.60636996419466
10236.38	0.338000053223632	-0.041127178698286	0.340492996707508	6.93753341162664
8750.684	0.336008571644025	-0.0371758756878509	0.338058879415135	6.31350788821581
7449.463	0.334098044461043	-0.0337081092778305	0.335794192838082	5.76123959906716
6363.206	0.332467904937855	-0.0312355223479902	0.33393197760939	5.36721193969333
5414.761	0.331857012083389	-0.0278509195222043	0.333023648089962	4.79727535101624
4620.567	0.331089454193001	-0.0258139947107029	0.332094247165987	4.45815137236082
3941.215	0.329951901527504	-0.0223403444281246	0.330707345414013	3.87346398524808
3361.769	0.324045142987767	-0.0216579052793524	0.324768101196918	3.82373812412426
2867.244	0.324462134578496	-0.0218711869792877	0.325198440333156	3.85633254717366
2442.658	0.322825800665457	-0.0194595096223949	0.323411765540522	3.44953938812432
2083.003	0.323026087314252	-0.0182388010129331	0.323540580063683	3.23162119328206
1777.843	0.321663699405119	-0.0166500352815056	0.322094332750302	2.96311368991872
1513.548	0.320665629674763	-0.0163793000767816	0.321083676828514	2.9240734916741
1292.065	0.315235439217011	-0.0153331888835877	0.315608125401869	2.78469692434616
1101.762	0.319270780313374	-0.01393564201398	0.319574769467573	2.49927971757513
939.101	0.314309679593055	-0.0134201741243217	0.314596051722548	2.44488997999895
801.2801	0.316316817046574	-0.0160912463401385	0.316725838786883	2.91216399094451
684.3433	0.31195896889919	-0.0140606690015595	0.312275680592353	2.58069873913661
582.9476	0.312004168474262	-0.0131584411591439	0.312281516774616	2.41495694590793
497.0677	0.31108032300715	-0.0129477136062539	0.311349659787613	2.38337608519812
423.5089	0.310017531334188	-0.0134780026472748	0.310310370902914	2.48936468293039
361.5036	0.307966476592294	-0.0123953899478133	0.308215827621864	2.30486253261575
308.1262	0.308458121476721	-0.0118331266135929	0.308685010310512	2.19691384626633
262.7298	0.307004028787251	-0.011896860464936	0.307234452788949	2.21918586167866
224.2111	0.304850415050539	-0.0118871098893861	0.305082085573716	2.23301763581091
191.2854	0.306479359316379	-0.0103036453253747	0.306652511475073	1.92552321927789
163.1722	0.303271837381514	-0.0113256401628766	0.303483240845123	2.13870820977458
139.1537	0.302228768953834	-0.010419024662583	0.302408308183273	1.97443089667026
118.6706	0.300105572253352	-0.00970072390119477	0.300262316219866	1.85140539889977
101.1982	0.30116474657844	-0.010707750039349	0.301355040595908	2.03626278304739
86.24196	0.299739039591313	-0.00914142035055342	0.299878404392761	1.74686122776902
73.61024	0.291924186807379	-0.0270981860419376	0.293179198665105	5.30334662610128
62.69291	0.216791471710527	-0.0483976162959342	0.222128051964502	12.5846398179037
53.57697	0.279762122082195	5.44375971410653E-05	0.279762127378573	-0.011148916445287
45.65746	0.277006021393195	-0.0254432588064816	0.278172060614974	5.2479450450589
38.96512	0.294696048508393	-0.000847862026196582	0.294697268186314	0.164843681884806
33.18414	0.288042289612867	-0.013017122819085	0.288336272591414	2.58753355267472
28.30617	0.308328054553538	-0.0112747571350536	0.308534129997354	2.09422491247621
24.17237	0.281530400968804	-0.00467508149470274	0.281569215392304	0.951363760220409
20.61345	0.28015822348724	-0.00573097058412768	0.280216834275463	1.17189005894611
17.55618	0.277245009061269	-0.0152990838677364	0.27766680935354	3.15852323777927
14.98558	0.290543299887785	-8.02087800124792E-05	0.290543310959195	0.0158173479121232
12.76553	0.281758493537896	-0.00794254740378405	0.281870418348585	1.61469476133501
10.8809	0.282891938489556	-0.00918909035059052	0.283041142316537	1.86046672642976
9.278505	0.281693916906645	-0.00694841451234478	0.281779600550577	1.41300215829306
7.923394	0.285549001546437	-0.00603053477085284	0.285612674147681	1.20985481540927
6.75822	0.285655629074162	0.00614995871300954	0.285721823482084	-1.23334608500963
5.761429	0.283950913042212	-0.0168329415023268	0.284449413669859	3.39259024807729
4.919708	0.279806805444881	-0.00471055881341544	0.279846453859262	0.964485639644496
4.191257	0.283053547490854	-0.00713358732441187	0.283143424460594	1.44367717272877
3.564097	0.264194875545008	-0.00676272530508269	0.264281415763186	1.46630785972085
3.051758	0.283106463511216	-0.00324205610907523	0.283125026462942	0.656106576275798
2.604164	0.265385885181253	0.0114669950535068	0.265633506977178	-2.47414062135597
2.214424	0.271984189160064	0.0343092742743311	0.274139609422442	-7.18956608654879
1.892567	0.211627244756273	0.0654963729126363	0.221530732829201	-17.1967380743227
1.607507	0.184383691997829	0.0548858124707787	0.192379308360665	-16.5767805512573
1.376413	0.269654842653306	-0.0114411429195122	0.26989745074321	2.42953642996283
1.17375	0.233220293171351	-0.000292121630303088	0.233220476120725	0.0717661724037883
1.001604	0.232712853483183	0.0823733738719573	0.246861590571184	-19.4924367199631
