EC-Lab ASCII FILE
freq/Hz	Re(Z)/Ohm	-Im(Z)/Ohm	|Z|/Ohm	Phase(Z)/deg
6999984	23.1079568056461	0.980614015195074	23.128754215876	-2.42995755394225
5969734	17.8970843524513	-0.368302743474724	17.9008735884484	1.17891910517677
5091109	12.4143027457225	-5.18823974832	13.4548409261686	22.6812390583416
4341796	8.85927376866018	-4.28613064049994	9.84162829899112	25.8177704570704
3702781	6.78542825190568	-4.00964363893175	7.88157843791366	30.5796799881822
3157797	4.44450870541497	-4.79044972861804	6.53468180058724	47.1452935920124
2693047	2.88966276330021	-4.39891967030683	5.26314023672333	56.6989752145182
2296687	2.51784329190913	-3.79852389149639	4.55722707321905	56.4616790140868
1958656	1.85493362301532	-3.1057532480581	3.61752428929181	59.1519335861881
1670375	1.2554288632423	-2.75209807894824	3.02492073727766	65.4788773346998
1424531	1.20250951462163	-2.46254841711331	2.74046963847126	63.9728577701984
1214875	0.93776119618816	-2.03346415206346	2.23927946420348	65.2425322442083
1036062	0.871711046380965	-1.80138453834883	2.00121623104172	64.1771172241625
883578.1	0.761128418350725	-1.582063848774	1.75563165009597	64.3078661930114
753531.2	0.685657321135226	-1.38481201498104	1.54526058607026	63.6587623069077
642624.9	0.597127631113802	-1.19751156795029	1.33813129520774	63.4973028002398
548046.8	0.585223357333688	-0.995904333571452	1.15512415765376	59.5602233109984
467390.6	0.499202316196055	-0.861075467094236	0.995315986271226	59.8972943818738
398593.7	0.49188337917207	-0.735052100847878	0.884449461341129	56.2102880518952
339937.5	0.470706546194041	-0.638346204865217	0.79312705785123	53.5955149397243
289906.2	0.465598867572763	-0.585141040625425	0.747778271220316	51.4906055102845
247234.4	0.446763245089762	-0.491584173363325	0.664268316769992	47.7347010054414
210843.7	0.418456809726846	-0.406625829272161	0.583481504966561	44.1784837513573
179812.5	0.402335905032103	-0.348568336789679	0.532328907622275	40.9043966451735
153343.8	0.411071090416451	-0.313477964067401	0.516960226063875	37.3287160147888
130781.2	0.404312179388134	-0.281212653792292	0.492492532993635	34.8199057172494
111531.3	0.380971624008085	-0.258499911617487	0.460392856814272	34.1579904948466
95109.37	0.361116855471552	-0.208788302908148	0.417130601534971	30.0353758123859
81109.37	0.376430836124255	-0.173488069877632	0.414485566425505	24.7438584729229
69171.88	0.375514111107942	-0.162791327530813	0.409282132471517	23.4374975112907
59000	0.364913105327123	-0.139727008096302	0.390749550519292	20.9520868101045
50312.5	0.358121701601203	-0.104526616803289	0.373064293089117	16.2711820520683
42906.25	0.379899074117163	-0.0907936581461962	0.390597996506186	13.4412289103582
36593.75	0.351578059096878	-0.0963797190894946	0.364549285954722	15.3301447101896
31203.13	0.355148049642279	-0.07198364368509	0.362369676053194	11.4578495588436
26609.38	0.359108315126755	-0.0622244800006773	0.364459418734832	9.83031710515085
22703.13	0.343795203713514	-0.0591126571937489	0.348840147255046	9.75612480025936
19359.37	0.341168635210382	-0.0588554792224747	0.346208037292351	9.78783801421985
16500	0.35967938527074	-0.0518492062381734	0.363397303754811	8.20290497259512
14112.02	0.337089536718663	-0.0406839943841817	0.339535775971039	6.88185337309583
12011.13	0.354994264279591	-0.0348058403634328	0.356696473482446	5.59973597464907
10236.38	0.334865499990229	-0.0395183890098307	0.337189273485439	6.73050084193407
8750.684	0.339872937702638	-0.0230545033529915	0.340653965054679	3.88058355881037
7449.463	0.337673414408316	-0.02049826584537	0.338295009866888	3.47384368483598
6363.206	0.337674697438743	-0.0177220552022095	0.338139427649212	3.00427669679431
5414.761	0.333095691871557	-0.0306807645218892	0.33450567895783	5.2625485933412
4620.567	0.340829385191267	-0.0136100517292997	0.341101016295659	2.28672899135765
3941.215	0.332883071693572	-0.0284522221128618	0.334096794901279	4.88531833764722
3361.769	0.335595513518717	-0.0118744684297693	0.335805526598925	2.02646692362404
2867.244	0.328638147276927	-0.0256575283146989	0.329638196519806	4.46415654301158
2442.658	0.327042376724534	-0.0122069741859604	0.327270112280986	2.13759323390526
2083.003	0.32752819631956	-0.0125081247501826	0.327766948561185	2.18703204317371
1777.843	0.322630349258605	-0.0203132482910305	0.323269191725507	3.60266522366201
1513.548	0.329912718507918	-0.0122195327365595	0.330138938650964	2.12119059814625
1292.065	0.322505180269421	-0.0172754886197442	0.322967542963163	3.06620655895441
1101.762	0.325134100079065	-0.0092450091619838	0.32526551189548	1.62873509210469
939.101	0.325781110043235	-0.0105662103613553	0.325952414414133	1.85764949295111
801.2801	0.321777252777983	-0.0137298222935482	0.322070036522428	2.44325533140944
684.3433	0.322544587884535	-0.0142658169889828	0.322859914990956	2.53248319476076
582.9476	0.319761713677282	-0.00991423414938994	0.319915372516859	1.77589070741712
497.0677	0.318401512014167	-0.0118974278222483	0.318623714813718	2.13992517213144
423.5089	0.318228688924674	-0.00919181570059998	0.318361410869142	1.65448897203803
361.5036	0.317649667729591	-0.00928727795543005	0.317785407060395	1.67470750671261
308.1262	0.314652625808017	-0.00888435215239578	0.314778027570299	1.61734125339072
262.7298	0.313703864902176	-0.00782605926003873	0.313801469177734	1.42907763515105
224.2111	0.31425211689042	-0.00911594564363573	0.314384308506464	1.66159192982427
191.2854	0.312334257288127	-0.0116304616006128	0.312550725343534	2.13255063235031
163.1722	0.311016648655127	-0.00795914436916981	0.311118472160938	1.46592111320914
139.1537	0.311719697257709	-0.00977945632855319	0.311873062999227	1.79692799878094
118.6706	0.310367445814446	-0.00672841091654871	0.310440369370424	1.24191237700464
101.1982	0.312380758399973	-0.00697776583934508	0.312458681163848	1.27962445908015
86.24196	0.30655368467102	-0.0110282803419495	0.306751991929441	2.06032930227407
73.61024	0.294349404673459	0.0042082822320481	0.29437948581884	-0.819095880256664
62.69291	0.26015564800198	0.0336850030197838	0.262327353922104	-7.37762229406663
53.57697	0.304349308290021	-0.000847041007775226	0.304350486996625	0.159460686103773
45.65746	0.296261265712305	0.0160647621627657	0.296696501740084	-3.10382295707813
38.96512	0.293032656548784	-0.0131715352141873	0.293328531077248	2.57365766079224
33.18414	0.298058771956747	0.000605235099423542	0.29805938644822	-0.116344065034131
28.30617	0.289122585468352	-0.016191653308204	0.289575618905939	3.20537170485594
24.17237	0.301004523472136	-0.019532059080123	0.301637571404155	3.71269431976555
20.61345	0.31164406285424	0.00521601865329658	0.311687710317376	-0.95887580987237
17.55618	0.310565558956047	-0.00391871298934329	0.310590281111909	0.722919184766004
14.98558	0.296668049852205	-0.00342624999477213	0.296687834250306	0.661685466326987
12.76553	0.3005872650354	-0.00524370555318116	0.300632999435175	0.999416011624646
10.8809	0.294528646540939	-0.00455400547030583	0.294563851480559	0.885837441980273
9.278505	0.296233636235278	-0.00153051032800208	0.296237589949417	0.296019733474151
7.923394	0.281717213268543	0.000487925686309422	0.281717635804486	-0.0992344566517142
6.75822	0.284514402958991	0.0141677441307936	0.284866934664006	-2.85075895812475
5.761429	0.296424370660132	-0.00601639098253092	0.296485420352688	1.16274679845141
4.919708	0.278129785274358	0.00294447812381756	0.278145370999019	-0.606550883617138
4.191257	0.286231909310583	-0.016433193712131	0.286703253841253	3.28586769140946
3.564097	0.302445757168509	0.0243888869485638	0.303427510018163	-4.61029172049088
3.051758	0.257871340879911	0.00024720418178249	0.257871459369025	-0.0549256536498544
2.604164	0.278040076256195	-0.0230458685035993	0.278993541250754	4.73823606093257
2.214424	0.316940051677956	-0.0135443844938209	0.317229328261026	2.4470374258151
1.892567	0.294326791645966	0.0445434459292924	0.297678314386292	-8.60584327159882
1.607507	0.264896068653809	0.00918372689216337	0.265055216941439	-1.98560185480193
1.376413	0.248216867981902	0.0167264416268427	0.248779797009808	-3.8551281898883
1.17375	0.277569273395355	-0.0172069766818628	0.278102106392159	3.54732036544135
1.001604	0.269575752507485	-0.0347147615697415	0.271801767858159	7.33791058928611
