EC-Lab ASCII FILE
freq/Hz	Re(Z)/Ohm	-Im(Z)/Ohm	|Z|/Ohm	Phase(Z)/deg
6999984	40.1525765749304	69.9679591364942	80.6705938451662	-60.1497395864085
5969734	37.0681651369969	64.1173600548539	74.0613578529819	-59.9665076835256
5091109	39.2789405067274	63.6004494427174	74.7519386815264	-58.3009766688598
4341796	38.8122464404546	61.5904083717165	72.7995115172443	-57.7822206811484
3702781	43.372251988491	65.429886188017	78.4998232426674	-56.4603440224241
3157797	48.1006069609032	70.456175137771	85.3096770891295	-55.6785488405461
2693047	55.7324164562696	76.1835900584971	94.3930168934981	-53.8125112454742
2296687	61.5332746309834	81.6971469405972	102.277894508274	-53.0133955494494
1958656	69.6331327104991	84.0473703392025	109.145470048065	-50.3582976676572
1670375	82.733157108974	88.8217837949658	121.384037507976	-47.0326214415999
1424531	93.7291265687822	91.1786860830369	130.762005044186	-44.2097672469714
1214875	107.931867525059	94.5229882493858	143.470844895541	-41.210751448652
1036062	117.973472501029	94.765004161789	151.321334344285	-38.7740020530062
883578.1	130.997303079856	93.2966263547443	160.824606025858	-35.4585703123258
753531.2	143.776605771283	90.3130788815818	169.788587909146	-32.1349280864412
642624.9	159.405263054056	87.7421897120555	181.958043913423	-28.8299127184763
548046.8	167.218509687223	80.4845741467501	185.579623497839	-25.702153303591
467390.6	177.708199200097	76.1941915241565	193.353973026057	-23.2077242467094
398593.7	185.905802763775	69.7388357318353	198.555968710275	-20.5625729122407
339937.5	192.798094260641	63.5537757788737	203.002925019041	-18.2442367041147
289906.2	197.390553525652	60.2858738934783	206.391417486928	-16.9834144280396
247234.4	201.230042473779	42.7439926108583	205.719660942546	-11.9921613506928
210843.7	209.20752693495	29.636432488242	211.296255188936	-8.06289700577695
179812.5	204.135020437896	54.0155592265679	211.160572095596	-14.8211863007749
153343.8	213.219276029518	35.1886451888226	216.103448424075	-9.3713378042054
130781.2	213.397314644627	36.2514252513786	216.454567358358	-9.64122957360178
111531.3	214.959932349147	33.8276800415376	217.605341047831	-8.94314352559234
95109.37	216.242207940218	31.9654889750738	218.592051502967	-8.40871714218406
81109.37	217.848323286132	30.9737653311918	220.039237631316	-8.09210066459477
69171.88	218.660885603803	30.149254289541	220.729609312513	-7.85051873985581
59000	219.241390028875	30.2981750754792	221.325024601146	-7.86818302867969
50312.5	219.601792225463	31.4836100518576	221.847165522872	-8.15871846743463
42906.25	225.37128097725	31.9889606457187	227.630199869261	-8.07853875358402
36593.75	225.196158886548	32.254515933039	227.494315918728	-8.1509548893106
31203.13	225.865898546652	34.0572391268574	228.419131561326	-8.57476031121297
26609.38	227.491737153629	36.2622799231883	230.363719839743	-9.05677824510063
22703.13	229.080595495113	39.2841238443373	232.424528866066	-9.73077714740277
19359.37	226.961549002567	40.6041575793994	230.565050123338	-10.1430947655128
16500	227.836996888181	38.5972859441717	231.083205000453	-9.6150454023643
14112.02	229.732118572683	66.8140724402213	239.250844470695	-16.2162640474051
12011.13	219.228498023175	45.3989368303245	223.879873617128	-11.699723692058
10236.38	224.247061252073	83.1456057836405	239.165081567773	-20.3436113612536
8750.684	246.148376232306	96.3158582007091	264.321334104419	-21.370002225873
7449.463	255.073695853584	93.294209687639	271.599705223787	-20.0901921284672
6363.206	256.492187110935	103.092839623643	276.4351201107	-21.8968541072296
5414.761	241.141917798692	91.6705757294223	257.978524249975	-20.8143993223566
4620.567	259.921209608524	113.709787441327	283.705747147128	-23.6283153753811
3941.215	262.418374557608	126.371587798172	291.261362882357	-25.7138531017675
3361.769	255.122347554	129.935257765155	286.305053102388	-26.9900019988624
2867.244	269.626642027826	142.478708945014	304.956896288376	-27.8533004270978
2442.658	264.798185615762	174.702182570965	317.236397187426	-33.4150704993681
2083.003	491.930810742854	184.005803738353	525.218105521429	-20.5082164062167
1777.843	500.547867638966	205.528652716254	541.100910076184	-22.3234154561265
1513.548	513.907754032441	263.548126011667	577.545491177041	-27.1501838096471
1292.065	496.542388747884	280.455639634726	570.271610398395	-29.4585047155143
1101.762	507.086106425291	318.366780350203	598.743456047844	-32.1220709135185
939.101	519.480012656755	361.405540683317	632.829715157611	-34.8265806755627
801.2801	532.552758865205	411.841423293561	673.220468283167	-37.7160182955633
684.3433	547.147337320887	466.470737352662	719.002891192847	-40.4492676206113
582.9476	564.03149917527	533.555358214071	776.410234567299	-43.4095056353563
497.0677	583.389324128897	607.331803818057	842.137176139652	-46.1519222851263
423.5089	606.190228174944	693.430369707917	921.038691026631	-48.8403548514392
361.5036	631.027343296334	789.614747055032	1010.78531684746	-51.3696025535309
308.1262	660.799141024847	900.353217347672	1116.82201839303	-53.723817378788
262.7298	695.34012692974	1032.18749787386	1244.55169554573	-56.0335534904091
224.2111	733.732972080081	1171.04460915754	1381.92241133662	-57.9302729754102
191.2854	778.347133648318	1334.04613043407	1544.50747443471	-59.7386423684021
163.1722	831.681043318801	1523.65886911927	1735.86569390079	-61.3723169296586
139.1537	893.776724840793	1748.23459502748	1963.4563995969	-62.9218239908104
118.6706	955.903170411818	1989.10190716789	2206.87046930768	-64.3324460824225
101.1982	2113.15463741549	2235.6495018381	3076.28854574787	-46.6134512482601
86.24196	2196.69122117808	2565.71463127414	3377.6240007341	-49.4308107776333
73.61024	2302.68521261488	2925.04145904749	3722.66392863254	-51.7890592257682
62.69291	2430.72549861144	3379.53018519416	4162.88970815206	-54.2744412790646
53.57697	2569.62700493544	3838.01514328836	4618.80321994824	-56.1969094873789
45.65746	2754.12613544948	4324.29221621107	5126.86199747463	-57.5070863479266
38.96512	2975.60731351688	4996.52366711135	5815.45248800633	-59.2246992261698
33.18414	3172.90048954841	5626.7997737752	6459.73476318751	-60.5817497639371
28.30617	3578.13564032456	6299.26108489488	7244.56657614738	-60.4023566782816
24.17237	3471.72218932632	7249.80031812228	8038.18758256528	-64.4115715539301
20.61345	3927.8938158715	8161.42038489828	9057.43520693329	-64.2996156007615
17.55618	4777.62825514029	9500.90333806855	10634.514374603	-63.3039868401627
14.98558	5259.74945995765	10446.4616952039	11695.8764669813	-63.2749378799495
12.76553	5972.78818946121	12318.6485988524	13690.2630383121	-64.1332286570555
10.8809	16080.9774436933	13633.9539668842	21082.7544764836	-40.2923172917911
9.278505	18491.3766175329	14131.7063958658	23273.077468835	-37.388229140969
7.923394	18459.872491127	19478.9039751161	26836.4415014447	-46.5385885827483
6.75822	20949.0875426569	18002.6989607055	27621.7566193697	-40.6742738763371
5.761429	19045.6159310529	23249.2127090929	30054.3071420025	-50.6758709847644
4.919708	25364.4389307356	25405.8998569303	35900.0628106886	-45.0467898307221
4.191257	22984.0530536091	24790.0243939008	33805.5025731214	-47.1648830190279
3.564097	22272.2898318927	32843.3410341598	39682.9931411676	-55.8573460500946
3.051758	29023.4704904129	39707.4219195994	49183.7492959712	-53.8356931178652
2.604164	36244.6911728395	39016.5065000348	53253.7831302319	-47.109208710075
2.214424	36512.5542214029	38174.1241284124	52824.5243115575	-46.274460768771
1.892567	34928.8921407736	42094.8138353825	54699.1851677637	-50.3152284301973
1.607507	34360.9885943296	48998.8216215118	59846.1532387536	-54.9594982668128
1.376413	36880.3924751687	57911.6635461273	68658.0230111699	-57.5094354748866
1.17375	39829.1029678342	68663.8213587469	79379.3285862777	-59.8837152821292
1.001604	154735.588433182	92753.284765518	180405.859557156	-30.939772503266
