EC-Lab ASCII FILE
freq/Hz	Re(Z)/Ohm	-Im(Z)/Ohm	|Z|/Ohm	Phase(Z)/deg
6999984	21.8627222293024	94.3544743717391	96.8542485244855	-76.9543052386979
5969734	18.786745607171	94.1031407244323	95.960111008225	-78.7099052187583
5091109	15.3479935950441	99.8829142551044	101.055219892325	-81.2642656610105
4341796	13.7213717342184	110.049641787446	110.90175697352	-82.8928408978904
3702781	16.4638720034109	121.92738745789	123.033925783302	-82.3098563413448
3157797	16.1554004352776	135.733846543492	136.691894641622	-83.2124367560144
2693047	15.6898032381208	154.330867330011	155.126356678948	-84.1950593746637
2296687	17.3009776492252	178.349746025709	179.186929587663	-84.4593075097781
1958656	19.5757144445527	204.965977092646	205.898665273862	-84.544391742355
1670375	22.1198245654501	237.03245278058	238.062324423635	-84.6686089923393
1424531	25.7282215543928	274.624829742259	275.827370823341	-84.6478679201556
1214875	30.0891492163502	318.121341669469	319.541147469534	-84.5968173806095
1036062	35.2449086723111	370.131853945934	371.806122720933	-84.5605491521777
883578.1	42.209387453292	428.192313790797	430.267695718257	-84.3702125726352
753531.2	48.9886406333305	499.471089706563	501.867767807181	-84.3982875045966
642624.9	102.220517057216	655.493712494172	663.416190054808	-81.1364387769169
548046.8	142.234580560457	742.682865738435	756.18021328825	-79.1583019892277
467390.6	176.187003701853	858.045485095116	875.947438357776	-78.3964400090422
398593.7	211.387229315092	977.898017560548	1000.48442939726	-77.8023400712711
339937.5	250.615723916901	1115.13433531259	1142.94917947713	-77.3337751864131
289906.2	294.269596970336	1270.83197296884	1304.4571664953	-76.9625558309478
247234.4	344.30505050859	1451.16724746297	1491.45309946876	-76.6527575511206
210843.7	394.782325913171	1661.38762263333	1707.64806605244	-76.6331623945271
179812.5	467.246404347711	1894.67917098215	1951.44263644348	-76.1467212264611
153343.8	546.308249318703	2166.2972305386	2234.12094442375	-75.8459756797969
130781.2	640.824041149522	2478.37770376351	2559.88505488573	-75.5027739605135
111531.3	754.563201724095	2831.78513291813	2930.59254493221	-75.0795300372504
95109.37	889.945220600419	3245.09693895543	3364.91554706615	-74.664078340001
81109.37	1048.17005208211	3699.82846219145	3845.4377004086	-74.1824500174141
69171.88	1242.41608720525	4217.84300632405	4397.02141906804	-73.5870322767141
59000	1475.48817460421	4799.29079858216	5020.98172898012	-72.9105410080031
50312.5	2390.5685043952	5741.63006871625	6219.41585843822	-67.3952492720738
42906.25	3002.50373356947	6480.58257649945	7142.33709656208	-65.1413478975882
36593.75	3368.0403485757	7152.50441747582	7905.82160383379	-64.7847389658988
31203.13	3841.23121514697	7996.5920902948	8871.33261166465	-64.3423009564987
26609.38	4419.57046106689	8939.8964242161	9972.68023833346	-63.6938273239697
22703.13	5096.22062012084	9988.39957700787	11213.366609494	-62.9686919384521
19359.37	5915.9267134192	11139.93850086	12613.3428828955	-62.0292130417761
16500	6882.54842014216	12404.8922816372	14186.2900461897	-60.9773771214749
14112.02	8011.91928926193	13737.0581464016	15902.7550196582	-59.7478096931242
12011.13	9383.60812963182	15167.7314979542	17835.6996028898	-58.2567443270757
10236.38	10981.5183683618	16619.9164686813	19920.2251267553	-56.5454855507806
8750.684	12786.8808001307	18093.3838603558	22155.6958842401	-54.7505462885065
7449.463	14904.7993533703	19603.2073368469	24625.9777807021	-52.7533815724411
6363.206	18034.6902611612	19485.7833853168	26550.815561024	-47.2147933725617
5414.761	16684.5008345453	23401.3125309589	28740.1112779605	-54.5121614682644
4620.567	23771.2044359576	19492.2266400176	30741.129773024	-39.3515205921863
3941.215	23064.9203297836	22354.5176853061	32120.3208384028	-44.103913294321
3361.769	28758.0205190941	23325.5073041047	37028.40848822	-39.0453605943582
2867.244	37253.1384295352	26612.3897713358	45782.2630741602	-35.5407381897256
2442.658	40935.5303585104	24260.75403461	47584.6806447241	-30.6534253859935
2083.003	39749.9943331172	20802.2004864612	44864.1682700323	-27.6242261710266
1777.843	44683.7876039162	21105.476843038	49417.4263535032	-25.2827539271332
1513.548	46094.8054713835	20583.4638685926	50481.779646466	-24.0629726179232
1292.065	48342.5941962891	19123.8758360239	51987.7778003518	-21.5832857651104
1101.762	50309.0308443773	19219.1111894989	53855.1095014654	-20.9079117640999
939.101	51545.7216250667	17497.0218351773	54434.4301977116	-18.7496083977319
801.2801	53722.6103008788	16934.6093646892	56328.4994640786	-17.496056956077
684.3433	54726.7990110521	16008.685581569	57020.176639902	-16.3052558521448
582.9476	56250.0001028801	15709.6745090677	58402.5374855825	-15.604150316555
497.0677	57426.0479805647	15257.1427774545	59418.2749025731	-14.8788029366532
423.5089	58562.4267684058	14860.7176485048	60418.5299228099	-14.2387460541346
361.5036	59139.9601644063	15095.8399871477	61036.212801624	-14.3193325680198
308.1262	60229.3711251441	15122.545757793	62098.8609905761	-14.0946070616136
262.7298	61477.5980640262	15343.629213765	63363.4123226603	-14.0136366660057
224.2111	62388.5181433825	15737.8164811612	64342.8788889794	-14.1577813881047
191.2854	63383.503728745	15987.694211428	65368.7609728833	-14.1568360077427
163.1722	64694.6072218247	16817.5065315609	66844.7509496839	-14.5716517218395
139.1537	66019.7678313657	17493.1731816924	68298.0296382854	-14.8405522742503
118.6706	67203.6184652031	18602.7006569898	69730.8167638251	-15.4726736913063
101.1982	68722.9671521112	19637.7084667748	71473.672131885	-15.9473806837281
86.24196	70181.5176745737	20986.2149384817	73252.0760152956	-16.648119526329
73.61024	71851.327148526	22552.5999940384	75307.5891228474	-17.4259612994207
62.69291	73826.3705393248	24119.5146911079	77666.4919765548	-18.092523209542
53.57697	75637.7913808121	25811.8647390919	79920.759795415	-18.8425249633683
45.65746	77782.7424540097	27688.3164129389	82563.9018545625	-19.5941997539563
38.96512	80154.014206971	29908.0671936542	85552.0804934131	-20.4621792473779
33.18414	82214.5061688906	32388.6322569916	88364.2943958315	-21.5020976455404
28.30617	84945.9841709523	34623.5984952151	91731.2040667163	-22.1755866154048
24.17237	87729.9151080115	37651.1134984614	95468.0279074252	-23.2275944230445
20.61345	90436.2400362246	40414.688945609	99055.8458368812	-24.0791987826813
17.55618	93448.4237297799	43831.8476790575	103217.434421422	-25.128857463361
14.98558	96789.850392656	47369.1559472407	107759.510365381	-26.0772229354395
12.76553	99938.6258603719	51362.2153622645	112364.6123376	-27.2003348054549
10.8809	103027.548002908	55998.7802625367	117262.692440449	-28.5255002419233
9.278505	106695.648163427	60924.9160647201	122864.993934428	-29.7270557636701
7.923394	110044.351596565	66665.1245724747	128662.341625559	-31.2075787062881
6.75822	113632.103279527	73806.2247628446	135497.652044132	-33.0044946729554
5.761429	117533.915834263	81529.6997659897	143043.047070691	-34.7478677336676
4.919708	122115.910177063	90562.4276293901	152032.393970828	-36.5610155946709
4.191257	125932.635683822	99840.838796673	160708.49953222	-38.4077846190925
3.564097	129981.876174698	113794.146569691	172755.306510159	-41.2009023041537
3.051758	135165.540616276	126669.657810395	185242.882670003	-43.1415504633074
2.604164	139238.802188794	143228.189594849	199754.244834968	-45.8091560137673
2.214424	145705.523351723	161667.867837649	217638.689176283	-47.9727821580521
1.892567	152672.62152496	183189.433234898	238468.651634186	-50.191704459145
1.607507	159422.465868227	207919.651979482	262004.015814214	-52.5208008146636
1.376413	168206.864837415	234917.19002515	288928.426340754	-54.3963437795567
1.17375	177078.98414974	268060.546712221	321268.459907222	-56.5515187963633
1.001604	187540.514250326	306067.424733672	358955.029172707	-58.5024286296278
