EC-Lab ASCII FILE
freq/Hz	Re(Z)/Ohm	-Im(Z)/Ohm	|Z|/Ohm	Phase(Z)/deg
6999984	23.2167147818142	-1.49912689219067	23.2650645109572	3.69451780667282
5969734	16.0183852606071	-5.01585605078138	16.7853352149844	17.3869657918841
5091109	11.7732123173105	-5.51470656925087	13.0007890842599	25.0989261481434
4341796	9.10165570389785	-6.67026371312514	11.2841727457058	36.2362974938585
3702781	4.58308664436285	-6.97551090669272	8.34640255434197	56.6940764253698
3157797	4.26246817431451	-4.92400870851628	6.51264129970231	49.118898283542
2693047	2.94591554978632	-3.76911343956576	4.7837887230508	51.9890386850027
2296687	2.46094038532655	-3.5524370523086	4.32157802090234	55.2878317313125
1958656	1.87192025091502	-3.28193583752622	3.77825201216444	60.3008285569845
1670375	1.49002955366531	-2.82220036587145	3.19139514568801	62.1674104619617
1424531	1.23371769140954	-2.47980522335303	2.76974606920307	63.5493846638172
1214875	1.03244286395147	-1.94371095285368	2.20089766585538	62.0240564216199
1036062	0.852463883872836	-1.85685120334894	2.04318160345231	65.3405653229552
883578.1	0.761907582373308	-1.59647519544431	1.76896472936769	64.4874884617849
753531.2	0.683852136530329	-1.38637103874799	1.54585846755655	63.7443622015002
642624.9	0.627662556429756	-1.19342046377712	1.34841117175212	62.2585107513875
548046.8	0.581699580425659	-1.04264918485857	1.19393958161778	60.8426174480602
467390.6	0.538746409787057	-0.905902605418915	1.05399583707111	59.2597642432318
398593.7	0.510036697618	-0.781536252423241	0.93323970488232	56.8712177868904
339937.5	0.480793780705498	-0.686537585062399	0.838150651892843	54.9958008727123
289906.2	0.456638411655554	-0.591703137941805	0.747416378232031	52.3413504332286
247234.4	0.439991062203724	-0.525809487576689	0.685614871516671	50.0778119086289
210843.7	0.415148494330366	-0.462770923691138	0.621695423948672	48.1049463326549
179812.5	0.42767101039226	-0.37901948552707	0.571452765798838	41.5486704970642
153343.8	0.418111471359016	-0.332450607735162	0.534172826962847	38.4890644119097
130781.2	0.381184543620847	-0.299076835376989	0.484508627120868	38.1176788986839
111531.3	0.400224308109062	-0.256711638636714	0.47547908704056	32.6769003240113
95109.37	0.387708814423358	-0.231344168916933	0.451484495053188	30.824344425859
81109.37	0.360739945615086	-0.191938325976294	0.408624068479767	28.0160319000709
69171.88	0.367013424053416	-0.178243813020625	0.408006997875703	25.9040006052376
59000	0.346348297000535	-0.138507348596862	0.373016659749271	21.7968500536675
50312.5	0.361100241868097	-0.106801025482408	0.376563200168699	16.4764040751283
42906.25	0.370395903119776	-0.123633214304821	0.390484694613318	18.4583223842653
36593.75	0.370473176519302	-0.110025682130056	0.386466072571042	16.5407300467876
31203.13	0.357938306036923	-0.0803842641259394	0.36685345963702	12.6572450297027
26609.38	0.362544507176804	-0.0781130070122929	0.370864074222045	12.1589436352774
22703.13	0.348947213286606	-0.078928952500618	0.357762403283706	12.7453544794379
19359.37	0.341914367768877	-0.057570050474699	0.346727191893642	9.55756627635678
16500	0.337406383644465	-0.0570796418348948	0.342200457679466	9.60191893927785
14112.02	0.337424415163541	-0.0487693047510389	0.340930610292414	8.22423619130784
12011.13	0.342129890854926	-0.04592258610562	0.345198125908922	7.6448669984495
10236.38	0.337922539344392	-0.0433225924880202	0.340688258701185	7.30562441753049
8750.684	0.33952785447971	-0.0346536407620757	0.341291720945092	5.82766832583463
7449.463	0.337046202217644	-0.0318924742105589	0.338551727717653	5.40542994350194
6363.206	0.332374861120791	-0.0264337268251047	0.333424339571858	4.54715463625644
5414.761	0.329681345929047	-0.0232557459067394	0.330500559108856	4.03496474487719
4620.567	0.331679192761027	-0.0252157951816018	0.332636322786985	4.34752869198152
3941.215	0.328786386988794	-0.0195947149498301	0.329369763522868	3.4106281053836
3361.769	0.327577325088313	-0.0200595382769847	0.328190933738121	3.50419096741288
2867.244	0.326397468563327	-0.0181893741919972	0.326903901503247	3.18966177507124
2442.658	0.326959370632265	-0.0178503354959628	0.327446277306012	3.12495879718271
2083.003	0.328202268837436	-0.0165270582071411	0.328618126284937	2.88276953718091
1777.843	0.319338810019132	-0.0169541184496892	0.319788551572506	3.03905523495875
1513.548	0.32276056087023	-0.0200681666380055	0.323383844626592	3.55787883169002
1292.065	0.319630807467916	-0.021776549775222	0.320371770296174	3.89755686053333
1101.762	0.313656185305708	-0.0152177999936461	0.314025132779488	2.7776673051577
939.101	0.312511953295491	-0.0114277545880812	0.312720825221936	2.09422548543401
801.2801	0.323404710218414	-0.0176848654122096	0.32388788346603	3.13000999310458
684.3433	0.313080604087019	-0.00590661870948062	0.313136316641925	1.08082128219904
582.9476	0.309067801763103	-0.019595687570151	0.309688387024803	3.62784270805344
497.0677	0.306714823474833	-0.0183193501928098	0.307261422132172	3.41808056742487
423.5089	0.309316126590171	-0.00491149290474428	0.309355117835959	0.909697696400701
361.5036	0.31070781970703	-0.020242056812958	0.311366488388065	3.72744970186355
308.1262	0.31663973729437	-0.0123731160505367	0.316881393007933	2.23776974776372
262.7298	0.31304027720036	-0.00950490319593195	0.313184543575257	1.73914864288876
224.2111	0.311231979663159	-0.0150229484343767	0.311594342286106	2.76348201606585
191.2854	0.298815831119348	-0.0183272063092928	0.299377332840431	3.50971313464235
163.1722	0.296701156361632	-0.00399291584984112	0.296728022881752	0.771023002371802
139.1537	0.303109879167452	-0.0169511842304083	0.303583500038656	3.20088773715124
118.6706	0.293092726742164	-0.00383825985909582	0.293117858050141	0.750286513850428
101.1982	0.296640407147656	-0.0190009384192063	0.297248325165235	3.66500417768783
86.24196	0.298417940483004	-0.00844740834004224	0.298537478233104	1.62145623627535
73.61024	0.279507435945296	0.00932460788871666	0.279662931152829	-1.91072773013423
62.69291	0.241857523934549	-0.0408408402228436	0.245281544584705	9.58473020542393
53.57697	0.291947626289362	-0.012422623350282	0.292211803435275	2.43651505590752
45.65746	0.305973496814865	0.0149286551847673	0.306337469955509	-2.79328498873738
38.96512	0.290353723669186	-0.0109364887831773	0.290559618039856	2.15708812288458
33.18414	0.291164312440633	0.00214237268006297	0.291172194070324	-0.421571917825388
28.30617	0.272615162276179	-0.0110502778312328	0.272839028262114	2.32117635991651
24.17237	0.271797408680692	-0.024443470832073	0.272894328691267	5.13893867861967
20.61345	0.317329733586352	-0.0287482786187392	0.318629288266986	5.1765424716719
17.55618	0.294627509666459	0.0144369015286146	0.294981005452904	-2.80527928722065
14.98558	0.282293123895288	-0.0336048758681243	0.28428629140476	6.78868470602961
12.76553	0.268482972480326	0.0144827448891459	0.268873309220896	-3.08770680021669
10.8809	0.305679584780233	-0.0194467508844734	0.306297542711949	3.64014239304152
9.278505	0.251369667252214	-0.0237218635538656	0.252486507411698	5.39106130791565
7.923394	0.258631347875387	0.0101453038366522	0.258830255754186	-2.24638359525572
6.75822	0.287878420928083	0.0158070422671122	0.288312066728537	-3.14288320884558
5.761429	0.287218600563011	-0.0254767644366502	0.288346302274773	5.06896391605814
4.919708	0.256593545272303	-0.0256822715572119	0.257875602854842	5.71565966054891
4.191257	0.24077753832036	-0.0171628417083388	0.241388454767658	4.07719918282967
3.564097	0.242945379860457	-0.0025159618381788	0.242958407262463	0.593338476861422
3.051758	0.239279469161494	0.0148337873973652	0.239738827916457	-3.54742980038022
2.604164	0.265384311813782	0.0346728251513724	0.267639753700477	-7.44360984333185
2.214424	0.284019712787021	0.0188348628188893	0.284643547808533	-3.7940337001935
1.892567	0.281069651184124	0.0312663768106915	0.282803350644283	-6.34752439251273
1.607507	0.308016714287889	-0.00582169459531135	0.308071726077983	1.08279454884547
1.376413	0.299063255268184	0.0198821335033042	0.299723422315051	-3.80350469254701
1.17375	0.274326277019455	-0.010664866940789	0.274533505514754	2.22634267749763
1.001604	0.338686236818592	-0.0508074556616226	0.342475932820318	8.5315134568365
