EC-Lab ASCII FILE
freq/Hz	Re(Z)/Ohm	-Im(Z)/Ohm	|Z|/Ohm	Phase(Z)/deg
6999984	22.1284012451501	90.4314863580465	93.0995159310289	-76.2500255169231
5969734	22.0536402606711	84.6183074993329	87.4449599050669	-75.3922504018328
5091109	20.0845287001433	84.4070344541268	86.7636776447784	-76.6154579986576
4341796	19.1839696702385	89.4474788143907	91.4815618502412	-77.8950446425232
3702781	20.991325625981	97.4599279239775	99.6949010856766	-77.8450827227879
3157797	21.0920849318446	106.738783163065	108.802775138798	-78.8220903550449
2693047	19.9204361887096	119.999383004481	121.641587047377	-80.5745963630116
2296687	20.0464624224977	137.7239494436	139.175238120867	-81.7184493052107
1958656	21.8068834729367	157.070305368132	158.576861474935	-82.0958566048634
1670375	22.8211360370024	180.689131655206	182.124590729346	-82.8016260169056
1424531	24.6076471343465	208.771734618668	210.216967614834	-83.2776393531002
1214875	26.837023673135	240.97529501477	242.465087480833	-83.6452490744562
1036062	28.9699850245833	279.105871072467	280.605323006256	-84.0741652798911
883578.1	31.0681838486367	323.689463564549	325.177030047262	-84.5174627259838
753531.2	33.617537289778	375.961488930484	377.461494688208	-84.890343659055
642624.9	36.8543550441241	437.394303988688	438.944211315592	-85.183698050162
548046.8	40.8991922511228	509.993047218221	511.63038625332	-85.4149438162768
467390.6	140.075787228442	705.950595761891	719.713463695266	-78.7770558723476
398593.7	164.45679977714	802.625124502306	819.300390257005	-78.4204469406582
339937.5	188.239155735227	911.760114382983	930.988982712246	-78.3347897502861
289906.2	209.714011886503	1038.49621294633	1059.45946174707	-78.5832242502549
247234.4	232.719839353924	1187.25263119854	1209.84599595022	-78.9097528976999
210843.7	252.532763818479	1358.23318463138	1381.51010877072	-79.4674127197008
179812.5	271.820335061929	1555.57068959593	1579.14105287753	-80.088212490725
153343.8	295.832769613879	1797.71893522449	1821.89747177005	-80.655154229007
130781.2	316.134801316128	2076.41040712243	2100.33839926082	-81.3431619494
111531.3	338.527081258415	2402.67838066882	2426.4096904024	-81.9800618344675
95109.37	363.49642319191	2788.26707854934	2811.86111872464	-82.5724428988532
81109.37	390.576292515271	3235.31716695887	3258.80760571926	-83.1164090295504
69171.88	421.471834726453	3754.17613916179	3777.76084358439	-83.5943704222486
59000	447.408947691798	4355.25950778088	4378.18000390464	-84.1346696230569
50312.5	1314.20198896276	5692.99200992475	5842.71211791756	-77.0012304821192
42906.25	1685.92980393748	6792.66977681606	6998.76574837843	-76.06094944453
36593.75	1821.35568658248	7538.98685180025	7755.87901457104	-76.418074038235
31203.13	1912.99786790258	8589.32828381877	8799.77961143397	-77.4441268577553
26609.38	2057.07199677065	9841.36425046499	10054.0536854658	-78.193842132684
22703.13	2173.35322083082	11324.331830145	11530.9997667908	-79.1359566352176
19359.37	2316.7782788909	13082.1488543975	13285.7096250879	-79.9573489303171
16500	2466.66229613202	15134.9636322924	15334.6518393465	-80.7434470252366
14112.02	2621.57074090184	17489.8496668598	17685.2332333761	-81.4753433127367
12011.13	2813.63567511096	20342.4745080328	20536.1343690145	-82.1251920439741
10236.38	3048.96982660752	23641.0462543146	23836.8472118736	-82.6511672999042
8750.684	3257.80040314632	27430.6328379832	27623.4118341487	-83.2269898840107
7449.463	3613.05669742474	31955.4396348724	32159.0469534901	-83.5492213479923
6363.206	3945.69360598257	37133.6561659564	37342.6956483294	-83.9347073525563
5414.761	13666.0326271758	49979.9421194521	51814.6220871176	-74.7073939493129
4620.567	15062.3108757053	56542.4985759544	58514.3346038233	-75.0834261502573
3941.215	16332.2531239085	64215.8263188493	66260.2055680182	-75.73029550096
3361.769	17660.9491902669	73201.5886975369	75301.9369879989	-76.4357784341045
2867.244	18716.2937884489	83934.5758591607	85996.0038480436	-77.4294591381999
2442.658	19988.4278861094	96569.6794670356	98616.6326829516	-78.3057980858525
2083.003	21297.4271763834	111298.04156146	113317.405811066	-79.1671255392727
1777.843	22552.4854601468	128637.497027554	130599.464937435	-80.0560695584182
1513.548	23940.6116836957	149100.194509777	151010.002617849	-80.8780348113129
1292.065	25287.695259358	172897.823416844	174737.302468055	-81.6790298089057
1101.762	27556.2721228163	200679.649601363	202562.755454778	-82.1813419078969
939.101	29765.9429508629	233336.451535082	235227.360174656	-82.7302354756323
801.2801	31721.1068299367	271318.368535575	273166.406652287	-83.3315546816221
684.3433	111463.215026702	384902.762223124	400717.088069725	-73.8496188342226
582.9476	124998.585598515	432612.573906512	450309.099956515	-73.8839390061509
497.0677	137462.585616195	489238.476466402	508183.283175919	-74.3060943096033
423.5089	155393.833299246	555430.125362942	576758.066773346	-74.3698645122013
361.5036	158800.335557566	627257.41826291	647046.687140153	-75.7931489710858
308.1262	170421.336275465	719969.645053676	739864.664419536	-76.682837835365
262.7298	182712.019814939	825140.07083836	845127.10209056	-77.5143714834383
224.2111	193339.731024564	950433.968078487	969899.468640987	-78.5016350602283
191.2854	198773.79131566	1088888.4338757	1106882.57802816	-79.654712622929
163.1722	221346.31837586	1254661.42203296	1274036.6857341	-79.9948776658982
139.1537	250089.998609024	1471125.0321427	1492231.17096552	-80.3520022596032
118.6706	263250.424155548	1711674.4536882	1731799.70586292	-81.2565880265558
101.1982	245874.176614888	1982498.00805338	1997686.77791631	-82.9301404503534
86.24196	297978.927542631	2326527.06973594	2345531.84746521	-82.7013584027577
73.61024	311923.941104081	2774396.28048971	2791875.94033636	-83.5852030975265
62.69291	184797.635236369	2819791.9923166	2825840.94490858	-86.2504308731365
53.57697	416533.822065455	3478041.8520473	3502895.30952854	-83.1707254285288
45.65746	657886.111820135	4469524.72889802	4517683.63637348	-81.6265468748718
38.96512	467361.537050724	4890113.70372532	4912396.44589854	-84.5406675166866
33.18414	666691.676696524	5810460.02372059	5848583.03172927	-83.4545114244571
28.30617	-15034.4508390277	6755001.57864827	6755018.30954237	-90.1275216812278
24.17237	730630.663301101	8013168.47241194	8046408.52389515	-84.7902479322456
20.61345	1476610.09175376	8928766.64667793	9050041.5023301	-80.6096040842941
17.55618	1496688.31569837	10069928.3549795	10180546.7922292	-81.5460463046559
14.98558	921215.04357393	12376043.3012184	12410281.4210694	-85.7430194497687
12.76553	1071027.63031994	14455088.1967449	14494711.9654232	-85.7625000148031
10.8809	1135424.54510817	17129654.682635	17167243.7637482	-86.2077455173993
9.278505	1871836.74711793	20326537.8580797	20412543.058223	-84.7385671391248
7.923394	1972105.93707794	23436691.9027397	23519518.0471668	-85.1901151774674
6.75822	2669070.35941726	26281676.0725808	26416858.8929037	-84.2011327272921
5.761429	1074820.68790665	25095930.9214623	25118936.8470475	-87.5476073213127
4.919708	2293075.4067616	32925386.5467914	33005140.115999	-86.016091134928
4.191257	1920121.9099444	41142383.7484085	41187165.5816512	-87.3279353026596
3.564097	-239291.732994017	46922547.5776571	46923157.733799	-90.2921897515484
3.051758	-5340586.36461624	61938944.0003437	62168759.4101381	-94.9280485677314
2.604164	10128358.3838271	69310432.1921991	70046553.4785308	-81.6861917813449
2.214424	14022031.3994894	84448966.2331684	85605170.7691719	-80.5725337149491
1.892567	11616629.7009755	77099720.97768	77969949.7270948	-81.4316839287478
1.607507	11693643.6089091	92457185.2815797	93193735.9002446	-82.7917138470498
1.376413	2809376.66663426	138665501.127464	138693957.331189	-88.8393406704351
1.17375	3795575.73286846	149186521.327811	149234796.68307	-88.5426058283369
1.001604	26118933.9129474	184899955.234132	186735621.010917	-81.9596072411813
