EC-Lab ASCII FILE
freq/Hz	Re(Z)/Ohm	-Im(Z)/Ohm	|Z|/Ohm	Phase(Z)/deg
6999984	4.98741365007588	3.2633692350281	5.96019074200575	-33.1975642611806
5969734	3.89782606781715	1.128708982099	4.05795909555849	-16.1496405149872
5091109	2.36688356842265	-0.156543256307875	2.372054724825	3.7839731342688
4341796	1.69017758991059	-0.834630047284445	1.8850219100228	26.2807146259582
3702781	0.941704303731375	-0.682710920583219	1.16314281012685	35.9411268265409
3157797	0.686086555460252	-0.629925299870052	0.931407883260438	42.5563657488285
2693047	0.495356636155152	-0.514431105334302	0.714155136590377	46.0821646735692
2296687	0.393211789752432	-0.39360333779166	0.556362381115983	45.0285124770574
1958656	0.332731981155322	-0.296453919732157	0.445640547760306	41.7000516761158
1670375	0.290120261229179	-0.222613847601332	0.36568660232439	37.4995949476086
1424531	0.272760259019468	-0.169583350024297	0.321180123148726	31.8704736865206
1214875	0.259015390428882	-0.127638652119251	0.288756987783578	26.2333424754567
1036062	0.248802602985025	-0.0999657252927602	0.268134073712073	21.889634839011
883578.1	0.246116786050671	-0.0783773301064898	0.258295331453229	17.6643804971305
753531.2	0.243722603783836	-0.0594428590820327	0.25086681943019	13.7065885835951
642624.9	0.242249514392707	-0.046092808523622	0.246595568129474	10.7728957034985
548046.8	0.242222168922211	-0.0367427679845036	0.244993081772819	8.6254613465041
467390.6	0.242159496656068	-0.029498099986451	0.243949502404762	6.94513656156803
398593.7	0.242577637747536	-0.0243176532640757	0.243793475293016	5.72459837511075
339937.5	0.24303733851793	-0.0197032644369654	0.243834711522687	4.63488593384687
289906.2	0.244257156926324	-0.0171555114040692	0.244858878297818	4.01759724819119
247234.4	0.244337774203195	-0.0156531149657001	0.24483865689613	3.66555479012895
210843.7	0.243791074294468	-0.0144346757733817	0.244218033261947	3.38848156772841
179812.5	0.243182982197255	-0.0132660394394018	0.243544555744443	3.12248591133893
153343.8	0.242396570813952	-0.0120454865112592	0.242695676285459	2.84487640044214
130781.2	0.242014557783856	-0.0107939382572867	0.242255145007113	2.55372044839508
111531.3	0.241682132176809	-0.00993427073398962	0.241886218599871	2.35380057677126
95109.37	0.241293194850153	-0.00909085406478121	0.241464385590549	2.15762956800098
81109.37	0.240654177784725	-0.00830301923672088	0.24079737003067	1.97602773004529
69171.88	0.24010074858483	-0.00746311033230286	0.240216709424694	1.78036550779709
59000	0.239514511958597	-0.00662362927587121	0.239606080689846	1.58407646972102
50312.5	0.239073232356293	-0.00581467798300593	0.239143933457096	1.39325860563065
42906.25	0.238683908854122	-0.00502865378291376	0.238736875460729	1.20694361685221
36593.75	0.238363539888833	-0.00431533769940019	0.238402599163254	1.037170492577
31203.13	0.238127498467733	-0.00364417810166581	0.23815538112866	0.876756060927449
26609.38	0.238000391092333	-0.00303092745568912	0.238019689692566	0.729620499137854
22703.13	0.237941127344281	-0.00258883974752052	0.237955210434875	0.623363184199662
19359.37	0.237791898610166	-0.00214516107227261	0.237801574344354	0.516860929804052
16500	0.237805391263221	-0.00173735576832256	0.237811737554981	0.418583369965986
14112.02	0.237803007123605	-0.00141121879868377	0.237807194457037	0.340012235125208
12011.13	0.237795444638047	-0.0011547073721849	0.23779824818472	0.278219539061262
10236.38	0.237794660869664	-0.000948421687413858	0.237796552207587	0.228517627573285
8750.684	0.237871607216087	-0.000812829950987555	0.237872995970736	0.195784376850122
7449.463	0.237875778662218	-0.000630610166501818	0.237876614536483	0.151891111489181
6363.206	0.237833352074221	-0.00055423619310637	0.237833997856947	0.133519277084091
5414.761	0.237785955890669	-0.000442160878953095	0.237786366987433	0.106540871751002
4620.567	0.237773400623026	-0.000329077645478729	0.237773628344135	0.0792971296629879
3941.215	0.237762214959443	-0.000273307548711799	0.237762372042837	0.0658614412545086
3361.769	0.237741585198886	-0.0001961353782888	0.237741666104126	0.0472686628644599
2867.244	0.23771490055219	-0.00016540224466868	0.237714958095699	0.0398664492218263
2442.658	0.237705719303725	-0.000119341568867263	0.237705749261795	0.0287656841496421
2083.003	0.237691474798332	-9.64212871886693E-05	0.237691494355332	0.0232424512186723
1777.843	0.237645636778546	-3.98200458586652E-05	0.237645640114682	0.00960051519267978
1513.548	0.237634243665536	-3.54697389779923E-05	0.237634246312676	0.00855207691210374
1292.065	0.237589135827833	-2.75807725456023E-05	0.237589137428704	0.00665123786055567
1101.762	0.237636472702969	-1.34638147992684E-05	0.23763647308438	0.00324621786607081
939.101	0.237572992035206	-2.7582438314912E-05	0.237572993636379	0.00665209156767042
801.2801	0.237623169541373	-2.00780980746924E-05	0.237623170389628	0.00484123782967883
684.3433	0.237553545610328	-9.93876287150843E-06	0.237553545818237	0.00239714025031054
582.9476	0.237522284217369	-3.38773048308452E-05	0.237522286633293	0.00817197671081395
497.0677	0.237496316922085	-1.86425893051904E-05	0.237496317653773	0.00449750841626615
423.5089	0.237441779615906	-2.36235742364176E-05	0.237441780791085	0.00570047570602015
361.5036	0.237426553778358	-4.05560171780948E-05	0.237426557242146	0.00978697857752716
308.1262	0.237386585285411	-1.50103312522721E-05	0.237386585759974	0.00362290323890162
262.7298	0.23735205577464	2.61158941683488E-06	0.237352055789008	-0.000630426607898035
224.2111	0.237353681842411	-4.35512917736038E-05	0.237353685837957	0.010513024965939
191.2854	0.237330551036284	-4.56104231902222E-05	0.237330555419013	0.0110111602026037
163.1722	0.237260462983236	-2.22224627490576E-05	0.237260464023945	0.00536647912667336
139.1537	0.237263605333153	-1.11948181892858E-05	0.237263605597256	0.00270338905659694
118.6706	0.237223688195267	-1.73295344278386E-05	0.237223688828241	0.00418553977231096
101.1982	0.237201511865025	1.3996929133201E-06	0.237201511869155	-0.000338094373497567
86.24196	0.237182844577535	1.00289303019849E-05	0.237182844789564	-0.0024226683848726
73.61024	0.237161255579787	9.68769341200201E-06	0.237161255777651	-0.00234044951422912
62.69291	0.237144637790487	6.29852126660795E-06	0.237144637874131	-0.00152176616358495
53.57697	0.237150496908272	-9.52717260718472E-06	0.237150497099642	0.0023017737171422
45.65746	0.237106174742213	6.63102983765686E-06	0.237106174834936	-0.00160236241775262
38.96512	0.237116896981469	3.54462492570546E-06	0.237116897007963	-0.000856506013574141
33.18414	0.237102239600525	-3.25327747895242E-05	0.237102241832435	0.00786154817741207
28.30617	0.237074283131319	4.19400053805741E-06	0.237074283168416	-0.0010136001548009
24.17237	0.237059229465015	9.6379582679857E-06	0.237059229660937	-0.00232943611949111
20.61345	0.237009887731286	2.70332294069168E-05	0.237009889272984	-0.00653512796337241
17.55618	0.23701645072312	1.16917394740784E-05	0.23701645101149	-0.00282633262140273
14.98558	0.236996420224862	-5.94425652465099E-06	0.236996420299408	0.00143707154230871
12.76553	0.236999606954856	1.5492996128158E-05	0.236999607461256	-0.00374550532086151
10.8809	0.236962867770962	-1.15026562756301E-05	0.236962868050143	0.00278125287503963
9.278505	0.23694916373436	8.89060037590993E-07	0.236949163736028	-0.00021498023915617
7.923394	0.236972331601932	-9.20927325898674E-06	0.236972331780879	0.00222664176146669
6.75822	0.236947270231618	3.1257373228459E-05	0.236947272293308	-0.00755828734602728
5.761429	0.236917443375848	8.66770285252893E-06	0.236917443534404	-0.00209618500109336
4.919708	0.236905748759448	9.11631326513235E-06	0.23690574893485	-0.00220478514045584
4.191257	0.236888002397961	6.18722088291872E-06	0.236888002478762	-0.00149649471411511
3.564097	0.236863640955839	7.64852119730798E-06	0.236863641079327	-0.00185012770301663
3.051758	0.23685523605051	1.77261511570202E-05	0.236855236713819	-0.00428799322044728
2.604164	0.236834293627496	3.35406147663445E-06	0.236834293651246	-0.000811426267211043
2.214424	0.236808972212301	-4.65227565790001E-06	0.236808972258	0.00112561512262237
1.892567	0.236786973247925	9.46034994720803E-06	0.23678697343691	-0.00228913827888618
1.607507	0.236755461848024	7.17440076257668E-06	0.236755461956727	-0.00173623400658493
1.376413	0.23673243521678	1.39128078455465E-05	0.236732435625609	-0.00336728327522416
1.17375	0.236683907581201	7.39231061846216E-06	0.236683907696643	-0.00178950991420738
1.001604	0.236626406814526	7.32281352489698E-06	0.236626406927834	-0.00177311701873089
