EC-Lab ASCII FILE
freq/Hz	Re(Z)/Ohm	-Im(Z)/Ohm	|Z|/Ohm	Phase(Z)/deg
6999984	6.32453606467066	3.5225950458219	7.23936684318241	-29.1166207991597
5969734	4.42036707932493	1.21949345900644	4.5854999086838	-15.4231472194952
5091109	2.67958811966326	0.0710354456246188	2.68052952335459	-1.51854614077631
4341796	1.70289833722952	-0.373401658773849	1.74335640237851	12.367746644557
3702781	0.975190602695059	-0.357212601831699	1.03855551343783	20.1177972350366
3157797	0.685788160921658	-0.254749736071097	0.731575580298169	20.3785216797109
2693047	0.538402646829291	-0.14410357424838	0.557353792688221	14.9840151765731
2296687	0.463201379091979	-0.0556967377105977	0.466537934346517	6.85649999066129
1958656	0.430858802048523	0.012299045265862	0.431034307007157	-1.6350880481371
1670375	0.415259166497612	0.0505750710821415	0.418327638550521	-6.94394480935416
1424531	0.408171748786952	0.065409643137295	0.413379484158499	-9.10425925758312
1214875	0.405166349959485	0.0689620922300373	0.410993359197246	-9.65956422304596
1036062	0.408290509223335	0.0632709389937349	0.413163831479716	-8.80880211136801
883578.1	0.405338368620887	0.0580692163430715	0.409476772189755	-8.15278262467707
753531.2	0.403436175184019	0.0521479821968582	0.406792526350121	-7.36518910991229
642624.9	0.400001462958187	0.046146352098908	0.402654512182251	-6.58086145457975
548046.8	0.397361062808382	0.0399585975138047	0.399365125857876	-5.74235491013965
467390.6	0.394936466308743	0.034027781478554	0.396399674990772	-4.92445078209686
398593.7	0.392681880409049	0.0290285083713097	0.393753366334625	-4.22782749533838
339937.5	0.390886624672552	0.0254747908186543	0.391715864262803	-3.72879672563991
289906.2	0.390092910863844	0.0222460821946209	0.39072671687413	-3.26390851095327
247234.4	0.389427530124731	0.0196463481695161	0.389922787504713	-2.88808372073075
210843.7	0.389179808393793	0.0175494397156624	0.389575289380324	-2.58191226374669
179812.5	0.389448323532572	0.0159604103336858	0.389775231896988	-2.34678814631665
153343.8	0.389609777000505	0.0140333212119168	0.389862427580063	-2.06284000333233
130781.2	0.390417210908611	0.0136700128356791	0.390656457548812	-2.0053270728149
111531.3	0.391780921108284	0.0123510610840582	0.39197555900127	-1.80567591839699
95109.37	0.392402223012097	0.0109195373560363	0.39255412482982	-1.59398176408324
81109.37	0.392962854012603	0.00967607944633517	0.393081964922307	-1.41053156428046
69171.88	0.393332855280237	0.0085046660419672	0.393424788730183	-1.23865969560168
59000	0.393749128518001	0.00748705745611031	0.393820304501985	-1.08933600799248
50312.5	0.393724443343838	0.00633044935737961	0.393775331725441	-0.921143674274029
42906.25	0.39411507355059	0.00575642053097502	0.394157110270912	-0.836799130210616
36593.75	0.394497124974313	0.00507534348494552	0.394529771657969	-0.737089576955179
31203.13	0.394647780380865	0.00465355894727288	0.394675216057987	-0.67558198469009
26609.38	0.39493705949939	0.00417591992957583	0.394959136206878	-0.605802027778902
22703.13	0.395199775326187	0.00377605590019485	0.395217814649124	-0.547433212907099
19359.37	0.395329727521163	0.00329757510287132	0.395343480360453	-0.477911831848854
16500	0.395503452504994	0.00302216793532879	0.395514999010656	-0.437806791541979
14112.02	0.39566620548894	0.00255520910109602	0.395674456162597	-0.370010529109093
12011.13	0.395785419450116	0.00232904676503146	0.39579227216829	-0.337159993925268
10236.38	0.395856246858252	0.00199854039052447	0.395861291793469	-0.289263988111763
8750.684	0.395936856000022	0.00175721533428329	0.395940755347203	-0.254283883394995
7449.463	0.396019982952009	0.00154039402352941	0.396022978766456	-0.222861560107092
6363.206	0.39606291758271	0.00128268711627057	0.39606499462887	-0.185557137502817
5414.761	0.396073890067527	0.00108656331846285	0.396075380468249	-0.157181116220065
4620.567	0.396063739803904	0.000978984820605327	0.39606494972256	-0.141622619180626
3941.215	0.396162666260797	0.000828132909017687	0.39616353181859	-0.119770123465896
3361.769	0.396093420080842	0.000794076081316764	0.39609421604987	-0.114864688007104
2867.244	0.39610469169878	0.000640927658372419	0.396105210233403	-0.0927088684356307
2442.658	0.396152998005098	0.000565941388731381	0.396153402254837	-0.0818522922461533
2083.003	0.396141268990565	0.00043617746260684	0.396141509120458	-0.063086377469572
1777.843	0.396127555503697	0.000397992261823388	0.396127755436519	-0.0575654707472504
1513.548	0.396157563381924	0.000357151273368479	0.396157724374693	-0.0516543339298211
1292.065	0.396097625580212	0.000314078785929999	0.396097750101872	-0.0454316914183351
1101.762	0.396146215648861	0.000244957241739982	0.39614629138358	-0.0354288739098042
939.101	0.396109243218108	0.000194751403100451	0.396109291093924	-0.0281700887920257
801.2801	0.39602234812909	0.000202202058532367	0.396022399749497	-0.0292542166136604
684.3433	0.396070209761932	0.000168178075151911	0.39607024546755	-0.0243287505503506
582.9476	0.396056670593639	9.54281931882115E-05	0.39605668209015	-0.0138051774314032
497.0677	0.396068635235427	4.08079814111596E-05	0.396068637337703	-0.00590333313225961
423.5089	0.396039908065226	3.42756501669948E-05	0.396039909548435	-0.00495871766895025
361.5036	0.396046636949861	-6.12109087693322E-06	0.396046636997163	0.000885533774348854
308.1262	0.395967667817099	-3.03562634014904E-05	0.395967668980708	0.00439249441974339
262.7298	0.395955893303826	-6.44302206961856E-05	0.395955898545892	0.00932320934941441
224.2111	0.395920909212479	3.9762376505637E-06	0.395920909232446	-0.000575422086607681
191.2854	0.395873627808424	4.83716006475048E-06	0.395873627837977	-0.000700094265081377
163.1722	0.395820615828893	-1.64146532310752E-06	0.395820615832296	0.000237605196570296
139.1537	0.395867913418367	5.03175432867868E-06	0.395867913450346	-0.00072826889169914
118.6706	0.395820303372925	-2.68957125403919E-06	0.395820303382063	0.000389320811086828
101.1982	0.395794119979699	-7.50199257334721E-06	0.395794120050797	0.00108600024770923
86.24196	0.395796781745564	1.38693406389887E-05	0.395796781988566	-0.00200773406851224
73.61024	0.395773551877664	1.51636164234989E-05	0.395773552168153	-0.0021952230478129
62.69291	0.395754967530771	1.22661956807743E-06	0.395754967532672	-0.000177584945445587
53.57697	0.395707974057091	5.33516046010619E-06	0.395707974093057	-0.000772494357989698
45.65746	0.395774696541596	5.64273003209538E-06	0.395774696581821	-0.000816890565703205
38.96512	0.395768596284014	6.08612952163108E-05	0.395768600963639	-0.0088109449735218
33.18414	0.3957515353292	-3.2585330626843E-05	0.395751536670703	0.00471761129918124
28.30617	0.395758663224099	4.06732260869979E-05	0.39575866531415	-0.00588844768874211
24.17237	0.395764391952255	2.99939187172726E-05	0.395764393088835	-0.00434229300364962
20.61345	0.395742365897623	-3.17460213012245E-05	0.395742367170939	0.0045962049801398
17.55618	0.395797349226245	5.7279831963756E-06	0.395797349267693	-0.000829185094071123
14.98558	0.395745739764069	-2.85029023156622E-05	0.395745740790506	0.0041266293977312
12.76553	0.395813192126186	2.97817485512367E-05	0.395813193246604	-0.00431104503141877
10.8809	0.395856548027321	2.73323191756597E-05	0.395856548970915	-0.00395604553817587
9.278505	0.395745383011762	-5.66118123636155E-06	0.395745383052254	0.000819622428470389
7.923394	0.395824008663534	-1.13340523748499E-05	0.395824008825804	0.00164061136128217
6.75822	0.395780679554676	1.6768032145112E-05	0.395780679909882	-0.00242744914471517
5.761429	0.395767335184877	-3.47521556542757E-05	0.395767336710663	0.00503111718890077
4.919708	0.395792288848132	2.23454510872309E-05	0.395792289478916	-0.00323477761777544
4.191257	0.395809544615179	8.87062623772624E-07	0.395809544616173	-0.000128407576819052
3.564097	0.395838258204524	9.41156522193914E-06	0.39583825831641	-0.0013622810694791
3.051758	0.395858738651517	9.2303728027814E-06	0.395858738759131	-0.00133598517147158
2.604164	0.395864381141349	-9.55139995545671E-06	0.395864381256577	0.00138243027626047
2.214424	0.395860137678544	-2.01030287095243E-06	0.395860137683648	0.000290966073833758
1.892567	0.395856357493089	2.28138867390833E-05	0.39585635815049	-0.00330205489503749
1.607507	0.395843042467812	6.11322577742021E-06	0.395843042515017	-0.000884850808657058
1.376413	0.395825785727759	-1.34952289230445E-06	0.395825785730059	0.00019534342853099
1.17375	0.395787099790307	4.7181503115055E-07	0.395787099790589	-6.83018976870888E-05
1.001604	0.395748375343744	-2.5098100770709E-06	0.395748375351703	0.00036336605215052
