EC-Lab ASCII FILE
freq/Hz	Re(Z)/Ohm	-Im(Z)/Ohm	|Z|/Ohm	Phase(Z)/deg
6999984	3.07084465988882	1.33658383200221	3.34911081708823	-23.5210634057106
5969734	4.67337934933922	1.16782316369712	4.81708267362081	-14.0302237941747
5091109	5.73244371803203	0.448247809033654	5.74994235438133	-4.47113917966084
4341796	-2.43757258913748	-7.16514218099148	7.56842272875516	108.788241406623
3702781	-3.28452134573607	-6.70318927052757	7.4646384284245	116.104568675767
3157797	-0.807883770550503	-5.70071898151015	5.75767948854997	98.0660238201039
2693047	-1.37679618848323	-3.31350428916178	3.58815808165073	112.563403022961
2296687	-0.891881022304005	-4.0642419764057	4.16095116538565	102.377130158007
1958656	-0.888164237807162	-4.01410393738302	4.11118792241774	102.476309152344
1670375	-0.935351690849599	-3.67108625627593	3.78837129735104	104.294189644735
1424531	-0.31152733744415	-3.49731474575159	3.51116215985912	95.0902529195329
1214875	0.60257945517225	-2.16005700085279	2.24253166013968	74.4127790510566
1036062	0.695138795282115	-2.82678014731043	2.91099707075336	76.1844218493807
883578.1	2.21242892462899	-1.99693870789577	2.98037010279385	42.0694146483248
753531.2	1.69441326164021	-0.425924736040891	1.747125691527	14.1100998403939
642624.9	1.36167480773547	0.289609096933357	1.39213207385219	-12.0070926308339
548046.8	1.06285001119093	0.673922808984193	1.25849993991168	-32.3776158197248
467390.6	0.732864130369596	0.607288642780945	0.951782185814121	-39.6468803355763
398593.7	0.345427261112255	0.253513886112417	0.428473200061957	-36.2754648887336
339937.5	0.576213030987574	0.415655757240928	0.710486569617904	-35.805089457243
289906.2	0.396902376449184	0.0219771499482148	0.397510366595459	-3.16932692996426
247234.4	0.309430115326835	-0.178246754461431	0.357097888186435	29.9440291511082
210843.7	0.165318860133985	0.146401162695301	0.220824876213112	-41.5270871769217
179812.5	0.171460665697219	-0.0677455530969054	0.184358942950265	21.5593934250535
153343.8	0.0276588248651143	-0.103617396709328	0.107245398473489	75.0543771900441
130781.2	-0.00294860002111688	-0.0912034145084543	0.0912510660764326	91.851723574115
111531.3	0.138821148738591	0.00917908492760406	0.13912428593603	-3.78298535502999
95109.37	0.0345210356037828	0.00484292245385341	0.0348590848567727	-7.98585137106571
81109.37	0.0702429885952677	-0.0440618079078039	0.0829187576058585	32.0991010355117
69171.88	0.025517105187073	-0.0955122891052029	0.0988621263540493	75.0421731890079
59000	0.00595759417765949	-0.0950870329392429	0.0952734840423837	86.4148697603391
50312.5	0.0789060077056029	-0.0640659430153247	0.101639574509536	39.074088698206
42906.25	-0.0460732006322747	0.105176608289285	0.114825340181249	-113.656090834055
36593.75	0.00395243661071539	-0.0773809002914716	0.0774817751802344	87.0760057601405
31203.13	0.0613775041808208	-0.0228095206098628	0.0654787923675936	20.3864113085498
26609.38	0.0569691730911447	0.00320499797337326	0.0570592559949579	-3.21997811792721
22703.13	0.0795401402488595	0.184772726708235	0.201165589617122	-66.7093041997432
19359.37	0.0738023444221605	0.0192904534330821	0.0762817647662999	-14.6482504494705
16500	0.060352542886264	0.0287915863578197	0.0668684146502527	-25.5037895853387
14112.02	0.045603757495704	0.0106340614988692	0.0468271925454507	-13.1259015878079
12011.13	0.239509113081515	0.0173861346013189	0.240139319823866	-4.15185844832419
10236.38	0.00234397127616323	0.0310053804595897	0.0310938550004239	-85.676728232872
8750.684	0.0866024291240881	0.0734715575420338	0.11356958438704	-40.3105258905204
7449.463	0.0654475978551457	-0.0199154419556851	0.0684106197406451	16.9247951160197
6363.206	0.0372515830840317	0.0621175311288601	0.0724311267053842	-59.0490876619622
5414.761	0.0531601686405473	-0.00940944440891476	0.0539864906617932	10.0374929142922
4620.567	-0.0120873645220227	0.148838074419208	0.149328084357585	-94.6428874730948
3941.215	0.0614581251257006	-0.0441061920440877	0.075646925387594	35.6655856932846
3361.769	0.0699763723823242	0.0136000741323344	0.0712857258376086	-10.9984577282856
2867.244	0.0041026902204807	-0.109029800753911	0.109106963661733	87.8450297127651
2442.658	0.0962508582645639	0.00968467617752965	0.0967368630322938	-5.74571244281912
2083.003	0.119201901071524	-0.0469411373230659	0.128111527944398	21.4942825012148
1777.843	0.309774783121833	0.00910864866286645	0.309908669995924	-1.68424553512815
1513.548	0.169085057621193	0.0625518754040985	0.180284480273073	-20.3016135548705
1292.065	0.106814422325811	0.277392500138821	0.297247237077256	-68.940000783526
1101.762	0.463126975895986	0.160300217999639	0.49008443730983	-19.0920595423036
939.101	0.264979418417092	0.148564643560837	0.303785360906378	-29.2778167452418
801.2801	0.46408715662528	-0.197242549516321	0.50426333624827	23.0260679777632
684.3433	0.181821097520673	-0.0764388595775403	0.197235419631305	22.8022248263615
582.9476	0.068597241497127	0.262476818733859	0.271292576222907	-75.3535757506614
497.0677	0.0691501012626386	-0.434692548264803	0.440158321540762	80.9612282831659
423.5089	0.426507975577927	-0.0534698815239196	0.42984657898111	7.14570043775357
361.5036	0.682733621378233	0.167502377171662	0.702980969954659	-13.7847171085391
308.1262	0.501044180778009	-0.0563607919230448	0.504204135204878	6.41803257878153
262.7298	1.06819553874676	0.517161203535659	1.18680133950082	-25.833698683775
224.2111	0.786719746649782	0.349830043761866	0.860993042531196	-23.9732416976278
191.2854	0.956044020348165	-0.768108454965162	1.22638116726915	38.7792216985199
163.1722	0.934725483579928	0.056070072004518	0.936405672039807	-3.43280844754871
139.1537	1.70757638408531	0.120257479594755	1.71180576260403	-4.02845136066214
118.6706	1.1547968830587	0.431056958493848	1.23262562953561	-20.469352678973
101.1982	1.63880233756595	-0.824275423621108	1.83442172784705	26.7012198109606
86.24196	0.807686012671606	-0.810778313616184	1.1444291891138	45.1094714135094
73.61024	0.903629011760848	2.1083888449715	2.29387203489997	-66.8006336722871
62.69291	1.23771937818778	0.745788332510743	1.44504307757613	-31.0710829707541
53.57697	0.940278557512863	0.127455194946403	0.948877543436083	-7.71942026675192
45.65746	0.912127874859022	0.654309680287833	1.12254105395447	-35.6535478500089
38.96512	1.92089994593766	-0.42149914021893	1.96660065277845	12.3761519354115
33.18414	2.22524599402892	-0.760616909628734	2.35165002012521	18.8710697207217
28.30617	1.77214326285956	0.488160838917307	1.83814927270637	-15.4009393753559
24.17237	1.94818652776061	3.04993517772148	3.61905171768116	-57.4310548485127
20.61345	2.42424949233062	1.69171256925864	2.95615916656274	-34.9084678036428
17.55618	0.598281609282656	-1.186337980655	1.32866048648646	63.2377529190455
14.98558	1.73981102895034	1.33242633842799	2.19141560727167	-37.4465333262015
12.76553	2.10909929526634	0.371256301344086	2.14152540927738	-9.98327391813898
10.8809	0.302179664401045	-1.27290995376681	1.30828601612038	76.6455955786815
9.278505	3.14210281950386	-0.412318746386657	3.16904037161977	7.47585590804181
7.923394	5.40592567422673	-1.35260746957142	5.57257385433375	14.0474755533861
6.75822	1.47940173972223	-1.48318151392619	2.09486441345151	45.0731000526745
5.761429	1.25827122144929	0.544394806053921	1.37098948631489	-23.3958663978965
4.919708	2.12609615892447	-0.629328297614849	2.21728189077803	16.4888487184385
4.191257	-0.224781673584409	-2.08955843398522	2.10161396308127	96.1399116002126
3.564097	1.81987742083913	1.01057626461073	2.08163834838684	-29.0433738746302
3.051758	1.57189495349152	1.3138751122069	2.04868776422587	-39.8907082548721
2.604164	0.43508881579962	2.24874396633105	2.29044792644238	-79.0496691912709
2.214424	0.215468630560751	-1.5601632297557	1.57497175664754	82.1368230872153
1.892567	2.55681039271421	0.941520544733907	2.72465416529281	-20.2157386405363
1.607507	3.28627763510728	-0.480021107902863	3.32115054748179	8.31032882960419
1.376413	1.15155220151342	1.80565640572609	2.14160396160217	-57.4724224013212
1.17375	1.328840896731	0.447269253478157	1.40209411735865	-18.602512942988
1.001604	1.09474932192278	0.167504787075011	1.10748992390153	-8.69921247389334
