EC-Lab ASCII FILE
freq/Hz	Re(Z)/Ohm	-Im(Z)/Ohm	|Z|/Ohm	Phase(Z)/deg
6999984	17.5244099973058	3.45430789931839	17.8616121561567	-11.1508530426345
5969734	20.3030621604285	-8.59626257901037	22.0479038327347	22.9476701626554
5091109	13.9142730262316	-4.26948064669317	14.5545683151718	17.058202609038
4341796	8.1586983281556	-6.9490903202555	10.7170058639957	40.4223672521299
3702781	5.74589749573523	-4.93703143996396	7.57559353916834	40.6700683661209
3157797	4.15193018512257	-5.34960916032362	6.77176804315906	52.1843027015833
2693047	2.88843163658896	-3.98882999438559	4.92481492478226	54.0905733930292
2296687	2.19413356842695	-3.8988762749015	4.47386391423429	60.6309095427593
1958656	1.79024761594857	-3.04697389107464	3.53398308135454	59.5636610577691
1670375	1.62256164279727	-2.97748917053547	3.39089192474974	61.4121374964202
1424531	1.24179757760712	-2.37626300876211	2.68117271181139	62.4091413557274
1214875	0.986968694727083	-2.03070518072173	2.25784648180105	64.0791987369747
1036062	0.862082765687195	-1.7691580183366	1.96802103361208	64.0207570418713
883578.1	0.732743710229551	-1.56703912656496	1.72989160616104	64.9393229790251
753531.2	0.664467363780998	-1.34915291258151	1.50390506982896	63.7794272185622
642624.9	0.616171460825043	-1.17868341243499	1.33002325388869	62.4011199465955
548046.8	0.56772166744202	-1.01301388417915	1.1612514892231	60.732494959836
467390.6	0.531616114179391	-0.879072540210538	1.02731894940539	58.8366922073072
398593.7	0.501135518592461	-0.764162107862369	0.913827409901669	56.74324193377
339937.5	0.474390737150338	-0.663060462194422	0.815288751314233	54.4179385588551
289906.2	0.453586914753111	-0.574390575354712	0.731891810509971	51.7024222775664
247234.4	0.434544142252055	-0.497661770887243	0.66067832548692	48.8734603528419
210843.7	0.421321310637564	-0.42964516564158	0.601752951930055	45.560429305323
179812.5	0.40938334453313	-0.369778343481416	0.551661804087424	42.0901442613526
153343.8	0.402001019435303	-0.32207858233055	0.515111087847155	38.7013051679601
130781.2	0.395192734259014	-0.27964718897032	0.484127924736962	35.2840760158187
111531.3	0.3883221700897	-0.243383812286823	0.458290069569963	32.0777354393312
95109.37	0.381636295602849	-0.212310421836016	0.436717273921759	29.0878926953119
81109.37	0.374563859463189	-0.184193055319595	0.417402882649278	26.1858098967727
69171.88	0.368225520247613	-0.159937068933267	0.401459711279463	23.4774956949688
59000	0.358934629147984	-0.136185992946816	0.3839019310664	20.7776097023313
50312.5	0.353081495096579	-0.105396218256264	0.368476464651892	16.6205717155391
42906.25	0.382218037144301	-0.105283099802331	0.396453224255308	15.4003778767167
36593.75	0.366790981654314	-0.0957126183878443	0.379073250891687	14.6249711742544
31203.13	0.360969311416063	-0.0829966461377096	0.370388022287837	12.948800333333
26609.38	0.356546656348474	-0.0713671570103146	0.36361901662731	11.3188671864787
22703.13	0.356765685265541	-0.0631371594567826	0.362309336185617	10.0357797704848
19359.37	0.354078359248032	-0.0564111595389579	0.35854386538931	9.05218885316163
16500	0.351965153460015	-0.0499404697162109	0.355490534002816	8.0758114744792
14112.02	0.349860762579577	-0.044361311000289	0.352661989880435	7.226372895308
12011.13	0.348340926024747	-0.0397541039860809	0.350602038681344	6.51066266552033
10236.38	0.346398277544055	-0.0356706702845749	0.348230043798692	5.87936057811133
8750.684	0.344673531293168	-0.0323065924450411	0.346184284867919	5.35474552398688
7449.463	0.342893489300527	-0.0292139462427025	0.344135728542914	4.86974362590218
6363.206	0.344555232725076	-0.0286042776005508	0.345740528569157	4.74569711734076
5414.761	0.345608759385788	-0.03210003647076	0.34709627901435	5.30639075086681
4620.567	0.347660609651531	-0.0163042519243438	0.348042710215408	2.68503492658772
3941.215	0.348194713845253	-0.0201648275723758	0.348778122910256	3.31443995073704
3361.769	0.332871994195609	-0.0323609562857501	0.334441319234765	5.55269843150001
2867.244	0.325837232626067	-0.0104908831102278	0.326006074780588	1.84409789518067
2442.658	0.337997548439485	-0.0242740001897374	0.338868071432398	4.10776361641092
2083.003	0.333983037957234	-0.0300994373197271	0.335336615611995	5.14973549531112
1777.843	0.319597272000595	-0.0114134290167388	0.319801004739107	2.04527254437583
1513.548	0.332215132872036	-0.0277051502676721	0.333368369616163	4.76716240817754
1292.065	0.339532100456853	-0.00788551226735948	0.339623657221286	1.33043492931014
1101.762	0.335416200254778	-0.0236354533775313	0.336247917539596	4.03074433775826
939.101	0.303961305709787	-0.022012880536674	0.304757349834783	4.14212962496287
801.2801	0.323272123503751	-0.00829684468029773	0.32337857607806	1.4701850651205
684.3433	0.324555319415659	-0.0141668269435143	0.324864362998849	2.49937196378015
582.9476	0.325749258295129	-0.015295870739194	0.326108176747375	2.68840391842309
497.0677	0.331842590394505	-0.0124593711983789	0.332076407970205	2.15021893187876
423.5089	0.329678791697167	-0.0228754737601712	0.330471470772677	3.96922929704183
361.5036	0.314315211703616	-0.00314522155962051	0.31433094777153	0.57331589375278
308.1262	0.309566871298829	-0.0258753939170715	0.310646396753784	4.77800678036599
262.7298	0.317544618979649	-0.0122553630654406	0.317781023610278	2.21018469471715
224.2111	0.314546391170218	-0.00748499941693656	0.314635435725983	1.36316285152581
191.2854	0.297420473508444	-0.00641696176616803	0.297489689670576	1.23598684748739
163.1722	0.30835227180316	0.00186467362783372	0.308357909796243	-0.346475886603638
139.1537	0.313796863877986	-0.0229694295614581	0.314636403605873	4.18649317408206
118.6706	0.315944024882241	0.000210459698046197	0.315944094978961	-0.0381664146887377
101.1982	0.306261715336415	-0.01289827440789	0.306533201731076	2.41159826731287
86.24196	0.306512485155596	-0.0216503592886469	0.307276165059359	4.04034882927804
73.61024	0.313641565348187	-0.0122206075569679	0.313879554547796	2.23132168073732
62.69291	0.230574559364345	-0.0457296423979001	0.235065581529712	11.2178489976192
53.57697	0.289481086017767	-0.022739175739053	0.290372810840335	4.49144709575146
45.65746	0.315351013635162	0.0021051232177645	0.31535803992365	-0.382471845491173
38.96512	0.32256923791664	-0.00541367483638975	0.32261466353121	0.961503967278635
33.18414	0.319101024476342	-0.00127895513869432	0.319103587488605	0.229639937302387
28.30617	0.269948336882061	-0.0108767564261792	0.270167371116027	2.30731307310552
24.17237	0.29241312165531	-0.00743747591138751	0.292507691803371	1.4569938578032
20.61345	0.300545386283714	-0.023717160236385	0.301479738798655	4.51207357637617
17.55618	0.321711394591953	0.0032438969687321	0.321727748691099	-0.577708188210253
14.98558	0.302653528806688	-0.0175405056113098	0.303161389092083	3.31690825291846
12.76553	0.284312787003544	-0.0282839113766548	0.285716188719654	5.68118765480487
10.8809	0.294610823126481	-0.02322812617135	0.295525096986186	4.5080697473038
9.278505	0.310208215292633	-0.00807164874562596	0.310313210077356	1.49050558628261
7.923394	0.280249102628799	0.0185268037946623	0.280860823154624	-3.78222561299365
6.75822	0.29812657491017	-0.0083176585909089	0.298242582660666	1.59812367598424
5.761429	0.289706432885429	0.0133702921264476	0.290014796116933	-2.64239254268511
4.919708	0.297641331562339	-0.034763491470864	0.299664583482011	6.66176882483018
4.191257	0.267658500636876	-0.00828556217998892	0.26778671270961	1.77306602548712
3.564097	0.303967692242202	-0.00243732811121082	0.303977463795216	0.459409420362253
3.051758	0.28299986787723	-0.0376883169129731	0.285498396580896	7.58569191736839
2.604164	0.256672931771405	-0.0156706701546175	0.257150858072111	3.49374651976544
2.214424	0.256877052197584	0.0142162020947572	0.257270131083496	-3.16765675799145
1.892567	0.276492962329545	0.035008231982358	0.278700438686949	-7.2161226803531
1.607507	0.302219133111499	0.0188517875304731	0.302806529506483	-3.56936434365121
1.376413	0.311737855703767	-0.00115578212438925	0.311739998253515	0.212425706826579
1.17375	0.293484777442195	-0.0187561614341686	0.294083505457275	3.6567123324767
1.001604	0.288196713010054	-0.0314834689803691	0.289911286791041	6.23443971248776
