EC-Lab ASCII FILE
freq/Hz	Re(Z)/Ohm	-Im(Z)/Ohm	|Z|/Ohm	Phase(Z)/deg
6999984	11.7444201889591	-0.845994799938466	11.7748508600471	4.12011429464276
5969734	8.16346210282644	-0.974973211156331	8.22147713411379	6.81065190789492
5091109	5.88034454601347	-0.766110179792284	5.93004020116321	7.42286877114811
4341796	4.77646516679288	-0.625655920382703	4.81726736026719	7.46252890972707
3702781	4.11707847530595	-0.388512645951018	4.13536905824515	5.39081550902154
3157797	3.87357401781231	-0.234459243062131	3.88066319179182	3.46376650313522
2693047	3.70204143956269	-0.162103151032955	3.70558878611945	2.5072375283917
2296687	3.5761272015441	-0.0800930319555522	3.57702399424318	1.28301522331173
1958656	3.50313412344423	-0.0255352277529529	3.50322718856425	0.417635984251737
1670375	3.44572729746043	0.0155940141111188	3.44576258348425	-0.259296519257256
1424531	3.40696174101843	0.0344732922995878	3.40713614530522	-0.579726718522499
1214875	3.37758614005782	0.0475208409249707	3.37792041999703	-0.806067965910979
1036062	3.35584107171879	0.0521565531923102	3.35624635637428	-0.890420531383524
883578.1	3.34293849651712	0.0531917095816541	3.343361654004	-0.911594186702584
753531.2	3.33320700814551	0.0513939579020903	3.3336032004513	-0.883360545431922
642624.9	3.3278883907	0.0488618708423179	3.32824707967693	-0.841187413963523
548046.8	3.32487494142032	0.0446032792927867	3.32517410500691	-0.768578191459979
467390.6	3.3246906328789	0.0402435885075686	3.32493418743419	-0.693500666775012
398593.7	3.32696619686501	0.0363000388974753	3.32716422316459	-0.625121018715124
339937.5	3.32889510053308	0.0316695367437327	3.32904574163689	-0.545068558790815
289906.2	3.32841091981537	0.0271796687794806	3.32852189200269	-0.467864615840778
247234.4	3.32766775278281	0.0225530611070225	3.32774417788927	-0.388312634550516
210843.7	3.32661273313717	0.0187082621978766	3.32666533864542	-0.322217598402933
179812.5	3.32552615952892	0.0151468621131167	3.32556065425712	-0.260964800469339
153343.8	3.32398665040663	0.01331415347553	3.32401331507024	-0.229495723825353
130781.2	3.32335970154093	0.0109073821413503	3.32337760069653	-0.188046066164865
111531.3	3.32290315239954	0.0094259617699765	3.32291652151872	-0.162528474026242
95109.37	3.32197422074217	0.00778474192686918	3.32198334214403	-0.134267158894075
81109.37	3.32135680295981	0.00665947877515057	3.32136347923936	-0.114880616233808
69171.88	3.32127168714867	0.00594491992670983	3.32127700770777	-0.102556637835221
59000	3.32084453040421	0.0052265121586909	3.32084864327553	-0.0901749052908851
50312.5	3.32049061878672	0.00508624517510794	3.32049451427654	-0.0877641853678722
42906.25	3.32065943050227	0.00468793742409688	3.32066273959596	-0.0808872021360349
36593.75	3.31971929611549	0.00478153111724651	3.31972273963374	-0.0825254603596525
31203.13	3.32049289791985	0.00504983605628313	3.32049673783613	-0.0871358798497317
26609.38	3.32003138649853	0.00471388333109218	3.32003473295558	-0.0813502666260597
22703.13	3.32114417901151	0.00484235452674235	3.32114770917817	-0.083539366473916
19359.37	3.32148144543974	0.00525966658813351	3.3214856098579	-0.0907295284365717
16500	3.3217451465153	0.00491153927468531	3.3217487776194	-0.084717596883823
14112.02	3.32219720799731	0.00530376942716708	3.32220144163404	-0.0914705920487939
12011.13	3.32272852407519	0.00528350498370956	3.32273272475049	-0.0911065346657678
10236.38	3.32260660874057	0.00525201873718087	3.32261075965081	-0.0905669230143136
8750.684	3.3231715110618	0.00517790086183485	3.32317554495547	-0.0892736426791443
7449.463	3.32312681725134	0.00550930401148696	3.32313138409629	-0.0949887247982357
6363.206	3.32349796270743	0.0058103976440182	3.3235030417981	-0.100168836224014
5414.761	3.32402210120119	0.00620911430563132	3.32402790036041	-0.107025651341462
4620.567	3.32459747293254	0.00644041495637032	3.32460371111719	-0.110993326776964
3941.215	3.32482671256639	0.00630831766041804	3.32483269706413	-0.108709287822454
3361.769	3.32590800000635	0.00683015746279153	3.32591501327938	-0.117663701427877
2867.244	3.32618390089083	0.00694079460826067	3.32619114260969	-0.119559733363524
2442.658	3.32750310666531	0.00690705452881696	3.32751027530638	-0.118931370549604
2083.003	3.32827608225218	0.00706635344642115	3.3282835836273	-0.121646044582933
1777.843	3.32867218464934	0.00699110396541226	3.32867952623752	-0.120336320359044
1513.548	3.33000657301307	0.00693217793697063	3.33001378847013	-0.11927422849421
1292.065	3.3311622509586	0.00622552976854826	3.33116806832565	-0.107078592641732
1101.762	3.33253035803623	0.00627438226590661	3.33253626463477	-0.107874545610728
939.101	3.33280005337506	0.00604301968247063	3.33280553196008	-0.103888363638444
801.2801	3.33425601963101	0.00547950793856618	3.33426052213273	-0.0941596548686814
684.3433	3.33464822880743	0.00541990190900085	3.33465263336756	-0.0931244347244391
582.9476	3.33567533302985	0.00463895336173255	3.33567855874514	-0.0796816989350797
497.0677	3.33690571344379	0.00428850015061641	3.33690846917433	-0.073634931548387
423.5089	3.33712401302019	0.00418345756257754	3.33712663523474	-0.0718266194511746
361.5036	3.33833109238639	0.00344139994559277	3.33833286621141	-0.0590647294097692
308.1262	3.33822416589313	0.0033034913556375	3.3382258004527	-0.0566996226568267
262.7298	3.33833420748564	0.00284259259851702	3.33833541771965	-0.0487873619849675
224.2111	3.33828240221463	0.00258082363486879	3.33828339983089	-0.0442953155753624
191.2854	3.33911754723763	0.00205037570414107	3.33911817675128	-0.0351823072522476
163.1722	3.33932335937983	0.00192930697497767	3.33932391671207	-0.0331028543376455
139.1537	3.33987977258168	0.00173081469389562	3.33988022105879	-0.0296921970114143
118.6706	3.33981057673264	0.00160214867020741	3.33981096101794	-0.0274854959000916
101.1982	3.34036163095704	0.00138042757107197	3.34036191619266	-0.0236778762246599
86.24196	3.34054789806173	0.00138503433096853	3.34054818518829	-0.0237555693016797
73.61024	3.34095470466431	0.0013693815704552	3.34095498530352	-0.0234842394082175
62.69291	3.34081496738331	0.000856250894889294	3.34081507711186	-0.014684908289203
53.57697	3.34111398991915	0.000880574668452861	3.34111410596004	-0.0151007152202853
45.65746	3.34164105911499	0.000923174480713209	3.34164118663483	-0.0158287497722463
38.96512	3.34220926184208	0.000391529790188057	3.34220928477535	-0.00671202868261905
33.18414	3.34206642436736	0.000552169869731966	3.34206646998159	-0.00946629982917039
28.30617	3.34255595314639	0.000559582645433503	3.3425559999867	-0.00959197812153233
24.17237	3.34264363176476	0.000568283852104548	3.34264368007182	-0.00974087266375298
20.61345	3.3424725689551	0.000418725245040974	3.34247259518282	-0.00717767721229983
17.55618	3.34305299099874	0.000335367053854817	3.34305300782035	-0.00574777509088159
14.98558	3.3430956621716	0.000375572728936235	3.34309568326805	-0.00643676829868231
12.76553	3.34397235035322	0.000455039065916617	3.34397238131348	-0.00779666070711351
10.8809	3.34349795664631	0.000431897019651623	3.3434979845415	-0.00740119377775831
9.278505	3.34292540315154	0.000134456538156253	3.34292540585555	-0.00230450615286718
7.923394	3.34318587123577	0.00043524435625637	3.34318589956768	-0.00745925159113892
6.75822	3.34345287793666	0.000245360092316526	3.34345288693956	-0.00420466453055463
5.761429	3.34308607422805	0.000184278861142949	3.34308607930699	-0.00315827973071634
4.919708	3.34298799687767	0.000176711616014983	3.34298800154819	-0.00302867667745775
4.191257	3.34268948618714	0.000226137222728089	3.34268949383637	-0.0038761328226578
3.564097	3.34275244601128	0.000158438476881234	3.34275244976608	-0.00271568301200707
3.051758	3.34282677163258	0.000200045016731483	3.34282677761823	-0.00342875534410595
2.604164	3.34279135190917	0.000164542252275829	3.34279135595881	-0.00282027072793025
2.214424	3.34228080818053	-0.000173556520782448	3.34228081268671	0.00297523060137015
1.892567	3.34241355787655	7.69799288443197E-05	3.34241355876302	-0.00131959284895288
1.607507	3.34241048746965	-8.76581911409996E-06	3.34241048748115	0.000150264140534128
1.376413	3.34282290147273	7.82645431878399E-05	3.34282290238892	-0.00134144946996374
1.17375	3.34285733085947	0.00011600323342773	3.34285733287223	-0.00198826782742267
1.001604	3.34329038184926	1.45334203648959E-05	3.34329038188085	-0.000249067102670329
