EC-Lab ASCII FILE
freq/Hz	Re(Z)/Ohm	-Im(Z)/Ohm	|Z|/Ohm	Phase(Z)/deg
6999984	4.33864860501669	1.19277878244326	4.49962142203764	-15.3719591700782
5969734	4.04813172119772	2.70947220725796	4.87120211796539	-33.7949587062737
5091109	5.03523842470836	4.68934329643068	6.88066614111155	-42.9628964932077
4341796	21.3664970844526	-26.5411004902648	34.0728222032496	51.1647414938818
3702781	-3.18153804631175	-10.2654939714159	10.7472113042084	107.219540259334
3157797	-4.69530340402254	-5.84674549203318	7.49868701203324	128.76664946926
2693047	-3.98920646081149	-5.37188441319663	6.69110680946919	126.597889623131
2296687	-2.76820788265478	-4.50530256522523	5.28779028383474	121.567950435457
1958656	-2.72242224002288	-3.88057202593243	4.74029768067582	125.051648421412
1670375	-2.41951700821869	-4.10596368127901	4.76581580687313	120.509525500512
1424531	-0.590586301414385	-3.86350302912634	3.90838174126923	98.6911207745916
1214875	0.761407242274587	-3.66335996416437	3.74165033315922	78.2585863635338
1036062	1.02395106242482	-3.32923385946089	3.48314137944783	72.9040092891386
883578.1	1.62795588301384	-2.86041757574758	3.2912351882971	60.3544001108292
753531.2	1.9108199922459	-0.887182416593954	2.10673341528541	24.905163280986
642624.9	1.65835870821151	-0.51523009949633	1.73655280959951	17.2593279838628
548046.8	1.04859392018387	-0.347738716609949	1.10474948494041	18.3467503128195
467390.6	0.718782817423481	-0.512335589723128	0.882687087885725	35.4805948099707
398593.7	0.404559075963813	-0.892327009804324	0.979752794520648	65.6116316558316
339937.5	0.311419681591612	-1.60982257360317	1.63966793484685	79.0513880646563
289906.2	0.613826395000461	-3.6792452804005	3.73009767654261	80.528301373165
247234.4	2.5879016344297	-8.4870003020988	8.87279037266794	73.0422067093242
210843.7	-7.45954521134927	-16.1531813533843	17.7924164349727	114.787510592099
179812.5	-44.1784803057127	22.3432460280627	49.5071587267214	-153.172015935976
153343.8	-2.25290039230642	45.0857800336334	45.1420327568313	-92.8606449555608
130781.2	-22.118672549217	74.3909293366665	77.6095744281104	-106.55880532999
111531.3	-5.24744240435169	119.898830962661	120.013604720464	-92.5059840803748
95109.37	30.3338071132631	107.857726131219	112.04208557583	-74.2919422520635
81109.37	35.5176481397801	74.4920229542129	82.526146239796	-64.5082868297482
69171.88	32.5145278071706	55.6238675524413	64.4298778519314	-59.6918890123194
59000	36.0191647160384	37.8085628663076	52.2194183504244	-46.3884335333784
50312.5	42.8004690658367	18.8194476466356	46.7552324556311	-23.7351834633289
42906.25	8.64595499376766	10.4555926674778	13.567312032325	-50.4119207877035
36593.75	10.9479874510608	11.2353720139393	15.6873201510072	-45.7422230841401
31203.13	13.2504826398415	9.6846796117014	16.4124437354723	-36.1627927383211
26609.38	14.4729975730967	8.42156119172619	16.744860454983	-30.1943085751772
22703.13	15.5119329821985	7.07989727474277	17.0512465897696	-24.5327235254171
19359.37	16.2256002671532	5.41653645288035	17.105816881249	-18.4603793027499
16500	16.2047257218072	4.50958837054435	16.8205089991578	-15.5512720416424
14112.02	16.3258371913489	2.40947609345164	16.5026826620203	-8.39548754669449
12011.13	15.6461550652548	0.88540653915924	15.671187353407	-3.23887942263078
10236.38	14.6175366962279	-0.484194454793071	14.6255537787675	1.89718415377293
8750.684	23.2962819430076	-19.4144968886654	30.3255575679673	39.8069189069122
7449.463	22.735286432597	-21.0827112577989	31.0060310770655	42.8401402856009
6363.206	22.6215540786265	-23.9418036640172	32.9384983206365	46.6241197224055
5414.761	22.6830436554389	-27.9917028288033	36.0285428060945	50.9804610782339
4620.567	23.2746640317096	-33.9036074378175	41.1237715085398	55.5305882195315
3941.215	23.2721252417007	-40.4620199878887	46.6772629313856	60.0942199760603
3361.769	23.6961819025896	-48.9813535752742	54.4121496986347	64.1832478725704
2867.244	24.4462473449467	-59.380372713834	64.2156341780111	67.6235729534335
2442.658	25.0966640273659	-71.8444700041928	76.1017109892139	70.7447032466291
2083.003	25.5949230573596	-86.5965042349188	90.2998041637991	73.5341482722235
1777.843	25.63736808983	-103.806525799102	106.925532222445	76.1271260698676
1513.548	26.0520297239039	-124.012191857293	126.719106617689	78.1360306911553
1292.065	26.192282988009	-148.023200794939	150.322665162984	79.9655422267875
1101.762	25.38408048492	-174.97526116688	176.80693867177	81.7455502089204
939.101	23.2797404874096	-207.410146165103	208.712517711302	83.5959174082954
801.2801	21.1557528764028	-248.105770012974	249.006102321807	85.1262303833103
684.3433	20.7571608449378	-284.840550762899	285.595866715984	85.832057091132
582.9476	16.5539263500001	-333.472577912414	333.883202178774	87.1581106121828
497.0677	12.3420269681856	-391.043182979243	391.237902796011	88.1922421366144
423.5089	7.98020872800233	-457.78834975679	457.857900340693	89.0013158391186
361.5036	4.48297444135352	-537.364521244857	537.383220572206	89.5220198833335
308.1262	-1.75933325752322	-624.169057655279	624.171537149677	90.161498078479
262.7298	-9.2670796664967	-728.981965331738	729.040866169015	90.728325225202
224.2111	-16.7093431771815	-849.647435431345	849.811724256894	91.1266454843769
191.2854	-23.9367290125019	-988.573496298679	988.863248674968	91.3870548022639
163.1722	-34.382692753942	-1151.44229432311	1151.95552289013	91.7103748860562
139.1537	-45.3958201013897	-1340.2714392617	1341.04001110456	91.9399017787856
118.6706	-66.3554364332701	-1553.49592602857	1554.91242072717	92.4458235118861
101.1982	-72.431979017617	-1822.06927917298	1823.5083903537	92.2764571876454
86.24196	-93.6276286732965	-2123.4986609824	2125.56173658754	92.5246052087166
73.61024	-117.554630729621	-2467.52699769747	2470.32560112465	92.7275468597519
62.69291	-138.254233315163	-2878.28391528561	2881.60242400325	92.7500068053211
53.57697	-164.279161791081	-3351.07066378949	3355.09496686894	92.8065577397005
45.65746	-191.855218555402	-3899.2330214612	3903.95012526292	92.8168709800128
38.96512	-233.467518058893	-4558.54290117875	4564.51754995813	92.9318636094956
33.18414	-274.737868776558	-5328.58149169861	5335.65943536625	92.9515160618686
28.30617	-308.320973896653	-6217.49475885723	6225.13476957421	92.8389298551254
24.17237	-382.658377072445	-7216.11696625143	7226.25570431641	93.0354543788552
20.61345	-436.555165357529	-8407.21240713466	8418.53911739319	92.9724863171704
17.55618	-505.278401836382	-9828.81075123961	9841.78982944899	92.9428643991621
14.98558	-613.09821698808	-11477.2860216354	11493.6497182619	93.0577424370858
12.76553	-766.966146837361	-13369.5873539944	13391.5683579811	93.2832586252493
10.8809	-905.964400332975	-15611.277233213	15637.5429127119	93.321303022846
9.278505	-1052.33305192499	-18205.2181182373	18235.6072447498	93.308239585117
7.923394	-1248.03390952887	-21191.3254704399	21228.044277169	93.3704628016682
6.75822	-1467.58858103427	-24716.3208308006	24759.8532236007	93.3980793673935
5.761429	-1662.82335914704	-28786.1037610637	28834.090089102	93.306005049716
4.919708	-2031.48170887617	-33668.5104666193	33729.7422903637	93.4529114283876
4.191257	-2388.81713942597	-39262.9048657213	39335.5074432795	93.4816739097031
3.564097	-2869.02004871345	-45847.7162156102	45937.3960758231	93.5807383124812
3.051758	-3403.03981746315	-53125.9543798313	53234.8354817328	93.665134995704
2.604164	1488.29630423932	-85113.0649968298	85126.0762577706	88.9982218670249
2.214424	1423.81193190243	-98832.4294274468	98842.6848428789	89.1746355721457
1.892567	1549.78892355137	-114323.617783224	114334.121891727	89.2233369847318
1.607507	1376.50019543836	-132538.025503148	132545.173269573	89.4049646057883
1.376413	1240.44297823398	-153320.866490415	153325.884312316	89.5364584197708
1.17375	743.420702691129	-178007.233873446	178008.786259602	89.760714100785
1.001604	133.945604561366	-206283.780045965	206283.823533202	89.9627963151277
