EC-Lab ASCII FILE
freq/Hz	Re(Z)/Ohm	-Im(Z)/Ohm	|Z|/Ohm	Phase(Z)/deg
6999984	25.9795477058742	0.180155878959689	25.980172346282	-0.39731277018799
5969734	16.8043778074291	-4.39706189403804	17.3701256988778	14.6633593465281
5091109	11.3254595812514	-6.22580488384443	12.9238802678708	28.7983713918543
4341796	8.66739402912197	-5.34877528686302	10.1849455730218	31.6793406956429
3702781	5.75051962521888	-5.65298124047439	8.06378774926417	44.5099398358404
3157797	4.10072030103714	-5.11211239187998	6.55359444080506	51.2648887868927
2693047	2.68340817707305	-4.62601651430511	5.34796299869456	59.8833142116726
2296687	2.39785431411343	-3.80683891820997	4.49908077954935	57.7939663159486
1958656	1.74710213433662	-3.32901608343958	3.75961619738012	62.309045628918
1670375	1.30877101430053	-2.72869489271832	3.0263273757841	64.3761054664115
1424531	1.14018994562793	-2.48138178202453	2.73080366564026	65.3213139410388
1214875	0.903112318998967	-2.21885341571512	2.39560479653017	67.8528133672653
1036062	0.801079192155979	-1.83394962507492	2.00127436885044	66.4040322864975
883578.1	0.71072397991796	-1.57932584639383	1.73187721987386	65.7714295848936
753531.2	0.652831893410032	-1.37426594885364	1.52144549006263	64.5903916817904
642624.9	0.605790341556702	-1.18938494180112	1.33477281876229	63.0088562798908
548046.8	0.562012250649713	-1.02870926924897	1.17222034213671	61.3510028996798
467390.6	0.525701750812712	-0.89205256654201	1.03543233109737	59.4884316992685
398593.7	0.494362792003901	-0.776178570242204	0.920243306425602	57.5061696154544
339937.5	0.469956170573399	-0.674213190861122	0.821840756467546	55.1218114805954
289906.2	0.448620690725521	-0.583878720286181	0.736325257036639	52.4632815816104
247234.4	0.430177472305024	-0.506526860758366	0.664546550926619	49.6597933604574
210843.7	0.417771543606678	-0.437896489467037	0.605215992960415	46.3473238115778
179812.5	0.405708253734937	-0.376990402379743	0.55382393468962	42.8987137609971
153343.8	0.397601148655718	-0.32908471439703	0.516123456802847	39.613723267972
130781.2	0.390352806281027	-0.286011824582292	0.483919494515735	36.2302642482757
111531.3	0.383594562884974	-0.249637168235854	0.457671830507112	33.0554306209425
95109.37	0.376447734784659	-0.218074845852561	0.435051187124135	30.0835615629564
81109.37	0.370321266349229	-0.189964359766434	0.416202232444719	27.1565436411731
69171.88	0.362598840056042	-0.165250161490623	0.398479026653429	24.5005691339544
59000	0.353608928474847	-0.139941419222352	0.380293143655123	21.5912785263525
50312.5	0.347308265531188	-0.109329676816947	0.364109886626525	17.4735569034622
42906.25	0.375558389332061	-0.110963065636457	0.391608102231213	16.4603841751764
36593.75	0.360167723395277	-0.100222143573825	0.373851931970759	15.5500344528049
31203.13	0.354507147260024	-0.087885400633618	0.365238498933193	13.9234130020064
26609.38	0.349408490411743	-0.0756344491447181	0.357500857438466	12.2140449864352
22703.13	0.349391231322327	-0.0673518324225218	0.355823694904658	10.9110186391707
19359.37	0.346366066184369	-0.0601363760958376	0.351547771339793	9.84955702791135
16500	0.344161584681765	-0.053594522996373	0.348309588248547	8.85128693187696
14112.02	0.341885444948561	-0.0478119746856277	0.345212459785296	7.96106521684835
12011.13	0.340066464185541	-0.0428355963205532	0.342753684700535	7.179304412438
10236.38	0.338515005058365	-0.0384422471487243	0.340690790916791	6.47883486000081
8750.684	0.336780145065914	-0.0348332636228252	0.338576759930795	5.90512076058041
7449.463	0.335157426736761	-0.0315505741514783	0.336639182844325	5.37778071918232
6363.206	0.333819476860658	-0.0288616646797075	0.335064827786516	4.94144184551146
5414.761	0.332540724819403	-0.0263859466800623	0.333585898751157	4.53671534522916
4620.567	0.33119972601438	-0.0243489398337244	0.332093555166352	4.20467197900597
3941.215	0.329932271465653	-0.0227664940378145	0.330716822984951	3.94735434138153
3361.769	0.328371276528465	-0.021503770973603	0.32907462286694	3.7467303046275
2867.244	0.327046018989213	-0.0202001265314554	0.32766925954166	3.53440646969689
2442.658	0.325830701037882	-0.0191713695400795	0.326394220458757	3.36731192311392
2083.003	0.323731300229636	-0.0179081493884749	0.324226242865828	3.16625759505574
1777.843	0.322810327642549	-0.0170417613292144	0.323259847896227	3.02194614223834
1513.548	0.319054665666078	-0.0162277651486327	0.319467087577128	2.91167010132511
1292.065	0.320515857773285	-0.0127788375173289	0.320770500159286	2.28315029696927
1101.762	0.317115156499629	-0.015888487976486	0.317512939156758	2.86830407172724
939.101	0.318823394536458	-0.010469834078148	0.318995257534299	1.88085886731627
801.2801	0.319055149879556	-0.0152866858504633	0.319421150566078	2.74307841602345
684.3433	0.31756909617653	-0.0115645754078451	0.317779593823678	2.08555777990927
582.9476	0.315626991984074	-0.0140603089330389	0.315940010692231	2.5506820532075
497.0677	0.315031431084322	-0.0137218159355861	0.315330129869643	2.49405434248354
423.5089	0.314693558718218	-0.0133990165854647	0.314978681094759	2.43806605265894
361.5036	0.309090275133423	-0.0109761157596875	0.309285100351156	2.03377786508991
308.1262	0.307959298350314	-0.0114490440404421	0.308172046185013	2.12911231262173
262.7298	0.308156778985296	-0.0139353605634129	0.308471708117009	2.58924612352437
224.2111	0.305812637486433	-0.0116492256343648	0.306034432220116	2.18149555199936
191.2854	0.309234156892429	-0.00840788099577039	0.309348438256621	1.55745226689688
163.1722	0.304708744180549	-0.0110823069878129	0.304910210239439	2.08293878982773
139.1537	0.307659599767666	-0.0112652518665682	0.307865774695431	2.0970031848248
118.6706	0.30378783506463	-0.00887069441272576	0.303917320915769	1.6725783955459
101.1982	0.305674189899755	-0.00864890357696667	0.305796523695014	1.62072399621317
86.24196	0.302748940051612	-0.00688697002333909	0.302827262739795	1.30314666840145
73.61024	0.294962528448248	-0.0284002265573813	0.296326620567734	5.4997238996778
62.69291	0.247666721813542	-0.0286149247032492	0.249314297643835	6.59061892583083
53.57697	0.298783847329088	-0.0017062219139953	0.298788719027328	0.32718720513478
45.65746	0.283793888299759	0.00603112201576766	0.283857967069915	-1.2174533816883
38.96512	0.291470156327319	-0.0144551417106857	0.291828379619508	2.83919495094562
33.18414	0.285098561208079	-0.00715631596112945	0.285188363123484	1.43789087195575
28.30617	0.293187242039846	-0.02491094770496	0.294243630705051	4.85652892731528
24.17237	0.288281230695514	-0.0184268932159857	0.288869552505821	3.65736206661638
20.61345	0.302229674462263	0.00596846382063515	0.302288601647405	-1.13133610620675
17.55618	0.301609224024209	0.00342466052120419	0.301628666270583	-0.650544302000669
14.98558	0.288583022245754	-0.0107717568402437	0.288783987564959	2.13765110264256
12.76553	0.289113756401196	-0.00887194040811972	0.289249849554006	1.7576654929118
10.8809	0.29079787985928	0.00661324668041521	0.290873068471986	-1.30278054837036
9.278505	0.263411884006757	-0.0135424117671539	0.263759772430256	2.94307334511843
7.923394	0.282654705529408	-0.0173898242753498	0.283189139174235	3.52058271697377
6.75822	0.271591439492668	0.0962332514200166	0.288136684031325	-19.5108114764529
5.761429	0.303756206089742	0.0142553541913766	0.304090525766844	-2.68693370872079
4.919708	0.30309717937412	-0.0124553505945814	0.30335298894684	2.35316516657646
4.191257	0.191552846250036	0.102982405532833	0.217480731918528	-28.2633090252934
3.564097	0.174443304616444	-0.160254001629413	0.236879318564845	42.572431485404
3.051758	0.242614968594145	-0.0497206480800288	0.247657355698223	11.5816313609036
2.604164	0.136299936680802	-0.134129728969152	0.191228807799789	44.5402091961572
2.214424	0.195880267088135	-0.0380529637801087	0.199542243865728	10.9937136377419
1.892567	0.207508775578636	0.0255984720037335	0.209081739305638	-7.03252981405933
1.607507	0.238846855517459	-0.0261011894306717	0.240268792148031	6.23653673801794
1.376413	0.19516254502421	-0.115174473228128	0.226613279098343	30.5468265882094
1.17375	0.245004629820548	-0.132953599076128	0.278754243269586	28.4868026724401
1.001604	0.315580353087113	-0.0185801810035872	0.316126845397086	3.36946968217038
