EC-Lab ASCII FILE
freq/Hz	Re(Z)/Ohm	-Im(Z)/Ohm	|Z|/Ohm	Phase(Z)/deg
6999984	1.32863875646241	0.893012412087035	1.60085980439121	-33.9060666819055
5969734	0.544763716326981	-1.05094002623211	1.18374086917836	62.5996498226084
5091109	-0.263206265335649	-0.264661330872767	0.373260174906571	134.842064745709
4341796	-0.0968716864480449	-0.116889764654527	0.151813506369753	129.650035797793
3702781	-0.129900977498846	0.0954799924961312	0.161216292359727	-143.683319186594
3157797	-0.206362481306181	0.411339805051817	0.460202030537579	-116.642174974938
2693047	-0.461399303289221	0.650562471562695	0.797571844087754	-125.345461178755
2296687	-0.791550015048279	0.829121461539159	1.14629569671519	-133.671970336493
1958656	-1.20630212063449	1.18519064640561	1.69110664198761	-135.505779055589
1670375	-1.75558647606392	1.48349319669172	2.29844206791669	-139.8017593077
1424531	-2.29682251133282	1.84442825890547	2.94572728724406	-141.234325682866
1214875	-2.94256932571147	2.39885546416015	3.79647491425257	-140.812227675193
1036062	-3.6340450659958	3.30959998671751	4.9152553965963	-137.675226451072
883578.1	-4.40403951753319	4.45559867715841	6.2648163296213	-134.666567773061
753531.2	-4.24858644054896	4.17311327555231	5.95528010704849	-135.513456690044
642624.9	-4.76006680608264	5.24749459124884	7.08480313654201	-132.211558212484
548046.8	-5.00945576998623	6.57806292703726	8.26834681079055	-127.290710189003
467390.6	-5.04613094757413	8.02342485158217	9.47833233691728	-122.166805922928
398593.7	-4.73845846315884	9.52224575689319	10.6360778890412	-116.455849099961
339937.5	-4.00205374657405	10.900866117741	11.6122916044759	-110.159787776607
289906.2	-2.98751564273428	12.0670275959946	12.431347662988	-103.905495076518
247234.4	-1.70134218076145	12.8716517587357	12.9836044384525	-97.5295634365229
210843.7	-0.459880910948332	14.7186219683469	14.725804667296	-91.7896149491228
179812.5	2.10479653212117	17.5568305569786	17.6825469785347	-83.1637353434282
153343.8	-57.5161328926723	22.3306680021349	61.6989811613539	-158.781272750306
130781.2	-136.755862167017	165.699986811849	214.845645677289	-129.533610773822
111531.3	8.96086280013025	23.7172355094817	25.3535859857137	-69.3023965889463
95109.37	15.3804578590574	26.8136710367977	30.9116715566118	-60.1611987423111
81109.37	19.0759937240031	25.51096453371	31.8544007634489	-53.2124525466337
69171.88	22.2451274647911	21.7094804984168	31.0829091211865	-44.3018071871812
59000	23.596615981295	14.0262794945347	27.4506248057765	-30.7280588683872
50312.5	-98.5650911802832	6.88575436363559	98.8053177340869	-176.003811114144
42906.25	-216.433987697051	59.3711808394817	224.429517097733	-164.660220798805
36593.75	-288.623343033521	326.712224149396	435.940720227523	-131.457946824549
31203.13	249.42902385821	378.499609431154	453.295480103647	-56.6153520243188
26609.38	406.575878648013	631.685853197155	751.219649788144	-57.2332010626981
22703.13	616.089220944674	1058.44040202975	1224.68853706284	-59.797485133962
19359.37	732.049206493256	1157.67723180362	1369.71260261557	-57.693068448226
16500	883.565704776126	1203.11788364412	1492.70928067084	-53.7065656195766
14112.02	1150.17459322318	989.495131799537	1517.2350545486	-40.7054084029245
12011.13	1360.10665006808	862.387774576669	1610.46663215936	-32.3771058872871
10236.38	1530.7064238725	780.173753617069	1718.06089586996	-27.0071277073589
8750.684	1683.06666084854	706.667259180096	1825.4018735766	-22.7760177368122
7449.463	1828.16642045484	633.843865619446	1934.92907024058	-19.1219507504756
6363.206	1961.1699536117	566.894457725282	2041.45950563536	-16.1224307492965
5414.761	2077.56144682723	513.573326813225	2140.09792471206	-13.8851566100255
4620.567	2194.97242808623	460.745988578306	2242.80869136218	-11.8548233672
3941.215	2303.3653592113	421.208160913785	2341.56108031266	-10.3629730489722
3361.769	2402.50000624148	388.823270616802	2433.76042694499	-9.19310209329611
2867.244	2488.16102871796	366.447343661473	2515.00078737709	-8.37808681845637
2442.658	2568.88468824109	351.353326423304	2592.80113033534	-7.78817520216762
2083.003	2643.56697205216	350.846235362874	2666.74697273538	-7.55994319405521
1777.843	2711.82646546391	359.123942342626	2735.50229112575	-7.5437170292971
1513.548	2772.05862412311	373.842278124243	2797.15338594229	-7.68061956486566
1292.065	2830.24007222114	409.376855320149	2859.69373816115	-8.23040121718344
1101.762	2880.70617494912	454.112966468127	2916.27959096937	-8.95835555505306
939.101	2937.2630788875	497.525071309922	2979.1014737967	-9.61373332901345
801.2801	3005.00851012703	535.315228122003	3052.31691332914	-10.1007703731865
684.3433	3042.91575904677	609.764724421285	3103.40930845478	-11.3313232889448
582.9476	3096.60730201083	696.779775169459	3174.03195288768	-12.6811430993376
497.0677	3152.24243655975	791.073398177538	3249.98915385148	-14.0877716751177
423.5089	3242.36057367189	1227.02616744227	3466.77015466702	-20.7284499235091
361.5036	3586.22676197284	2292.98679633333	4256.61964902306	-32.5943199169991
308.1262	4072.81192574444	3407.48788833486	5310.25147160046	-39.9172877669883
262.7298	4603.28327793054	4533.12829730945	6460.60903450616	-44.5600564541805
224.2111	5343.34555864076	5879.77579708956	7945.00504613346	-47.7364771746063
191.2854	6651.15774773009	8098.22933667697	10479.4664832999	-50.6033918236804
163.1722	8237.67476418922	10544.0642985109	13380.4550539842	-52.0008473451603
139.1537	10475.328564724	13977.8729403549	17467.496686006	-53.1512950315815
118.6706	14390.0035859845	20181.5813588835	24786.4565710769	-54.5101217385137
101.1982	18265.3256560729	25260.2266915408	31172.121740915	-54.1298210019956
86.24196	28337.6616314477	38916.0815731809	48140.25832657	-53.9388828167683
73.61024	34799.0655536043	47987.5988480495	59277.1845367623	-54.0515836150705
62.69291	46443.4228142241	62603.0049736639	77949.5205529411	-53.4293113425128
53.57697	62364.8417532638	81048.665331528	102265.632736182	-52.4226531443577
45.65746	148497.421717174	144141.35808271	206949.789481836	-44.1471887965872
38.96512	208204.930678213	185373.708921255	278769.986042152	-41.6800325307539
33.18414	250613.711029375	200110.887353366	320704.847785727	-38.6067843204973
28.30617	271150.362125206	207270.004757657	341296.606711624	-37.3946519978524
24.17237	302472.341840234	201858.269956398	363643.065007578	-33.7176036743531
20.61345	268802.410165242	232723.830067437	355549.03570661	-40.8853687167972
17.55618	313839.106613704	235915.007165087	392620.523464822	-36.9324354853645
14.98558	322517.824145435	207629.064064378	383572.12507657	-32.7724410363494
12.76553	340192.41303999	244336.101038687	418844.849748398	-35.6870085852445
10.8809	266406.496355061	212324.019409396	340666.861491312	-38.5545878653609
9.278505	288586.891757788	247961.005829359	380482.659928581	-40.6699881520296
7.923394	314005.89396568	288391.6716775	426344.294834736	-42.5652236763413
6.75822	434201.098136902	239733.153957983	495986.470309356	-28.9041737783032
5.761429	365229.342317856	203542.103769584	418117.041624569	-29.1308989074144
4.919708	700035.606600344	593714.90357816	917903.718937414	-40.301977360217
4.191257	627324.923124826	294027.52332626	692812.19940684	-25.1125109774659
3.564097	458854.638749531	85350.7128913928	466725.105059746	-10.5370605454447
3.051758	503476.19655935	-48676.2490501964	505823.741755432	5.52221249313669
2.604164	565136.856641433	-53697.0761562957	567682.166993376	5.42772430426828
2.214424	803863.013534914	133682.832644857	814902.966170443	-9.44190901583167
1.892567	661918.252677707	-66982.8976334521	665298.791373682	5.77838249629748
1.607507	744269.41071472	-68578.0112156272	747422.169424969	5.26444737547426
1.376413	814770.057890248	-74526.2445046446	818171.380796496	5.22624770631509
1.17375	926383.719317814	-81618.4639089094	929972.241020105	5.03500814528751
1.001604	1059541.76292675	-88041.5905319735	1063193.33568704	4.75002466756739
