EC-Lab ASCII FILE
freq/Hz	Re(Z)/Ohm	-Im(Z)/Ohm	|Z|/Ohm	Phase(Z)/deg
6999984	19.6413999749677	5.95969764831807	20.5256568478583	-16.8791246501699
5969734	16.9379009290948	-3.91887456102088	17.3853405404912	13.0271408526612
5091109	11.0381259095084	-3.68473258672267	11.6369015562485	18.4599725027153
4341796	8.92604185828792	-3.72739219907897	9.67303860540538	22.6647436034198
3702781	4.73121119243679	-4.2169724638212	6.33776112740654	41.7109149559114
3157797	4.35550523292839	-4.92445873912124	6.5742467026553	48.5084060232522
2693047	2.57234705355246	-4.62548590516001	5.29264482303072	60.9204824124185
2296687	2.37800305936059	-3.55526840230162	4.27724583847277	56.2227269656275
1958656	1.81137085815665	-3.26768513854579	3.73615183717848	60.9991495176899
1670375	1.40262575107339	-2.66040806043316	3.00751226856881	62.2008139014178
1424531	1.10029017868488	-2.58598890342008	2.81033398120619	66.9511496850679
1214875	1.48037546891998	-3.23082235751167	3.55383238698413	65.3825631293383
1036062	20.8523083109702	10.2138028498483	23.2193998749177	-26.0963711849528
883578.1	37.7200435750779	-1.59824801924274	37.7538883300355	2.42624650630319
753531.2	43.7067484645449	-17.14782816585	46.950270203147	21.4219752274693
642624.9	5.10791578662858	-40.0548833117741	40.3792580516672	82.7326991941513
548046.8	5.76217172652983	32.3300948878227	32.8395745779637	-79.8943235728527
467390.6	-24.0837129703671	-29.4809669062471	38.0677375236074	129.246215143785
398593.7	0.165963950309356	-21.5692262040561	21.569864697641	89.559147548458
339937.5	-2.81237426466675	-14.958881661843	15.2209588915279	100.647714349184
289906.2	2.48927742288422	-12.9901849677194	13.2265417847465	79.1520567492608
247234.4	1.37894382903117	-11.3077792131398	11.3915476041116	83.0473103194577
210843.7	10.1737185515544	3.82554467872813	10.8691923000372	-20.60737821182
179812.5	14.6831054884993	-9.36322597462813	17.4144648909563	32.5251295336592
153343.8	3.82177621501207	-7.79714215156394	8.68339790458362	63.8881746080781
130781.2	31.8104182012878	-4.16196009260831	32.0815307919258	7.45403194562528
111531.3	0.790182026747557	-0.0175357764575871	0.790376580403827	1.27130339302146
95109.37	0.333224792537598	-0.281980236195649	0.436522182674236	40.238442070315
81109.37	1.08756360851007	-0.0606859138049817	1.08925542582527	3.1937853523228
69171.88	0.0585150010749067	-1.50034296360901	1.50148360424011	87.7665344948322
59000	-0.072173848763965	-1.53348065425063	1.53517815950018	92.6946590823114
50312.5	-0.443155794536896	0.39734242579831	0.595204218374595	-138.119956291653
42906.25	0.693662029126128	-0.615329312753989	0.927252486535179	41.5753875190512
36593.75	0.525624711582406	-0.142272530361781	0.544539080619225	15.1455205198646
31203.13	0.366201588648508	-0.094966674836089	0.378315044451202	14.5381967161818
26609.38	0.361449298607095	-0.0786453282042276	0.369906316669386	12.2752769860008
22703.13	0.358802617587284	-0.070304499051694	0.365625547485945	11.086194755454
19359.37	0.355470376353559	-0.0621273921799442	0.360858699942265	9.91374548969985
16500	0.35297836069713	-0.054518353774715	0.357163791584111	8.78009119625401
14112.02	0.349587353898816	-0.0499387837332614	0.35313623451401	8.12973826215691
12011.13	0.348454674852619	-0.044490272329081	0.351283425112202	7.2760884431915
10236.38	0.346954179077495	-0.0399704180460321	0.349248960912002	6.57171704816947
8750.684	0.34486973058608	-0.0362964494833437	0.346774513653487	6.00808127636542
7449.463	0.345800028475261	-0.02824913488037	0.346951975516757	4.6702425864266
6363.206	0.342320738598816	-0.029685603614218	0.343605475999408	4.95621556225891
5414.761	0.340749391511234	-0.0281534673001643	0.34191046421	4.72317586528756
4620.567	0.340046139826329	-0.0258832076330102	0.341029789971728	4.35277526651154
3941.215	0.338960497628913	-0.025031539991781	0.339883504964863	4.22350968539428
3361.769	0.338219637777254	-0.0242230562137217	0.339085947556825	4.09648952587613
2867.244	0.336509903545939	-0.0220834168222903	0.337233735683493	3.75464399769385
2442.658	0.334835097295062	-0.020845844832384	0.335483370120442	3.56246822362902
2083.003	0.333716182991845	-0.0198289682897787	0.334304769296047	3.40044034282838
1777.843	0.332480617876089	-0.0190054428962856	0.333023374739597	3.2716130744244
1513.548	0.330823687337873	-0.0180740824344288	0.331317045380514	3.12716468469396
1292.065	0.329771623237304	-0.0170112966911496	0.330210096313969	2.95299009863656
1101.762	0.328495969592988	-0.0160544078586997	0.32888804485802	2.79795975138785
939.101	0.327864727900614	-0.0154870099589586	0.3282302961014	2.70441178626125
801.2801	0.326252834290354	-0.0151120000912147	0.326602639960619	2.65203943308173
684.3433	0.325107448457236	-0.0149925409844475	0.325452960237797	2.64036140730137
582.9476	0.323719804916578	-0.0143994037767987	0.324039897118171	2.54689881288625
497.0677	0.322266741877061	-0.0140212077613462	0.322571615594341	2.4912583084433
423.5089	0.321489981459854	-0.0140193421723636	0.321795509810195	2.49693803906643
361.5036	0.319891154995762	-0.0127715625018336	0.320146003962662	2.28630328371587
308.1262	0.318858524050808	-0.0127706584608909	0.319114161511808	2.29353744883719
262.7298	0.317591999882641	-0.0121558510455713	0.317824547673866	2.19192911344869
224.2111	0.316282908786912	-0.012181065292133	0.31651738774096	2.20555347685911
191.2854	0.31600437024733	-0.0131897010747003	0.316279512820308	2.39008026435894
163.1722	0.314237526695596	-0.0119715243811765	0.314465483924349	2.18174536159804
139.1537	0.313249396986512	-0.0119972231575932	0.313479055242781	2.19331452539732
118.6706	0.310247097334348	-0.0101659223879596	0.310413606954313	1.87674961400959
101.1982	0.311854886465464	-0.00874670035636635	0.311977523196001	1.60657308458903
86.24196	0.311774071514027	-0.0101680017462219	0.311939833826885	1.8679461174874
73.61024	0.293131844199148	-0.01845266241306	0.293712067906179	3.6020189272691
62.69291	3.32024780177791	0.879927033442631	3.43486783579721	-14.8432165279976
53.57697	0.945129742994578	0.0165923511102894	0.945275376389528	-1.00576037329013
45.65746	0.413869946079598	0.120467220356635	0.431046034024655	-16.2289607921452
38.96512	0.305405638915571	-0.111645355618895	0.325172707515095	20.0806008149767
33.18414	0.321108216390361	0.00360199945422183	0.321128418290046	-0.642682748093679
28.30617	0.253829017201981	-0.0353807305066482	0.256282980443313	7.93521909071
24.17237	0.327505327798271	-0.0395567306878866	0.329885547847988	6.88693550873864
20.61345	0.341308788581401	0.0270005250486482	0.342375112290315	-4.52317979027699
17.55618	0.363040046255372	8.95762850068342E-05	0.363040057306372	-0.0141371262595902
14.98558	0.297933692629007	-0.013799994427174	0.298253122447604	2.65198843983796
12.76553	0.322427577401448	-0.0242835946071909	0.323340742307574	4.30709334150576
10.8809	0.340103787096051	-0.00240210626284186	0.340112269863311	0.404665480277125
9.278505	0.391455980866749	-0.0289292459073242	0.392523484934488	4.22656985297807
7.923394	0.270987306449487	-0.0994520364649742	0.288660402226871	20.1530799760607
6.75822	0.619068379672771	0.0446446354819567	0.620676084755959	-4.12479249504001
5.761429	0.575246348322495	0.0668635636106923	0.579119242813677	-6.63000404466813
4.919708	1.13919719006542	-0.47765572798089	1.23528346233806	22.7478912386492
4.191257	-0.364698377741731	0.492988895079875	0.613223415566893	-126.492923755063
3.564097	1.77694909255407	0.0738164922213056	1.77848164231532	-2.37876434790511
3.051758	1.67371524498804	-0.899772619700339	1.90024037649656	28.2620313294103
2.604164	0.969023829228963	0.330575793087741	1.02385913903679	-18.8367209009036
2.214424	0.709961274547898	0.0274177114612899	0.71049049413729	-2.21158385765286
1.892567	2.47034126847844	0.545100715715425	2.52976694045541	-12.4433770735142
1.607507	1.66005957104946	0.537119123256301	1.74479074160787	-17.92920159004
1.376413	1.78445974498704	0.0558565290952582	1.78533373163725	-1.79286687392905
1.17375	1.29522739095303	-1.55393143518258	2.02294757705769	50.1882380644845
1.001604	0.516338792666463	-0.160911034433637	0.540830943839906	17.3090435317463
