EC-Lab ASCII FILE
freq/Hz	Re(Z)/Ohm	-Im(Z)/Ohm	|Z|/Ohm	Phase(Z)/deg
6999984	21.2247035454773	90.0818854326532	92.5485500896425	-76.742024375602
5969734	21.5245950744724	84.5092290037018	87.2073275586411	-75.710528457028
5091109	19.6530578627911	84.29237589045	86.5531473524512	-76.8757527249855
4341796	18.8973854604524	89.3692394055244	91.3453454159699	-78.060514853757
3702781	20.7250673364812	97.5235248049294	99.7013856798358	-78.0023596375513
3157797	20.8730956035741	106.783397812268	108.804320541093	-78.9397758861648
2693047	19.4168049023712	120.097526746931	121.657010662545	-80.8161553694387
2296687	20.007821684816	137.565606308007	139.012981291177	-81.7248091367367
1958656	21.4971040336539	157.00549621551	158.470348405347	-82.203572670348
1670375	22.5849189721094	180.678864031353	182.084953998503	-82.8749646146823
1424531	24.3933127400805	208.667285728998	210.088242983615	-83.3323568225352
1214875	26.5598032200474	240.81726284879	242.277479830608	-83.7062690796376
1036062	28.3937602657338	278.525060613433	279.96859647422	-84.1791884437386
883578.1	30.6666097433869	323.460606373817	324.911072185714	-84.5840977175576
753531.2	33.575528677262	375.699210955666	377.196518062756	-84.8931511522511
642624.9	36.4656034093542	437.290837913568	438.808633865788	-85.2331443078817
548046.8	40.8711847470391	509.151796766659	510.789590627436	-85.4105320412543
467390.6	140.110683779485	705.494511259785	719.272903095089	-78.7672582940509
398593.7	163.953339982541	801.925505699176	818.514028213512	-78.4451414216284
339937.5	187.852198931942	911.644383781991	930.797470519131	-78.3566767380602
289906.2	209.092346098939	1037.63157280244	1058.48896549451	-78.6069447029733
247234.4	233.000914031108	1184.982343961	1207.67238166592	-78.8759483877872
210843.7	252.540457431384	1357.77591703879	1381.06195499339	-79.4636311982529
179812.5	274.381136358095	1557.94751966696	1581.92461325615	-80.0116653292955
153343.8	295.30147198284	1795.75681965108	1819.87513711205	-80.6616286520919
130781.2	316.216578065086	2073.93690169074	2097.90543076607	-81.3307860610252
111531.3	339.101699198599	2400.29317982291	2424.12815492576	-81.9587478044886
95109.37	364.327393383009	2784.95103086846	2808.68059663333	-82.5468889811904
81109.37	395.076562640285	3226.78250870364	3250.87847340122	-83.0196364579528
69171.88	420.926860796192	3754.02831937957	3777.55318226542	-83.6023345356009
59000	448.461601028545	4348.52329821043	4371.58697530725	-84.1119231985902
50312.5	1314.55578722361	5687.72488675667	5837.65974557907	-76.9862189878867
42906.25	1685.50587484248	6784.89613523139	6991.11905348539	-76.0489746266117
36593.75	1821.88758765095	7527.99574623253	7745.32080273836	-76.3951557264298
31203.13	1952.73854538878	8545.23115006161	8765.50986735114	-77.1279114506226
26609.38	2056.20407817237	9832.64595121853	10045.3422845171	-78.1885136251892
22703.13	2173.76685829933	11302.1835560516	11509.3273256487	-79.1131529149714
19359.37	2326.98421527536	13051.966890615	13257.7786695906	-79.8911723049795
16500	2455.8410063913	15121.9967711987	15320.1155804001	-80.7755899575435
14112.02	2624.70900772125	17469.3149740084	17665.3916751463	-81.4554043814662
12011.13	2804.45062705411	20317.3837145295	20510.0225334595	-82.1410056791197
10236.38	3045.68188405434	23585.2472176493	23781.0862757883	-82.6418280878436
8750.684	3280.36561866937	27388.6106151163	27584.3577053846	-83.1701524707337
7449.463	3581.99767596719	31896.1469787436	32096.6493491182	-83.5924223657451
6363.206	3930.29228684001	37074.4527907614	37282.1974566198	-83.948630226978
5414.761	13661.5576635942	49917.4640249875	51753.1774143543	-74.6939294411273
4620.567	15010.7722498718	56507.1121242232	58466.8881005057	-75.1233040127984
3941.215	16368.129540793	64153.816926662	66208.9713779322	-75.6869798916481
3361.769	17603.9952975417	73180.8660558919	75268.4516057443	-76.4742239021578
2867.244	18733.6514455038	83797.792685459	85866.2899829543	-77.3982902341448
2442.658	19966.3090337271	96362.799595596	98409.5658070459	-78.2939951552728
2083.003	21246.5533252109	111132.114152541	113144.875377607	-79.1766366386719
1777.843	22561.6594267348	128273.493444931	130242.533746294	-80.0244422881269
1513.548	23868.5672735934	148842.628282951	150744.275174451	-80.889551262995
1292.065	25524.150947052	172390.320553136	174269.632759069	-81.5779600538447
1101.762	27460.5874221927	200278.535363907	202152.357367119	-82.19274376802
939.101	29493.8250431572	232708.517229753	234570.116824259	-82.7767596485969
801.2801	31961.4270085619	270588.739667641	272469.812734082	-83.26354459134
684.3433	111473.033542943	383977.908985755	399831.554277972	-73.8114025492873
582.9476	125953.570198109	432749.924154081	450706.99872646	-73.7721549403209
497.0677	137492.9585961	488912.858095195	507878.033069281	-74.2928589845358
423.5089	151689.898038494	553699.567557966	574101.938927929	-74.6793190173515
361.5036	161057.653988362	627038.874076653	647392.70733578	-75.594733686632
308.1262	170685.28271183	719886.667307966	739844.76716551	-76.6614665096066
262.7298	181799.310279414	823416.962324586	843247.581118332	-77.5496083878389
224.2111	192569.799474988	947959.287981013	967321.011525805	-78.5171049206968
191.2854	210573.026077935	1095978.23838706	1116023.87892447	-79.1241537046379
163.1722	223760.969030721	1269684.16325017	1289250.49764188	-80.0051909062106
139.1537	222918.066481822	1474685.05533252	1491438.39188385	-81.4040673630224
118.6706	250027.308060353	1700031.34579024	1718319.01329331	-81.6333650726338
101.1982	253428.416491414	1969904.28004816	1986139.17811351	-82.6691581746713
86.24196	272060.345089062	2294427.34563032	2310500.74134292	-83.2377614905592
73.61024	366027.087797704	2724511.56158549	2748988.73737501	-82.3483591051776
62.69291	279619.940665257	2800394.58627399	2814320.01557221	-84.2979052988897
53.57697	405149.877958989	3455578.31947694	3479248.18684285	-83.3128762575008
45.65746	644920.94438671	4336106.62561862	4383804.70518959	-81.5402594309251
38.96512	446697.863360274	4969981.34313742	4990015.38397074	-84.864102192038
33.18414	639471.21702237	5795627.47492205	5830799.36762288	-83.70363347378
28.30617	107802.001154904	6939040.93909009	6939878.27168613	-89.1099486370754
24.17237	600434.473138315	7944171.79982739	7966830.43259398	-85.6777022611238
20.61345	1397044.48972155	8725148.51583975	8836285.98053061	-80.9031876585191
17.55618	1570533.08367169	9910266.66277228	10033940.3772478	-80.9949182015195
14.98558	816452.42608448	12398620.931516	12425473.6556595	-86.2324972941489
12.76553	1047838.4705857	14249433.9850738	14287908.6767593	-85.7942991724329
10.8809	1235586.8387559	17173549.7925021	17217940.8557369	-85.8848265040636
9.278505	1262851.82822643	19656965.547544	19697489.4155927	-86.3241132455904
7.923394	2151989.80337538	23008890.4488317	23109307.6443274	-84.6567487659801
6.75822	1929749.97352211	25367897.3827454	25441190.0779387	-85.6498565122804
5.761429	-45987.8546934514	26526226.7906208	26526266.6545865	-90.0993321577073
4.919708	581904.256587661	33749163.1946887	33754179.4287102	-89.0122020372261
4.191257	301131.53713507	40625033.200122	40626149.2479127	-89.5753049582807
3.564097	3290306.10010156	48626906.7689055	48738097.7895547	-86.1290211163483
3.051758	-385099.049807765	60353165.1342964	60354393.734059	-90.3655856451046
2.604164	-149127.848450633	68167224.5188738	68167387.640438	-90.1253444416063
2.214424	6108482.2362596	79462811.8832374	79697252.3216546	-85.6041917760085
1.892567	13694133.4426825	75875101.1046972	77100974.4321952	-79.7692468861757
1.607507	9155119.88682222	100227815.775607	100645075.762757	-84.780908720185
1.376413	-2328372.13544401	131982639.706735	132003176.101027	-91.0106788266424
1.17375	12754244.9804904	156941463.588544	157458863.702037	-85.3539238110953
1.001604	6971922.84045487	172583964.406131	172724730.360855	-87.686664178191
