EC-Lab ASCII FILE
freq/Hz	Re(Z)/Ohm	-Im(Z)/Ohm	|Z|/Ohm	Phase(Z)/deg
6999984	21.4676830061771	4.26547803184414	21.8873414670181	-11.2379082500267
5969734	16.0432345326872	3.94980338213	16.5222976921581	-13.8310063688077
5091109	12.8503405664531	-3.87007199234069	13.4204586322424	16.7604593612203
4341796	7.74830299755239	-5.48598304462779	9.49379846572609	35.2994026368385
3702781	5.63386430086853	-5.27948948900672	7.72097378736214	43.1401639054432
3157797	4.23345294732267	-5.43985758401732	6.8930526177874	52.1089243740559
2693047	3.14037072974965	-3.75804045599064	4.89742752770582	50.1165037485341
2296687	2.37855146293754	-3.58650128637526	4.30354488056227	56.4478420833344
1958656	1.78177028751878	-3.22918864344618	3.68813837219355	61.111391949756
1670375	1.31430275450563	-2.80055303002827	3.09362069499504	64.8592807750453
1424531	1.15720807181268	-2.40867427967874	2.67223545127564	64.3388059139485
1214875	0.910951578509998	-1.84404905026906	2.05678138804008	63.7108441704851
1036062	0.832452505519989	-1.81507600669066	1.99686706718565	65.3622804233906
883578.1	1.58937739770165	-0.0597017066746163	1.59049828862049	2.15118723055253
753531.2	19.8935024819191	-5.78618261633663	20.7178992725546	16.2174901770866
642624.9	-3.89938199495188	8.75703227677434	9.58596861245761	-114.002730300109
548046.8	12.754632531916	3.25299665371915	13.1629266598777	-14.3079364374746
467390.6	7.33919374497625	5.64290887150977	9.25776351817555	-37.5557161636416
398593.7	6.67154751407595	0.307683603028264	6.67863874095204	-2.64054017013345
339937.5	-1.24853813182215	-2.34047153381249	2.65266930980862	118.077949913756
289906.2	0.125490759876882	-3.61027707387537	3.61245740195848	88.0092394168496
247234.4	2.04742264408798	-2.56066234979381	3.27855626048658	51.3553015269644
210843.7	0.464532881296989	-1.7434062232495	1.80423281675929	75.0801029950455
179812.5	2.17602436524962	-1.0725578293412	2.42599718372489	26.2385907688601
153343.8	8.87054063161042	-20.4029695855467	22.2478686396201	66.5021799568034
130781.2	21.9268350471178	242.552455063093	243.541535579288	-84.8344802740297
111531.3	9.493236262567	5.35709495772464	10.9004587574558	-29.4363197896868
95109.37	-2.41876489593779	-2.93680661868079	3.8046362161642	129.47499719138
81109.37	-0.557967562370906	0.74057453637837	0.927242387183723	-126.995293149834
69171.88	0.580299019417495	0.0336241178760534	0.581272339992064	-3.31616684553156
59000	0.387120991040541	-0.137782403968728	0.410909543023294	19.5914380973838
50312.5	0.366787205456149	-0.106320566421404	0.381885999914241	16.1652822627943
42906.25	0.396409788404605	-0.11729821899813	0.413400039336134	16.4835603179895
36593.75	0.37766974988042	-0.101760588689652	0.391138923382988	15.0798423678087
31203.13	0.368559027534682	-0.0880908948909964	0.378940315274064	13.4423232597469
26609.38	0.365179567041284	-0.0802590305992653	0.373895210155457	12.3953746694382
22703.13	0.362044977132258	-0.0684461827016369	0.368458200333664	10.7056648358179
19359.37	0.360752703883227	-0.0628218105046594	0.366181776217964	9.87847993740955
16500	0.358297179461041	-0.0551380740155205	0.362514932128152	8.74857278794386
14112.02	0.355036546415414	-0.0478132704027261	0.358241619744536	7.66995682029828
12011.13	0.352986274996365	-0.043825473988079	0.355696475251146	7.07741532772988
10236.38	0.351202845351654	-0.0399915984318395	0.353472440974161	6.4963100727523
8750.684	0.349947045790794	-0.0354588932130226	0.351738920174604	5.78583094763418
7449.463	0.35042616515219	-0.0320592444341025	0.3518896025417	5.22723605851169
6363.206	0.345864604105649	-0.0307744754040762	0.347231036500993	5.08469561823905
5414.761	0.345481322548471	-0.0275217622712005	0.346575809352518	4.55468272872666
4620.567	0.344488347651052	-0.0266254296312987	0.345515752420065	4.41959188570631
3941.215	0.343585879304019	-0.0253620533839965	0.344520667317606	4.22167507453427
3361.769	0.341490740231615	-0.0229972907855603	0.342264226946685	3.85269942179474
2867.244	0.340361705539672	-0.0220126608081337	0.341072789641343	3.70041182351133
2442.658	0.339468102753233	-0.0214489016855967	0.340145039902683	3.61536196840211
2083.003	0.338170220103262	-0.0201829839747171	0.33877197435268	3.41552746748977
1777.843	0.336388274980384	-0.0191691507728375	0.336934011173746	3.26148375356428
1513.548	0.334712050057066	-0.0185371765091872	0.335224974258089	3.16994285959402
1292.065	0.333316779339049	-0.016982422582034	0.333749124441864	2.91668634682148
1101.762	0.332454625942083	-0.0154506346844995	0.332813461900873	2.66087329636706
939.101	0.332100480342045	-0.0154686227799482	0.332460535002465	2.66680340954666
801.2801	0.330013227260917	-0.014920233493102	0.330350334546001	2.58863764234594
684.3433	0.328603899388341	-0.0140375041352379	0.328903594105583	2.44610923418699
582.9476	0.327932550031866	-0.0137342452742156	0.328220028126948	2.39822084871216
497.0677	0.326315378878472	-0.0135437944810934	0.326596327079082	2.37671029420956
423.5089	0.324528027055064	-0.0131366308703979	0.324793798301134	2.31802108133872
361.5036	0.323746917869523	-0.0133343315697208	0.324021405509615	2.3585377918214
308.1262	0.322342190184389	-0.0133382434808519	0.322618034697416	2.36949847444225
262.7298	0.320925787217729	-0.0119944207999477	0.321149851364819	2.14040130005919
224.2111	0.320933934825748	-0.0111510813807372	0.321127602579874	1.9899826901035
191.2854	0.316446322434541	-0.0124866396777994	0.316692581461563	2.2596590273689
163.1722	0.31755233673062	-0.0111554071854911	0.317748217418369	2.01193614098173
139.1537	0.312475531472054	-0.0126723236751783	0.312732386484149	2.32233545353606
118.6706	0.320122768161257	-0.0118169359484031	0.320340797699005	2.11404294965199
101.1982	0.314714290489812	-0.0133332518408697	0.314996603542257	2.42595429782767
86.24196	0.312396841585597	-0.0114674083346605	0.312607242536974	2.10225949963733
73.61024	0.322768076131114	0.00877448045516966	0.322887321641217	-1.55720761391836
62.69291	0.447444715972155	0.0278403989296482	0.448310006205487	-3.56040328373537
53.57697	0.361890556943911	-0.0304520730388753	0.36316952509474	4.80994745857114
45.65746	0.337776598859014	0.00546974320432114	0.337820882758133	-0.927730970044648
38.96512	0.301212596546688	0.00107399673949543	0.301214511249698	-0.204291654192225
33.18414	0.317304288902352	-0.00459619163925597	0.317337575356925	0.829878373003231
28.30617	0.28480314766048	0.000185809330817737	0.284803208272703	-0.0373805171290465
24.17237	0.289510618471357	-0.0133272668368172	0.289817208338303	2.63568034211515
20.61345	0.322749525562561	-0.0148127133480581	0.323089264333543	2.6277677949644
17.55618	0.317990795552189	-0.0200632324739308	0.318623099214758	3.61022024514861
14.98558	0.300306816985008	-0.0114259396826203	0.300524102902409	2.17891323121671
12.76553	0.30196231045505	-0.00853515009475265	0.302082912000153	1.61906929410084
10.8809	0.301942161117824	-0.0129595528473588	0.302220149345648	2.4576635010836
9.278505	0.298807676065996	-0.0106754896470442	0.298998316642695	2.04613369994191
7.923394	0.302533676454856	-0.00617503719427668	0.302596689462463	1.16930601929007
6.75822	0.296414166120863	-0.00513052258826985	0.296458563949762	0.991612326454964
5.761429	0.302779463151072	-0.0101173449393285	0.302948451018771	1.91382055631235
4.919708	0.28305145111128	-0.00359669624778304	0.283074301553674	0.728010487733536
4.191257	0.282191579653865	-0.122436350284382	0.307608107010371	23.4548982395288
3.564097	0.299590467964892	0.000319018730800763	0.299590637818296	-0.0610113535187262
3.051758	0.293068811810729	-0.0115185888016722	0.293295084077682	2.25075812802154
2.604164	0.288451910079603	-0.00376074330791373	0.288476424719247	0.746961639765284
2.214424	0.300182320990285	-0.00974439692633635	0.30034043868013	1.85925950435542
1.892567	0.32223981137056	-0.0232434724710112	0.323077011012305	4.12565536947947
1.607507	0.319906585981379	-8.51725712773345E-05	0.319906597319637	0.0152545429291221
1.376413	0.395233846185236	-0.0592389880424894	0.399648659292976	8.52423116326038
1.17375	0.28784165174833	0.0335131899868768	0.28978604242493	-6.64100483433464
1.001604	0.22513761282872	0.0856505197663942	0.240879547173412	-20.8286315939877
