EC-Lab ASCII FILE
freq/Hz	Re(Z)/Ohm	-Im(Z)/Ohm	|Z|/Ohm	Phase(Z)/deg
6999984	4.45816494116597	4.04864701954799	6.02219040977087	-42.2439089448319
5969734	3.84328119007568	2.19514515555583	4.42599961138156	-29.7334671613976
5091109	2.66014243875684	0.62274105384281	2.73206226404459	-13.1757088089387
4341796	1.91308781660618	-0.167908970165314	1.92044224498134	5.01591489972257
3702781	1.29343905495871	-0.294853835526397	1.32662103602239	12.8417660876246
3157797	1.0154867536518	-0.325832030171288	1.06648012580067	17.7895087500091
2693047	0.837746192078392	-0.304862925428947	0.891493177563879	19.9968744923742
2296687	0.70178428242541	-0.229313917990144	0.738299432509154	18.0952390294909
1958656	0.637253607190857	-0.177252107387907	0.661445741880022	15.5439095339749
1670375	0.587992968043945	-0.13127514371879	0.602468998229384	12.5854419588169
1424531	0.564135047206297	-0.10185503344467	0.573256312066832	10.2345388296156
1214875	0.54289355029981	-0.0778413421181399	0.54844569603552	8.15958936328323
1036062	0.532191388559202	-0.0622409986453042	0.535818640930806	6.67056945656339
883578.1	0.522477886776844	-0.0484556230613488	0.524720010650499	5.2985664392165
753531.2	0.514144265517055	-0.034880397213969	0.515326079171117	3.88109349124804
642624.9	0.50978323657392	-0.0266424875624296	0.510478961794995	2.99169225178205
548046.8	0.506743502514424	-0.0209291399776351	0.507175518179643	2.36504315462731
467390.6	0.504736475663506	-0.0163022634800546	0.504999676890778	1.84992831370392
398593.7	0.50373423994031	-0.0132651080318401	0.503908868327735	1.50845234329949
339937.5	0.502900087602209	-0.0103947199135891	0.503007503236672	1.18410952984286
289906.2	0.503469204108885	-0.00944363696443114	0.503557764079902	1.07457833406329
247234.4	0.502936529834997	-0.00906357538240633	0.503018191958483	1.03243327752686
210843.7	0.502328833430363	-0.00861504054319594	0.502402702838142	0.982537820895683
179812.5	0.501798001083277	-0.00813440137008367	0.501863928148679	0.928712446747707
153343.8	0.501124372586969	-0.00753562933503215	0.501181027683768	0.861517102450355
130781.2	0.500482697770481	-0.00674376181872613	0.500528130169611	0.771986144425417
111531.3	0.499889620601809	-0.00627523404772408	0.49992900630767	0.719209856000327
95109.37	0.499154579900667	-0.00568835725054441	0.499186991060486	0.652913482483534
81109.37	0.498511609424155	-0.00500525963729983	0.49853673621379	0.575253637015912
69171.88	0.497988497647129	-0.00454131137700008	0.498009204029271	0.52248347923923
59000	0.497651141363541	-0.00387766718167329	0.497666248406708	0.446436166190224
50312.5	0.497281345345671	-0.00317122054802385	0.497291456862638	0.365376847532532
42906.25	0.497060188062433	-0.00253087489799708	0.497066631232082	0.291729654687329
36593.75	0.496888168837505	-0.00187826162767874	0.496891718785321	0.216579822728616
31203.13	0.496822144032994	-0.0012891684196168	0.496823816615865	0.148672406483475
26609.38	0.496947790097976	-0.000727323365956656	0.496948322346037	0.083856956979757
22703.13	0.497093037001617	-0.000367275865359519	0.497093172681995	0.0423328262650582
19359.37	0.497123167884946	4.06209333558531E-05	0.497123169544556	-0.00468175330853078
16500	0.497378248491156	0.000382837385677645	0.49737839582816	-0.0441011688264823
14112.02	0.497476344347778	0.000676535411940452	0.497476804369604	-0.0779184786163441
12011.13	0.497733625153962	0.000773342296775455	0.497734225935099	-0.0890219423197434
10236.38	0.498018065758237	0.000761922417404711	0.498018648593951	-0.0876572714433008
8750.684	0.498236746174625	0.00102121785748435	0.498237792750199	-0.117436924732564
7449.463	0.498430979216142	0.000853741328260047	0.498431710384299	-0.0981394197136601
6363.206	0.498571519755426	0.000899017161655417	0.498572330302327	-0.103314832885518
5414.761	0.498721662287172	0.00103064219920966	0.498722727232099	-0.118405452589453
4620.567	0.498979098840251	0.000990585585892576	0.498980082106723	-0.11374484199652
3941.215	0.499057863603143	0.000921616194968988	0.499058714582306	-0.105808688984604
3361.769	0.499065770402759	0.00074109025674591	0.49906632064533	-0.0850815969710696
2867.244	0.499179736389209	0.000819308929664176	0.49918040875892	-0.0940400785768376
2442.658	0.499277411977681	0.00075439376527729	0.499277981910964	-0.086572203970882
2083.003	0.499304985107561	0.000578349716648342	0.499305320061439	-0.0663662170720189
1777.843	0.499318303024497	0.000584793874791254	0.49931864547515	-0.0671039002332498
1513.548	0.499399072462774	0.000517136913560064	0.499399340215089	-0.059330811009828
1292.065	0.499345190170752	0.000429457642323543	0.49934537484644	-0.0492767424265226
1101.762	0.499529266121766	0.000479103811196847	0.499529495878483	-0.0549529722775262
939.101	0.499474441448885	0.000407520388151553	0.49947460769647	-0.0467475233723207
801.2801	0.499486218443639	0.000352838621856679	0.499486343066774	-0.0404739105353799
684.3433	0.49950080127732	0.000318536799062965	0.499500902844407	-0.0365381030124436
582.9476	0.499443747585182	0.000280124941968189	0.499443826142554	-0.0321357015794646
497.0677	0.499446034132469	0.000197757515499841	0.499446073283879	-0.0226864758925891
423.5089	0.499512248322278	0.000144364538419333	0.499512269183748	-0.0165591105328554
361.5036	0.499465674351706	0.000166943910540662	0.49946570225179	-0.0191508278233502
308.1262	0.499511687633847	0.000178222480933283	0.49951171942815	-0.020442755978123
262.7298	0.499479709404165	0.000131446280031446	0.499479726700287	-0.0150783240296516
224.2111	0.49945839373441	0.000126004664836393	0.499458409628802	-0.0144547282245871
191.2854	0.499441681790345	0.000127926545673901	0.49944169817384	-0.0146756893982793
163.1722	0.499451917517429	9.20239668987385E-05	0.499451925995132	-0.0105567416457075
139.1537	0.499485035364606	9.42941846544112E-05	0.499485044265166	-0.0108164576846623
118.6706	0.49943083790684	5.64200527382559E-05	0.49943084109369	-0.00647262972707954
101.1982	0.499409898310654	0.000105965093459698	0.499409909552523	-0.0121570528745535
86.24196	0.499410922553759	7.49300172672647E-05	0.499410928174889	-0.00859647541164843
73.61024	0.499393484598939	4.71630104739609E-05	0.49939348682599	-0.00541104664876761
62.69291	0.499433345501828	1.50807494640199E-05	0.499433345729515	-0.00173008731535877
53.57697	0.499397407914095	8.25913428686398E-05	0.499397414743656	-0.00947569060743258
45.65746	0.499344484106261	3.91102380037463E-05	0.49934448563788	-0.00448758650612787
38.96512	0.49932730594833	5.00868731021679E-05	0.499327308460405	-0.00574726515844392
33.18414	0.499390268540012	1.23327922572907E-05	0.499390268692295	-0.00141495938212123
28.30617	0.499349433287235	7.89120917293966E-05	0.499349439522466	-0.0090544405772965
24.17237	0.499308903069921	3.100960942356E-05	0.499308904032847	-0.00355835782440675
20.61345	0.499292286802753	4.83542762207261E-05	0.499292289144203	-0.00554884586328555
17.55618	0.499331214083804	-4.77889732033151E-06	0.499331214106673	0.000548354758224788
14.98558	0.499259286495838	3.74595890916408E-05	0.49925928790114	-0.00429892124447381
12.76553	0.499302739194486	3.41195980915666E-05	0.499302740360259	-0.00391527787217893
10.8809	0.49928139928021	9.34448077062359E-06	0.499281399367655	-0.00107233978795772
9.278505	0.499240854331256	1.14505233356385E-05	0.49924085446257	-0.00131412855046072
7.923394	0.499219199026235	4.16223908308729E-05	0.499219200761368	-0.00477703447098765
6.75822	0.499209511485887	3.63660701024893E-05	0.499209512810472	-0.00417384341188116
5.761429	0.499197337164316	2.4029717470411E-05	0.499197337742672	-0.00275803032264518
4.919708	0.49921756668954	7.836457833124E-05	0.499217572840172	-0.00899399352991019
4.191257	0.499157507947652	9.16959829565603E-06	0.499157508031876	-0.00105253206402225
3.564097	0.49920024245982	1.42465309553582E-05	0.499200242663109	-0.0016351476357478
3.051758	0.499202226764216	4.71315592305826E-06	0.499202226786465	-0.000540950997596107
2.604164	0.499161140136028	2.33496250568062E-05	0.499161140682149	-0.0026801665042025
2.214424	0.499144091680525	3.27234624249791E-05	0.499144092753187	-0.00375626260346509
1.892567	0.499136807610243	2.62759741340413E-05	0.499136808301864	-0.00301621198062468
1.607507	0.499138494959967	1.73745667763661E-06	0.499138494962991	-0.000199441509160663
1.376413	0.499103363449848	-1.61833916226826E-06	0.499103363452472	0.000185781164000713
1.17375	0.499074914548792	5.30689813180716E-06	0.499074914577008	-0.000609252952578975
1.001604	0.499027612870015	5.48486239603649E-06	0.499027612900157	-0.000629743642206239
