EC-Lab ASCII FILE
freq/Hz	Re(Z)/Ohm	-Im(Z)/Ohm	|Z|/Ohm	Phase(Z)/deg
6999984	20.1649471982815	4.85106711712418	20.7402494605134	-13.5265709739429
5969734	17.412232985393	4.60693887181579	18.0113781623244	-14.8197710950209
5091109	12.0999314909072	-6.15410411575383	13.5750263186554	26.9581856524988
4341796	9.44186639887166	-3.72429557104506	10.149838353129	21.526499918035
3702781	4.998028067872	-5.37335301848313	7.33847444830859	47.0725451407646
3157797	3.82361244519418	-6.14563933073387	7.23801733311732	58.1114995260101
2693047	3.38944929651332	-5.09380301507853	6.11843081925895	56.3599503575613
2296687	3.11240153901679	-4.12438595458931	5.16697230904982	52.9605573815824
1958656	2.91717956212764	-3.46312119009135	4.52803986013319	49.890701081473
1670375	2.6832970506038	-2.93014507500898	3.97313896338631	47.5179281532316
1424531	2.58661211123899	-2.51386235799522	3.60694693181831	44.1828267714443
1214875	2.49521174230619	-2.23165383219333	3.34759024757898	41.808638637449
1036062	0.863589892003972	-1.85649468462149	2.04752533942788	65.0534561718151
883578.1	0.753742037025969	-1.59597423745243	1.76501014869375	64.7197082561514
753531.2	0.672501209844175	-1.34709745504692	1.50563256827015	63.4706029669867
642624.9	0.609417113864461	-1.15078975812279	1.30219287591017	62.0959053291293
548046.8	0.572299630641609	-1.00919379929867	1.16017196646679	60.4430366817359
467390.6	0.538454717702462	-0.874919634466546	1.02733531516789	58.3904726764593
398593.7	0.50515960119079	-0.758371316695458	0.911215274598512	56.3319728284251
339937.5	0.481105062221575	-0.65896961089664	0.815906262373623	53.8673089290006
289906.2	0.460833792185747	-0.569324407360909	0.732460282088487	51.0119164611866
247234.4	0.443187735819803	-0.492678841220309	0.662682284180941	48.0271329344982
210843.7	0.430670233079401	-0.425283335104702	0.605262558546655	44.6394168383841
179812.5	0.420493227366056	-0.365143929018814	0.556906314526976	40.9700862563852
153343.8	0.412507801746993	-0.316858767105482	0.520155904314988	37.5288730909398
130781.2	0.407315179191675	-0.274168738723398	0.490993026929228	33.9449705161949
111531.3	0.401872159168491	-0.23787728629131	0.466997682700956	30.6222564819384
95109.37	0.396951032349945	-0.206734263119947	0.447559133111408	27.510746150123
81109.37	0.392001538713263	-0.178127514600351	0.430574752872557	24.4372916750602
69171.88	0.387876363545831	-0.15472552617347	0.417597966766117	21.7472662860768
59000	0.381058888891895	-0.130477611913823	0.402778206975328	18.9016141007801
50312.5	0.375592167375131	-0.100832191255736	0.388891510561727	15.0274052703984
42906.25	0.409634242986403	-0.0996978079273986	0.421592061040731	13.6788402375769
36593.75	0.395093819126909	-0.0914807213432417	0.40554635775675	13.0366347633265
31203.13	0.391558377900536	-0.0900324178926737	0.401775807603817	12.949149837588
26609.38	0.382908205841071	-0.0783028871616694	0.390832491277633	11.5573665982798
22703.13	0.378392282938046	-0.0701049266433339	0.384831678174671	10.4962029250739
19359.37	0.3733391412607	-0.0629422659410396	0.378607769649633	9.56966141541199
16500	0.369254710094145	-0.0556083647689958	0.373418439768302	8.56417205115895
14112.02	0.365040996794236	-0.0500426342250396	0.368455145954986	7.80589105719307
12011.13	0.361219357644847	-0.0452092499492942	0.364037498917809	7.13389177759593
10236.38	0.371330052929494	-0.0399931633456752	0.373477524521911	6.14720115860114
8750.684	0.354226043138597	-0.0161707102110766	0.354594954146781	2.61378475997423
7449.463	0.361039939739019	-0.00167459648311782	0.361043823323618	0.265750716932066
6363.206	0.338951933258502	0.00139902493117779	0.338954820485613	-0.236487126728878
5414.761	0.318109781471653	-0.0124321083433845	0.318352619567995	2.23804820525216
4620.567	0.324216952612519	-0.0137346516118075	0.32450773953212	2.42574402231686
3941.215	0.364097571418165	-0.0244594976114667	0.364918221710031	3.84326509874012
3361.769	0.33031994669857	-0.0257641346770021	0.331323192400714	4.45989889363597
2867.244	0.338918206707819	-0.00849487873235094	0.339024650730181	1.43580014896132
2442.658	0.337329091984856	-0.0259025760578615	0.338322124233342	4.39096920609275
2083.003	0.334798616817339	-0.0248541377135973	0.335719886191286	4.24562642924412
1777.843	0.336017432316866	-0.0190956151661992	0.336559589581689	3.25257712463897
1513.548	0.334275931206582	-0.0175620277401188	0.334736945977542	3.00741306776485
1292.065	0.333335653749428	-0.0167200544212861	0.333754727727428	2.87153899143855
1101.762	0.341678930048445	0.00618164275203493	0.34173484450106	-1.03648007843386
939.101	0.305131120917711	-0.0128119979636382	0.305399980753633	2.40435149712006
801.2801	0.346512436417387	-0.00405903480900508	0.346536209299252	0.671130102621924
684.3433	0.328007919438981	-0.0143926688852212	0.328323535757534	2.51247149785022
582.9476	0.327197847221069	-0.0132513298081476	0.327466073002664	2.31917960200048
497.0677	0.323843514133202	-0.0140325893816175	0.324147397353263	2.48115362476837
423.5089	0.32473642065018	-0.0128537827302024	0.324990711601372	2.26670984599578
361.5036	0.322766788825486	-0.0122244350184923	0.322998199345193	2.16897757009134
308.1262	0.321527999959037	-0.0127061280884033	0.321778962097676	2.26303432174002
262.7298	0.319607988670606	-0.0125911970939292	0.319855912351685	2.25604366368163
224.2111	0.319502096821958	-0.0119003411593217	0.319723643156611	2.13308233718419
191.2854	0.317400198262586	-0.0131815353218599	0.317673792955243	2.37811003010307
163.1722	0.31702352663905	-0.010800456191416	0.317207449938685	1.95121579272715
139.1537	0.316072758542971	-0.0107302728991201	0.316254845732761	1.9443729577799
118.6706	0.311079196362494	-0.00767028754638011	0.311173745230184	1.41245727542989
101.1982	0.318478058690229	-0.00663022809410837	0.318547066838916	1.19263857958118
86.24196	0.316800218872305	-0.00669697543399066	0.316870996081218	1.21101963860677
73.61024	0.30179739073398	-0.025384749165813	0.302863088777834	4.80793924149921
62.69291	0.429690680489105	-0.0691646609686127	0.435221588648924	9.14411420181242
53.57697	0.302794519025527	-0.00831132211232462	0.302908565126764	1.57230104111549
45.65746	0.289720136309777	-0.028001348099567	0.291070151129841	5.5204701284817
38.96512	0.306062810012737	-0.0180307330204173	0.306593462106005	3.37150482825868
33.18414	0.318478233591086	-0.00545862395334678	0.318525009766521	0.98193678816859
28.30617	0.288132138550874	0.00503028964602948	0.288176045291456	-1.00018377507012
24.17237	0.314950238797694	-0.0108437477764797	0.315136858816236	1.97191675786523
20.61345	0.33744270806139	-0.000927463955984541	0.337443982629998	0.157477507287486
17.55618	0.330212403473621	-0.0363303738176495	0.332204947990778	6.27850016693332
14.98558	0.307638294869894	-0.0168740674652963	0.308100721555921	3.13954744856233
12.76553	0.305567195384221	-0.00496384702556862	0.305607510824377	0.930670816491465
10.8809	0.291931681519118	-0.0128579141040388	0.292214702966306	2.52192014484972
9.278505	0.338270282009283	-0.00769392407334359	0.338357769466413	1.30296217599141
7.923394	0.300970877421342	-0.0147311397724699	0.301331172524133	2.80212859230522
6.75822	0.305624387165557	0.000799267663194451	0.305625432284553	-0.149839349624818
5.761429	0.282216105407367	-0.0518037162388538	0.286931272550515	10.4014471649152
4.919708	0.286898080617236	-0.0199511173866356	0.287590952129634	3.97798924877159
4.191257	0.279096466907191	-0.0028623295072738	0.279111144116972	0.587587699471694
3.564097	0.312732590099657	0.00332040666953478	0.312750216644036	-0.608309291090395
3.051758	0.28755764591428	-0.0153606309902563	0.287967617464501	3.05769527090774
2.604164	0.315985599995214	-0.00146324782081808	0.315988987938694	0.265320081853246
2.214424	0.354600283689726	0.0134110915754393	0.354853798866631	-2.1659116729296
1.892567	0.289696277931926	-0.0543159979319136	0.294744229933262	10.6192628003121
1.607507	0.288947739544907	0.0178973650940002	0.289501488537484	-3.5443610384295
1.376413	0.365193685234793	-0.0719317040024972	0.372210421369515	11.1428316335027
1.17375	0.324391779830464	-0.0928259562069295	0.337411743967674	15.9686775249731
1.001604	0.344110895640479	-0.0163256627102437	0.344497947397979	2.71624852135086
