EC-Lab ASCII FILE
freq/Hz	Re(Z)/Ohm	-Im(Z)/Ohm	|Z|/Ohm	Phase(Z)/deg
6999984	10.5625757682044	-2.98732628406484	10.9768905062646	15.7920575550461
5969734	6.28559649991329	-2.18478290756061	6.6544721588486	19.1667159430092
5091109	3.9233503722058	-1.38358773737557	4.16016744495981	19.4254350354005
4341796	2.45747131612161	0.804684991409987	2.58586217826105	-18.1307394944772
3702781	1.93122939099314	0.523932981939409	2.00103791323395	-15.1787119649365
3157797	1.68194052601329	0.483060958276192	1.74993480520178	-16.0243059973024
2693047	1.56620026114904	0.448611262339544	1.62918240928424	-15.9834541065095
2296687	1.52078072118123	0.417294690962618	1.57699361476897	-15.3440217479876
1958656	1.49829905363683	0.38732976549916	1.547554329053	-14.4943826335881
1670375	1.48935329899965	0.348366689718007	1.52955307189591	-13.1650632531051
1424531	1.48943081173149	0.302944111600146	1.51992739224225	-11.4968966325817
1214875	1.49339325990946	0.254158886184541	1.51486638624322	-9.65856154690449
1036062	1.49600307758548	0.207380652227961	1.51030855889243	-7.89222433776338
883578.1	1.48574247684738	0.171932421741528	1.49565753605379	-6.60099519150065
753531.2	1.47800586538756	0.14642853973106	1.48524161514812	-5.65792671423815
642624.9	1.47083002720028	0.126926752963171	1.47629650461273	-4.93217769092199
548046.8	1.46439963014818	0.106960443040327	1.46830065489106	-4.17749258007835
467390.6	1.45962812272137	0.0910230199904698	1.46246348563214	-3.56836797004548
398593.7	1.45638416678455	0.0773069989528123	1.45843450773349	-3.03849201744613
339937.5	1.45353304078335	0.0664663625057527	1.45505191591009	-2.61816616823359
289906.2	1.45159571956244	0.0570303298343794	1.45271559211465	-2.2498809296372
247234.4	1.45049853358122	0.0493892137803382	1.45133913692118	-1.95015753967954
210843.7	1.44978565394916	0.043241103167507	1.45043036213392	-1.70838940365717
179812.5	1.44973615189212	0.038418168472643	1.4502451054121	-1.51798922579945
153343.8	1.44945628414461	0.0332933561284832	1.44983860039957	-1.31582679736549
130781.2	1.45024460619801	0.030126217313051	1.45055748137604	-1.19004537260042
111531.3	1.45093001776219	0.0268611466075809	1.45117863739805	-1.0605987368199
95109.37	1.45180625136044	0.0232667512344546	1.45199267670408	-0.91814767796329
81109.37	1.452201862429	0.0202044955743227	1.45234240827832	-0.797105187121748
69171.88	1.4526116839815	0.0176113100407928	1.45271843888653	-0.694613923770951
59000	1.45362912842847	0.0154958373513102	1.45371171969925	-0.610755820875604
50312.5	1.45353407609771	0.0136504423999977	1.45359817176376	-0.538060826590129
42906.25	1.45433395327751	0.0119659640392037	1.45438317920388	-0.471407385775411
36593.75	1.4542652747689	0.0101548922653313	1.45430072929761	-0.40008038552159
31203.13	1.45484283962317	0.00913640220221271	1.45487152760923	-0.359812338722001
26609.38	1.45485511548803	0.00790107865049266	1.45487657005862	-0.311160888055616
22703.13	1.45528415032158	0.00693239744514236	1.45530066182612	-0.272932341823575
19359.37	1.45544802146614	0.00585390318157368	1.45545979380131	-0.230445974328577
16500	1.45566898541372	0.00513989101820119	1.45567805972856	-0.202307558643466
14112.02	1.45600987028812	0.00431322491220071	1.45601625893586	-0.169730209736359
12011.13	1.45587473113684	0.00385728506721785	1.45587984099336	-0.151802646805613
10236.38	1.45591453332567	0.00330226878592008	1.45591827838242	-0.129956625513967
8750.684	1.45564249788185	0.00269996955937521	1.45564500187213	-0.106273816122691
7449.463	1.45588780585334	0.00234519123860661	1.45588969470712	-0.0922938178088379
6363.206	1.45597350703072	0.00187589768809096	1.45597471549731	-0.0738206844655685
5414.761	1.45595735284323	0.00159525088711069	1.45595822677839	-0.0627773240348784
4620.567	1.45579574457506	0.00141144551504832	1.4557964287981	-0.0555502693197942
3941.215	1.45593204640663	0.00161125153490575	1.45593293797665	-0.0634080932715379
3361.769	1.4550665543023	0.000702953765577407	1.45506672410346	-0.0276800265306944
2867.244	1.45552378193169	0.00159256343704554	1.45552465318421	-0.0626902344500185
2442.658	1.45604576072188	0.00114352441067529	1.45604620976267	-0.044997973826577
2083.003	1.45486144276562	-2.44367111632407E-05	1.45486144297085	0.000962373717211643
1777.843	1.45502808594402	-0.000183755934459219	1.45502809754732	0.00723590118344102
1513.548	1.45448685119043	0.000887878518213362	1.45448712218916	-0.0349756929417455
1292.065	1.45482934246277	0.000226325038456979	1.45482936006725	-0.00891339555686914
1101.762	1.45567680059301	0.000394295399859987	1.4556768539939	-0.0155195588276819
939.101	1.45537830146282	0.000617111727438095	1.45537843229715	-0.0242946423728064
801.2801	1.45500824288408	0.000274507096389117	1.45500826877883	-0.0108096280277444
684.3433	1.45536135156277	0.000253117030960457	1.45536137357387	-0.00996490489122708
582.9476	1.45510441462617	0.000338454673757783	1.45510445398814	-0.0133268951823398
497.0677	1.45505195575474	0.000165871413013494	1.45505196520916	-0.00653154124757489
423.5089	1.45520050258623	-5.47482081743565E-05	1.45520050361611	0.00215560759994196
361.5036	1.45507811827738	5.54547877589229E-05	1.45507811933411	-0.00218361148513678
308.1262	1.45492411929372	9.87570048885425E-05	1.45492412264542	-0.00388910974375971
262.7298	1.45509556081574	0.000135091363273377	1.4550955670867	-0.00531935162915047
224.2111	1.45508717639133	0.000257542429931143	1.45508719918312	-0.0101410378470282
191.2854	1.45500560766636	0.000242571116628865	1.45500562788647	-0.00955206015194557
163.1722	1.45514644447916	0.000105745477754981	1.45514644832142	-0.0041636837242579
139.1537	1.45520613254467	5.46269975873154E-05	1.45520613356999	-0.00215082684009939
118.6706	1.45534701971279	0.000165406156425337	1.45534702911233	-0.00651190025435781
101.1982	1.45535439152067	-2.32652370906557E-05	1.45535439170663	0.000915928039464953
86.24196	1.45545492935748	0.000140321167010679	1.4554549361217	-0.00552391589666161
73.61024	1.45531593372412	0.000311860529400895	1.45531596713851	-0.0122779469693261
62.69291	1.45531452351073	2.5884267777327E-05	1.45531452374092	-0.00101906445329307
53.57697	1.45523483841011	4.08192644663672E-05	1.4552348389826	-0.00160714375055298
45.65746	1.45531812572209	0.000214413185268513	1.45531814151692	-0.00844143303228603
38.96512	1.45519541754749	2.97852890574218E-05	1.45519541785232	-0.00117274376606085
33.18414	1.45519379909655	4.22232338972871E-05	1.45519379970911	-0.00166246798229302
28.30617	1.45504644372583	0.000136777989178751	1.45504645015456	-0.00538594594072073
24.17237	1.45518778799208	-7.15224652855259E-05	1.45518778974975	0.0028160869901102
20.61345	1.45505266975717	0.000132563606932393	1.45505267579582	-0.00521997267254282
17.55618	1.45457439693609	-4.77973728834993E-05	1.4545743977214	0.00188274160663107
14.98558	1.45475902556475	5.0475206574255E-05	1.45475902644041	-0.00198796931641141
12.76553	1.45469253597378	0.000138279421607897	1.45469254254603	-0.00544639298810703
10.8809	1.45467182563398	-7.07779887220421E-05	1.45467182735585	0.00278776282150791
9.278505	1.45448540733863	3.32905238105981E-06	1.45448540734244	-0.000131139611473574
7.923394	1.45469273782336	0.00030735155936042	1.45469277029241	-0.0121056127237067
6.75822	1.45449823349919	4.1821594978833E-05	1.45449823410045	-0.00164744159115792
5.761429	1.45438119219184	0.000106105965340108	1.45438119606238	-0.00418007604677659
4.919708	1.45445820993019	0.000142140972411767	1.45445821687575	-0.00559938933518302
4.191257	1.45430101240459	6.0192748158261E-05	1.45430101365026	-0.00237144194728334
3.564097	1.45430950908802	1.26558071007565E-05	1.45430950914309	-0.000498603858845327
3.051758	1.45445966852462	-1.27784812171176E-05	1.45445966858075	0.000503384905166796
2.604164	1.45432633713738	1.27773112586751E-05	1.45432633719351	-0.000503384962462575
2.214424	1.45433153811849	1.57073041716441E-05	1.45433153820331	-0.000618815045221914
1.892567	1.45430244276344	6.24118983753632E-05	1.45430244410265	-0.00245886843132676
1.607507	1.45409401414675	-1.35899742893633E-05	1.45409401421026	0.000535486813695504
1.376413	1.45415631758637	1.48906770251103E-05	1.45415631766261	-0.000586713365876324
1.17375	1.45421671106644	6.71798386779078E-05	1.45421671261818	-0.00264686906193847
1.001604	1.45390637545921	-6.48560155692044E-05	1.45390637690576	0.00255585643505532
