EC-Lab ASCII FILE
freq/Hz	Re(Z)/Ohm	-Im(Z)/Ohm	|Z|/Ohm	Phase(Z)/deg
6999984	-11.2018327688658	31.6099461580866	33.5360962769785	-109.513147609023
5969734	-10.0003177855722	38.8977525288423	40.1626880027656	-104.418063120042
5091109	-8.61649156076748	43.92557037042	44.7627038859752	-101.098288359275
4341796	-7.05832515986212	48.9641538955337	49.4702771446436	-98.2028461415811
3702781	-13.9266477572166	49.4241853615879	51.348822931107	-105.736668189756
3157797	-12.5808962024087	57.6266707372546	58.9839989278087	-102.315422603471
2693047	-11.8999782560918	66.8741042679595	67.9246295841014	-100.089939935624
2296687	-12.6005355145032	77.0023836794131	78.0265377135484	-99.2934140088331
1958656	-12.285270543393	89.5760760941252	90.4146076734555	-97.8093387278853
1670375	-11.9266265953136	104.81352502506	105.489902123961	-96.4917076864229
1424531	-11.3738995726673	122.073051568402	122.601776131959	-95.3230456716946
1214875	-10.6679214079433	142.5814897684	142.980018784943	-94.2788873858482
1036062	-9.73258792870224	166.725719299093	167.009546863614	-93.34084088366
883578.1	-9.36932888165632	193.639669961048	193.866206715653	-92.7701176239302
753531.2	-8.40965940119648	226.763098188325	226.91898349678	-92.1238785268021
642624.9	-6.75325645922801	264.717261986949	264.803389832289	-91.4613674282923
548046.8	-5.38850205195806	309.409583771172	309.456501763679	-90.9977299804725
467390.6	-3.7916922582726	361.973448692375	361.993307242597	-90.6001545664312
398593.7	-0.609777684231168	422.086640673223	422.08708113804	-90.0827736774281
339937.5	0.730587678124621	492.865099339007	492.865640823952	-89.9150689307933
289906.2	-101.169989066846	502.216007093791	512.304874531774	-101.389637398099
247234.4	-108.64593360354	605.043368899823	614.720600873463	-100.179951605239
210843.7	-111.40981334923	724.47545713301	732.991701520961	-98.7424577930353
179812.5	-115.45768488391	861.191571008841	868.896656096356	-97.6359616990787
153343.8	-114.912834738214	1023.45837020692	1029.88931207882	-96.4062796791689
130781.2	-109.005713429867	1207.17882520169	1212.09032731711	-95.1596954043028
111531.3	-71.9494318828254	1456.38351061948	1458.15967944275	-92.8282728401359
95109.37	-89.3363331368216	1666.91241101808	1669.30463559664	-93.0677691985006
81109.37	-102.440037531422	1964.75474879786	1967.42348878252	-92.9846330224271
69171.88	-56.0099926897146	2308.22133388383	2308.90078727466	-91.3900341827985
59000	-57.2712373695371	2706.21805805699	2706.82400099888	-91.2123599705285
50312.5	-59.3156249834958	3149.24024269745	3149.79879509665	-91.0790326916015
42906.25	-0.968816997233169	3730.90852816948	3730.90865395739	-90.0148781787051
36593.75	16.6569441632209	4333.96977096102	4334.00178004033	-89.7797935953629
31203.13	-720.784442506753	4722.66410990816	4777.35141135487	-98.677656266406
26609.38	-707.170772457579	5627.38445148382	5671.64405320186	-97.1625839687416
22703.13	-707.413379320896	6692.60781941751	6729.89101797129	-96.0337998165544
19359.37	-631.162411664569	7832.99689524281	7858.38446188411	-94.6067911320015
16500	-611.849379520354	9187.91403367468	9208.26389464461	-93.8098641347541
14112.02	-708.218960184979	10916.5924100156	10939.5413040025	-93.7118883517867
12011.13	-467.11241371019	12745.1984788741	12753.7554576264	-92.0989548627139
10236.38	-440.509414060646	14847.7777199774	14854.31088155	-91.6993740963897
8750.684	-255.086096254896	17372.0249620502	17373.8976685888	-90.8412552066223
7449.463	33.6300296971442	20291.7125396162	20291.7404075973	-89.9050421693785
6363.206	79.3440725178796	23548.8502896948	23548.983957876	-89.8069517948521
5414.761	225.236020860958	27760.6319083305	27761.5456200643	-89.535140616842
4620.567	280.658176385681	32659.2104110951	32660.4163122296	-89.5076386426757
3941.215	1390.8187257378	37613.9260715537	37639.630859563	-87.8823865610077
3361.769	-6447.17118124033	41204.6408669285	41705.9761330768	-98.8928019184777
2867.244	-6707.58607763306	48809.385853781	49268.1221319844	-97.8248085883538
2442.658	-6220.53421943961	57863.8422993095	58197.2447081009	-96.1359008956467
2083.003	-5804.57959300027	68265.3094355155	68511.6458463681	-94.8601530690084
1777.843	-5120.63501275823	80045.2856742469	80208.9063733304	-93.6603221502249
1513.548	-4951.80572659478	93991.8828872639	94122.2313199547	-93.0157446307028
1292.065	-4731.50327816027	110684.437639762	110785.521883059	-92.4477715683896
1101.762	-3914.59583930265	129709.004552821	129768.062028639	-91.7286522397209
939.101	-3543.92879748359	151217.548682732	151259.070673252	-91.3425359815822
801.2801	-168.926503461873	175841.743682909	175841.824824498	-90.0550425201437
684.3433	-816.481875765234	203019.348473616	203020.99028747	-90.2304249012333
582.9476	6952.74809642708	240110.797761396	240211.440001733	-88.341383050687
497.0677	19940.8393905923	272698.05210492	273426.159497256	-85.8177331462537
423.5089	-73848.3769884004	301112.642722644	310036.137234413	-103.779902727826
361.5036	-63495.984333085	354991.173671675	360625.114781571	-100.14104777095
308.1262	-36378.9299966957	419644.575674761	421218.466405445	-94.9545765136459
262.7298	-42213.1805490898	489384.755802516	491201.986787471	-94.9299966242348
224.2111	-25925.5282404952	574689.462626304	575273.944715262	-92.5829896080404
191.2854	-77373.3458631248	664932.879246894	669419.42648359	-96.6372389663862
163.1722	83932.8582615689	877079.395699784	881086.256309253	-84.533677431586
139.1537	-225387.162908979	885933.062576021	914153.57821839	-104.27362045989
118.6706	-13007.0492750926	1077343.61103048	1077422.12691175	-90.6917132220931
101.1982	107519.731809489	766043.194621588	773551.981934267	-82.0103140060504
86.24196	843995.068806209	145680.121965312	856475.553711269	-9.79320089918228
73.61024	423755.362234142	-297247.336360687	517614.321667892	35.04811480705
62.69291	66644.5639505661	-8633.44701399347	67201.4457545708	7.38125484648776
53.57697	97933.5220769438	120362.232821906	155171.008362613	-50.8662476713525
45.65746	134755.143796937	359350.704623285	383786.239582641	-69.4441463474617
38.96512	335792.482202975	-294066.397518979	446353.713162359	41.2098805528034
33.18414	502911.126760503	160045.765080853	527763.43975292	-17.6530817694105
28.30617	272029.126449478	-614122.874335914	671674.586700637	66.1087871346666
24.17237	1177933.07088235	91830.0591290044	1181507.12195821	-4.45768498471558
20.61345	461116.676546795	682390.863146629	823581.131094904	-55.9516549031731
17.55618	-199997.40700259	769215.696254793	794790.3812783	-104.574308710774
14.98558	2046057.76629294	84328.1544731338	2047794.81898077	-2.36010655026447
12.76553	-1451713.37175453	3474844.06307395	3765901.3497981	-112.67409846898
10.8809	4396817.5760215	-1354907.80855307	4600845.57081518	17.1270205698112
9.278505	1699728.92969985	2298646.2622111	2858820.22401474	-53.5190078853405
7.923394	2182623.20203859	-108127.520224605	2185299.88850664	2.83612389716372
6.75822	1532677.42176776	-179938.735256404	1543203.81921584	6.69596294604359
5.761429	610001.669801454	-570965.6297892	835526.054387977	43.1068177617666
4.919708	1363398.81593335	66453.4255564031	1365017.35851844	-2.79044540990471
4.191257	1043511.56787555	1035903.44638441	1470378.29911937	-44.7903682990893
3.564097	2332005.13517612	249531.779603717	2345317.47520885	-6.10758685664579
3.051758	1016781.63478821	3220936.26004923	3377613.84473455	-72.4801924080804
2.604164	17223157.8680859	5440008.12811608	18061861.9024445	-17.5289447335175
2.214424	1085764.51888104	-5202160.82615931	5314260.23560076	78.2108016834198
1.892567	3092777.8909825	791398.53124561	3192426.46245891	-14.3532058328679
1.607507	3388216.44541062	308080.700175141	3402194.05660103	-5.1954523707424
1.376413	-2638210.92900129	-824324.460842354	2763994.88469948	162.648279501203
1.17375	1601641.09451234	12684045.7852349	12784767.1733812	-82.8032302987319
1.001604	7612132.2296794	-3199824.52351207	8257326.08435643	22.7998642402455
