EC-Lab ASCII FILE
freq/Hz	Re(Z)/Ohm	-Im(Z)/Ohm	|Z|/Ohm	Phase(Z)/deg
6999984	19.7746528553548	4.92750576289445	20.3793328790015	-13.9921736670001
5969734	16.2784686934808	-0.697322936940814	16.2933975058309	2.45288732490339
5091109	11.2371257577979	-5.74121565629721	12.6188173973902	27.0631687093006
4341796	6.78323193109435	-6.15372338664361	9.15863237335916	42.2142010831544
3702781	6.22485265744362	-5.8132543955343	8.51720125828208	43.0417469449736
3157797	3.94415632374257	-4.86443061446348	6.26251182107052	50.9643208571451
2693047	3.3547303478487	-4.51497348038347	5.62487344171787	53.3867921445361
2296687	2.68751283228829	-3.48009987759322	4.3970240369753	52.322826707712
1958656	1.77634638947482	-3.28580365915717	3.73522585420626	61.6037918788915
1670375	1.44584941754216	-2.67361554328574	3.03952308948396	61.5961715402162
1424531	1.17197714142768	-2.4083241989879	2.67834946701503	64.0507800303362
1214875	1.12432143855597	-2.28301461906854	2.54484861005075	63.7810315003886
1036062	0.826422871535062	-1.7943469160018	1.97551401350672	65.2706071761697
883578.1	0.738100324459505	-1.54924783430334	1.71608884999024	64.5257047467201
753531.2	0.651886302434247	-1.35557166906503	1.50417096809942	64.3173772924106
642624.9	0.625006873015422	-1.14414809904661	1.30372867724404	61.3538103928759
548046.8	0.557581412887673	-1.00836853390785	1.15226044459284	61.0594246777377
467390.6	0.522380268292506	-0.87796719671915	1.02162005815089	59.247846721093
398593.7	0.492807749224245	-0.758565611220462	0.904589002929916	56.9899346420415
339937.5	0.468494000540511	-0.659002460385229	0.808560988012802	54.5904504213911
289906.2	0.447854594978865	-0.571476214587428	0.726057023988377	51.9149036758907
247234.4	0.429566677878128	-0.495501132809608	0.655781139831618	49.0768775588472
210843.7	0.416150502415767	-0.427364973040302	0.596508223616937	45.7616979195966
179812.5	0.406721910522366	-0.367850808913115	0.548394866968133	42.1270828504047
153343.8	0.39781488002642	-0.319153860551141	0.510015554150197	38.7389313063663
130781.2	0.391039051428222	-0.275821941643566	0.478528247059576	35.1974791746627
111531.3	0.385215403764243	-0.240937558775724	0.454358684880188	32.0244102573384
95109.37	0.37882223426942	-0.209773688392976	0.433025733090851	28.9755929674662
81109.37	0.370158601360416	-0.184429291779288	0.413559613390027	26.4845042545303
69171.88	0.366044739326907	-0.158413548437595	0.398852859482659	23.4015615983801
59000	0.357573292987366	-0.133944900811844	0.381837526064848	20.5356610846034
50312.5	0.350757685469226	-0.104125324701234	0.365886645233009	16.5339576856492
42906.25	0.381435625238813	-0.10366516311865	0.39527155506783	15.2043919333143
36593.75	0.365800058470168	-0.0945509540258591	0.377822134984146	14.4924574953965
31203.13	0.360456762886026	-0.0820186230515055	0.369670302347291	12.8188706941312
26609.38	0.355032209611061	-0.0710277248418394	0.362067407477558	11.3132350113525
22703.13	0.35555747197363	-0.0628477314581456	0.361069180664473	10.0239653807492
19359.37	0.353080024632702	-0.0561281501442831	0.357513458534429	9.03257077825635
16500	0.351004930785824	-0.0499078177448925	0.354535261586233	8.09238714349233
14112.02	0.349074259130856	-0.0443401499537696	0.35187908048885	7.23906391047014
12011.13	0.347218316121261	-0.039703653393417	0.34948095676713	6.52331357363682
10236.38	0.345596426650318	-0.0356513513498594	0.347430437593686	5.88973684378115
8750.684	0.34410610209358	-0.0322195862488648	0.345611213990642	5.34916319618892
7449.463	0.342693463893097	-0.0293134236145976	0.34394488947949	4.88908381627682
6363.206	0.341176917163952	-0.0266963851594955	0.342219791634094	4.47415924019898
5414.761	0.339723600440649	-0.0247174562866549	0.340621604337776	4.16136782884998
4620.567	0.338319115263803	-0.022784486507679	0.339085470904168	3.85283177504542
3941.215	0.337413567100476	-0.0217957433356924	0.338116798889116	3.69597311947245
3361.769	0.336402619411002	-0.0195182735390822	0.336968374404082	3.32061127914839
2867.244	0.335837930125422	-0.018571277526824	0.33635101852069	3.16513746256626
2442.658	0.335089963891666	-0.0185302590782791	0.335601928484367	3.16519590426136
2083.003	0.332046046115768	-0.0205345903902081	0.332680396392105	3.53881308809925
1777.843	0.328164623393555	-0.0149356074434755	0.328504326328801	2.60587851535922
1513.548	0.327949745929886	-0.0137352512777236	0.328237251059563	2.39827069604034
1292.065	0.327551226674591	-0.0165189192687829	0.327967499593843	2.88706958543337
1101.762	0.328193926764494	-0.0119723105337882	0.328412225388483	2.08918804049922
939.101	0.328653246916845	-0.0111557162175641	0.328842525706928	1.94408590592454
801.2801	0.319308930237253	-0.0150862927484016	0.319665120333998	2.70502485110204
684.3433	0.320507669581564	-0.00764830915076297	0.320598912807687	1.36699593917524
582.9476	0.316742091785694	-0.0144742771908027	0.317072637433401	2.61644557597482
497.0677	0.318254648690123	-0.0161628088835515	0.318664804777496	2.90731275729314
423.5089	0.315746337669448	-0.0195747293219652	0.316352524535047	3.54751803588067
361.5036	0.307152987101715	-0.00817272259117069	0.307261697710695	1.52416571083096
308.1262	0.312817650823419	-0.00124088968904173	0.312820112003533	0.227280554397818
262.7298	0.304885599829333	-0.0145479836616635	0.305232489771177	2.73186505901495
224.2111	0.30580398664564	-0.00629282950400271	0.305868726664779	1.17886524714403
191.2854	0.32170272865769	-0.00589352290794458	0.32175670814774	1.04952861926017
163.1722	0.320815654169335	-0.0135562524023594	0.321101940105155	2.41962712489604
139.1537	0.312875541873062	-0.0236719326654607	0.313769764474654	4.32671313528442
118.6706	0.31257831490656	5.17740346943491E-05	0.312578319194367	-0.00949020935796119
101.1982	0.315626815572302	-0.00891576939569993	0.315752715985515	1.61805057514109
86.24196	0.310927793909273	-0.00865727196948687	0.311048294294055	1.59489448585088
73.61024	0.325693261286824	0.00568838770193696	0.325742932697388	-1.00059630468262
62.69291	0.266440796051216	-0.0196373926397156	0.26716347989591	4.21522929933905
53.57697	0.304681292760087	-0.0127138276709466	0.304946440497351	2.38946834543374
45.65746	0.321547981780505	0.00924666941363078	0.321680906306795	-1.6471854790235
38.96512	0.301012237251677	-0.0173440565145036	0.301511497743682	3.29768551889182
33.18414	0.302494610656972	0.00116717610508086	0.302496862424346	-0.221074791222976
28.30617	0.292400464578343	-0.016350857704865	0.292857272802496	3.20061214445178
24.17237	0.293192917283182	-0.0102399415860368	0.293371680890826	2.00027702280861
20.61345	0.293429465610003	0.0109085873612652	0.293632165415151	-2.12905788163119
17.55618	0.31533773194161	0.00804786319638519	0.315440411628102	-1.46195166160447
14.98558	0.300195660887899	-0.00766053305949583	0.300293387510744	1.4617832120127
12.76553	0.299868146055619	-0.00875468069476116	0.299995915727034	1.67228103045023
10.8809	0.304563452291479	-0.00749927028458241	0.304655765621636	1.41050979188424
9.278505	0.303814509125928	0.00370879323949554	0.303837145692757	-0.699399267275884
7.923394	0.289805097234659	-0.00688128898642743	0.28988678224663	1.36020638930294
6.75822	0.298537914634395	-0.00517211056728858	0.298582714171423	0.992538799209691
5.761429	0.296186014524237	-0.00857913646266542	0.296310237390132	1.65912935722079
4.919708	0.299646581129687	0.00165869141384659	0.299651171931492	-0.317157120564778
4.191257	0.296910839595709	-0.0174218858013675	0.297421533810693	3.35810334543057
3.564097	0.281223768968043	-0.00260339822949085	0.281235819046815	0.530394250220822
3.051758	0.298310069032645	0.00994370006283396	0.298475751874756	-1.90915839873337
2.604164	0.322961219268713	-0.0111431993926027	0.32315340017434	1.97610450638984
2.214424	0.293276492679266	-0.0379870940132369	0.295726428426379	7.38023498161243
1.892567	0.267719923975045	-0.0250065210040314	0.268885261377281	5.33625961368478
1.607507	0.260757358201669	-0.00315112182636812	0.26077639736962	0.692357043015931
1.376413	0.267216128200355	0.0129482545185583	0.267529655300989	-2.7741608034515
1.17375	0.27439554674318	0.0210153021175437	0.275199126080699	-4.37959771273279
1.001604	0.286506093903642	0.0345629054331214	0.288583326399675	-6.87868491648876
