EC-Lab ASCII FILE
freq/Hz	Re(Z)/Ohm	-Im(Z)/Ohm	|Z|/Ohm	Phase(Z)/deg
6999984	22.1018491747813	92.4538249318652	95.0589368837921	-76.5552974301688
5969734	18.6132838945746	92.356505902527	94.21347313343	-78.6053977169264
5091109	16.106775243892	97.486506070317	98.8081326336815	-80.61831304278
4341796	15.647868818873	106.909705135449	108.048789214508	-81.6730137520569
3702781	18.6405435884837	118.141553725172	119.60307931601	-81.0337074442499
3157797	19.2417509300497	131.161832023069	132.565723920257	-81.6541061448175
2693047	20.6791079023094	148.878319657722	150.307616466173	-82.0922469707541
2296687	22.6151479079401	171.196154607574	172.683433679431	-82.4747535947834
1958656	26.6289165142849	196.41179952302	198.208713699968	-82.2790885077463
1670375	31.1556695012167	226.227652024921	228.36292668202	-82.1586527792098
1424531	37.2553984901499	259.855449839577	262.512513088403	-81.8411195691482
1214875	41.9507847518704	298.983471617666	301.912213469163	-82.0128923161285
1036062	58.9371345832024	342.444589252805	347.479326782761	-80.2346605031604
883578.1	63.7004784049772	405.057313005602	410.035581100399	-81.0626991086835
753531.2	84.4543684015488	464.900977450265	472.509745059629	-79.7038724017513
642624.9	161.934670317118	605.610481059724	626.886666168698	-75.0298545964125
548046.8	202.200185208777	686.182887285334	715.354366521727	-73.5811308114242
467390.6	249.347258221579	774.986024016532	814.111412893575	-72.1647218460813
398593.7	305.550345602395	873.360878115615	925.267657016401	-70.7173158640219
339937.5	370.540696001473	982.514170990006	1050.06404737494	-69.3367740566542
289906.2	448.606208630574	1103.35429343745	1191.06600458109	-67.8741273972442
247234.4	543.729906100078	1234.88054990053	1349.28580490207	-66.2356399905085
210843.7	654.863994481896	1377.60876767919	1525.33693591133	-64.5753228917785
179812.5	792.217268010744	1531.07992809366	1723.89499272597	-62.6418768121095
153343.8	953.712200866164	1692.67125988424	1942.85947925193	-60.6015168078691
130781.2	1145.57511191276	1854.81947498047	2180.06826081221	-58.299658865931
111531.3	1370.00174533843	2012.17520489859	2434.28713126431	-55.7507701706223
95109.37	1627.22383204757	2157.45510879005	2702.30826258365	-52.975196453248
81109.37	1921.33978584943	2288.24996224316	2987.91473479311	-49.9813430046627
69171.88	2234.412434946	2396.55911638471	3276.59801131722	-47.005308543506
59000	2560.07514540668	2450.43145561266	3543.81137601665	-43.7464105484712
50312.5	2933.79417111255	2528.30798792405	3872.91744299495	-40.7543619169405
42906.25	3344.26215815239	2498.12401260487	4174.29191178613	-36.7592933692539
36593.75	3604.79739083577	2405.57488717469	4333.74604318042	-33.716211386911
31203.13	3866.20132809999	2406.06695910096	4553.75349805844	-31.8953916210309
26609.38	4458.03323950138	2031.81418505768	4899.21720758539	-24.5018239115257
22703.13	4808.18553142219	1882.25667779784	5163.48121965135	-21.3788143167621
19359.37	4969.10165264688	1710.47502078934	5255.25413572762	-18.9945994213519
16500	5095.69269089055	1628.33763586017	5349.5389947503	-17.7213726090122
14112.02	5244.48564070841	1516.38515176877	5459.30889070233	-16.1266419890907
12011.13	5415.44686692939	1354.17667220997	5582.19125685362	-14.0393796597409
10236.38	5456.00412225339	1212.17600515627	5589.03852639456	-12.5261121791311
8750.684	5537.21991680582	1145.24842001454	5654.414059	-11.6855659049404
7449.463	5648.72642411115	1040.2411796503	5743.71064089164	-10.4343979677132
6363.206	5711.04281215321	974.658621576546	5793.61453937525	-9.68491187590255
5414.761	5793.83630072531	934.373669694661	5868.6960420711	-9.16122845115298
4620.567	5823.26005412676	840.486840842548	5883.60227986375	-8.21293746358786
3941.215	5847.03428683903	866.082367493796	5910.82977413111	-8.42557929009476
3361.769	5960.2991070351	847.000605098231	6020.18068419546	-8.08798109804778
2867.244	5969.9343324377	821.549308249714	6026.19773982765	-7.83551297520133
2442.658	6027.7956027555	887.657061108532	6092.80353258944	-8.37720446345186
2083.003	6052.60520600311	913.918630131084	6121.21532395623	-8.58656324179267
1777.843	6102.12934821368	907.917962416703	6169.30284625497	-8.46278716931055
1513.548	6150.98921974526	1001.7846878167	6232.03345162447	-9.25029474040607
1292.065	6200.87185652096	1041.6502374058	6287.75373230229	-9.53577096183
1101.762	6245.10453573782	1154.21558788021	6350.86956924788	-10.4712047764724
939.101	6303.19896178547	1268.00531217877	6429.47545477599	-11.3742951235796
801.2801	6340.97048174989	1372.86363433954	6487.88572717765	-12.2163769246614
684.3433	6365.74886664122	1517.05651773513	6544.02163131714	-13.4044392903328
582.9476	6472.7162421033	1705.17699866171	6693.55541902454	-14.7587167123718
497.0677	6546.07670438451	1906.43571965255	6818.03618154471	-16.2373202463761
423.5089	6623.09294791234	2147.45883690956	6962.53830530986	-17.9646676775586
361.5036	6709.60207321437	2406.51727033731	7128.11934196632	-19.7312684472854
308.1262	6809.66111031238	2709.46853740588	7328.89515496661	-21.6969147550407
262.7298	6912.3518411379	3070.13905865964	7563.48873306426	-23.9485242983459
224.2111	7032.11395836936	3467.57920620582	7840.58239385342	-26.2481935415065
191.2854	7187.665370725	3920.04840900637	8187.14315316843	-28.6074102883152
163.1722	7291.22847526989	4481.15200881796	8558.19700665506	-31.5746727656284
139.1537	7489.03844941289	5063.85211564258	9040.37029915714	-34.0653203010621
118.6706	7690.65522894766	5740.39218681689	9596.78489438043	-36.7380767421002
101.1982	7897.12226820816	6554.69770439176	10262.972382063	-39.6930435451299
86.24196	8134.61293676752	7474.33766767097	11047.0652755105	-42.5777714520546
73.61024	8423.35313544055	8510.28163959525	11974.0457502704	-45.2941242517242
62.69291	8735.07828884524	9716.3587332952	13065.5738391522	-48.044224265527
53.57697	9108.14312484151	11067.1698429038	14333.1964165107	-50.5460444779657
45.65746	9516.13256862835	12627.9927910098	15812.1150069655	-52.9992549510655
38.96512	9986.27680780349	14400.6891587227	17524.4278859034	-55.2603068388344
33.18414	10561.7902985645	16464.6176846664	19561.0595268529	-57.3204739940525
28.30617	11208.3446859806	18797.0905214749	21885.1000151306	-59.1931865474376
24.17237	11937.9970960454	21438.2306053317	24538.0012664555	-60.8885113674502
20.61345	12771.406186798	24486.2274737302	27616.7368072957	-62.4545769088812
17.55618	13755.8267984612	27985.8981516536	31183.862273041	-63.8246335885981
14.98558	14883.6728597195	31923.8057261022	35222.9057551058	-65.0038953225363
12.76553	16199.4701516797	36442.719988093	39881.0064231799	-66.0339588466225
10.8809	17752.7817278582	41597.4973128672	45227.3483831516	-66.8884108065011
9.278505	19491.2100962601	47586.8331171197	51423.8656377868	-67.7263615818799
7.923394	21574.5359004557	53979.704720093	58131.481324567	-68.2144643275519
6.75822	23917.7168848198	61567.7514628142	66050.32324803	-68.7699469099312
5.761429	26637.1459289842	70177.1394935451	75062.4303545954	-69.2147340462913
4.919708	29804.0212839719	79876.8947768763	85256.0731202864	-69.5382260174221
4.191257	33684.6758796518	90877.5568361559	96919.4909480335	-69.6622713800679
3.564097	38075.3274343559	103523.142572549	110303.089745164	-69.8067140402204
3.051758	42970.1652927701	117414.893053874	125030.765078603	-69.8989602452365
2.604164	48636.2156610154	133121.98465414	141728.417306064	-69.9301864450711
2.214424	55745.4060727837	151615.519150935	161538.899171769	-69.8127300970693
1.892567	63009.0799578942	171463.787316223	182674.504291002	-69.8227568584841
1.607507	72305.9600445811	194689.908510106	207683.20185716	-69.6254874896206
1.376413	82439.8189547955	219718.106207129	234675.030509313	-69.4335466282517
1.17375	94081.3696012641	248196.53814829	265429.511650165	-69.2402879639541
1.001604	107814.011779063	279823.993840197	299875.521949649	-68.928713514962
