EC-Lab ASCII FILE
freq/Hz	Re(Z)/Ohm	-Im(Z)/Ohm	|Z|/Ohm	Phase(Z)/deg
6999984	-11.6794390613204	31.496472487203	33.5922174904282	-110.345655285348
5969734	-11.9746472998907	33.6449900955017	35.7124283196087	-109.591241756499
5091109	-12.7209978487779	37.6688666059315	39.7588643907754	-108.660128043632
4341796	-12.9961274167815	42.9162722895411	44.8408937808252	-106.847633354515
3702781	-12.397417489102	49.5153758332164	51.0437890864673	-104.056469455535
3157797	-10.7638782628818	58.088327541795	59.077194177288	-100.497943181537
2693047	-10.6800370413378	66.7688869638402	67.617656404185	-99.0877794561607
2296687	-10.7757438196182	77.8162609811216	78.5588131780774	-97.8839951285908
1958656	-10.1677760827909	90.2148029786873	90.7859810045204	-96.4304584981234
1670375	-9.80528358116121	105.047590308638	105.504217052014	-95.3326140668732
1424531	-9.47937861432441	122.581438058699	122.94741792918	-94.4219549472923
1214875	-8.86321037696751	143.057075285219	143.331375795208	-93.5452722249627
1036062	-8.40870995360004	167.057864107142	167.269352731229	-92.8815006193036
883578.1	-7.16578689105053	194.166274752932	194.298457928001	-92.1135652864898
753531.2	-6.08146146020495	227.012712404963	227.09415617085	-91.5345341387306
642624.9	-4.65962676299672	264.970036065629	265.011003798317	-91.0074702629897
548046.8	-3.30569807394645	308.681724487114	308.699424476455	-90.6135617788373
467390.6	-2.73023477626627	360.816781159632	360.827110606078	-90.4335384396071
398593.7	0.603684221589686	421.4707222605	421.471154597117	-89.9179337197689
339937.5	3.59016465639059	494.209801679507	494.222841801507	-89.5837847336486
289906.2	-99.4348990351935	503.073199604614	512.805950927407	-101.180679690215
247234.4	-105.131531341294	605.676425608977	614.732926904548	-99.8471204220476
210843.7	-110.624604732853	725.720646467021	734.103711937769	-98.6671138429756
179812.5	-111.829113492301	864.037852886133	871.24460505908	-97.37457835294
153343.8	-111.092431419661	1023.49772982716	1029.50917008062	-96.1947436612066
130781.2	-106.333550062385	1210.90415716506	1215.56394389949	-95.018461307803
111531.3	-82.4479409055626	1439.30388812903	1441.66339529826	-93.2785030755498
95109.37	-98.2060721990607	1690.58827185247	1693.43825914673	-93.3245688822783
81109.37	-87.583679875336	1960.75493414313	1962.71006843781	-92.5576075777161
69171.88	-58.8333940796101	2322.20963584294	2322.95479100664	-91.451283371098
59000	-48.574343010007	2696.683799162	2697.12123929601	-91.0319355608418
50312.5	-54.3608384408353	3129.50628580866	3129.97838549596	-90.9951516703944
42906.25	-30.8133104118171	3739.08928852386	3739.21625045308	-90.472155794999
36593.75	15.0630274040057	4321.82326009972	4321.84950991281	-89.8003054844286
31203.13	-603.440817949339	4789.90083917995	4827.76251175885	-97.1804029561702
26609.38	-713.143398970872	5653.25069354249	5698.0537827871	-97.1897421682308
22703.13	-693.652046728283	6662.20602682105	6698.21933843175	-95.9440746258369
19359.37	-682.601230989462	7868.29960368982	7897.85306864934	-94.9581861477553
16500	-563.012100352271	9249.61913148633	9266.73819111671	-93.48322089575
14112.02	-479.77602983858	10970.6922079145	10981.1781043567	-92.5040933196509
12011.13	-454.826338434883	12633.9900652983	12642.1743370431	-92.0617699018099
10236.38	-382.544534292646	14997.5101716488	15002.3881988644	-91.4611382451743
8750.684	-340.435141268636	17316.831300288	17320.177319186	-91.1262444139203
7449.463	-101.093663307139	20264.4712361001	20264.7233982478	-90.2858299200224
6363.206	255.007062710843	23719.9523157196	23721.3230335503	-89.384051646266
5414.761	463.741457452093	27943.2179029329	27947.0657298785	-89.0492151107916
4620.567	365.708635003764	32743.7973889436	32745.8395869446	-89.3601020104296
3941.215	-6333.42976021384	34325.5310633946	34904.933968017	-100.454111910209
3361.769	-6577.49122679143	40976.8201496909	41501.3635970992	-99.1191775433338
2867.244	-6260.0061588056	48706.7454259255	49107.3795584146	-97.3237569965119
2442.658	-6213.37606429875	57494.2802733015	57829.0437951497	-96.167986532174
2083.003	-5852.14450440037	68137.7797069862	68388.62930852	-94.908911777374
1777.843	-5181.86372103018	80444.3026512674	80611.0261730493	-93.6856468847697
1513.548	-5050.40043306594	94684.6433354825	94819.2397570337	-93.0532160705043
1292.065	-3440.30343996584	110582.627341737	110636.12953082	-91.781937314668
1101.762	-3012.170749082	129595.544296617	129630.545297619	-91.3314778961362
939.101	-1667.3057491717	151723.379878017	151732.540709205	-90.6296045971009
801.2801	-2289.41009981176	177633.565887508	177648.318676301	-90.7384092823963
684.3433	1172.37984970222	208557.079787731	208560.37496154	-89.6779216993886
582.9476	6610.88100509137	244070.507315033	244160.02188868	-88.4484688625969
497.0677	-59313.2191856014	241352.810867231	248534.17729494	-103.807003631535
423.5089	-41305.31522762	312691.503132094	315407.839466715	-97.5249797741618
361.5036	-74157.4708746308	353902.350575576	361588.445929125	-101.834653717577
308.1262	-47299.325624177	406581.215697804	409323.235552059	-96.6356346845598
262.7298	-5044.87107124255	504638.184736131	504663.400909857	-90.5727671838239
224.2111	-81885.4452414853	569651.113369724	575506.40057758	-98.1800424213349
191.2854	-6096.76950897018	691016.336711376	691043.231788327	-90.5055019386756
163.1722	53120.9258430504	821948.057435861	823662.820506673	-86.3022262578164
139.1537	-404182.406767488	1103524.55061748	1175214.81089879	-110.116013801059
118.6706	560766.144434115	994686.624585478	1141866.95804404	-60.5873647503294
101.1982	673310.253699069	136621.057940385	687031.302932446	-11.4701337739712
86.24196	724292.366618882	145662.558909389	738794.297088447	-11.371080830349
73.61024	258453.140695349	188732.541966989	320028.121159081	-36.1383732770927
62.69291	46273.437304562	34534.5218701262	57739.624182856	-36.7345014854586
53.57697	67546.919291995	78427.3307708625	103505.71248816	-49.2627450675876
45.65746	199762.493088995	394721.644310606	442391.489669953	-63.1567366868141
38.96512	296535.055245692	-282375.686456668	409474.135070141	43.5989025641147
33.18414	328234.994549672	454283.097129838	560456.371169872	-54.150607910803
28.30617	535292.715960276	-849692.487665816	1004248.78160536	57.7897264282646
24.17237	760538.744436774	530948.660385219	927537.417980711	-34.9197321538951
20.61345	389822.54199425	675434.903742287	779855.06566298	-60.0089065603653
17.55618	-141586.468228565	768645.205041438	781576.726379844	-100.437037767914
14.98558	1648763.61609862	-111481.199536258	1652528.22052171	3.86816813634768
12.76553	2239857.35324397	1056932.60453713	2476704.96697017	-25.2614513563102
10.8809	1249026.55858668	-7591.35464668561	1249049.62780518	0.3482289655694
9.278505	2091799.55466718	-184853.87151565	2099951.50675442	5.05015141981281
7.923394	1760856.76209095	-397883.571342398	1805250.0859841	12.7327379487892
6.75822	1147195.38262993	-39917.0559455714	1147889.63636875	1.99282226893617
5.761429	904045.140050811	302743.712805839	953389.411989117	-18.5145008960779
4.919708	352984.280210775	-1236265.52034147	1285671.16280217	74.0646498947352
4.191257	771145.08222475	-1078726.29458825	1326014.76480298	54.4403011015991
3.564097	821922.308595836	1636291.40218397	1831121.4689989	-63.3292542789279
3.051758	1451270.36723927	-794506.39477258	1654516.87515157	28.6987569495929
2.604164	-452670.185165505	2756909.12603749	2793825.01702712	-99.3244683213292
2.214424	3493179.982013	3223486.85843496	4753227.73631132	-42.7006479807984
1.892567	2813681.09213444	1922669.75967473	3407852.73933639	-34.3459263812274
1.607507	2168722.86984944	2252352.33649363	3126731.50972646	-46.0836830117263
1.376413	2403668.39354295	997594.624132288	2602463.59824974	-22.5399190181726
1.17375	3507780.536893	10788347.1315726	11344291.8741681	-71.9883081409606
1.001604	7199019.80198777	-1708437.12313372	7398962.32678025	13.3501973758678
