EC-Lab ASCII FILE
freq/Hz	Re(Z)/Ohm	-Im(Z)/Ohm	|Z|/Ohm	Phase(Z)/deg
6999984	26.5445639398956	26.9189341215631	37.805328843964	-45.4011986044782
5969734	13.8064689587104	2.20738313762808	13.9818140963224	-9.08359266991275
5091109	11.9817210570707	-4.80947548242867	12.9109524786335	21.8705782627449
4341796	8.32249752568043	-4.80638253081113	9.61068562057064	30.0071576409757
3702781	5.94712582582003	-6.08327774975875	8.50732471278988	45.6484069747654
3157797	3.90749813894935	-5.20368943402945	6.50745153126186	53.0967780973748
2693047	2.66631132975574	-4.2128451959359	4.98570764807806	57.6702647279798
2296687	2.57317646485547	-4.05436678782027	4.80199200014599	57.5980147500138
1958656	1.90916143442976	-3.11060930506838	3.64976542143353	58.4601443443472
1670375	1.53762939226743	-2.89577724949895	3.2786933413603	62.0321351265313
1424531	1.06891562360998	-2.41658271081091	2.64243308497826	66.13898201047
1214875	0.768110831186398	-2.08752999982768	2.22435962676146	69.7988072226476
1036062	0.81801980919757	-1.78087101914672	1.95975967788816	65.328934279714
883578.1	0.706282322398736	-1.52002498435288	1.67609983950537	65.0779787654467
753531.2	0.663975259024041	-1.30890051882048	1.46767970373803	63.1023629920561
642624.9	0.592735785931059	-1.23601500627245	1.37079130711206	64.3797723963003
548046.8	0.553564500657177	-1.05349630019918	1.19007903557755	62.2801112602639
467390.6	0.543466074293053	-0.891902084720264	1.04443511174024	58.6446367543793
398593.7	0.457108418942132	-0.777436042995489	0.901861911611894	59.5457847745611
339937.5	0.432491278253257	-0.676482377806609	0.802917874535135	57.4082511282665
289906.2	0.458730595009328	-0.574379690121	0.735082163585206	51.3872496536209
247234.4	0.396471192245238	-0.490497885340663	0.630696108917776	51.0512672025562
210843.7	0.422549041935884	-0.431141243806548	0.603680764106321	45.5766497405032
179812.5	0.399134114945439	-0.382291731111392	0.552679843480314	43.7652723190869
153343.8	0.37901369701733	-0.318895467187633	0.495323835000461	40.0766674368598
130781.2	0.377527677611212	-0.280880101422568	0.470553693788145	36.6491995289195
111531.3	0.37037084302346	-0.243904478051563	0.443468100065285	33.3665524332765
95109.37	0.363820856116006	-0.213085510682126	0.42162904336353	30.3569942115266
81109.37	0.352313302233313	-0.182421754107365	0.396739661871799	27.3743420878362
69171.88	0.347524910333996	-0.157554233225635	0.381571618061367	24.3876849891577
59000	0.345613194194227	-0.134643164059582	0.37091408928364	21.2847747538472
50312.5	0.32814917112207	-0.105051130509291	0.344554231623096	17.7515445665038
42906.25	0.367322106922436	-0.0964794462499219	0.379781270974003	14.716678798943
36593.75	0.356998413583245	-0.10327700864588	0.37163693010221	16.1347665306256
31203.13	0.350521198382152	-0.080083956697971	0.35955326536643	12.8695373519546
26609.38	0.346179282100436	-0.0780565167995493	0.354870279356346	12.7065595071296
22703.13	0.333985535799123	-0.0766830256866726	0.342675684213937	12.9309870754824
19359.37	0.343907862503425	-0.0489642949987141	0.347376049946446	8.10309572468333
16500	0.342182197860896	-0.0606444287029687	0.347514608708214	10.0500865266292
14112.02	0.343144779180271	-0.0518584180694345	0.347041258358918	8.59390283114829
12011.13	0.342339770310723	-0.0461534302743146	0.345436908077994	7.67818449423636
10236.38	0.338325107318859	-0.0278818126713749	0.33947205145661	4.71117354539516
8750.684	0.342671257337541	-0.0433170177747704	0.345398255111677	7.20453747373556
7449.463	0.335899764002547	-0.0213166013163578	0.336575472886316	3.6311893545348
6363.206	0.317409325834838	-0.045901621766493	0.320711145749131	8.228688073376
5414.761	0.307301561642178	-0.0363928430761487	0.309449008424468	6.75391762702107
4620.567	0.30962488303807	-0.00963512973918989	0.309774763209384	1.78239607022303
3941.215	0.337830660032513	-0.0217141619540671	0.338527782740754	3.67764362664842
3361.769	0.300558269911413	-0.0246935261749861	0.301570959886884	4.69680720164004
2867.244	0.326578413233393	-0.00519965908179823	0.326619804121869	0.912164852666534
2442.658	0.297982663540829	-0.0228110799296172	0.298854501619839	4.37755168044638
2083.003	0.330156138551176	-0.0118040302418078	0.330367085153731	2.04761651471571
1777.843	0.319968849399934	-0.0291112677110953	0.321290414569226	5.1985474887517
1513.548	0.32017322937421	-0.00220133321611564	0.320180796856775	0.393927735534357
1292.065	0.298016809813025	-0.00137780053545901	0.298019994741038	0.264889733253323
1101.762	0.290584732419066	-0.0154613092103017	0.290995771099095	3.0456975346777
939.101	0.297526029105059	-0.0279677897308131	0.298837640295615	5.37008933374048
801.2801	0.309543483999394	-0.0301568167977279	0.311009006438487	5.5643965108032
684.3433	0.292600867391758	-0.0186873503317454	0.293197006568673	3.65430934748392
582.9476	0.291941800325066	-0.0188932822860584	0.292552509633026	3.70278558765656
497.0677	0.306089128607823	-0.0293983467409204	0.307497670630195	5.48614823767998
423.5089	0.305084865381897	-0.0295281340659106	0.306510498656253	5.52824573871942
361.5036	0.303074579740638	-0.0292345349709388	0.304481294860507	5.50969737601765
308.1262	0.30091177248311	-0.0287959662932202	0.30228645767498	5.46631473064373
262.7298	0.299877216611921	-0.0285944503513415	0.301237427345621	5.44690521237587
224.2111	0.298201941681416	-0.0286093601655964	0.299571182712308	5.48015853688968
191.2854	0.296313435712925	-0.0293348099815833	0.297761957376447	5.65381688797367
163.1722	0.295111474788479	-0.0280304427806312	0.296439687414336	5.42582208438845
139.1537	0.293962574748183	-0.0274732203308533	0.29524358280567	5.33925274520654
118.6706	0.292515261830942	-0.0268442721298972	0.293744435437012	5.24337570664273
101.1982	0.288622791127519	-0.0274138193957494	0.28992177057286	5.42576077790437
86.24196	0.292124073759469	-0.0281740136970492	0.293479555536036	5.50887403566604
73.61024	0.27477703923893	-0.0319544339857632	0.276628825584505	6.63325844494447
62.69291	0.247492377646989	0.0119492868591692	0.247780674084567	-2.76417586795576
53.57697	0.277648996573887	-0.0161779818198257	0.278119924482675	3.33472552147365
45.65746	0.265239476512378	-0.0322409507348507	0.267191801530001	6.9305375969481
38.96512	0.287298020920086	-0.02736152890083	0.288598000839211	5.44029499829345
33.18414	0.274381880394112	-0.0319291147316121	0.276233388018453	6.63750979178434
28.30617	0.295408734717472	-0.0249251193979626	0.296458398640316	4.82290948277039
24.17237	0.282086905992452	-0.0232794719194114	0.283045855552137	4.71769437806154
20.61345	0.265315958835052	-0.0267126876125181	0.266657318842081	5.74931061777254
17.55618	0.265799019992487	-0.0249832154893334	0.266970560334193	5.36961950834847
14.98558	0.275053027444474	-0.020954697811201	0.275850081143235	4.35661809444348
12.76553	0.273897731977559	-0.0225115893344861	0.274821285996582	4.6985656091133
10.8809	0.272174788055799	-0.0221774236974932	0.273076826873093	4.65829985414489
9.278505	0.271627660795393	-0.023233911968875	0.272619516496077	4.8889451604904
7.923394	0.270590840799854	-0.0231113192338999	0.271576022876659	4.88181756551897
6.75822	0.269671692832741	-0.0220410856572619	0.270570935934048	4.67257165986381
5.761429	0.271358392803362	-0.0133228429530775	0.271685250775923	2.81078541163186
4.919708	0.265550386738585	-0.0181971646449948	0.266173147965998	3.92013483540825
4.191257	0.265497695129567	-0.0188989502766514	0.266169488185013	4.07162373052525
3.564097	0.262909715052828	-0.0177061103025881	0.263505264864303	3.85286557955533
3.051758	0.260095573474837	-0.0178291629211224	0.260705938543165	3.92140565579785
2.604164	0.264362301602471	-0.0175641790973988	0.264945139407994	3.80113379319076
2.214424	0.262412913676917	-0.0173296001462983	0.262984509630586	3.77829454956126
1.892567	0.264903520714665	-0.0147231478380874	0.265312356231833	3.18118543745008
1.607507	0.2639166750692	-0.0121820428162769	0.264197678920084	2.64282111511587
1.376413	0.26454495704033	-0.0264292537990974	0.265861880968008	5.70518026247597
1.17375	0.273262975432717	-0.010472315719351	0.27346356821132	2.19468446748548
1.001604	0.250417402307691	-0.0153619907931738	0.250888154641986	3.51044136399996
