EC-Lab ASCII FILE
freq/Hz	Re(Z)/Ohm	-Im(Z)/Ohm	|Z|/Ohm	Phase(Z)/deg
6999984	-11.1891598139588	31.6821196427884	33.5999107499153	-109.451669237605
5969734	-11.7491794096273	33.2972922907046	35.3093881381741	-109.4357410109
5091109	-12.8060847036812	36.8619382938586	39.0230483204234	-109.157570001364
4341796	-12.6274976787166	42.4910690469791	44.3276961546744	-106.550898512417
3702781	-12.1499310772816	49.5421661241078	51.0102641578279	-103.779501657369
3157797	-11.1510276466049	57.2294179821706	58.3056746822583	-101.025809198191
2693047	-10.8730371596922	67.2444740883491	68.1178554601854	-99.1848958024353
2296687	-11.0749599959554	77.3790105772796	78.1675509199998	-98.145206587391
1958656	-10.8137837934176	90.0229757018939	90.6701388228482	-96.8496917168206
1670375	-10.7067212343994	105.188525757464	105.732018947052	-95.8118932625002
1424531	-10.0380170975375	122.712043242743	123.121920648028	-94.6764627998895
1214875	-9.47051289661956	143.350268375284	143.662765036007	-93.7797838505097
1036062	-8.91685832335467	167.216808207206	167.454385757329	-93.0524139295911
883578.1	-7.71374871539613	194.681567678336	194.834326320951	-92.2690087363087
753531.2	-6.38333475511361	226.954247492041	227.043998857654	-91.61108130016
642624.9	-4.78766162910705	265.191017086042	265.234230911103	-91.0342846878018
548046.8	-3.92850091602631	309.224703661064	309.249657192567	-90.7278668589659
467390.6	-0.425435105455857	362.481573455933	362.481823116853	-90.06724652118
398593.7	-0.157438813940567	422.458079883233	422.458109219848	-90.02135260179
339937.5	3.07998753054129	492.529414301654	492.539044417312	-89.6417107667364
289906.2	-103.443020017437	503.637263180451	514.150708697579	-101.606673810894
247234.4	-107.757943352743	607.322308959123	616.808042518135	-100.061349341647
210843.7	-112.0983692745	726.872311975354	735.465432437446	-98.767094978226
179812.5	-114.823892514771	865.797468576656	873.378373264411	-97.5546016921701
153343.8	-109.586684500949	1021.21829199508	1027.08132167091	-96.1249574017597
130781.2	-105.995222522959	1212.46361897173	1217.08792391007	-94.9961732495724
111531.3	-109.422101367491	1416.61878451374	1420.83847671185	-94.4168556229157
95109.37	-96.4444625815288	1665.55609054705	1668.34607474619	-93.3140264588478
81109.37	-80.9202907639786	1959.41790363847	1961.08812003854	-92.3648645754341
69171.88	-67.538998968034	2325.01536188311	2325.99611981061	-91.6639080088711
59000	-60.0774464278927	2699.70402746685	2700.37240681541	-91.2748123701977
50312.5	-71.9010720877522	3136.67732642	3137.50130107458	-91.313143246692
42906.25	-22.6575857264789	3718.77903313609	3718.84805598233	-90.3490844606049
36593.75	35.6102500261293	4309.33453153979	4309.48166194361	-89.5265462499151
31203.13	-613.467708824754	4727.72202270379	4767.35756512233	-97.3933713686203
26609.38	-665.927369249991	5633.39243218918	5672.61575960883	-96.7416891724385
22703.13	-693.220854570486	6670.95278713674	6706.8745508932	-95.9326727657138
19359.37	-590.604527208768	7825.84552910611	7848.09989443238	-94.3158431636341
16500	-647.581310621097	9283.59003278705	9306.14879801139	-93.9902312486612
14112.02	-281.769479407621	10769.505750741	10773.1911778622	-91.4987242765349
12011.13	-472.446028729799	12601.1732083249	12610.0266247248	-92.1471406132844
10236.38	-365.443479427494	14929.734783076	14934.2066956918	-91.4021808880553
8750.684	-138.321136688115	17266.7358165865	17267.2898422608	-90.458977765711
7449.463	-116.461952424687	20364.9830449444	20365.3160497753	-90.327655839067
6363.206	93.4124611094623	23876.3246033223	23876.5073335927	-89.7758401865765
5414.761	401.857096338445	27681.1671902602	27684.0839859479	-89.1682757406198
4620.567	282.911659933349	31976.2437624931	31977.4952766114	-89.4930855146794
3941.215	485.563307991304	37769.28953047	37772.4106109544	-89.263444030391
3361.769	-6376.98588509787	41088.536133982	41580.449139136	-98.8219843349995
2867.244	-6443.33017103999	48797.1551465058	49220.7157006599	-97.5220003936272
2442.658	-6453.70509084662	57727.0081769789	58086.6403096668	-96.3790068881207
2083.003	-5971.45283138947	68168.2727485864	68429.3187050929	-95.0062573067667
1777.843	-5878.73319079037	79733.4323139335	79949.857613939	-94.216778760856
1513.548	-4733.5116863256	94757.1008173958	94875.2564592196	-92.8597855188681
1292.065	-4648.60573035525	110637.961244486	110735.576955072	-92.405945649345
1101.762	-4703.65334824004	129843.686387349	129928.854568478	-92.0746614522004
939.101	-3025.26045695966	151670.121947849	151700.29035077	-91.1426883026406
801.2801	1709.57319381483	178440.77003158	178448.959229154	-89.4510877082963
684.3433	189.368787621737	205539.158406333	205539.245641608	-89.9472118631001
582.9476	7049.48938764167	245736.470320705	245837.564554941	-88.356795615376
497.0677	-13116.1759507342	292859.498040878	293153.065248047	-92.5643684796987
423.5089	-38447.0757787749	272524.304552112	275222.953634959	-98.0301566621287
361.5036	-66816.3125787591	355144.322448823	361375.025969222	-100.654990913182
308.1262	-84589.1856421919	394240.842466944	403213.556563584	-102.109902642358
262.7298	-92075.0889674024	504317.576272188	512653.918102076	-100.346739619402
224.2111	-63137.7084492336	590584.310884162	593949.65989614	-96.1021536815135
191.2854	54632.6390423192	707398.779384048	709505.291257767	-85.5837944785018
163.1722	-197757.854322092	725782.203809179	752241.966598638	-105.241689950543
139.1537	55576.8841971141	1009022.49054169	1010551.91676431	-86.8473383041038
118.6706	-211236.995395365	735225.051996494	764968.591059077	-106.029850693525
101.1982	-288780.029979261	896403.573998141	941771.348678363	-107.856554735961
86.24196	592316.444405843	-84197.0658289733	598270.771647578	8.09032449542986
73.61024	359895.741543646	231921.954884037	428150.36837364	-32.7983100807996
62.69291	43960.4071699894	-30285.3041157663	53382.7410680241	34.5638222307157
53.57697	261460.149779173	32970.9152502882	263530.816366871	-7.18723414832261
45.65746	487667.263587197	-487266.309071213	689382.198733408	44.976436343058
38.96512	372608.686763503	210322.003922259	427869.815230634	-29.4429088043308
33.18414	689225.887602042	-163203.32388932	708285.005537562	13.3218245058529
28.30617	72016.5843644207	-891444.505567169	894348.754641842	85.3813111937026
24.17237	540824.417982558	611862.164161378	816618.85786358	-48.5265630557799
20.61345	672923.221583881	492865.997445875	834111.83517868	-36.219991115009
17.55618	495924.416849955	767203.532440617	913532.860611664	-57.1211591658603
14.98558	3530068.11291701	185549.901681331	3534941.25097538	-3.00885176478843
12.76553	2340810.46301351	143264.192612423	2345190.45125091	-3.50229447711099
10.8809	2647980.79526795	1543822.44879687	3065157.42589464	-30.2429870694515
9.278505	748030.178050976	2689013.84903269	2791118.88452724	-74.4544903785422
7.923394	745096.579698623	1918733.7619275	2058326.54412244	-68.7774526570474
6.75822	1055548.76978419	-1069158.63449765	1502425.83547867	45.3670044832648
5.761429	897058.393139845	466809.919855981	1011249.35697314	-27.4915004977845
4.919708	1536627.84557241	34405.6975616519	1537012.97581159	-1.28266056243654
4.191257	594961.46284835	1034969.33531144	1193792.55622979	-60.1071688222302
3.564097	-676844.830509339	-2096822.6783694	2203357.49916155	107.889843583858
3.051758	1351979.02643061	-1499238.68202809	2018802.59401398	47.9565846411838
2.604164	8210197.851112	-3533043.55546683	8938106.37211427	23.2833604052446
2.214424	-2221496.23316617	4731161.42144964	5226751.75513291	-115.1521982287
1.892567	1735475.79995899	5055690.33853191	5345267.16370362	-71.0541004559997
1.607507	101412.819316701	-3603642.66747063	3605069.35227835	88.3880218152106
1.376413	1927666.45626314	9970144.8171436	10154786.3414952	-79.0572322341666
1.17375	8590292.39751333	-2949158.04558792	9082436.71338432	18.9480064934518
1.001604	5958368.86525578	-8018865.07934258	9990213.04553358	53.3860301106686
