EC-Lab ASCII FILE
freq/Hz	Re(Z)/Ohm	-Im(Z)/Ohm	|Z|/Ohm	Phase(Z)/deg
1777.843	0.290399256188479	-0.0184803108885009	0.290986683347121	3.64125565003746
1513.548	0.292487187407247	-0.0177432704338549	0.293024876833164	3.47150315224287
1292.065	0.289917681482258	-0.0136712119927944	0.290239838880537	2.69981093516635
1101.762	0.294970551629045	-0.00300821987021344	0.294985890705184	0.584303505390004
939.101	0.283572819678863	-0.0212783394175529	0.284370026178902	4.2912384533989
801.2801	0.285467284986602	-0.0210604812395962	0.286243104139934	4.21937865969138
684.3433	0.278805688070831	-0.012987074727489	0.279108000262671	2.66697243209622
582.9476	0.279993357548963	-0.0089901379435762	0.280137649829126	1.83904383446982
497.0677	0.278276718016647	-0.0161690562301826	0.278746067540856	3.32538860124419
423.5089	0.276882052584241	-0.0148592747524084	0.277280488115248	3.0719137915517
361.5036	0.282757424709426	-0.0163080494539486	0.283227318077369	3.30088033155747
308.1262	0.281952573369562	-0.00963020080993469	0.282116987076918	1.9561993796292
262.7298	0.279317651518746	-0.0104832321379978	0.279514308410154	2.14939215378039
224.2111	0.276889468189216	-0.0102877542340864	0.277080521656228	2.12783060603402
191.2854	0.2766721238546	-0.0105778620250868	0.276874258975509	2.18949346986159
163.1722	0.275426991781708	-0.0123777268354124	0.275704979867127	2.57314887427017
139.1537	0.275329858059719	-0.010800276576597	0.275541606138376	2.24637156314202
118.6706	0.271605983599914	-0.0113245534535545	0.271841968500449	2.38755237456682
101.1982	0.269716529119148	-0.01320175361191	0.270039427451826	2.80220708752316
86.24196	0.267797613121249	-0.00733903046579724	0.267898157816765	1.56980580991769
73.61024	0.272736403648574	-0.0211413994592338	0.27355457343326	4.43246853919408
62.69291	0.197754340610268	-0.00104624492091176	0.197757108237951	0.303127905176323
53.57697	0.245814255871347	-0.00891762065866679	0.245975958881749	2.0776584107878
45.65746	0.286408331539756	-0.0193968892160311	0.287064403377788	3.87441738701917
38.96512	0.259616804719583	-0.0108028891720079	0.259841466489221	2.3827544259904
33.18414	0.263661094510997	-0.00902858245445534	0.263815632705633	1.96122078174572
28.30617	0.259309029962504	0.00708480900990681	0.259405797041627	-1.5650388010622
24.17237	0.252277303723872	-0.0148276211808557	0.252712675432139	3.36369484055326
20.61345	0.261325255194813	-0.0239663621108715	0.262421941756903	5.23998666128453
17.55618	0.255037336166474	-0.0168639815190601	0.255594281453177	3.78309478996886
14.98558	0.258849698096426	-0.00619301615888625	0.258923771897744	1.37054827750505
12.76553	0.256175991245183	-0.00755362856544759	0.256287330539293	1.68893920538586
10.8809	0.25402153949385	-0.00789020455775886	0.254144049418414	1.77910156290103
9.278505	0.258752020802334	-0.00764841586430486	0.258865035365004	1.69310518151426
7.923394	0.265356401563752	0.00270233175364678	0.265370161185786	-0.583467559966908
6.75822	0.252279775034923	-0.0133488743972179	0.252632692538682	3.02886575353014
5.761429	0.260943575618714	-0.00471968695793751	0.260986254622079	1.03619589136748
4.919708	0.260577064481663	0.00278657663185502	0.260591963696515	-0.612690126391965
4.191257	0.242659430430104	-0.00677483550261664	0.242753985698999	1.59923177636002
3.564097	0.265352666075436	-0.00625718813096168	0.265426430101917	1.35082134061869
3.051758	0.239625180982846	-0.0138079556000663	0.240022680176094	3.29791584792547
2.604164	0.248815345182029	0.00477428983990168	0.248861145704844	-1.09926135587753
2.214424	0.255759160606516	-0.00181256303448892	0.255765583335412	0.406047912845216
1.892567	0.261492824232937	-0.0165155310960531	0.26201385439076	3.61392327137854
1.607507	0.240448005753765	-0.00126320642169937	0.240451323892023	0.301003664150876
1.376413	0.240493177239305	-0.0039768136898807	0.240526055440528	0.947361077063625
1.17375	0.251843160237634	0.00446074476340054	0.251882662369451	-1.01473919489762
1.001604	0.264406342722281	0.00644647496598026	0.264484916604443	-1.39664822394664
