EC-Lab ASCII FILE
freq/Hz	Re(Z)/Ohm	-Im(Z)/Ohm	|Z|/Ohm	Phase(Z)/deg
6999984	-9.94544849810402	31.2891872637176	32.831770976486	-107.633158491639
5969734	-10.1820849181934	33.7848353450273	35.2858321791042	-106.77177374244
5091109	-12.0012479378354	37.4480663568013	39.3241354123494	-107.769465151101
4341796	-11.6349092931101	42.6078486641938	44.1678602838052	-105.273374516614
3702781	-11.017154506557	49.550115931458	50.7601387137809	-102.535438396801
3157797	-9.99813443361352	57.3171580668771	58.1826374532471	-99.894847806382
2693047	-9.63097907651751	66.4775354333816	67.1715600181269	-98.2434115534764
2296687	-10.0095626563479	77.3258601383932	77.9710201979794	-97.3757242685303
1958656	-9.81895656299968	89.4647890823309	90.0020021640187	-96.2632694135042
1670375	-9.53969969110931	104.489599421758	104.924173847193	-95.2165328175798
1424531	-9.10872210885302	121.923994380929	122.263769057956	-94.2725275543222
1214875	-8.54036570103601	142.700999077164	142.956332437315	-93.4249510879852
1036062	-7.46948801642725	164.963721795894	165.132742846417	-92.5925580032191
883578.1	-7.13282947721186	193.735836694702	193.867097972161	-92.1085232578926
753531.2	-5.93145482196265	226.143809491867	226.221583249254	-91.5024485022032
642624.9	-4.85008875918558	264.112296408703	264.156825532202	-91.0520463794509
548046.8	-3.42706368424218	308.796531421343	308.815547832923	-90.6358498370678
467390.6	-2.33993173390442	360.224221531456	360.231821274111	-90.3721746597486
398593.7	0.675698780302145	421.435108211412	421.435649894508	-89.9081361414722
339937.5	3.77617456307857	491.850936234608	491.865431768885	-89.5601215767097
289906.2	-100.735360950928	499.516598978989	509.5728069682	-101.401669511796
247234.4	-107.407091780777	602.458560767	611.958005753867	-100.108561063966
210843.7	-113.367050697884	725.411527269339	734.216570283708	-98.8823167908268
179812.5	-114.176639015903	862.339562019059	869.865406324559	-97.5422830995748
153343.8	-114.623573722044	1023.71639684446	1030.11350094105	-96.3886898748584
130781.2	-109.634935916532	1206.53580134977	1211.50668966876	-95.1920675197277
111531.3	-53.3017780994227	1405.53245249198	1406.54276670021	-92.171777798475
95109.37	-93.7641463092065	1681.28352196049	1683.89607646938	-93.1920437442645
81109.37	-88.4227776663413	1985.10617777845	1987.07451411979	-92.550445605277
69171.88	-65.1834117659792	2319.85418377122	2320.76976693732	-91.6094770183336
59000	-63.3063835810941	2687.93785342907	2688.68324688852	-91.3491822920057
50312.5	-23.14161389309	3100.92424771767	3101.01059726937	-90.4275796785378
42906.25	-19.1528090412318	3702.65768984063	3702.70722556214	-90.2963723434528
36593.75	27.9745005649592	4314.11145245175	4314.20215067134	-89.6284754416688
31203.13	-734.816419228128	4847.39122746868	4902.77032728513	-98.6198448248773
26609.38	-713.753777218995	5602.67280006031	5647.95422777398	-97.2601013854729
22703.13	-682.039323259353	6665.12108766362	6699.92662285866	-95.8427183918782
19359.37	-652.601148992141	7868.24975640687	7895.26709420667	-94.7413216222982
16500	-685.55431319708	9185.82340173172	9211.36994611253	-94.2681730750792
14112.02	-489.632161920905	10765.4062348055	10776.5352063813	-92.6041317506808
12011.13	-510.948737326031	12681.9481111624	12692.2368598443	-92.3071677254645
10236.38	-358.050707976486	14817.2965217687	14821.6219262098	-91.3842473090677
8750.684	-253.989039405045	17249.1389749806	17251.0088345677	-90.8436043335823
7449.463	-31.6990473728983	20363.3117498682	20363.336422402	-90.0891908047335
6363.206	-109.772521910004	23427.096541399	23427.3537209518	-90.26846929883
5414.761	108.07623357121	27931.3947718069	27931.603863201	-89.7783039050955
4620.567	502.575235222371	32151.2348130257	32155.1626005743	-89.1044482422422
3941.215	421.888309578781	36702.4304289641	36704.8551167105	-89.3414235863083
3361.769	-6599.1303204335	40710.3707781599	41241.7605089952	-99.207527635343
2867.244	-6666.2667243507	48318.1185904081	48775.8105638125	-97.8552899430548
2442.658	-6230.5585474747	57817.8109930169	58152.5504843746	-96.150568615202
2083.003	-6040.05810331679	67711.2628331058	67980.1251568823	-95.0974721877516
1777.843	-5598.86233959599	80417.0319741987	80611.7007080054	-93.9826682057655
1513.548	-5099.01220945852	93726.241296973	93864.8402394135	-93.1140068925677
1292.065	-4221.51927662397	110091.789270707	110172.6975699	-92.1959566174296
1101.762	-5405.01046344841	129210.499831292	129323.499043145	-92.3953459301351
939.101	-1623.13464353434	149183.764108997	149192.593783337	-90.623359357134
801.2801	-339.593682448515	177363.566044998	177363.891150559	-90.1097026937992
684.3433	1390.70526938437	207585.703234633	207590.361646594	-89.6161568490735
582.9476	3366.22565922294	240595.240037614	240618.787720215	-89.1984133206436
497.0677	5687.26796148995	277614.696096075	277672.945216817	-88.8263918242652
423.5089	-73335.4850617404	259318.835190551	269489.056649477	-105.790927292955
361.5036	-64643.9809638294	356971.273980824	362777.252211801	-100.264462880021
308.1262	-56592.2874236015	413721.474479433	417574.119697655	-97.7890560219376
262.7298	-101563.889072791	493669.090223812	504008.327516517	-101.625409530795
224.2111	-69194.7801491674	597295.673538208	601290.311935385	-96.608075414614
191.2854	-51600.5475361109	673663.227139871	675636.559184398	-94.3801290282478
163.1722	-127512.772478046	725516.314297962	736636.565381829	-99.9681864041587
139.1537	15735.8300268802	863830.433243848	863973.745981259	-88.9563959479804
118.6706	128118.692772888	1081176.24337633	1088740.7720294	-83.2420013782431
101.1982	785146.316415631	536688.758427537	951046.561217444	-34.3546582580252
86.24196	122701.455765728	631857.844829149	643661.388712393	-79.0104215823044
73.61024	374932.508228538	76906.9552613925	382738.899896679	-11.5918414688129
62.69291	51848.2340714273	-23729.2895147663	57020.334593907	24.5920647642588
53.57697	288287.44653948	59812.1915747067	294426.816192451	-11.7211007473944
45.65746	274176.574393866	-512508.754358491	581238.348047036	61.8545755058202
38.96512	487618.100302325	158158.66998055	512626.156797002	-17.9704430921335
33.18414	672589.701093195	320593.655432122	745088.718153727	-25.4850653245938
28.30617	343813.135593203	673539.598466699	756216.280510485	-62.9576338530061
24.17237	1278035.53021233	448433.420004534	1354425.09894866	-19.3348045713667
20.61345	1031965.85979627	-767364.508448574	1286002.26462148	36.6343026262461
17.55618	1261883.11376245	568286.710258318	1383943.19892654	-24.244330948816
14.98558	597048.092499306	4157144.85472884	4199799.96761221	-81.8270821031676
12.76553	1420417.35707412	1786764.38955048	2282567.07503703	-51.5164860138906
10.8809	1838949.12550883	-294237.778083115	1862339.86056815	9.09045670429842
9.278505	1881963.34583988	-1335595.1209698	2307726.23208282	35.3626285295312
7.923394	343331.949476354	2602141.50973466	2624693.74674749	-82.4836917363875
6.75822	1130280.25329615	1248323.25141682	1683996.5531494	-47.8410878088413
5.761429	948459.572580755	-461897.315835345	1054952.4592113	25.965960261203
4.919708	1612021.78421712	1000282.70643625	1897150.42249843	-31.8201966399979
4.191257	1164323.25108482	-1145023.44503382	1633011.73378939	44.521175538203
3.564097	-303524.432211571	3191132.52939068	3205534.88533267	-95.4333400472573
3.051758	1995534.58504936	9807.89199478937	1995558.68740398	-0.281601880813258
2.604164	-11825010.4560399	16117278.8133413	19989936.1838009	-126.266949200663
2.214424	5964353.45576097	3096089.87656871	6720065.82326684	-27.433780729503
1.892567	2547447.29886508	-1905393.72750103	3181196.7869491	36.7950917722937
1.607507	2744460.43453307	3055352.37901597	4106974.70611593	-48.0683343295461
1.376413	3259879.62510291	1326892.77132514	3519582.30430203	-22.1481591257519
1.17375	-4527992.83482144	10741689.9886827	11657041.7741879	-112.857101188745
1.001604	11226139.6671121	-3432115.51431999	11739064.218631	16.999720806889
