EC-Lab ASCII FILE
freq/Hz	Re(Z)/Ohm	-Im(Z)/Ohm	|Z|/Ohm	Phase(Z)/deg
1777.843	0.328636721879988	-0.0175055429720876	0.329102626854865	3.04910147693857
1513.548	0.327043324732142	-0.0155863430504622	0.327414523718084	2.72855737366366
1292.065	0.325795088864458	-0.0145718107499346	0.326120802152717	2.56095690534758
1101.762	0.324876074334023	-0.0135652398568242	0.325159160115564	2.3910032993669
939.101	0.323891676471237	-0.0132993787584313	0.324164605660008	2.351312221067
801.2801	0.323275421538838	-0.0130516874088502	0.323538783943026	2.31196262561301
684.3433	0.321702984231981	-0.0132666945260306	0.321976420328274	2.3614799300994
582.9476	0.320685883310712	-0.0128028485496843	0.320941347734688	2.28622421554014
497.0677	0.318758262675714	-0.0125137190992001	0.319003798080419	2.24814658639134
423.5089	0.317499351596297	-0.0123928329897706	0.317741121942977	2.23526993290357
361.5036	0.316401795014568	-0.0130116913324711	0.316669228059457	2.3549018016535
308.1262	0.314456002445407	-0.0121255728069389	0.314689699529301	2.20825841060992
262.7298	0.313531004656326	-0.0122809228721559	0.31377143265026	2.24311315216111
224.2111	0.312023744619867	-0.0122795597866675	0.312265279522329	2.25368766122805
191.2854	0.309459276929832	-0.0119474846311924	0.30968982299544	2.2109553229516
163.1722	0.308807458600343	-0.0119762066560223	0.309039602661326	2.22093853957396
139.1537	0.308448319193974	-0.0114128597639683	0.308659389913185	2.11902768246963
118.6706	0.30878449160388	-0.0114654770214023	0.308997280600323	2.12647269605956
101.1982	0.306211328201998	-0.0122734625132557	0.306457199950166	2.29528210532337
86.24196	0.300303476185358	-0.0111446202482095	0.300510200108892	2.12533938554079
73.61024	0.301145968531906	0.00690740652152351	0.30122517595293	-1.31396697636249
62.69291	0.253194304685409	-0.0088142894647263	0.253347681307518	1.99379572423009
53.57697	0.30014276187397	-0.00698131866102456	0.300223943608069	1.33245918920034
45.65746	0.31201671960584	0.00958406934703761	0.312163879555015	-1.75937405305688
38.96512	0.293375538014269	-0.0141983410185123	0.29371891187467	2.77075170457047
33.18414	0.296690763044024	-0.00331418552872694	0.296709273028944	0.63999614899231
28.30617	0.281285793631852	-0.00974758270548135	0.281454637673109	1.98471434317727
24.17237	0.298645822997991	-0.0216666519488421	0.299430745583715	4.14951906164667
20.61345	0.307858024820719	-0.00984932915435117	0.308015539756203	1.83244393362771
17.55618	0.304297931018361	-0.0144942683166935	0.304642929732649	2.72704190029553
14.98558	0.294165889533939	-0.00972771773164929	0.294326687640723	1.89401340533467
12.76553	0.29059212671494	-0.0110554842783084	0.290802351849739	2.1787487923295
10.8809	0.291175010765569	-0.00915746660455158	0.291318976534215	1.80136097324186
9.278505	0.291054296729297	-0.0119324595589628	0.291298793742288	2.34766133399643
7.923394	0.292557765617558	-0.00746720359468316	0.29265304603346	1.46209203626428
6.75822	0.283339682194646	-0.00034229348636718	0.283339888951404	0.0692171404690308
5.761429	0.280076094182097	-0.00568677413250848	0.28013382147169	1.16319599736279
4.919708	0.287464517577665	-0.00470983181948702	0.287503098038834	0.938652691535432
4.191257	0.293997626699381	-0.00542846858922324	0.294047738940623	1.05780785939981
3.564097	0.283161085330763	-0.0159913479640947	0.283612276630269	3.2323104615096
3.051758	0.271905905099443	-0.00690673655275122	0.271993610656126	1.45506871961157
2.604164	0.293532930018979	-0.00443345337886484	0.293566409036166	0.865316385589867
2.214424	0.276859885739362	-0.00804307829168297	0.276976691149307	1.66403616777829
1.892567	0.293375392039548	-0.00405157221339322	0.293403367212714	0.791215753945598
1.607507	0.278026854438516	-0.000510750085525629	0.278027323575626	0.105255269050287
1.376413	0.269603033787976	-0.014990263254816	0.270019450818139	3.18243964206362
1.17375	0.316223273528514	-1.59381874166655E-05	0.31622327393017	0.00288780411732673
1.001604	0.284248896668629	-0.00648167671532413	0.28432278732169	1.30627902866743
