EC-Lab ASCII FILE
freq/Hz	Re(Z)/Ohm	-Im(Z)/Ohm	|Z|/Ohm	Phase(Z)/deg
6999984	-12.9474056537044	30.4915832482992	33.1266050501637	-113.007158835289
5969734	-13.2614508202272	33.5237309795215	36.0514440299503	-111.582957643933
5091109	-13.7888052643423	37.0802139458748	39.5610087951483	-110.3983674025
4341796	-13.9032657333813	42.5200924290762	44.7354340342217	-108.106765405094
3702781	-13.224459663998	49.5779269136915	51.3113746694049	-104.935386713266
3157797	-12.1007001203271	57.8517367834071	59.1037257053962	-101.814084532732
2693047	-11.6961093887737	66.906619709479	67.9212392097127	-99.9158180616837
2296687	-12.0034169057909	77.1714805342351	78.0994201339552	-98.8410638295773
1958656	-11.4557483950328	89.5912749581947	90.3207103599454	-97.2866866271669
1670375	-11.4748284747397	104.816013428841	105.442251302026	-96.2476276656972
1424531	-10.8850041999054	122.319275949314	122.802640790808	-95.0852681867153
1214875	-10.4372131120099	142.804555072408	143.185461437166	-94.1801667577471
1036062	-9.63433206114203	166.554098339044	166.832514899813	-93.3105887120771
883578.1	-8.77274770783801	194.01242528768	194.210664661736	-92.5890056648893
753531.2	-7.72344946115831	226.441722529891	226.57339952846	-91.9534808785302
642624.9	-6.29684460122328	264.627087495862	264.701994115032	-91.3631051664274
548046.8	-4.01106152441693	309.342730893777	309.368734314527	-90.7428783531983
467390.6	-2.8566089202239	361.237661622964	361.248956246728	-90.4530763004211
398593.7	-0.33584356298545	421.55740871174	421.557542490531	-90.0456460123036
339937.5	3.10847405524508	493.06341099453	493.073209445122	-89.6387886819812
289906.2	-104.69737884782	500.433492032478	511.268247679655	-101.81660554703
247234.4	-110.918377648258	603.156207175729	613.270166203063	-100.420078217178
210843.7	-114.884166901555	722.241061257604	731.321080217967	-99.0381040153228
179812.5	-116.461016001484	859.917902656387	867.768383589225	-97.7127953394057
153343.8	-115.094952553368	1021.57000259583	1028.03313093835	-96.4281093711634
130781.2	-112.874048512295	1208.50349632992	1213.76326005906	-95.335937222085
111531.3	-90.6266812067315	1426.24881393477	1429.12521305759	-93.6357995565933
95109.37	-89.584216000139	1680.12037848957	1682.50700384049	-93.0521274506936
81109.37	-89.45908464096	1961.63924981417	1963.67804750074	-92.6111218357814
69171.88	-64.9466918429903	2300.20521281547	2301.12192068234	-91.617326540127
59000	-58.9706574078543	2698.49677827428	2699.14104870267	-91.2518940583925
50312.5	-73.0001289757196	3099.52644392785	3100.38597523575	-91.3491822920057
42906.25	-17.0580215949015	3720.63641532018	3720.67551811594	-90.2626824250991
36593.75	0.48676422598735	4333.4649082438	4333.46493558213	-89.9935641487262
31203.13	-740.492092885207	4745.56062103596	4802.98596162353	-98.8688522826412
26609.38	-723.644869115867	5626.53598751999	5672.88014287763	-97.3287417293295
22703.13	-683.951676240662	6667.0866558562	6702.07687005515	-95.8572715198746
19359.37	-642.159349489992	7856.41213102203	7882.61252394202	-94.6727958700006
16500	-527.519760296721	9210.59079268424	9225.68479018133	-93.2779301177546
14112.02	-477.095492562695	10791.9550400847	10802.4957160942	-92.5313088149196
12011.13	-421.13892591662	12744.1391874342	12751.0957028649	-91.8926900564668
10236.38	-439.426063098835	14899.7285224243	14906.2069389525	-91.6892900391954
8750.684	-297.854126701268	17411.9128060212	17414.4602168795	-90.9800255846029
7449.463	-89.3779026792333	20240.9276287333	20241.124960859	-90.2529994383614
6363.206	52.1332870697383	23910.729612138	23910.7864459618	-89.8750764766931
5414.761	405.290058334301	27683.0424679166	27686.0091077038	-89.1612283597397
4620.567	658.973085335837	32235.9598169489	32242.6945345321	-88.8289128385638
3941.215	-6475.74098184582	34251.7184997257	34858.5060128573	-100.706156044287
3361.769	-6710.52060861082	40721.0160049592	41270.2342047478	-99.3578144650058
2867.244	-6712.52500162434	48531.5236579596	48993.5381500512	-97.8747705080892
2442.658	-6393.04541506524	57599.09613617	57952.798943475	-96.3334567434078
2083.003	-6516.38822244107	68216.8270492643	68527.3580997751	-95.4566021337396
1777.843	-5546.56257357422	80736.6413946703	80926.9400142756	-93.930013384393
1513.548	-5222.16942555007	94298.4201933789	94442.9092334422	-93.1697556860339
1292.065	-4336.5501677872	109710.422361129	109796.094839548	-92.263565637255
1101.762	-4270.10937661479	127877.924696029	127949.198741733	-91.9125143961784
939.101	-2694.60416610047	150919.576926473	150943.630509133	-91.0228828276787
801.2801	-1119.75031348413	175957.369602743	175960.9324773	-90.3646116168529
684.3433	2072.82992730247	206628.738282235	206639.134986613	-89.4252473117359
582.9476	3929.16052104715	241100.5795889	241132.593774678	-89.066346548866
497.0677	-58405.5745819227	244641.56534341	251516.811835548	-103.427419092261
423.5089	-51874.6081317421	282957.355262819	287673.147627913	-100.388680130005
361.5036	-68256.4025633779	337055.785713586	343897.570758935	-101.448021797423
308.1262	-56141.1449946838	434958.691113383	438566.860508613	-97.3546394216694
262.7298	-10716.34213228	515464.813556293	515576.196117819	-91.1909886447701
224.2111	-81145.1187217198	572725.238417418	578445.09593621	-98.0641330593799
191.2854	-94883.1971628205	675671.577016551	682301.180632037	-97.9936592505789
163.1722	-114757.018373355	900357.155036342	907640.997251159	-97.2635964280232
139.1537	6361.80258353457	711884.578735071	711913.004497685	-89.4879861903028
118.6706	-182738.170330447	1194598.53852916	1208494.47957024	-98.6971368314405
101.1982	128575.793528024	932752.298819466	941572.400633303	-82.1514908067706
86.24196	1018147.98443362	441804.763464055	1109872.41033633	-23.4574593608731
73.61024	252749.594084902	-278314.974540996	375954.229080932	47.7560837903557
62.69291	56909.3280821816	34698.1605378995	66653.0867063127	-31.3710607539728
53.57697	91458.0704518833	97237.710836375	133490.640344109	-46.7543874067064
45.65746	576461.096128825	131002.790701757	591159.138068333	-12.8032174871682
38.96512	497628.481444739	278375.956502946	570199.332430271	-29.2228758222668
33.18414	569079.933676926	-350643.984691962	668433.373579141	31.6396920162199
28.30617	1350630.16715358	-375070.371900377	1401741.64249437	15.5199885460282
24.17237	632036.205856231	729047.244602915	964872.867468167	-49.0768546405353
20.61345	748931.846753445	-9683.59177162356	748994.447930774	0.740785727691568
17.55618	1751546.13073235	858732.793227979	1950727.00761757	-26.1173872768782
14.98558	2027698.25077964	3569038.18116136	4104825.66436169	-60.3975438328025
12.76553	3009924.99509071	-1098207.34369762	3204014.33296158	20.0451060795683
10.8809	1888247.11512018	2610409.80295229	3221756.74238591	-54.1197999701588
9.278505	1007287.64233381	1454858.30574795	1769531.3176664	-55.3027687410316
7.923394	1708379.86086073	734232.609436726	1859478.22621153	-23.2572106114749
6.75822	1076254.50183281	996955.864076405	1467053.08275867	-42.8095500689189
5.761429	747985.128887837	-432573.194328916	864060.947786252	30.0415637565733
4.919708	1661312.22299357	329574.946236024	1693687.67706868	-11.2207825415302
4.191257	1115257.91006873	1649626.64970732	1991247.92263431	-55.9386774091134
3.564097	780596.917112406	-2448604.14976914	2570018.25465735	72.3181026478379
3.051758	795385.494712071	1493296.46229822	1691913.83040353	-61.9585673456365
2.604164	12773661.8747925	-16918500.9551743	21199106.402435	52.9467777466095
2.214424	-2532883.77315127	4763035.49385337	5394627.6353424	-118.003121625712
1.892567	-662860.606909027	-2940359.28618434	3014149.4515107	102.704117171688
1.607507	748824.119641451	-3939624.58150745	4010159.52368164	79.2378858269714
1.376413	3578078.2498436	-2056233.07309438	4126831.5222324	29.8849170953845
1.17375	7030709.71117015	9816387.91614228	12074450.3296393	-54.3889411648436
1.001604	16085610.0783853	-11555726.3869556	19806101.6841789	35.6930532899831
