EC-Lab ASCII FILE
freq/Hz	Re(Z)/Ohm	-Im(Z)/Ohm	|Z|/Ohm	Phase(Z)/deg
6999984	-11.2242455158405	31.1186797189146	33.0810506914193	-109.833946678516
5969734	-12.5767338829176	33.422117660637	35.7101131905682	-110.621305280585
5091109	-13.3498930163547	37.0915212553148	39.420814204955	-109.79469906955
4341796	-13.3765090314709	42.457870463372	44.5151857027858	-107.48722614122
3702781	-12.7101636615773	49.6350339687865	51.2365578214098	-104.363231059048
3157797	-12.2206009988569	57.5751744379161	58.8578270099205	-101.983450856972
2693047	-10.8031773435652	67.0007754950178	67.8661370467651	-99.1595137721111
2296687	-11.5168516103443	77.1335039572089	77.9885588001948	-98.4921325323427
1958656	-11.2849717758219	89.7447441398338	90.4514769846536	-97.1670530395436
1670375	-11.2014600768474	104.935274349161	105.531438493877	-96.0930436525709
1424531	-10.4819637391625	122.564146118155	123.011550179248	-94.8881707051903
1214875	-9.63123781872538	142.931945676339	143.256070854763	-93.8549559132309
1036062	-8.99630045599479	167.203485224287	167.44533105776	-93.0798013121984
883578.1	-8.10224516588958	194.261958507963	194.430848632818	-92.388298549255
753531.2	-6.95155403775651	226.550859499203	226.657486184259	-91.7575293125955
642624.9	-5.65009349986468	264.791317483969	264.85159121941	-91.2223867319433
548046.8	-3.93054957703358	309.776158465541	309.801093564315	-90.7269501264936
467390.6	-1.95707223007881	361.035057329346	361.040361666834	-90.3105816967721
398593.7	0.5824104063701	421.936340462326	421.936742420734	-89.9209131003036
339937.5	2.57539482171545	493.240802414675	493.247525918944	-89.7008400111938
289906.2	-105.42538811667	505.077291987841	515.962773212682	-101.790134896895
247234.4	-109.506245988784	607.563953819105	617.353687840981	-100.217193861923
210843.7	-113.085601788681	727.285824167131	736.025151313711	-98.8381417448222
179812.5	-117.795038514133	866.717828327269	874.685923654247	-97.7396097642178
153343.8	-109.933806003135	1024.98444056753	1030.86300986497	-96.1218061338865
130781.2	-109.625254609669	1209.96010514872	1214.91610924366	-95.1769987297157
111531.3	-119.695724921249	1432.82639489062	1437.81728479653	-94.7752980195495
95109.37	-96.9087990636558	1676.91649507231	1679.7143348741	-93.3074374442039
81109.37	-108.07503694424	1966.75705370988	1969.72422484165	-93.1452903881818
69171.88	-64.3886921777344	2277.93964512252	2278.8494751741	-91.6191027092919
59000	-61.7442564935335	2697.70844246556	2698.41494099034	-91.311137894409
50312.5	-9.63596322901901	3211.25749106855	3211.27194826773	-90.1719259103504
42906.25	-4.8870229648653	3714.46353555208	3714.46675041513	-90.0753825218709
36593.75	13.1151551248984	4326.52625097593	4326.54612915173	-89.8263177683275
31203.13	-746.894579129804	4791.97111298722	4849.82872481466	-98.8590547043445
26609.38	-713.43133359413	5644.71364969727	5689.62006243234	-97.2033785637549
22703.13	-690.456934346913	6657.50078684075	6693.20905881274	-95.9210417224726
19359.37	-620.879187875734	7899.23253745379	7923.5954999423	-94.4942049252583
16500	-568.802301259118	9241.57256395831	9259.06040118676	-93.5220101384803
14112.02	-695.923350627492	10924.9061869087	10947.0491230607	-93.6448522897564
12011.13	-472.945074329184	12719.117535097	12727.907444468	-92.1294935131944
10236.38	-456.626814517909	14765.3691425425	14772.4281674775	-91.7713375954581
8750.684	-219.452659049652	17267.0144832475	17268.4089780803	-90.7281533378634
7449.463	-248.368971978144	20301.0638883414	20302.5831397082	-90.7009378425947
6363.206	110.080052659126	23605.3057277039	23605.5623977986	-89.7328110561622
5414.761	309.632986780514	27678.4396839615	27680.1715299092	-89.3590706863983
4620.567	1151.95187860372	32201.1949611895	32221.7930919302	-87.9511987922029
3941.215	463.512081282046	38199.6910804988	38202.5030867747	-89.3048115831994
3361.769	-6551.13640953763	41005.4723289828	41525.4879463125	-99.0770078496122
2867.244	-6665.70141936561	48873.0636602662	49325.5301740647	-97.766538780589
2442.658	-6388.46371592535	57681.9721763298	58034.6653544292	-96.3199349394427
2083.003	-6093.09487550303	68106.500162035	68378.5139461451	-95.1123117946455
1777.843	-5367.58936242475	80501.0937177996	80679.8432405862	-93.8146769802332
1513.548	-5146.28032316795	94727.8120618964	94867.5001209507	-93.1096524133247
1292.065	-4310.94518140148	110974.707407478	111058.407752553	-92.2246045071861
1101.762	-2456.43353270086	128967.114142618	128990.505836576	-91.0911793968583
939.101	-4190.41872909822	151850.561498086	151908.36921121	-91.5807145370181
801.2801	-3148.5987621262	175237.519127039	175265.803236011	-91.0293572507637
684.3433	-2408.55049345593	207988.843604988	208002.78887462	-90.6634664027931
582.9476	1837.49388025266	240023.454843171	240030.488185588	-89.561382083859
497.0677	-4245.52158836352	278909.721950705	278942.032422826	-90.8720803360003
423.5089	-80570.7440007416	288097.74208922	299152.057966747	-105.62442575769
361.5036	-54607.3665939799	352822.176562911	357023.042338893	-98.798034699163
308.1262	-69570.2401137858	416337.92515893	422110.514243761	-99.4865007857922
262.7298	-61503.770972319	499670.266717216	503441.247103442	-97.0171672803374
224.2111	-38904.9621309789	602990.931995415	604244.702208561	-93.6916056458391
191.2854	-94765.6659368467	704988.186656319	711328.949759124	-97.6559006303492
163.1722	-174218.187834621	800663.108437078	819398.187808896	-102.275773924048
139.1537	-108896.28298234	859645.498864328	866515.310981329	-97.2195359735776
118.6706	252026.960266729	1048548.8437828	1078411.91874883	-76.4848809171473
101.1982	-69677.5112491123	904025.101607716	906706.314034877	-94.4073445235165
86.24196	541654.817864583	590868.099983931	801570.367026211	-47.4881973732423
73.61024	442167.152685645	-4996.48039162226	442195.381851094	0.647413660608074
62.69291	53436.8620303849	-14328.8233708654	55324.6184157455	15.0104629083963
53.57697	148808.698530349	-13200.5013082459	149393.045330381	5.06931685805994
45.65746	191784.925054087	353635.754648347	402293.057911403	-61.5279895625957
38.96512	443165.972500169	481228.548462526	654199.507059865	-47.3578609340059
33.18414	452030.70917047	487823.782023555	665059.248744744	-47.1809774034931
28.30617	1060328.71288137	68866.9870689014	1062562.77050751	-3.71606789526328
24.17237	715110.445776817	219062.231954481	747911.232117821	-17.0315772602983
20.61345	-52671.1539321009	880806.220501832	882379.651018348	-93.422143594789
17.55618	891165.41531461	288697.253645557	936761.389957629	-17.9499770396914
14.98558	3036879.67352107	364595.839573734	3058687.34552584	-6.84594037849703
12.76553	1963081.69987152	-165096.173782163	1970011.80376361	4.80729179919071
10.8809	1759172.36814901	5209259.54149522	5498279.03907377	-71.3401209873291
9.278505	3703320.69502378	-1793892.17986468	4114928.10668317	25.845593287602
7.923394	2894820.86380112	623980.151550127	2961306.98561071	-12.1640257709203
6.75822	1618405.44099393	-22014.2448478641	1618555.1576684	0.779313701667345
5.761429	706156.525995028	205578.871421612	735472.441074681	-16.2315276430673
4.919708	1460048.86726837	101850.077736143	1463596.98453724	-3.99037430447114
4.191257	1223241.6381319	-65636.1701658137	1225001.31105793	3.07140672390301
3.564097	2715092.42242277	394357.013615746	2743582.38740619	-8.26420572709616
3.051758	1977354.37175167	-300116.125049227	2000000	8.63029138071705
2.604164	-2161891.65331557	5339425.1414093	5760489.24670373	-112.042641682966
2.214424	9609026.85339294	4427386.14122142	10579940.6951413	-24.7380200329905
1.892567	-8695.2238472001	-2898715.01749009	2898728.05891486	90.1718686145709
1.607507	3004198.08847004	1496726.46474501	3356396.32121047	-26.4830202938409
1.376413	3052557.40834542	2734988.2192702	4098568.93205315	-41.8592651882267
1.17375	10777605.0606537	6607544.86388268	12641851.9201757	-31.5116703264758
1.001604	11685978.2730667	14225051.819951	18409622.1438377	-50.5966595695876
