EC-Lab ASCII FILE
freq/Hz	Re(Z)/Ohm	-Im(Z)/Ohm	|Z|/Ohm	Phase(Z)/deg
6999984	22.7472322627489	92.4369822799265	95.1947071461165	-76.1751399330995
5969734	17.3921579944688	93.6740835714524	95.2749762144081	-79.4818512561381
5091109	13.8680020660305	99.8186252000988	100.777375527155	-82.0904135058097
4341796	12.5470036263829	110.11685730392	110.829371389052	-83.4996032029339
3702781	15.0735927478042	122.051850497857	122.979134036136	-82.9595331852436
3157797	14.5161021324693	135.926755918296	136.699671527009	-83.9042832936348
2693047	13.672201948469	154.6020704582	155.205442224433	-84.9462070440802
2296687	14.2840033625077	178.738150017516	179.308000445447	-85.4308720429814
1958656	15.7811827049409	205.643628979356	206.248267549974	-85.6116975231247
1670375	18.6941028025729	237.995078775947	238.728144551837	-85.5087370073397
1424531	22.0206999622087	278.966677114263	279.834447784755	-85.4866208364476
1214875	24.7396371993674	315.611815672154	316.57995489391	-85.5179616278413
1036062	30.9466435930801	371.534382057781	372.820991631017	-85.2385874069355
883578.1	27.6419339993453	433.29542657278	434.176235190402	-86.3497817548122
753531.2	32.0096038851883	504.89878005127	505.912435939409	-86.3724135877199
642624.9	87.7953882883032	668.796503901262	674.534501589982	-82.5213350635276
548046.8	107.100125949052	768.575177238145	776.001443326589	-82.0669795319888
467390.6	128.534284768138	881.650673326994	890.970803190991	-81.7053858674818
398593.7	151.021067182936	1011.92219963089	1023.12946435869	-81.5117261327275
339937.5	177.399485487119	1161.83856680549	1175.30397462432	-81.3186393557685
289906.2	198.909163919862	1331.40278476831	1346.17912284366	-81.502959878462
247234.4	228.911720285286	1539.44078133851	1556.36708232091	-81.5422074874285
210843.7	255.587579437638	1786.30244790738	1804.49478972999	-81.8572769789709
179812.5	292.5702623504	2051.90096651807	2072.65407987188	-81.8851800235938
153343.8	333.904214227342	2376.90420042396	2400.24282152283	-82.0034958082883
130781.2	381.513909618412	2752.40831343978	2778.72351757506	-82.1084616763563
111531.3	346.694972710805	3176.23678675897	3195.10211568643	-83.7706695358103
95109.37	440.94797971904	3588.25832571913	3615.25005122896	-82.9942544276285
81109.37	472.748405221089	4213.15397747837	4239.59402450056	-83.5977508732398
69171.88	531.231568047822	4991.96472621557	5020.1512732856	-83.9255973236137
59000	1500.25416564325	6483.95033450721	6655.25164827642	-76.972181521906
50312.5	1902.57008291639	7065.20860183431	7316.89452622094	-74.9284983624539
42906.25	2512.64933009118	8304.01543854947	8675.83304701488	-73.1651061563798
36593.75	2633.96485521133	9653.25903815343	10006.157150284	-74.7379325997934
31203.13	2801.23309736533	10536.064294472	10902.0896016783	-75.1111573075416
26609.38	3368.48528139475	12228.7968596576	12684.2487253185	-74.5995059964898
22703.13	4128.44572783258	14123.1292668329	14714.1715504248	-73.7054053571881
19359.37	4982.00191836137	16194.8251453064	16943.8102149902	-72.9005715423679
16500	5931.69707590243	18586.2034430834	19509.7921215977	-72.2997679983937
14112.02	7598.14173761074	21310.4225604833	22624.4528678856	-70.376520567478
12011.13	9347.17483428554	23854.0671734652	25620.0350916796	-68.6023567548555
10236.38	12249.5862955076	27219.6007711971	29848.9368412753	-65.7709139228779
8750.684	14120.0541219188	30594.8536344105	33696.0086259029	-65.22585917237
7449.463	17673.5512662955	33556.425818146	37926.0876976668	-62.2250500161518
6363.206	27690.5267634715	38451.9954946616	47384.8206703372	-54.2411180536998
5414.761	34050.2909615873	39588.8433089661	52217.8018410448	-49.3012363722645
4620.567	38864.0295389921	42715.6999162834	57749.8381932419	-47.7031310309297
3941.215	45472.4969880895	43789.638256191	63129.0773015088	-43.9199308167265
3361.769	51332.2910482593	43305.0295609121	67158.9881515101	-40.1517019897101
2867.244	58361.4078022368	42806.449307755	72377.1097999664	-36.2589980817015
2442.658	63992.3980162123	40403.4906435286	75680.0440013551	-32.2674761427668
2083.003	69392.3513254477	37418.3469827976	78838.0055138345	-28.3348198877037
1777.843	73158.3827781994	34411.3030832073	80847.3051536407	-25.190754093969
1513.548	81082.008979453	32314.2901416579	87284.0508197423	-21.7291780084846
1292.065	83711.019655752	33020.3188890752	89988.2007339957	-21.5270556870963
1101.762	84037.1590774067	24746.8140022526	87605.0735349469	-16.4083653369565
939.101	85443.4315904612	26599.4721729643	89488.0546320799	-17.2919350119837
801.2801	91376.9169426518	21958.673189173	93978.3181280299	-13.5124590234488
684.3433	88038.2797812805	17618.9858614614	89784.0039741679	-11.3170222623784
582.9476	92108.4869218962	18250.1400901802	93899.0999762634	-11.207283655877
497.0677	89528.6101794553	14600.874357897	90711.3971487595	-9.26260187384548
423.5089	92527.3513743705	12511.4369056374	93369.4104393937	-7.70075903136451
361.5036	91925.8094530175	13368.9167759786	92892.8542965255	-8.27460491107779
308.1262	90729.863111861	11159.5814540196	91413.5893536948	-7.01204084330546
262.7298	91621.6276747965	9317.60147023211	92094.1928404669	-5.80681839166982
224.2111	92537.9114628699	9113.70659668738	92985.6155856402	-5.62470432944528
191.2854	92446.7940303342	9445.96127567584	92928.1222822704	-5.83407972356214
163.1722	91439.2413751745	9365.04877233641	91917.5663394961	-5.84774476697601
139.1537	91399.0923897038	8807.54417047221	91822.4750481953	-5.5042313586521
118.6706	91418.7575908952	9361.10330850681	91896.7871833145	-5.84659885138575
101.1982	91929.6352975565	9234.73327217591	92392.3056566399	-5.73636750118053
86.24196	91896.7037563954	9771.34195295635	92414.7352149662	-6.06943359706803
73.61024	91870.4664755163	10884.343812181	92512.9804441016	-6.75661625823613
62.69291	92205.4085041332	11613.1897534902	92933.8664517121	-7.17855383772638
53.57697	92422.3298871603	12879.0629982668	93315.3648949862	-7.93308768771211
45.65746	92715.5011815062	13786.9739299798	93734.9711126207	-8.45801443087712
38.96512	93255.209076695	15548.1248654883	94542.4677421259	-9.46566384601779
33.18414	93889.7604685779	17425.1287078702	95493.0480785527	-10.5139760758789
28.30617	94564.3125425037	19532.8078877792	96560.549866999	-11.6706460839552
24.17237	95265.2498327216	21909.4338864042	97752.1923995241	-12.9518656575369
20.61345	96261.0736667238	24600.0062406879	99354.6909336057	-14.3354097637511
17.55618	97400.0724564027	27920.4644456081	101322.882160798	-15.9953487103365
14.98558	98393.3601091254	31475.2950217535	103305.118509542	-17.7390827344597
12.76553	99877.1437200639	35741.7401387584	106079.76162221	-19.6901071592832
10.8809	101370.509927315	40549.6412647618	109179.914314056	-21.8021098062268
9.278505	103231.458415251	46065.5960934975	113043.235755126	-24.0481501997632
7.923394	105018.809954225	52251.6255942379	117299.543142512	-26.4524300771589
6.75822	107636.244553303	59321.5270699023	122900.792167681	-28.8604628281127
5.761429	110537.452822839	67313.0992589217	129420.175430274	-31.3398230949823
4.919708	113397.778112616	76185.542516729	136613.663187276	-33.8949169232123
4.191257	116799.220778877	87362.3600950697	145856.915968813	-36.795401169503
3.564097	121399.481090013	99326.5014209644	156855.308783137	-39.289308834791
3.051758	125475.536837088	112714.54302584	168667.360666133	-41.9333199832474
2.604164	131572.289529656	128177.10321175	183686.246517891	-44.2511290702019
2.214424	137875.776460265	146519.01437208	201190.336018126	-46.7407796590721
1.892567	145163.791859752	165709.772218728	220300.374661243	-48.7812427957156
1.607507	154022.286485472	189339.358409382	244074.286595473	-50.8726075028785
1.376413	163659.73213609	214324.395882746	269665.449387497	-52.6343725088144
1.17375	175859.098318366	243173.12799318	300099.304629878	-54.1261196946391
1.001604	190001.682869585	276745.855282316	335691.685791017	-55.5281989855258
