EC-Lab ASCII FILE
freq/Hz	Re(Z)/Ohm	-Im(Z)/Ohm	|Z|/Ohm	Phase(Z)/deg
6999984	47.3002400847222	54.2501219683592	71.9749153917822	-48.9150914662361
5969734	44.9961300773207	47.838474869899	65.67473943468	-46.7536941277743
5091109	44.9129640047708	44.4754788665065	63.2079311170592	-44.7195850930788
4341796	47.1771752466422	41.483533128335	62.8217270143225	-41.3256065682639
3702781	50.5824751325194	37.5477660978486	62.9954087967582	-36.5867872362959
3157797	53.1098024437035	34.0036164416672	63.062643829142	-32.6294536889966
2693047	55.2154423131362	30.8014567879389	63.2255866726007	-29.1545849826651
2296687	57.4550281423195	28.0709761141952	63.9457579424816	-26.0388863293673
1958656	59.3009637593234	25.2497017228491	64.452709329224	-23.0637743302607
1670375	61.0757632879376	22.6727403772956	65.148307863063	-20.3660942251345
1424531	62.4877748875619	20.1750426869249	65.6639502148467	-17.8933917278443
1214875	63.5068165905754	18.0336480713185	66.0176356455542	-15.8526363827253
1036062	64.3797692801523	16.0867161479418	66.3591525638333	-14.0293528983261
883578.1	65.1377218630577	14.4625378208981	66.723967281105	-12.5183199531174
753531.2	65.7200955193693	13.0515980714795	67.0035459307526	-11.2324365030832
642624.9	66.2277607907645	11.8889093343338	67.2864211005365	-10.1770826219199
548046.8	66.6533652131304	10.9400660792626	67.5452155230374	-9.32106075768267
467390.6	67.0281739147544	10.2082692303441	67.8010682734848	-8.65950076911282
398593.7	67.3708039021151	9.67570721233162	68.0620637982424	-8.17285906581846
339937.5	67.677695284022	9.3413322156258	68.3193305479468	-7.85869484759232
289906.2	67.9625270271242	9.16330676596121	68.5774837012827	-7.678814747811
247234.4	68.2364999620606	9.16330101041936	68.8490087980927	-7.64834485226594
210843.7	68.5450387309039	9.35479985653832	69.1804496586789	-7.77152504864112
179812.5	68.8437318454171	9.70203147948459	69.5240162047087	-8.02177009524246
153343.8	69.1499183038784	10.283687519877	69.9104100291189	-8.45879365347849
130781.2	69.4956479908693	11.0160958902248	70.3633388799412	-9.00729188033518
111531.3	69.8951778161638	11.9533481524163	70.9099317021673	-9.70473621561408
95109.37	70.3014654752875	13.1227148982187	71.5157443803319	-10.5733459626104
81109.37	70.7615297051697	14.5229631211445	72.236490391171	-11.5982184890727
69171.88	71.3179300679157	16.1793123187732	73.130139452079	-12.7818748092996
59000	71.9302516286883	18.1295500388629	74.179792962626	-14.1463852575595
50312.5	72.6448819699423	20.3940284777646	75.4532654957936	-15.681339190715
42906.25	73.4190317136338	22.962438093051	76.9261189775279	-17.3675253338953
36593.75	74.2918465558936	25.9760539908385	78.7021845034774	-19.2721172590014
31203.13	75.3822539132865	29.440193998734	80.9271847263346	-21.3329032086382
26609.38	76.4528504484756	33.3937265823106	83.4276891490535	-23.5951525781989
22703.13	77.7515490724801	37.8884465116741	86.4918363907153	-25.9800435638074
19359.37	79.2170659186524	43.0563825210856	90.162051931853	-28.5251450080903
16500	80.8843762296535	48.9740741610591	94.5554982959375	-31.194171493882
14112.02	82.6774455441134	55.5995015489019	99.6336518159712	-33.9203161422704
12011.13	84.7122650454057	63.4027136368018	105.811492502626	-36.812939407612
10236.38	87.0270349370058	72.2492351974141	113.109048252286	-39.6992200301615
8750.684	89.5347420034525	82.1998698896341	121.545417994664	-42.5543546669676
7449.463	92.4304877847941	93.9179782883739	131.772461910334	-45.4573427388231
6363.206	95.6172013561979	107.069539508469	143.549766582002	-48.2339248619168
5414.761	99.24056479073	122.551836517102	157.694775860513	-50.999987479892
4620.567	103.209286822882	140.082332395622	173.997749226493	-53.6181066655864
3941.215	107.852305651055	160.287820431239	193.19499272198	-56.0647109353083
3361.769	113.180808725876	183.58822855966	215.672281783073	-58.3464695177932
2867.244	119.203770531459	210.278541703879	241.715957292908	-60.4517456402219
2442.658	126.006607114524	241.260791103714	272.184559371953	-62.4226631596924
2083.003	133.923634809278	276.466595301546	307.195895607604	-64.1539124334597
1777.843	142.938432130629	316.943328207992	347.684438356854	-65.7250772992675
1513.548	153.952443411102	363.9142953682	395.139177006763	-67.0694081739829
1292.065	166.562340567783	416.626999972773	448.688166103956	-68.2090785242776
1101.762	180.65863221848	478.15534559281	511.145846030301	-69.3022247016077
939.101	197.770123747883	548.609515209557	583.168433667082	-70.1760999307413
801.2801	216.521367694742	628.713891572369	664.953126261148	-70.9969192680457
684.3433	238.589560594363	720.193301347342	758.685290308303	-71.6707176351195
582.9476	265.15572374796	826.111098838141	867.621522012834	-72.205000779079
497.0677	295.680288242706	947.216677505595	992.293437950704	-72.6638826771993
423.5089	334.314626487363	1085.62874707102	1135.93839883613	-72.8840130620886
361.5036	373.767377529901	1241.99349219445	1297.0157621089	-73.2512790087674
308.1262	421.166215583127	1422.52804506709	1483.56564403164	-73.507620326309
262.7298	477.709378277232	1627.44048803173	1696.10400393932	-73.6412340841335
224.2111	543.075789690519	1860.59510033378	1938.23255589571	-73.7283809647729
191.2854	620.845228540348	2128.23044287165	2216.9378917252	-73.7370326274793
163.1722	709.076108226318	2429.30849198766	2530.67751333527	-73.7283236689934
139.1537	812.361803408148	2773.6774514048	2890.19347173644	-73.6756115518413
118.6706	936.314349346535	3167.8646208781	3303.33934330147	-73.534090976444
101.1982	1074.31878383352	3613.01037800329	3769.35071873884	-73.4402977853811
86.24196	1239.41074916239	4121.68516788305	4304.00135086949	-73.2637121929218
73.61024	1429.47758506247	4691.86037902201	4904.78949420182	-73.0554993301712
62.69291	1653.89850921786	5338.71156353312	5589.02687749802	-72.78735508205
53.57697	1911.71541048733	6071.02446859787	6364.90329141055	-72.5212161862117
45.65746	2212.41932898997	6903.05073799039	7248.92466360068	-72.2294087811516
38.96512	2559.95856305594	7833.16509586722	8240.86544385211	-71.9020779927934
33.18414	2963.83518902267	8896.19739957866	9376.92098718759	-71.5741169508605
28.30617	3430.76692376633	10077.3350485967	10645.3202566614	-71.1991733697269
24.17237	3961.18347928609	11398.6695839198	12067.3378522335	-70.8370067474247
20.61345	4585.48657062049	12903.8412473611	13694.3713264406	-70.4369103190848
17.55618	5308.30045936306	14586.8194450741	15522.672298611	-70.0030093808323
14.98558	6115.08289130333	16463.3093125861	17562.3117011797	-69.6231383626605
12.76553	7051.46747680712	18584.0623815136	19876.8852735145	-69.2214376524943
10.8809	8133.5299481988	20956.7159722489	22479.7298417877	-68.7882242635959
9.278505	9349.8323929272	23605.3107923926	25389.5660337327	-68.3919666524834
7.923394	10702.3238597446	26523.0120267628	28600.8724162509	-68.0253882551587
6.75822	12288.2523125709	29807.3099771977	32240.9192327724	-67.5957845003696
5.761429	14071.3451534984	33518.3793478154	36352.2283846938	-67.2268569760849
4.919708	16131.7120109262	37614.5265657728	40927.7991244422	-66.7869972767629
4.191257	18458.5522983938	42104.7369741775	45973.1120179742	-66.3275424208476
3.564097	21082.6010497712	47357.2287061891	51838.0475881771	-66.0022169847723
3.051758	24051.1496993773	52831.1903967542	58048.1910191864	-65.5228231975863
2.604164	27326.2748448265	59178.0671869246	65182.5815143521	-65.2142281291288
2.214424	31231.0090576112	66207.4263277223	73203.8197616584	-64.7460643147274
1.892567	35496.7322979551	73973.4534863509	82049.3133702531	-64.3656203387606
1.607507	40463.8573215838	82746.6273078489	92110.4124416211	-63.9409440210096
1.376413	45892.1161031923	92152.151359737	102947.099622363	-63.5265236477915
1.17375	52070.1438781356	102844.338229017	115274.705765204	-63.1468818127378
1.001604	59049.6232422905	114494.059152674	128824.483644657	-62.7178510157438
