EC-Lab ASCII FILE
freq/Hz	Re(Z)/Ohm	-Im(Z)/Ohm	|Z|/Ohm	Phase(Z)/deg
1292.065	0.36537095497062	-0.0262706180407833	0.366314182237581	4.11255927315617
1101.762	0.363227348528845	-0.0251561290160192	0.364097428645638	3.96182209866638
939.101	0.361472134316037	-0.0255040645867065	0.362370751023636	4.03587861256043
801.2801	0.362802695974658	-0.0225125925484699	0.363500499352798	3.55075868516993
684.3433	0.360698589359396	-0.0238058867500577	0.361483322727086	3.77601016683207
582.9476	0.359451575717932	-0.0244377024201636	0.360281329776718	3.88933033251084
497.0677	0.358430054037638	-0.0226268278320953	0.359143532553724	3.61215168587599
423.5089	0.357626009442365	-0.0231649830480592	0.358375472192626	3.70611791019304
361.5036	0.356385580518695	-0.0239751558507217	0.357191111451158	3.84866465300143
308.1262	0.354443285453314	-0.0238080789634741	0.355241984043089	3.84280501363063
262.7298	0.355441143399318	-0.0226270789749554	0.356160625454238	3.64248521746581
224.2111	0.355345865533558	-0.0237733447600506	0.356140219678814	3.82749787317591
191.2854	0.352725156059149	-0.02302698686935	0.353475993302561	3.73514509800995
163.1722	0.353698242675639	-0.0221396315001391	0.35439047695275	3.58173851315265
139.1537	0.352110001755555	-0.0207392864277845	0.352720245148802	3.37082816510263
118.6706	0.349969693081313	-0.0211990443622258	0.35061116005812	3.46639580645707
101.1982	0.351279333116749	-0.0205776614869218	0.351881528397298	3.35250955847671
86.24196	0.345611548703794	-0.0189048713067617	0.346128208553651	3.13094563318403
73.61024	0.360064163527634	-0.0123700066630255	0.360276586696524	1.96762301214852
62.69291	0.264280602286916	-0.0645699391685253	0.27205424787965	13.7297246193625
53.57697	0.336166809707642	-0.0250175315864859	0.337096426613654	4.25610582731706
45.65746	0.367546698438064	-0.0131778911488463	0.367782860323659	2.0533833349237
38.96512	0.340545034779032	-0.0218105968766474	0.341242762339024	3.66456872976353
33.18414	0.346311228559395	-0.0187312861190123	0.34681742762726	3.09599807247003
28.30617	0.330068928308713	-0.00165464774778836	0.330073075687842	0.287223456220184
24.17237	0.341634438302491	-0.0162385570824635	0.342020145854566	2.72133294882485
20.61345	0.344060251969988	-0.0251815515916807	0.344980532097416	4.18597808502423
17.55618	0.340833864228974	-0.0268454879533796	0.341889460540552	4.50355541283596
14.98558	0.334477319647402	-0.0181825259293881	0.33497116533768	3.11159398365349
12.76553	0.337093720293365	-0.0135700159159918	0.337366746424691	2.30524927912746
10.8809	0.335754398209403	-0.0108853227055286	0.335930805624257	1.85690693964862
9.278505	0.331875531794147	-0.0133093101034467	0.33214229832871	2.29652026711864
7.923394	0.337245373515481	-0.0149435266435767	0.337576289075734	2.53714764417092
6.75822	0.330182893607238	-0.0146701320718376	0.330508632271313	2.54399678165391
5.761429	0.32328798391558	-0.0203837322182286	0.323929957063784	3.60779835254859
4.919708	0.329977121405086	-0.0132461764401614	0.330242883104346	2.29877371012689
4.191257	0.324476595448789	-0.0138571150591986	0.324772352012608	2.4453907451119
3.564097	0.324217910158313	-0.00960571886379368	0.324360174963441	1.69702593170634
3.051758	0.333193349751437	-0.0075895608396911	0.333279776992728	1.30487184432259
2.604164	0.330868097679282	-0.020102747144054	0.331478232324001	3.47687921523458
2.214424	0.32256787833692	-0.00890547370317352	0.322690786352291	1.58142367512956
1.892567	0.335431714025752	-0.0280684469042287	0.336604029218115	4.78328544053253
1.607507	0.323582940010405	-0.0119212078867117	0.323802461793075	2.10989530817304
1.376413	0.313875705426152	-0.0122608546330567	0.314115085618468	2.23699453586691
1.17375	0.34140640546007	-0.0296499852466023	0.342691487075897	4.96348983442589
1.001604	0.290795657011896	0.00888088175285903	0.290931236201424	-1.74926593163518
