EC-Lab ASCII FILE
freq/Hz	Re(Z)/Ohm	-Im(Z)/Ohm	|Z|/Ohm	Phase(Z)/deg
6999984	44.98314152718	63.5941523799029	77.8954378546819	-54.7264304949095
5969734	43.7647745950523	58.3080237421546	72.905288752404	-53.1088789660079
5091109	44.5765135138886	56.3407196866774	71.8424822223359	-51.6491200138854
4341796	48.3325087248378	55.0806429567396	73.2796603988061	-48.7334924930693
3702781	54.295081499907	52.5400851761529	75.5540629311154	-44.0588788116237
3157797	59.2946605676003	49.7480250245615	77.3997594677873	-39.9965392892107
2693047	64.1327816828404	46.9795476410725	79.4990036600376	-36.2241049519781
2296687	68.845168942462	44.1861508488608	81.8050928338476	-32.6931264887695
1958656	73.2256299846426	40.8380018384675	83.8435166295311	-29.1484486046793
1670375	77.3014179950115	37.5186375813671	85.9253012214764	-25.8898542772758
1424531	80.647936274962	33.9976750177669	87.5210347974932	-22.8581798846339
1214875	83.4411872824997	30.6513425055852	88.8928373521055	-20.1703374648501
1036062	85.3824010640296	27.5664463837791	89.7221454139867	-17.8931224376806
883578.1	87.4474198823109	24.7707968951015	90.8880829531109	-15.8155717429583
753531.2	88.9991707453063	22.28112703416	91.7458501255755	-14.0552276723542
642624.9	90.2475466080104	20.119310414792	92.4629997368232	-12.5677031854797
548046.8	91.3111078172228	18.2095644251402	93.1091115163377	-11.2781585351346
467390.6	92.1586597866835	16.6444584942673	93.6496480091894	-10.2376328017094
398593.7	92.8981163822741	15.377031211271	94.1621639314165	-9.3987079980788
339937.5	93.5487699440879	14.3561396744454	94.6439174189449	-8.72463461126329
289906.2	94.185736620508	13.5949469091976	95.1618388021774	-8.21345312560347
247234.4	94.7489088415643	13.0377679053548	95.6417226874388	-7.83488845120464
210843.7	95.1671283720236	12.9047554793822	96.0380915916172	-7.72226213741577
179812.5	95.8380389345845	12.6315236817552	96.6668769400858	-7.50834834460368
153343.8	96.3526740734078	12.7478302167515	97.1923092447725	-7.5366811075729
130781.2	96.9240616024337	13.0679784258386	97.8010520273199	-7.67871161540788
111531.3	97.5243765555769	13.6019642043737	98.4683576219844	-7.93996318125368
95109.37	98.205087469357	14.3589669400909	99.2492777628668	-8.31850493734071
81109.37	98.785649033959	15.3207889772831	99.9666495884851	-8.81583803309222
69171.88	99.6458981517754	16.3785451418597	100.982977572648	-9.33410127709985
59000	100.485789387055	17.7477488676775	102.041052810179	-10.0162533688267
50312.5	101.412581271216	19.4185765714378	103.254989013373	-10.8398400922816
42906.25	102.37116920994	21.2500168021975	104.553428922746	-11.7268131366118
36593.75	103.486569501416	23.4251619646069	106.10470432662	-12.7544988858482
31203.13	104.646752314501	25.9073742705734	107.806005452239	-13.9051184596079
26609.38	106.022839099764	28.8526623002504	109.87865367116	-15.223597478607
22703.13	107.479066967534	32.0369159134655	112.152190426483	-16.5980487446125
19359.37	109.047899983429	35.7870370675222	114.770015739601	-18.168657841359
16500	110.854616586707	40.1026432999588	117.885402057377	-19.8880411591891
14112.02	112.755754922034	44.8561215328693	121.350450790301	-21.6934884674259
12011.13	114.956214514523	50.4255873947673	125.529562731719	-23.6846772336881
10236.38	117.397974114288	56.7407182007754	130.390925405408	-25.7953792664367
8750.684	120.073113942344	63.768112261901	135.95559875657	-27.9717594512411
7449.463	123.053500343709	72.0040260721239	142.571889646712	-30.3337836912459
6363.206	126.395225047169	81.0996120534503	150.176229776701	-32.685655119121
5414.761	130.155158665384	91.799805188478	159.271998668485	-35.1957201942316
4620.567	134.526148479249	103.747139790978	169.884530312415	-37.6395628073811
3941.215	139.393840708193	117.338630165038	182.205919103602	-40.0899256802391
3361.769	144.970130440896	132.81570731085	196.612183825244	-42.4946410055591
2867.244	151.292085740315	150.400742727864	213.329975907625	-44.8307217166003
2442.658	158.44474371997	170.338717228504	232.637089475301	-47.0718117547868
2083.003	166.876861847986	192.779403789624	254.974087988789	-49.1193451906222
1777.843	176.230970640028	218.466025082166	280.686228960254	-51.107766570734
1513.548	187.105343501054	247.854688418825	310.548476308998	-52.9508686652667
1292.065	199.89677047818	280.112346777498	344.124462462063	-54.4871805083967
1101.762	214.13791272949	317.128731566882	382.656083256705	-55.9712156822989
939.101	230.504204866763	359.242616482931	426.834213669384	-57.314171458306
801.2801	249.594040097039	406.04562061863	476.623783371677	-58.4211832142783
684.3433	270.993889846825	458.20098828223	532.339960924526	-59.3986492127715
582.9476	296.461606445519	518.560747082744	597.322971692259	-60.2433608901328
497.0677	325.237370982208	584.76065404152	669.122089008041	-60.9176749192223
423.5089	357.250408595646	661.187221122059	751.529371227011	-61.6169126124
361.5036	396.548671263464	744.688725310824	843.689603044792	-61.9645834024853
308.1262	440.198269114735	839.07560811981	947.534902931411	-62.3174681085064
262.7298	489.404143462797	944.047445404081	1063.36352900244	-62.5973006956483
224.2111	545.656739468155	1060.43969661474	1192.59114011609	-62.7715944569271
191.2854	610.452084504403	1191.43774533389	1338.72164712537	-62.8709453386028
163.1722	684.96505078416	1336.27091506167	1501.59817502403	-62.8605748025109
139.1537	767.306912022887	1496.93785899245	1682.13639486309	-62.861033168747
118.6706	861.572409402485	1674.89844993987	1883.50519889237	-62.7785845420277
101.1982	968.243311994945	1874.11371034559	2109.45426841358	-62.6772856038486
86.24196	1090.94966676241	2094.19756085169	2361.3205202357	-62.4832247986378
73.61024	1225.43583371319	2336.59669218208	2638.44217000574	-62.3250884471817
62.69291	1379.86017748045	2607.68197134392	2950.25750961988	-62.1143545701325
53.57697	1547.27926085279	2903.53267884234	3290.07220713627	-61.9470508939543
45.65746	1742.06500317316	3233.71439674395	3673.10485488637	-61.6877874916576
38.96512	1954.45978857147	3596.86615828496	4093.57535972632	-61.4812935022925
33.18414	2197.04528335403	4004.91108513666	4567.96680996684	-61.2513655391065
28.30617	2461.35635220631	4450.76040605725	5086.01447940067	-61.056559888762
24.17237	2755.92363435285	4940.26823003235	5656.97492155053	-60.8450811665792
20.61345	3086.74259193663	5486.88919834364	6295.54865788327	-60.6393320223478
17.55618	3457.85282610551	6100.95074130809	7012.72743765744	-60.4566157814805
14.98558	3860.60281228086	6762.6435820971	7787.01497960996	-60.2791707523285
12.76553	4312.78689011981	7510.5928176072	8660.78144462046	-60.134384317499
10.8809	4816.62189575247	8342.93149643555	9633.50156697234	-60.0008851512335
9.278505	5391.46028031684	9275.48772096664	10728.5840825356	-59.832320967906
7.923394	5984.98953429627	10260.5742898367	11878.5304008069	-59.7450021999281
6.75822	6667.36284375986	11395.1814552134	13202.4197663757	-59.667939376483
5.761429	7431.52645217331	12662.5743234527	14682.2468957008	-59.5917932855101
4.919708	8290.33340057467	14035.782732582	16301.3135915156	-59.4314796944325
4.191257	9212.12239114504	15566.1323836226	18087.7769870678	-59.3827209860668
3.564097	10285.7523331402	17348.4144659099	20168.3957106085	-59.3365978835588
3.051758	11419.4849691675	19175.7205157579	22318.4429174506	-59.2254440713034
2.604164	12718.9403465813	21323.1814261046	24828.401270933	-59.1845921805106
2.214424	14164.8291718247	23666.6528538542	27581.748363217	-59.098877694359
1.892567	15791.5785054247	26246.8520853706	30631.2127752774	-58.9665244436838
1.607507	17581.5612742613	29222.1434308507	34103.4450390839	-58.9666963310223
1.376413	19536.2939171358	32277.5852844728	37729.422097524	-58.8152062899898
1.17375	21794.8373953203	35835.4506866957	41942.7522106866	-58.6923641387137
1.001604	24219.2481853549	39749.0634469621	46546.3213108666	-58.6458972615286
