EC-Lab ASCII FILE
freq/Hz	Re(Z)/Ohm	-Im(Z)/Ohm	|Z|/Ohm	Phase(Z)/deg
6999984	22.799877074698	-13.6005719222026	26.548257028143	30.8169017041002
5969734	18.7660300354054	-11.8080225025593	22.171902911358	32.1790572958222
5091109	11.5077610054317	-4.73359631271175	12.4432912611517	22.3592998028356
4341796	9.02318788439189	-7.09426126879513	11.4780861883401	38.1753356416079
3702781	5.97215238644498	-4.04455760129108	7.21283926876802	34.1072780003996
3157797	4.44129177585639	-4.78125820744503	6.52575686679714	47.1111109299549
2693047	3.47747796126669	-3.8224320141719	5.16757578309809	47.7054744283118
2296687	2.31520122144642	-3.73628422615282	4.3954495235852	58.2154340700468
1958656	1.79884962830126	-3.21705934598463	3.68582837647477	60.7878426828457
1670375	1.49724912792973	-2.68142802494633	3.07112539699276	60.8219909674355
1424531	1.2560492901911	-2.42388778949317	2.7299985046596	62.606983682386
1214875	0.891757334435797	-2.13588348368275	2.31456894461773	67.3388702250329
1036062	0.829545416980652	-1.86952900992964	2.04530787848727	66.0722324273373
883578.1	0.70007339528529	-1.56886242586378	1.71797324486543	65.9521404734778
753531.2	0.721931989168473	-1.34736958901989	1.52859105270192	61.8172186575777
642624.9	0.590672008411205	-1.14595925456059	1.28923079184201	62.7316592986065
548046.8	0.547893214530145	-1.00423054944032	1.1439693924915	61.3837760855612
467390.6	0.576418377127755	-0.878504305330441	1.05072734806643	56.7296742931813
398593.7	0.485855028958086	-0.752078429711387	0.895364212821245	57.1368753981807
339937.5	0.471530098769952	-0.681822034316835	0.828988492396576	55.3332902027782
289906.2	0.488546659145777	-0.567030846771925	0.748466311435182	49.252225562469
247234.4	0.427407170213387	-0.504696248587952	0.661358595989019	49.7400647475552
210843.7	0.448328229800965	-0.443578635114569	0.630682334592124	44.6948906121087
179812.5	0.404394776805341	-0.366855226534603	0.546001733278564	42.2134046718191
153343.8	0.398356491326451	-0.322754313333425	0.512697026475921	39.014902157969
130781.2	0.410988425773446	-0.294110268200468	0.505383355464628	35.5881504472726
111531.3	0.41378358665197	-0.235924338957064	0.476316229300342	29.6902145774432
95109.37	0.401366771858691	-0.206595087695908	0.45141645496409	27.2361905042742
81109.37	0.387828404353831	-0.184268434662142	0.429378303173873	25.413737808678
69171.88	0.362390197311543	-0.150724379508064	0.392485023517573	22.5832747345302
59000	0.353081524247513	-0.134805172441342	0.377940467907165	20.8966646025815
50312.5	0.365909505108795	-0.105064373740406	0.380694481912238	16.0204729096529
42906.25	0.396050535145536	-0.105482577827177	0.409856805011375	14.9137361734223
36593.75	0.380353613300715	-0.095951162797563	0.392269673557763	14.1584975853486
31203.13	0.373213461600585	-0.0841149666972327	0.382574980288006	12.7011221376538
26609.38	0.36980141278898	-0.0719816621031399	0.376741880575887	11.0148615099602
22703.13	0.369907186894001	-0.0640710028181125	0.37541499746008	9.82661006821636
19359.37	0.367247745029712	-0.0570852721467904	0.371657953669071	8.83539308264003
16500	0.364765335385863	-0.0510108248289033	0.368314884506296	7.96093343655547
14112.02	0.363056345993605	-0.0455343013731155	0.365900646306844	7.1486740887103
12011.13	0.361207671620053	-0.0406170027033956	0.363484144008769	6.41583242084822
10236.38	0.359560203390541	-0.0364237338110308	0.361400371121813	5.78437563483454
8750.684	0.358021081921978	-0.0330696419349499	0.35954512417538	5.27731428867951
7449.463	0.356704635315077	-0.0299165578061899	0.357956976864864	4.79413554229892
6363.206	0.35539726454366	-0.0274232407447839	0.356453713373928	4.41232620790626
5414.761	0.353902479323113	-0.0248992066018217	0.354777303897032	4.02447732539512
4620.567	0.352829172357647	-0.0233473730935891	0.353600798495922	3.78585071696344
3941.215	0.351747589281227	-0.0217897598759404	0.352421849777516	3.54478044353553
3361.769	0.350465963716293	-0.0205812394451118	0.351069763922624	3.36085526172059
2867.244	0.349306851148506	-0.0195345457642945	0.349852647178068	3.20086023517708
2442.658	0.346862425804698	-0.0183748986377908	0.347348786287024	3.03238657918122
2083.003	0.348109829260015	-0.0168391506876481	0.348516872221874	2.76941556699223
1777.843	0.344645094613466	-0.0160845967860789	0.345020224762108	2.67205685957021
1513.548	0.342126637980488	-0.0167343757414588	0.342535656169235	2.80026590651325
1292.065	0.342379109317479	-0.016035315105948	0.342754410369257	2.68148659896248
1101.762	0.343381048745943	-0.0115146999715741	0.343574057450936	1.92059692815536
939.101	0.334560023557093	-0.0190528741960604	0.335102105898566	3.25941938662842
801.2801	0.341569017206919	-0.0168948603218003	0.341986593042759	2.83168519312484
684.3433	0.344005465397819	-0.0130889625245319	0.344254384378091	2.17897912136315
582.9476	0.341349690597484	-0.0100625227415927	0.341497973105146	1.68851235182849
497.0677	0.33803922152087	-0.00944920262412817	0.338171262405113	1.60117066553874
423.5089	0.334210690299418	-0.0133850554133731	0.334478616982959	2.29345608883028
361.5036	0.337272962988496	-0.0136643661917983	0.337549650372302	2.32002757953727
308.1262	0.335086937531726	-0.0140414431635997	0.335381003979813	2.39951172262459
262.7298	0.334793086737336	-0.0134784648228078	0.335064292250149	2.30543090674852
224.2111	0.332891758471901	-0.00964373777075137	0.333031416741282	1.65937114541034
191.2854	0.333022329172749	-0.0151018755147544	0.333364572760373	2.59646653765861
163.1722	0.331691088636913	-0.0109279286524097	0.331871056143456	1.88699008868196
139.1537	0.330064439993441	-0.0119494102211764	0.330280672993164	2.07338872929849
118.6706	0.330093983217238	-0.0105791841042811	0.330263465876161	1.83564447587131
101.1982	0.327741266645769	-0.0130807413558886	0.328002200689253	2.28556416816015
86.24196	0.328025088552672	-0.0137194137292783	0.328311865507574	2.39495899998448
73.61024	0.308712165299839	-0.00981596608878321	0.30886818255426	1.82119161548914
62.69291	0.266652073327449	0.0411277481822515	0.269805151693533	-8.76806481213421
53.57697	0.320901334161504	0.00443960660166811	0.320932043232537	-0.79262523012162
45.65746	0.304907483687582	-0.006602119973352	0.304978952711225	1.24042383265289
38.96512	0.33391946066493	-0.00999034333419222	0.334068874890632	1.71368811734654
33.18414	0.315710524527818	-0.00806953701336506	0.31581363606602	1.46415697615793
28.30617	0.331522629455229	-0.0245768565027261	0.332432362619021	4.23976793578891
24.17237	0.327474339839723	-0.000221675273880798	0.327474414868383	0.0387848882511137
20.61345	0.308210071398438	-0.000829171233806877	0.308211186747602	0.154141288637999
17.55618	0.308666315439801	0.00144973207773043	0.308669719943956	-0.269102634625141
14.98558	0.319462767332207	-0.00816399594266376	0.319567067360364	1.46389742627674
12.76553	0.315377954635029	-0.00866091585137461	0.315496855345912	1.57306250202522
10.8809	0.317779719771558	-0.0074320931408356	0.317866617162835	1.33976440108826
9.278505	0.312683220434614	-0.00644267362826149	0.312749587345597	1.18038243938554
7.923394	0.313879296086812	-0.00626106489647417	0.313941735749789	1.14274827957016
6.75822	0.315218190463677	-0.00860479071217297	0.315335614896883	1.56366542122728
5.761429	0.310987140489449	-0.0129212122434606	0.311255456619872	2.37921526568988
4.919708	0.308901705955313	-0.00107643474965159	0.308903581484374	0.199658717460797
4.191257	0.313495578552648	0.0013225732748359	0.313498368372352	-0.241717658440627
3.564097	0.313272057401463	-0.00469501206130414	0.313307237527002	0.858628249247305
3.051758	0.309352257378785	-0.00614307059805953	0.309413245452942	1.13762145321933
2.604164	0.320909683528216	-0.00621624271509599	0.3209698843438	1.10972012746985
2.214424	0.311610351854085	0.00274528250100878	0.311622444568162	-0.504761894635834
1.892567	0.309549441454731	-0.00839779856599024	0.309663332872478	1.5540019150546
1.607507	0.305229595850835	0.00218863871012847	0.305237442530676	-0.410830448856953
1.376413	0.313641007953131	0.00536576057068208	0.313686903227339	-0.98011879308464
1.17375	0.316767142746096	-0.00837665732798177	0.316877880439005	1.51478868355585
1.001604	0.316502664878902	-0.0218870731144135	0.317258539435839	3.95587078604836
