EC-Lab ASCII FILE
freq/Hz	Re(Z)/Ohm	-Im(Z)/Ohm	|Z|/Ohm	Phase(Z)/deg
6999984	26.4895309641776	83.7885403543165	87.8761329679968	-72.4557844060078
5969734	22.9572400480666	82.7193624026924	85.8459538180601	-74.488982437809
5091109	20.2398953414699	86.792456834511	89.1211755241374	-76.8732890064665
4341796	20.0940722233091	94.6408957674516	96.7505601543536	-78.0130166525407
3702781	24.1530527659242	104.62336580276	107.375130406494	-77.0006002285445
3157797	28.6231560295631	115.869694432999	119.352717392983	-76.1240893935534
2693047	33.8173685771821	129.092448561774	133.448397117235	-75.3205160858824
2296687	41.1085123575291	146.460892442376	152.120684994732	-74.3216787616308
1958656	51.7405411545133	165.406192988846	173.309815873266	-72.6298489841685
1670375	65.6277911962403	186.927155562982	198.113019421149	-70.654462393896
1424531	83.6720022430313	209.816836600244	225.885167464115	-68.258582077777
1214875	105.954396804865	233.727372808992	256.621937882318	-65.6140380785711
1036062	133.912651318131	257.613671501881	290.340148666578	-62.5337023803888
883578.1	166.604580347623	281.075207008044	326.742036149961	-59.3430723066438
753531.2	205.261266985905	301.763311354862	364.956550570763	-55.776220955882
642624.9	249.045563467675	318.673055921761	404.445557836213	-51.9920868204728
548046.8	296.253548191082	330.071078575629	443.523484978963	-48.0906051990428
467390.6	346.792607475464	334.499963173368	481.825007614399	-43.9663174798203
398593.7	397.139703229404	332.551490506957	517.98690883027	-39.941678580327
339937.5	503.485687467918	306.349536754894	589.362262241976	-31.3187267889655
289906.2	542.213318729112	284.883221543984	612.497945241056	-27.7177959085494
247234.4	574.805589889322	261.087131346409	631.322386996302	-24.4284108292356
210843.7	602.609401379393	237.471137382799	647.711843122164	-21.5079819220964
179812.5	624.885549122519	212.811306355272	660.12923099556	-18.8068125039978
153343.8	642.321951047705	191.201295773291	670.175666749485	-16.5767977399911
130781.2	656.986393461086	170.822663693151	678.830983105683	-14.5747227756214
111531.3	668.808766496853	152.132328694838	685.893148804649	-12.8148829078771
95109.37	678.023671993587	135.481155189099	691.426961576593	-11.2998908243039
81109.37	685.463267948181	121.714031392232	696.185461744174	-10.0687592211725
69171.88	690.862319383607	109.397386127485	699.470179804417	-8.99802142320996
59000	695.83943758019	99.5046477557655	702.917987973643	-8.13809198680992
50312.5	701.760811084075	92.0152112659439	707.767642010918	-7.47003465684328
42906.25	703.544600750501	81.58439162309	708.25914621817	-6.61458575040116
36593.75	705.994963641037	77.2060129631211	710.203954596263	-6.24093705388454
31203.13	706.680404094979	74.3029291755219	710.575906442025	-6.00223137727714
26609.38	710.620606694057	71.6969804609238	714.228327403389	-5.76127397653487
22703.13	712.912494132075	70.7254256624813	716.412109141628	-5.66556538756283
19359.37	715.470182793275	71.2358242290622	719.007736481212	-5.68591799436147
16500	717.704185654819	73.0761281694695	721.414872742923	-5.81377982888066
14112.02	719.961276705804	75.8610030111689	723.946912234392	-6.01495676990699
12011.13	722.703356123034	80.7763875160287	727.203524284389	-6.37746716688626
10236.38	726.005176561973	86.1913301876533	731.103591698399	-6.77046464814445
8750.684	728.879848183255	93.4111228674699	734.841119537418	-7.30305183703035
7449.463	732.102372512117	102.552823632916	739.250272555211	-7.97410000668757
6363.206	735.900124639825	113.244686640711	744.562524236389	-8.74838944144942
5414.761	740.668661820372	126.222747492878	751.346956197622	-9.67128120995639
4620.567	747.280031684623	142.430584769199	760.732487299094	-10.7910699247601
3941.215	751.451612046367	158.36826418664	767.958353264402	-11.9009178218182
3361.769	757.568399028204	178.5872416053	778.333657289948	-13.2645860221193
2867.244	765.060681653601	202.079371685961	791.298881000893	-14.7959131324316
2442.658	772.971277793072	228.649238740113	806.080064676883	-16.4785125598144
2083.003	782.451482661977	258.900210217913	824.172094632429	-18.3085225687284
1777.843	792.353173348448	294.108147711048	845.176403992314	-20.3640774136956
1513.548	804.355247606293	335.03349979675	871.340811816961	-22.6129138412723
1292.065	815.979284813472	381.32610196746	900.684067410101	-25.0477782057721
1101.762	832.206710716607	433.284927145227	938.245083894928	-27.5035498002161
939.101	849.609550758102	494.724891359957	983.152636608632	-30.212104644294
801.2801	867.615586349125	564.931912346362	1035.32838812777	-33.0694222502996
684.3433	889.578911175358	642.907122617151	1097.57924885623	-35.8559967573404
582.9476	913.89638943007	736.388114823385	1173.65841123662	-38.8607421336111
497.0677	941.256017642675	840.51487615125	1261.91447720521	-41.7639479294287
423.5089	973.248662790345	962.787839426874	1369.00452277246	-44.6904215413066
361.5036	1010.32043423079	1099.81825575337	1493.43482466182	-47.4286441400164
308.1262	1053.38484277979	1257.42685482908	1640.34811008015	-50.0460643172007
262.7298	1102.62560121692	1439.6504234016	1813.38814324441	-52.5515629186842
224.2111	1159.87793975032	1644.06728648595	2012.0323251908	-54.7972996445892
191.2854	1224.86660318943	1875.88833178754	2240.3694402811	-56.8573579378262
163.1722	1303.83507463118	2147.05129218702	2511.93454395621	-58.731038789885
139.1537	1394.97786672395	2451.32331708019	2820.45195908576	-60.3570357166868
118.6706	1498.68934035366	2801.5287930984	3177.20526838432	-61.8552630551744
101.1982	1622.28934806893	3196.94822186114	3585.01055258126	-63.0945134702628
86.24196	1768.12666926258	3650.0592813393	4055.76191064623	-64.1539697292393
73.61024	1935.75849219135	4155.55374029393	4584.29796463557	-65.0227456339961
62.69291	2132.06413569101	4735.81431877141	5193.61480479446	-65.7627206264076
53.57697	2361.03674943618	5386.79637445129	5881.50233460718	-66.3321260832086
45.65746	2627.54534758884	6133.69112551996	6672.79262205248	-66.8107177294814
38.96512	2933.34600272174	6961.2095965978	7554.00276803291	-67.1501952230964
33.18414	3301.99450105015	7905.35851108269	8567.25515399845	-67.330161266547
28.30617	3712.90574386145	8969.80412008827	9707.88622798763	-67.5136796483274
24.17237	4209.00820295997	10137.5445416817	10976.591428452	-67.4522585726894
20.61345	4770.38406808797	11462.8928935742	12415.8961676804	-67.4049322588115
17.55618	5419.14489254466	12960.7587720333	14048.0745767251	-67.3092483070247
14.98558	6166.3826409663	14607.7360825458	15855.9209234948	-67.1138696988851
12.76553	7021.54589807242	16476.0598527001	17909.8479912169	-66.9179181329503
10.8809	7995.19884771004	18538.4798035759	20189.0672900462	-66.6706295485719
9.278505	9105.63173542933	20828.6455315326	22732.0259541355	-66.386557073746
7.923394	10416.5228292776	23397.1333897456	25611.1264631295	-66.0011283649615
6.75822	11773.6280397408	26214.5703680433	28737.1191457889	-65.8139430532923
5.761429	13385.9090029219	29351.097068794	32259.4088441849	-65.4840912506355
4.919708	15151.4151453225	32795.6903472303	36126.4817863202	-65.2033419310214
4.191257	17139.8056320147	36760.5573122053	40559.9742481078	-65.0024629280485
3.564097	19365.0894135342	41111.6733723567	45444.2116827822	-64.7778634723572
3.051758	21696.8458351456	45884.7082310388	50755.8821087924	-64.6926073524417
2.604164	24402.1473627143	51167.6230672189	56688.5389321388	-64.503244801151
2.214424	27421.7644663266	57337.1858788357	63557.1085792206	-64.4403340352456
1.892567	30586.5626414643	63954.9085612586	70892.6522518319	-64.4404486268047
1.607507	34358.7549188719	71730.8377836194	79535.1314119429	-64.4057846801992
1.376413	38129.8813783263	80088.6131070649	88702.1634648128	-64.5410600156296
1.17375	42507.6612733644	89548.9595694103	99125.765706475	-64.6069501620697
1.001604	47396.9732421405	100348.009524514	110978.358647298	-64.7174164249709
