EC-Lab ASCII FILE
freq/Hz	Re(Z)/Ohm	-Im(Z)/Ohm	|Z|/Ohm	Phase(Z)/deg
6999984	-12.6960241297231	32.6782211495205	35.0578830821183	-111.231963698636
5969734	-12.1459021597981	33.943277749801	36.0509229240462	-109.688701877451
5091109	-12.8978913908864	37.1669609898173	39.3413089709748	-109.13808943633
4341796	-12.7939606956517	42.7868960417697	44.6587494582091	-106.647499196676
3702781	-12.2394597254517	49.9627284739759	51.4400487065788	-103.764776642034
3157797	-11.3375291880601	58.2085985149559	59.3024494364731	-101.021741197845
2693047	-10.8005760501791	66.2726094865769	67.1469374668422	-99.2562290479291
2296687	-10.9595882338765	77.5116609462265	78.2826299820011	-98.0478610579982
1958656	-10.8897550179534	90.1832005567064	90.8382982392458	-96.8852151001188
1670375	-10.6967941493177	104.86614993755	105.41029744668	-95.824269150875
1424531	-9.90932662216532	122.7551342814	123.154446718538	-94.6151563158104
1214875	-9.51459633622065	142.700649563241	143.017491689695	-93.8145623886741
1036062	-8.09133388196044	166.468153623419	166.664680885842	-92.782722695423
883578.1	-7.95583702333611	194.070296381896	194.233301162542	-92.3475039542417
753531.2	-6.69261037221259	226.851014150187	226.949716136774	-91.6898629969905
642624.9	-4.74433421738469	264.255287615153	264.297873127525	-91.0285551098505
548046.8	-3.29385412399161	309.599683336063	309.617204620125	-90.6095510742713
467390.6	-2.56043228457879	361.602551110986	361.611615940995	-90.4056926907638
398593.7	0.434136619694085	420.949468123402	420.949691991786	-89.9409093273537
339937.5	3.49105852286294	490.493084718794	490.505508273422	-89.5922072132371
289906.2	-100.106717946376	502.238472268511	512.117992267996	-101.272524824774
247234.4	-106.148370239477	605.285848502859	614.522932771693	-99.9467577826208
210843.7	-111.492216840488	725.84716493785	734.360007941828	-98.7325456231796
179812.5	-113.389799128237	862.727792431853	870.14739577883	-97.4875656301398
153343.8	-116.082782919299	1019.2145727628	1025.80385933294	-96.4976664474923
130781.2	-107.21443792874	1209.27781875133	1214.02132544052	-95.066589762594
111531.3	-93.5662692401747	1444.05494135676	1447.08303852833	-93.7072473936461
95109.37	-106.440906015628	1668.66718051649	1672.05855932329	-93.649837022574
81109.37	-91.2632313428593	1969.64812790939	1971.76132561021	-92.6528904590464
69171.88	-84.0773918352176	2312.25229475859	2313.78038768466	-92.0824536782142
59000	-46.3370909377459	2702.60350385309	2703.00070755366	-90.9822601200039
50312.5	-68.3784957262607	3136.1783729121	3136.9237168601	-91.2490292694169
42906.25	-17.3704988735673	3730.21093618471	3730.25138062613	-90.2668077212241
36593.75	26.3932150526929	4328.59987051828	4328.68033479624	-89.6506489083404
31203.13	-700.097077019451	4744.98756941595	4796.35725849973	-98.3931254253441
26609.38	-689.179038627137	5648.55707919963	5690.44504623841	-96.956261866715
22703.13	-686.822729065462	6709.34855311243	6744.41127662843	-95.8448956314997
19359.37	-637.740939440957	7839.91524596944	7865.81111963815	-94.65050781177
16500	-610.648097256922	9298.05057204486	9318.08110819965	-93.7574957922791
14112.02	-347.449315017418	10890.9780414895	10896.518881125	-91.8272582762629
12011.13	-399.953066228228	12679.9648152739	12686.2709324596	-91.8066317956382
10236.38	-358.690518850664	14837.6300872037	14841.965014546	-91.3848202668629
8750.684	-203.257897804017	17324.7727944833	17325.9650857748	-90.6721753612791
7449.463	124.819004535683	20271.3663383544	20271.7506152691	-89.6472111615696
6363.206	-69.77843857954	23481.1260736222	23481.2297530566	-90.1702643327445
5414.761	230.835823628406	27524.614488626	27525.5824266255	-89.519498869035
4620.567	497.581767729067	31827.7146009076	31831.6038605095	-89.1043336506832
3941.215	774.514506306057	38141.9304548665	38149.7933355392	-88.8367050645775
3361.769	-6566.14648636026	40757.9296903545	41283.448406404	-99.1517788418768
2867.244	-6305.67417062546	48470.0502117324	48878.4952128638	-97.4122216800801
2442.658	-6278.20965923238	57835.3938345042	58175.1553200977	-96.1953739147812
2083.003	-5913.91448649133	68226.3538025025	68482.185550242	-94.9540608516303
1777.843	-5600.24589358992	80107.389694492	80302.9055373084	-93.9989975029268
1513.548	-4835.90456656772	94168.4881844129	94292.5773320194	-92.9397704270684
1292.065	-4208.31506888671	110029.055726989	110109.504675536	-92.1903416310373
1101.762	-4427.23506729876	130992.846689994	131067.640149235	-91.9357191868811
939.101	-2971.15307116413	151742.928313671	151772.013374601	-91.1217180473388
801.2801	-1371.5929728412	178783.171271137	178788.43250347	-90.439554496456
684.3433	1956.80374335457	207605.087887911	207614.309713558	-89.4599685541209
582.9476	2234.57242933728	240545.75787531	240556.136786716	-89.4677607801346
497.0677	16972.1534156049	279918.581812551	280432.641530034	-86.5302634602784
423.5089	-59452.1483295155	281419.743476056	287631.065705921	-101.928790683317
361.5036	-72186.8936692984	350452.679296558	357810.044637876	-101.639103222099
308.1262	-60312.3763190792	456323.100201815	460291.597267483	-97.5291623660663
262.7298	-8300.45745830863	529772.864831059	529837.886438224	-90.8976342536631
224.2111	-57814.2209795148	563472.388701658	566430.593256244	-95.8582455481263
191.2854	-114708.722446004	756397.094301384	765045.524967482	-98.6232825716481
163.1722	-66472.8744074406	811085.693720482	813805.0415118	-94.6852290541549
139.1537	-193241.465814817	801693.234257929	824654.052294171	-103.552152004261
118.6706	35502.8308100042	791654.76025274	792450.446669283	-87.4322136213734
101.1982	117735.846678308	703457.755785228	713242.275645132	-80.4986221593772
86.24196	738950.907584441	363165.823791696	823369.81933404	-26.1723339294312
73.61024	38789.7432053833	285245.128551781	287870.504811558	-82.2559983086025
62.69291	49641.346024155	-22417.7395840438	54468.5072601397	24.3036549989238
53.57697	111839.277250114	-773.540643326922	111841.95232986	0.396282133706109
45.65746	239663.525035068	-585402.104842458	632561.640938031	67.7358153854996
38.96512	487049.793570216	282248.691142025	562922.574665625	-30.0925856482297
33.18414	610261.925734568	35447.8671831636	611290.576803781	-3.32436529862209
28.30617	506879.208916198	665204.022518853	836315.08655935	-52.6929402546327
24.17237	675875.655297045	-179274.272829012	699247.571552151	14.8554720952355
20.61345	1189870.25329352	-404025.645122603	1256593.78543328	18.7551431700329
17.55618	888570.371960363	714971.77836653	1140500.74519326	-38.8212538823707
14.98558	5943080.25204769	-723217.65197852	5986922.97047595	6.93824960887056
12.76553	1770433.68497099	442158.373686023	1824812.17123862	-14.0225347005641
10.8809	2838952.2446977	2669865.17028277	3897156.63980332	-43.2419212098585
9.278505	2387978.37778754	267585.394983751	2402923.7766499	-6.393618847131
7.923394	2578206.12635522	196220.585577057	2585662.26491006	-4.35224298871986
6.75822	771580.967586557	-1534261.64128445	1717351.44145241	63.3021533752183
5.761429	890142.49383961	402931.921643067	977091.496646028	-24.3543617637929
4.919708	1445825.56100002	-57243.8174144574	1446958.32955659	2.26729770069359
4.191257	1159352.9351007	1108148.44409197	1603774.36139566	-43.7063722577474
3.564097	1863843.61013047	1798826.71572966	2590307.03899112	-43.9830363882822
3.051758	790678.177048659	1337777.10587905	1553968.97159343	-59.4152649888303
2.604164	1306858.80618865	9404186.20795352	9494556.23887583	-82.0885227450857
2.214424	6130621.52513649	2119083.66544086	6486527.2577555	-19.0679953149081
1.892567	-788580.462838923	-2721641.37748719	2833582.7028731	106.15865160587
1.607507	1698355.40486706	3545013.74918854	3930843.87417981	-64.4017166798538
1.376413	-875024.334536334	-3472340.11324374	3580895.6209407	104.143960110852
1.17375	4446341.51408964	-5880906.9869031	7372585.69624814	52.9083895743358
1.001604	10679111.2934375	9335205.78421731	14184127.9270637	-41.1585148864699
