EC-Lab ASCII FILE
freq/Hz	Re(Z)/Ohm	-Im(Z)/Ohm	|Z|/Ohm	Phase(Z)/deg
6999984	46.0137536352224	43.2942039272858	63.1795347980685	-43.2558039772345
5969734	43.0073619233311	36.6318134592517	56.4935654470295	-40.4229230211912
5091109	41.9496596360114	32.4067693939805	53.0091751127277	-37.6866484789849
4341796	42.3380751715727	28.8493897518491	51.2328009998267	-34.2707256706165
3702781	43.4581699173752	24.7787502877463	50.0259832326156	-29.6906958619911
3157797	44.0930130502667	21.5765734172893	49.0891262937391	-26.074455549289
2693047	44.2711936242201	18.8889912391664	48.1324482542337	-23.1062706099256
2296687	44.9734034522179	16.8913743101838	48.0408736823416	-20.5854683057342
1958656	45.404607489886	14.9809244914851	47.8122001159765	-18.2599357477013
1670375	45.9720894830554	13.3149515226894	47.8614766329834	-16.1526657321455
1424531	46.3554714762611	11.8249907968959	47.8399429674945	-14.310594961644
1214875	46.6895393984589	10.5398893032984	47.8644163838444	-12.7209579365213
1036062	46.9721589766228	9.4905079264856	47.9213257290302	-11.4225725473974
883578.1	47.1829419619963	8.70670821500769	47.9795454348037	-10.4552249835662
753531.2	47.3863978170242	8.00975928507225	48.0585782340476	-9.59406368790661
642624.9	47.6041532015145	7.50007786458501	48.1913536851592	-8.95340519970313
548046.8	47.8027728137651	7.10705023450175	48.328203481199	-8.45647317440821
467390.6	47.9841644232454	6.87116886710251	48.4736319765425	-8.14916153141184
398593.7	48.1845962662409	6.7805250435312	48.6593345331252	-8.01005310833203
339937.5	48.3696436852133	6.80377296065809	48.8458161640757	-8.00681016721159
289906.2	48.5692079080187	6.95988185853296	49.0653432913404	-8.15486819105135
247234.4	48.7951762174946	7.23498603692636	49.3286351427938	-8.43394447390367
210843.7	48.9963293955818	7.65770215473131	49.591135261566	-8.8829714979477
179812.5	49.3016428634114	8.24023692810085	49.9855328436399	-9.48866237191434
153343.8	49.5461491090888	8.95491869532681	50.3488973104673	-10.2449781206429
130781.2	49.9015200858496	9.82898795777352	50.8603058499701	-11.1427800673011
111531.3	50.2621008335106	10.855620525102	51.4210392464311	-12.1875514179883
95109.37	50.6722705553251	12.0636922020046	52.0884984692089	-13.3912841793566
81109.37	51.0992367169518	13.5207027366445	52.857746788411	-14.8206477204474
69171.88	51.6659393363565	15.2148321760904	53.859636144841	-16.408898187706
59000	52.278145508046	17.1494147259071	55.0191505132676	-18.1616505675245
50312.5	52.9926163772875	19.3755594796874	56.4236625509303	-20.0838036490515
42906.25	53.7586102997295	21.8984645141167	58.0476608437774	-22.1634284509922
36593.75	54.6412515119154	24.8075931083564	60.0090246764448	-24.4184528227563
31203.13	55.6441107759516	28.1285226220822	62.3496659890602	-26.8169458264211
26609.38	56.778869793651	31.9214513897944	65.1369258859779	-29.3449788579871
22703.13	58.0553876416823	36.226675538939	68.4309875336427	-31.9642439592717
19359.37	59.4905574822412	41.1509602039646	72.3362146870854	-34.6724836765623
16500	61.0937895312287	46.8135089021598	76.9672380628191	-37.4613729330954
14112.02	62.8480052064845	53.1030058657009	82.2788003704901	-40.1959171427604
12011.13	64.876076881127	60.5686986341584	88.7551272080741	-43.0334161386324
10236.38	67.115861948675	69.0017749446466	96.2589417697143	-45.7937835561239
8750.684	69.617077522086	78.5002178544376	104.922932125967	-48.4321281519864
7449.463	72.4909200843166	89.6916333085053	115.32355605087	-51.0540288591287
6363.206	75.6765375498824	102.218382678518	127.183081001172	-53.4859081135158
5414.761	79.4155738064958	117.072683288406	141.466768307481	-55.8492215085596
4620.567	83.7742998761863	133.436304444028	157.554373672788	-57.8784775907304
3941.215	88.408656773875	152.896722652558	176.61681230974	-59.9624396831802
3361.769	93.8483782561031	174.821798906955	198.419201375181	-61.7720695833214
2867.244	99.9886279504038	200.049409621337	223.64590765147	-63.4432155843795
2442.658	107.441247146406	229.130619955772	253.070074464942	-64.8777300160485
2083.003	115.973301023789	262.21701516979	286.718624429785	-66.1411592500915
1777.843	125.600984279591	299.912871621687	325.151253751802	-67.2764751211432
1513.548	137.310927681472	343.721859927899	370.133770214284	-68.2241473142896
1292.065	150.558344528039	392.799904327151	420.665639132129	-69.0284081713147
1101.762	165.724957823386	449.330405077005	478.918129300017	-69.7546894724226
939.101	183.754434554614	514.370501993929	546.207566351815	-70.3411690715185
801.2801	204.043352717962	587.744847611849	622.155684441332	-70.8548830306328
684.3433	227.956122885666	670.787509307358	708.463038276404	-71.2305141611205
582.9476	256.428158786804	767.057388030591	808.78454309606	-71.5151595937415
497.0677	288.050135909979	876.412503904731	922.535504898493	-71.8058783789909
423.5089	325.725410304874	1002.43177087925	1054.02395522416	-71.9991943390681
361.5036	371.277087021825	1138.7660919551	1197.76245037741	-71.942242334232
308.1262	420.967436389556	1301.57159716014	1367.95548357189	-72.0772311907649
262.7298	480.646827526986	1483.90214674293	1559.80349849589	-72.0524794140152
224.2111	548.96361300086	1688.57636139339	1775.57066225355	-71.9904280848025
191.2854	629.163951579549	1921.25467634346	2021.64952683169	-71.867643229306
163.1722	720.1224828898	2183.62914363987	2299.30698848952	-71.7483534163598
139.1537	831.060448984049	2483.68364605068	2619.03530398602	-71.4993459585959
118.6706	955.970474537366	2819.75422896895	2977.39709477514	-71.271996305488
101.1982	1101.74876805906	3200.33693118581	3384.67233584456	-71.0034509869102
86.24196	1271.14270961538	3629.9792462598	3846.10882795654	-70.7008146795221
73.61024	1466.04873403268	4108.52411094186	4362.25506598932	-70.3620247352612
62.69291	1693.56613160287	4656.96866998475	4955.35300814501	-70.0155571565456
53.57697	1946.33195081796	5253.94001174321	5602.86477703782	-69.6727565077188
45.65746	2253.09462365454	5935.51771414429	6348.76412525002	-69.213473539142
38.96512	2592.88903353961	6691.4846733404	7176.28320746885	-68.8191066887534
33.18414	2999.12543851845	7548.68636551619	8122.64853609329	-68.3318633797742
28.30617	3445.27804711579	8496.23386718567	9168.20215461302	-67.9271259932938
24.17237	3963.08387021807	9547.92308157924	10337.7400303033	-67.4579881506407
20.61345	4540.61823343337	10714.9379993215	11637.3154237174	-67.03445774848
17.55618	5222.49481030592	12037.5390477166	13121.6156920165	-66.546355002808
14.98558	5989.70359045186	13481.9548780803	14752.6152405621	-66.0455898898637
12.76553	6863.96710116138	15104.7838352104	16591.2187338441	-65.5618416234347
10.8809	7857.61045421671	16904.8667594546	18641.7961099549	-65.0703584267715
9.278505	8974.20936059195	18895.4617596549	20918.2912485297	-64.5950899357105
7.923394	10216.685714421	21074.102620627	23420.0441556367	-64.1359788544721
6.75822	11607.8004053118	23508.4501709047	26218.0903135119	-63.7211574107974
5.761429	13209.9390336409	26220.1224678778	29359.7907264854	-63.2606139350713
4.919708	15030.0428734771	29161.7734832238	32807.182467646	-62.7333208762124
4.191257	17022.0024981647	32439.0712762654	36633.8902426995	-62.3123114883502
3.564097	19346.2329445653	36197.9586920508	41043.5006135783	-61.877436521846
3.051758	21831.1145077303	40038.604232617	45603.5896563612	-61.3985011008961
2.604164	24672.8971400736	44527.586549911	50906.3632294084	-61.0090043917662
2.214424	27900.8974432272	49431.8776179152	56762.4048377976	-60.5582584943367
1.892567	31481.6299962209	54762.4399306334	63166.5881172569	-60.1064239770966
1.607507	35520.3520733236	60877.9210070237	70482.7402812227	-59.7377829317094
1.376413	39935.7267066428	67178.5668079757	78152.5566182023	-59.269733708867
1.17375	45056.059283416	74426.8625488792	87002.3352963612	-58.8103934445107
1.001604	50600.9879699834	82328.8758872823	96635.9342501636	-58.424277186372
