EC-Lab ASCII FILE
freq/Hz	Re(Z)/Ohm	-Im(Z)/Ohm	|Z|/Ohm	Phase(Z)/deg
6999984	20.2787001807556	88.4878381601948	90.7817337534694	-77.092445363104
5969734	16.5712088719652	87.3825223793948	88.9399245607041	-79.2619500543668
5091109	12.4168439629653	92.0282643636508	92.8621529784154	-82.3158151024141
4341796	10.5399981752916	101.07316069822	101.621234862913	-84.0466633057248
3702781	12.3348689562484	112.63695227505	113.310334965437	-83.7504441256422
3157797	13.5766859605726	126.041437843731	126.770542538032	-83.8520295427189
2693047	14.9339252076268	142.159870110624	142.942123924253	-84.0030612175154
2296687	16.464805764176	163.214305387829	164.042675277147	-84.2395781953454
1958656	19.8670493448435	187.679813429783	188.728408086087	-83.9573964812435
1670375	24.315498559383	217.118088524841	218.475417003543	-83.6099548742761
1424531	30.8749713849686	251.102972821561	252.994005497854	-82.9902437230626
1214875	39.1291621127691	290.273437581392	292.898890221465	-82.3227478917352
1036062	49.1893102321643	335.507970491867	339.094657145594	-81.6592054691942
883578.1	63.3424993238619	388.202525113416	393.336335373463	-80.7327900102472
753531.2	81.2215325931447	448.356709091934	455.654118761729	-79.7320046294922
642624.9	162.080737914858	578.014576974934	600.3091010459	-74.3360027065091
548046.8	203.497420415021	654.580472790746	685.482892182237	-72.7304603729935
467390.6	251.744359975317	737.401726623035	779.189661896264	-71.1504146613612
398593.7	311.521872264191	828.698664780086	885.317657062868	-69.3979086533946
339937.5	381.942835262044	928.558316440504	1004.0422682531	-67.6412200535235
289906.2	465.215019409185	1035.77179942879	1135.45067474366	-65.8128544334815
247234.4	565.063819397257	1152.1512677932	1283.25744255363	-63.8747100998925
210843.7	683.467776685587	1273.70922956312	1445.49763169706	-61.7821536405157
179812.5	825.654329835864	1396.0364824066	1621.91952099569	-59.3987638043305
153343.8	989.779515334068	1520.12354490849	1813.95674721315	-56.9311319835272
130781.2	1180.50092691709	1636.62463782443	2017.95010929063	-54.1970060330527
111531.3	1396.7654870554	1740.16032259485	2231.39233980995	-51.247213038913
95109.37	1632.51589239857	1826.78747900114	2449.95114897608	-48.2143067870116
81109.37	1879.92076677488	1893.50340385596	2668.23110501425	-45.2062382555291
69171.88	2153.15795095772	1921.15828994728	2885.64348747478	-41.7409837809999
59000	2420.69274217362	1929.99088005256	3095.90344634617	-38.5649584014528
50312.5	2688.67747167643	1920.46569328214	3304.11486267866	-35.5374207640917
42906.25	2953.78675261668	1838.45463050152	3479.19122905687	-31.8983824607214
36593.75	3179.96494843637	1766.41122933135	3637.63463041463	-29.0513551767164
31203.13	3405.40153581984	1671.30828639129	3793.41943480078	-26.1409530309919
26609.38	3588.11487072234	1575.85709618191	3918.91488974763	-23.7105061710926
22703.13	3750.56414944099	1472.24711769467	4029.17398664196	-21.4320019888841
19359.37	3899.58554974733	1357.54905551693	4129.12907256882	-19.1943611566242
16500	4032.4941272629	1254.41111113483	4223.09792950013	-17.2796507968561
14112.02	4132.84745608955	1155.89775885391	4291.44820826599	-15.6255388310472
12011.13	4283.01416307047	934.324608183624	4383.73959018094	-12.306084926645
10236.38	4349.02663471364	869.60107134187	4435.11428181141	-11.3073450052186
8750.684	4407.3086568575	811.666631049177	4481.42525506895	-10.434884981839
7449.463	4457.84620801602	758.968843808132	4521.99364442214	-9.66222274721537
6363.206	4500.52612422736	722.002783490513	4558.0723353432	-9.11409121334757
5414.761	4540.46981652613	692.703042433372	4593.00595033158	-8.67427162107129
4620.567	4580.06823097276	672.334348387706	4629.1531057406	-8.35112915419546
3941.215	4599.61582069942	666.330863914142	4647.6297742218	-8.2429031562732
3361.769	4619.22173214057	642.79067652801	4663.73125989385	-7.92215565298101
2867.244	4640.03446320872	668.535460216502	4687.94832323603	-8.19874529900247
2442.658	4679.54170986755	707.110494507644	4732.66477429291	-8.59277410429188
2083.003	4698.38422065824	741.027301036456	4756.46252437794	-8.96283608501098
1777.843	4722.0644626014	781.446712109313	4786.28788862825	-9.39662243170453
1513.548	4757.39284873038	841.96935870109	4831.3247787892	-10.0363527282799
1292.065	4791.92276100679	915.728464827961	4878.63529778063	-10.8186922200633
1101.762	4829.07201502659	1002.81326491854	4932.09600176331	-11.7314025285508
939.101	4879.90166181688	1100.71628833392	5002.5010321245	-12.710982741308
801.2801	4919.40554962587	1229.04301484647	5070.61117559143	-14.0273819235109
684.3433	4985.053947411	1364.05073514623	5168.30700197376	-15.303146938883
582.9476	5034.20330209229	1530.99799345101	5261.85877259623	-16.9155246588945
497.0677	5097.10043319959	1721.68267524026	5380.02082341193	-18.6637793200213
423.5089	5172.68971220097	1938.00314380135	5523.81888226739	-20.5389956989711
361.5036	5250.3324426075	2188.40497004398	5688.15497949995	-22.6269914142987
308.1262	5339.42367317945	2478.78178921918	5886.74819575916	-24.9026823737331
262.7298	5435.96057269381	2810.23501802834	6119.40260192401	-27.3376613297919
224.2111	5538.15836054922	3189.75071231488	6391.06467133877	-29.940167415569
191.2854	5647.96772683024	3626.05154933423	6711.76499005628	-32.7008671485817
163.1722	5771.14085831719	4128.25159899393	7095.66967037883	-35.5771553871841
139.1537	5915.65425255205	4715.18181299777	7564.9127401023	-38.5572463895303
118.6706	6073.15881313477	5381.88734857684	8114.67617359608	-41.5465906602679
101.1982	6251.95178873311	6149.54947929658	8769.48458958449	-44.5269051161543
86.24196	6445.89705309364	7044.6513733656	9548.64921291714	-47.5413048312729
73.61024	6678.72305383531	8061.14566251966	10468.400595229	-50.3579825408699
62.69291	6946.12835759403	9233.27888044555	11554.3125301445	-53.0461228987072
53.57697	7236.35127684576	10570.2210694941	12809.9318210474	-55.604539882149
45.65746	7603.17928961484	12129.8911943764	14315.8162777202	-57.9199597350978
38.96512	7973.73806782307	13908.2791910326	16031.8660432889	-60.1739757011425
33.18414	8460.80353887507	15967.841838568	18070.8928806787	-62.0824408209438
28.30617	8970.51150634944	18324.7085326319	20402.5738447741	-63.9168224978346
24.17237	9565.68200546178	20984.5423762926	23061.9446485337	-65.4944044909478
20.61345	10272.3747270189	24079.8911785531	26179.4354733492	-66.8971197649871
17.55618	11092.7992356554	27646.6592409063	29789.0577572596	-68.1376306872248
14.98558	12003.3003550146	31692.643224001	33889.5685121028	-69.2562734864383
12.76553	13128.0234370111	36390.124690609	38685.7360581492	-70.1626927183352
10.8809	14390.9121105811	41745.3130848806	44156.1945363181	-70.9793294637352
9.278505	15928.218687651	47928.2744774967	50505.7189331258	-71.6165731234797
7.923394	17622.3107366192	54912.2151626556	57670.5922439483	-72.2076363849366
6.75822	19635.0574705894	62766.377563314	65765.9002393629	-72.6288749559168
5.761429	22033.2048430714	71942.7185938294	75241.0584343925	-72.9722485625387
4.919708	24663.8010700727	82376.5011246417	85989.4820356665	-73.3321233536604
4.191257	28118.7168571147	94187.2565311667	98294.972051262	-73.3775016110347
3.564097	32025.9242739556	108090.319961051	112734.98611737	-73.4960465788473
3.051758	36267.9531692546	123360.763851163	128581.656876203	-73.6167114905019
2.604164	41409.9328379693	140791.751012919	146755.237354341	-73.6102370674169
2.214424	47513.1370663449	161152.939397466	168011.21412075	-73.5727656276153
1.892567	54261.6541800674	183777.998020236	191621.18794821	-73.5504202736052
1.607507	62491.9275991817	210567.067434706	219644.55582398	-73.4702061822869
1.376413	71847.8699625017	239545.52689255	250088.336138209	-73.3042203090375
1.17375	82480.3780148906	272610.728999532	284815.066882241	-73.1664239593086
1.001604	95132.9705442844	310259.815900316	324517.234437676	-72.9532263637404
