EC-Lab ASCII FILE
freq/Hz	Re(Z)/Ohm	-Im(Z)/Ohm	|Z|/Ohm	Phase(Z)/deg
6999984	-15.6608883460364	30.3812578964067	34.1801734219561	-117.270136718401
5969734	-15.8900531606955	32.3754846300382	36.0647444809966	-116.142040115568
5091109	-16.6088667649321	35.3799337737943	39.0844491972618	-115.147385383221
4341796	-17.0175604747759	41.9497589872341	45.2700744819322	-112.080686080563
3702781	-15.8781950011153	49.2994102528123	51.7933289890556	-107.852544031395
3157797	-14.1220683539143	57.1526317416612	58.8715222292626	-103.87942549684
2693047	-15.2969623492157	66.002755151956	67.7522010326039	-103.0486366939
2296687	-14.4680155121744	77.3362002439507	78.6778961401038	-100.59637733074
1958656	-13.8249267455026	89.7728129900977	90.8310880242749	-98.7547190898511
1670375	-14.0415862376787	103.854342856019	104.799287564972	-97.6999610847948
1424531	-12.898590787548	122.303143499482	122.981431745445	-96.0203926041483
1214875	-12.2983759435199	142.021523871033	142.553019236699	-94.9491907103717
1036062	-12.0540022438375	166.642651030344	167.07804198193	-94.1372522188918
883578.1	-10.8303018486018	193.838867537939	194.141190906315	-93.1979452095543
753531.2	-10.0492952571802	226.464189734022	226.687047638485	-92.5408199143188
642624.9	-8.7378498696291	264.987154345458	265.131178831249	-91.8886220561214
548046.8	-6.90645004889665	309.603926404964	309.68094920038	-91.2779063422914
467390.6	-3.86406100437939	360.854618198808	360.87530594771	-90.6135044830578
398593.7	-4.82086428740255	422.320886561727	422.348401155681	-90.6540125991735
339937.5	0.36153838208111	493.011191994044	493.011324556941	-89.9579834696486
289906.2	-91.5669203545857	509.205290059644	517.372717030913	-100.194160958558
247234.4	-100.146335837371	609.39024679921	617.564378405728	-99.332489730461
210843.7	-101.04158528138	730.659387267017	737.612731829913	-97.8733954093809
179812.5	-104.584667733385	868.779255576966	875.051625703175	-96.8643021405965
153343.8	-113.020092346356	1030.50696412066	1036.6861359038	-96.2588576384817
130781.2	-98.1941000883596	1213.19056671706	1217.15793242432	-94.6273603168467
111531.3	-126.142839531473	1417.43877618932	1423.04065304198	-95.0855546656128
95109.37	-101.239891581781	1693.20769818707	1696.23165424049	-93.4217425243324
81109.37	-76.9619693629352	1969.01363288453	1970.51714816526	-92.2383554942693
69171.88	-69.6727386539777	2301.25926996799	2302.31373147214	-91.7341526345541
59000	-54.1601908806322	2698.91874115557	2699.46211265078	-91.1496210919617
50312.5	-33.6812972132245	3157.20391134096	3157.38356358055	-90.6112126518772
42906.25	20.0265422341799	3705.61367285429	3705.66778797541	-89.690354883543
36593.75	24.773719710512	4342.16159729965	4342.23226857479	-89.6731088539095
31203.13	-615.17886366454	4710.59971605107	4750.59940630233	-97.4404112036005
26609.38	-626.012042325413	5656.76130618793	5691.29506811247	-96.3150075024046
22703.13	-537.525926172365	6683.53379277247	6705.11432269719	-94.598139469295
19359.37	-536.949848168711	7878.25769069416	7896.53464378079	-93.8990163676764
16500	-556.060529558143	9146.57402296633	9163.46111849311	-93.478981008066
14112.02	-451.483164436737	10961.0045797203	10970.2989222911	-92.3586766312467
12011.13	-294.868661250469	12817.183082639	12820.5744684579	-91.3178987963916
10236.38	-171.655412931871	14915.946304816	14916.9339929136	-90.6593411066682
8750.684	-31.1624681999409	17296.3856006741	17296.4136729737	-90.1032282707142
7449.463	-51.6205581297133	20405.9749356693	20406.0402272755	-90.1449395981998
6363.206	640.662792377762	23717.8037939303	23726.45497374	-88.4527087502809
5414.761	126.717301537265	28201.0311097788	28201.315801381	-89.7425513386794
4620.567	-158.425544169878	32379.9022299571	32380.2897929377	-90.2803295251892
3941.215	-5650.23669046634	34538.7946593348	34997.9072399763	-99.2907784029755
3361.769	-5610.9862666707	41621.5812737016	41998.0856064668	-97.6777303223437
2867.244	-5686.10423135864	49353.2210087981	49679.696106892	-96.5722082566388
2442.658	-5279.98442409611	58280.3397442078	58519.0245665372	-95.1766549550386
2083.003	-5226.14039202633	68418.6680591929	68617.9763793075	-94.3680396187705
1777.843	-4778.60064802998	80307.5509810191	80449.5976914884	-93.4052986356122
1513.548	-3447.42456189478	94924.2768365423	94986.8573490589	-92.0799326639156
1292.065	-3549.06038897007	110353.766606125	110410.82208644	-91.8420405873773
1101.762	-1884.61950626774	128120.569996454	128134.430372557	-90.8427448968896
939.101	686.501865812363	150768.251953729	150769.8148901	-89.7391135919086
801.2801	78.8912472534848	172883.211461249	172883.229461344	-89.9738544005737
684.3433	721.517339748573	210702.588505139	210703.823861926	-89.8038005269789
582.9476	5536.99111861854	246174.726099123	246236.987555944	-88.7115137863415
497.0677	-8677.65108372896	268900.449844996	269040.431078996	-91.8483431231237
423.5089	-257.360443174588	295927.684998321	295927.796908069	-90.049828604208
361.5036	-49300.8816537013	355967.762370794	359365.586525898	-97.8851983399606
308.1262	-15421.9489444877	398861.487010384	399159.519903235	-92.2142339710942
262.7298	-43634.1180363545	613803.757119906	615352.735031968	-94.0662054522956
224.2111	-83040.1348723407	626876.831483762	632352.928237655	-97.5458354379046
191.2854	1.69546563676209	728669.999766494	728669.999768467	-89.9998666844726
163.1722	-109962.51021101	809311.68215918	816747.912474362	-97.7374898203759
139.1537	280700.730358563	819565.29029554	866302.582866427	-71.0936918396433
118.6706	-417359.087024422	904656.279441009	996288.909631091	-114.766024674782
101.1982	-396449.304816444	574506.818612955	698018.721756244	-124.608350975319
86.24196	595471.999241119	23237.0620352539	595925.215888911	-2.23471530975788
73.61024	135080.784270739	-212669.105776483	251942.387920268	57.5775601567277
62.69291	48930.9627977291	-3321.92037807717	49043.5956605043	3.88384769936923
53.57697	75242.8726062309	76196.0168170025	107085.586596957	-45.3606102742712
45.65746	419881.686098617	34263.2258899832	421277.342103044	-4.66511919782254
38.96512	332272.191633617	89262.132854969	344053.103015835	-15.0370080430447
33.18414	481184.554562076	-111945.413255425	494034.767094414	13.0966406332106
28.30617	-436824.685239468	491529.390675423	657584.175244746	-131.627656923467
24.17237	535843.675215666	-46229.8203023589	537834.212888898	4.93097333363663
20.61345	415025.595088299	-837027.2440547	934270.224222202	63.6262755999238
17.55618	721380.18890996	-374790.871532874	812931.469643131	27.4539946805153
14.98558	855034.529011699	626212.669971701	1059823.73715413	-36.2184097514945
12.76553	1873740.87190452	-592000.938665774	1965036.88678525	17.5337232015289
10.8809	1046831.32098452	1656048.14237796	1959171.06564682	-57.7019492940506
9.278505	2720419.94365643	-1470938.55804908	3092627.5093194	28.400211560862
7.923394	2004919.07224953	-4935.84605364442	2004925.14794098	0.141054359639415
6.75822	346443.625583333	1057911.34824149	1113193.42723781	-71.8674713419675
5.761429	365653.873484919	-829284.209453562	906319.510572041	66.2060180725003
4.919708	1210223.10965006	129423.568557722	1217123.83726114	-6.10412046198525
4.191257	1187640.18635428	54754.4922012064	1188901.70605472	-2.63967271203163
3.564097	1535026.91837642	-718213.171775553	1694738.2689525	25.0740998868804
3.051758	638168.482957916	-1081043.11370862	1255353.82515753	59.4455171604132
2.604164	-128108.405151728	10639123.90537	10639895.1704087	-90.6898797571487
2.214424	2573558.23442661	5792316.39825617	6338306.6542644	-66.0441574953758
1.892567	921041.973548115	1774697.21749109	1999467.0616962	-62.5713457075289
1.607507	923743.778243706	2236715.10247696	2419958.06110199	-67.5598027508354
1.376413	-929528.78148594	1743805.62120392	1976077.37706627	-118.059672560092
1.17375	5869256.97188156	3275290.99470051	6721287.7115882	-29.1633455073527
1.001604	6196189.97393496	-4741834.00359329	7802420.1316467	37.4261875948964
