EC-Lab ASCII FILE
freq/Hz	Re(Z)/Ohm	-Im(Z)/Ohm	|Z|/Ohm	Phase(Z)/deg
6999984	-12.9239666072183	31.383154323742	33.9401132610411	-112.382462951258
5969734	-14.0635590061733	32.700398998104	35.5963451291748	-113.271235083065
5091109	-14.6846502379004	36.1085111173174	38.9802966602219	-112.130648000298
4341796	-15.01231711289	42.0654647808251	44.6640010783272	-109.640458831101
3702781	-13.8390431932942	49.256089386675	51.1632823240845	-105.693295284665
3157797	-12.3673769838679	56.9810644231503	58.3077500531131	-102.245750935583
2693047	-11.7845222494767	65.5508741979215	66.6017422652001	-100.19158264848
2296687	-12.6608808058752	77.0578065170842	78.0909946665105	-99.3305416739576
1958656	-12.4267204695392	89.34737316937	90.207408087666	-97.9180861174011
1670375	-12.245705138236	104.651269755572	105.365295784647	-96.6740801526131
1424531	-11.699346850908	121.817015970169	122.377531012087	-95.4858802770708
1214875	-11.5192817311803	142.590545205525	143.055085311957	-94.6186513583607
1036062	-10.648153566576	165.984587298805	166.32578391558	-93.6705780947578
883578.1	-9.9232785110062	193.596642921407	193.850797281945	-92.9342700322351
753531.2	-8.57830978037797	226.287984880917	226.450523294061	-92.1709756575619
642624.9	-7.52578130461324	264.207369634821	264.31453148398	-91.6315931892257
548046.8	-5.4690569079335	308.924788693157	308.97319568625	-91.0142311649722
467390.6	-3.40144709690812	360.553743949866	360.569788139022	-90.5405096599581
398593.7	-1.79837222655875	420.996925977989	421.000767013056	-90.2447488461115
339937.5	1.78556287077716	492.115274120909	492.118513427267	-89.7921121879582
289906.2	-101.547061252169	501.592216935915	511.768070261947	-101.44481323377
247234.4	-108.370973035327	603.640518729762	613.291238849015	-100.177831661397
210843.7	-115.002944091678	723.603434172805	732.685203273842	-99.0305409724271
179812.5	-115.491367877463	859.458863498274	867.183829473285	-97.6533796160507
153343.8	-117.275554181528	1029.60476849547	1036.26229059886	-96.4981821095079
130781.2	-112.074155370422	1208.11978391183	1213.30706277561	-95.3000127683303
111531.3	-111.870244161758	1395.18912139345	1399.66697324165	-94.5843311864324
95109.37	-86.500594991025	1678.57315182609	1680.80045780728	-92.9499690758217
81109.37	-89.5317284825128	1971.0279324098	1973.06032364566	-92.600808595469
69171.88	-83.2949637612336	2284.31801675938	2285.83613863276	-92.0882978477245
59000	-69.8125496685486	2693.5439202804	2694.44848578902	-91.4846868105542
50312.5	-69.5097905537805	3139.37397570427	3140.1433996415	-91.2683952428923
42906.25	14.0964175015438	3718.0519439981	3718.0786660928	-89.7827729758976
36593.75	16.9787241908823	4303.4802891504	4303.51378250159	-89.7739494258526
31203.13	-594.449802812774	4671.66376913033	4709.33253655645	-97.2516789058844
26609.38	-696.54610120681	5677.99986286482	5720.56456250599	-96.993790602296
22703.13	-694.46923194246	6674.33140106537	6710.3641604135	-95.940293104389
19359.37	-649.291039207423	7869.22596960648	7895.96708543824	-94.7167990286666
16500	-586.368734456399	9219.45679244198	9238.08485782917	-93.6391800075846
14112.02	-688.131451674226	10854.7683346508	10876.5583018582	-93.6273770770049
12011.13	-387.663948828999	12672.8111516046	12678.7391258538	-91.7521435093212
10236.38	-329.931206492542	14813.4855051274	14817.1592220519	-91.2759009900085
8750.684	-211.288851461113	17402.5333480069	17403.8159582099	-90.6956093351
7449.463	56.0250410032356	20296.4731618987	20296.5504856587	-89.8418449245756
6363.206	149.607596696597	23775.8824482468	23776.3531397445	-89.6394762313353
5414.761	354.21459265033	28036.6172641785	28038.8547482895	-89.2761636934429
4620.567	174.292419422613	32412.1531276401	32412.6217424179	-89.6919018695898
3941.215	608.485705669475	37524.3689059326	37529.302107054	-89.0709875070065
3361.769	-6761.90519818426	40967.4570804155	41521.7521492641	-99.3724821845612
2867.244	-6596.26968111852	48728.5918961134	49173.0255514546	-97.7091284095169
2442.658	-6431.78502285427	57968.2172034115	58323.9407475362	-96.3312795037863
2083.003	-5886.035050479	68151.068625803	68404.7773437965	-94.9362418642017
1777.843	-5592.46490597803	79817.1068942049	80012.7878322304	-94.0079356445308
1513.548	-5665.0022694987	93727.6314267853	93898.6748766389	-93.4588128936774
1292.065	-3868.71589680367	109852.955435655	109921.057039305	-92.0169646022307
1101.762	-4081.84354839067	129784.068044632	129848.241285615	-91.8014178797025
939.101	-2771.98352909836	151485.145255598	151510.505001453	-91.0483221537825
801.2801	-2740.24728568311	175691.365193171	175712.733626868	-90.8935662533177
684.3433	-1116.41106289223	206104.393225919	206107.416850257	-90.310352513654
582.9476	-348.21460028999	243732.689975333	243732.93871781	-90.0818569449559
497.0677	-57950.7495919284	239302.105335694	246218.981795397	-103.613000122104
423.5089	-73583.6505182404	303039.184531514	311844.995125968	-103.648351618063
361.5036	-59451.054147842	368705.480599558	373467.748625555	-99.1596856594496
308.1262	-32334.1415999015	406299.464509885	407584.04234467	-94.5501256060631
262.7298	-59851.9165346418	520719.16520688	524147.594601578	-96.5568529877293
224.2111	-49585.4272605702	599593.339695815	601640.164553693	-94.7275133394356
191.2854	-53101.1705515366	678899.025023215	680972.554873848	-94.4723752332638
163.1722	13101.8640447368	784172.683013451	784282.12757015	-89.0427979834861
139.1537	-117977.978087883	1049026.36255911	1055639.66989579	-96.4167648068198
118.6706	148774.388824339	977614.363736441	988869.891822915	-81.3470580624069
101.1982	142784.036087817	875538.27267382	887104.58677553	-80.7376601515058
86.24196	288906.449247833	489288.160152653	568216.367313156	-59.4397302866824
73.61024	239932.625284738	-304975.496677505	388043.448919986	51.8068954019306
62.69291	56890.1694188422	20122.5507148955	60344.0835855356	-19.4791326399602
53.57697	195818.71401039	-12880.7487658851	196241.897782948	3.76343431618674
45.65746	281783.948720447	-433214.203717076	516794.678821975	56.9580323520086
38.96512	208027.967679201	401081.075569123	451820.389664325	-62.5856696524072
33.18414	866137.00087546	-70817.1426000924	869027.256173004	4.67422349718717
28.30617	136460.755656946	711256.33269586	724228.630084746	-79.1392797904293
24.17237	606632.902562057	328855.126512309	690035.631474414	-28.4620795435802
20.61345	1175826.82691552	-388826.124086641	1238448.41703902	18.2981806805263
17.55618	1064694.61572936	-378101.58771399	1129838.67671227	19.5513138629907
14.98558	1476200.6091194	483454.719947485	1553350.15518202	-18.133587094719
12.76553	1647064.96567194	-967676.325403904	1910293.29473018	30.4348992829306
10.8809	1269778.74525016	-2018906.3251163	2385020.08618035	57.8324117840018
9.278505	3487553.94702978	1561405.5382938	3821128.07799707	-24.1184406620699
7.923394	854402.962993745	2277911.40519839	2432875.82772023	-69.4398491639982
6.75822	1397171.73919022	828289.738517791	1624239.13255582	-30.6608681077522
5.761429	788242.91280398	-610957.061916333	997294.049461412	37.7788087403317
4.919708	1739810.28600307	595404.641159543	1838870.99003611	-18.8921717563163
4.191257	325821.333695876	1677637.51673449	1708984.25359815	-79.0091610751551
3.564097	2124624.79416177	-1769610.48443725	2765059.09206244	39.7910823534548
3.051758	93469.8313156609	1831500.51265547	1833884.05773741	-87.0784694786596
2.604164	19053457.596763	1539889.36199191	19115582.7962116	-4.62056886446214
2.214424	4922273.90714394	31023.5146185813	4922371.67180714	-0.361112150776035
1.892567	2012834.72969156	-3164024.07733796	3750006.93479716	57.5369947448324
1.607507	2006920.76738595	-2508429.91287271	3212468.14682412	51.3377289113877
1.376413	2074803.16648907	4945723.08401793	5363299.82412515	-67.2412382167427
1.17375	6900540.9203949	2588296.56402481	7369989.423153	-20.5603670247295
1.001604	3423533.27511116	9527696.075457	10124108.4838158	-70.2354010625373
