EC-Lab ASCII FILE
freq/Hz	Re(Z)/Ohm	-Im(Z)/Ohm	|Z|/Ohm	Phase(Z)/deg
6999984	-11.9031310016444	34.5944734491264	36.5849985768022	-108.987115057313
5969734	-8.98521413260597	39.8302632705102	40.8311638972848	-102.712425059717
5091109	-7.41849959739936	44.4912443897646	45.1054870678322	-99.4664472629626
4341796	-5.89761631475706	49.4596180757436	49.8099959686257	-96.7999016844238
3702781	-13.3797771745488	49.51914410191	51.294873718787	-105.119936419077
3157797	-12.2918960003072	57.5480080929098	58.8461038875471	-102.056846750529
2693047	-11.55670148687	66.0690300105504	67.0721557413479	-99.9217195269736
2296687	-12.1592391806677	77.4368261168327	78.3856436887601	-98.9237989351942
1958656	-11.6378105235081	90.0161091618347	90.7652937108475	-97.3666715353672
1670375	-11.5417703063739	105.077796561511	105.709771506836	-96.2682541463219
1424531	-11.0713270094704	122.421653457399	122.921257384531	-95.1675449260961
1214875	-9.88520753373887	142.978919547442	143.320231519974	-93.9549943442607
1036062	-9.17494450479164	166.44674991598	166.699430605682	-93.1550879664786
883578.1	-8.54642051688156	194.205719250382	194.393679663742	-92.5197923632375
753531.2	-7.74073006357474	227.115029449865	227.246904277991	-91.9520484840424
642624.9	-6.22478139504052	265.019744218239	265.092837943458	-91.3455153621169
548046.8	-4.74672034708104	309.07392129994	309.110368932805	-90.8798725620141
467390.6	-3.35735861291718	360.34981569311	360.365455512753	-90.5338060537551
398593.7	-0.00323903744855324	422.123142130655	422.123142143082	-90.0004396422678
339937.5	3.26534919933138	495.318572348794	495.329335512284	-89.6222874974814
289906.2	-104.462577713528	501.131022655036	511.903049424241	-101.774894219545
247234.4	-111.309895123361	603.883027896519	614.055864017144	-100.443741374117
210843.7	-116.796112270916	723.719016881459	733.082906114626	-99.1675351812429
179812.5	-115.746039038746	860.304678726452	868.05603839371	-97.6626042365523
153343.8	-113.559629099153	1023.23507287057	1029.51726732172	-96.3328264898331
130781.2	-114.272557966326	1208.76264931087	1214.15211562357	-95.4005095655963
111531.3	-115.949810433135	1459.3836119924	1463.98254275503	-94.5426771547264
95109.37	-97.0688007132935	1656.10652074712	1658.94881178806	-93.3544199834046
81109.37	-92.6228074376993	1967.54152732481	1969.72044874527	-92.6952320401066
69171.88	-84.3352056113449	2299.33362236009	2300.87973041206	-92.1005591445403
59000	-65.7563565341748	2706.75243187873	2707.55103846743	-91.3916384646249
50312.5	-72.4843344013276	3182.26235262911	3183.08775557542	-91.3048353586626
42906.25	-0.687565945168153	3723.14942477498	3723.14948826249	-90.0105809952416
36593.75	23.0262754133451	4340.17738526378	4340.23846636502	-89.6960271657148
31203.13	-804.017635482828	4762.1499263415	4829.54617734645	-99.5831587658308
26609.38	-710.552941553766	5657.77410982781	5702.21828419331	-97.1582294894986
22703.13	-727.715476689093	6633.83586465901	6673.63080296243	-96.2601754414105
19359.37	-676.153958445242	7887.12997178191	7916.05983853721	-94.8999163399905
16500	-565.044975964194	9215.54418468337	9232.85061314834	-93.5086602218538
14112.02	-432.489850729228	10819.5649225187	10828.2054184237	-92.2890622591383
12011.13	-529.679218152152	12653.2562879266	12664.3379125044	-92.3970648035205
10236.38	-416.712295763684	14950.9896065904	14956.7957582437	-91.5965281721637
8750.684	-256.922383425464	17389.2902263008	17391.1881044863	-90.8464691225579
7449.463	-101.580560549121	20366.1535218158	20366.4068476609	-90.2857726242429
6363.206	101.533345094094	23715.247538165	23715.4648872125	-89.7546980439362
5414.761	372.953376245725	27790.5885098645	27793.0909390349	-89.2311292107456
4620.567	180.679035881476	32670.2563130486	32670.7559213787	-89.6831356153243
3941.215	344.414621155067	37758.2206230925	37759.7913931392	-89.4773864710928
3361.769	-6866.99200823066	40860.7026462995	41433.7133261117	-99.5399004522984
2867.244	-6838.02082875653	48707.5868304563	49185.2370503686	-97.9914820109574
2442.658	-6602.18340993028	57975.3449215282	58350.0595076691	-96.4968070107996
2083.003	-6135.3700954543	67978.5129087106	68254.8238843815	-95.1572316857837
1777.843	-6216.80840345279	80686.8461082538	80925.9899020226	-94.4058548332492
1513.548	-5154.36849474332	93553.6554123362	93695.5386109165	-93.1535409804317
1292.065	-5155.26891601915	110193.555317389	110314.080837774	-92.6785589682682
1101.762	-4763.65763036359	130044.275942189	130131.495570241	-92.0978662429032
939.101	-3092.20787736103	150548.879863372	150580.632810706	-91.1766646998918
801.2801	475.267692422422	178515.488946104	178516.121605433	-89.8474599109678
684.3433	964.994346202497	205520.786282435	205523.051768502	-89.7309775912177
582.9476	584.057219686776	241312.90057703	241313.607382044	-89.86132548961
497.0677	5668.0602746876	263979.094400722	264039.938622745	-88.7699554814448
423.5089	-5150.20472974655	320225.431400327	320266.844247549	-90.921412002161
361.5036	-67515.7829752586	346077.462297859	352601.745403066	-101.039101819038
308.1262	-49812.2050959636	416472.039685552	419440.36002317	-96.820470869269
262.7298	-69044.5133085061	479796.163500166	484738.592777062	-98.1888659713799
224.2111	-75600.942400252	572384.055715939	577355.185072095	-97.5241203374692
191.2854	-28587.3217469248	662580.750296026	663197.169496001	-92.4705179928563
163.1722	-96761.4050276634	704280.274354579	710896.247245608	-97.8229178276299
139.1537	74693.2240575991	845635.070079126	848927.411188876	-84.9522803967086
118.6706	-25909.9962019191	1001994.00392183	1002328.94390938	-91.4812490637834
101.1982	-562481.840321461	920519.433656562	1078768.67234399	-121.426945522075
86.24196	800049.86860339	152378.425186707	814431.689409666	-10.7834667748187
73.61024	331289.46924611	354958.293953144	485538.981833071	-46.9753600395545
62.69291	62911.6194868795	-26947.179453828	68439.9177890997	23.1870920365068
53.57697	203572.45557875	155525.434295902	256183.343297902	-37.3791305711823
45.65746	416196.195701702	184112.09970006	455100.580720938	-23.8630905615139
38.96512	478379.65191796	-272091.498881751	550346.141199216	29.6302373554489
33.18414	513463.61344539	-359076.029592059	626562.42894064	34.9659125521826
28.30617	486334.505972286	632049.513598541	797500.99645045	-52.4232891275103
24.17237	814002.21455414	-425141.192774323	918337.976505719	27.5773926008526
20.61345	843602.196716995	-1149254.32361529	1425640.26551377	53.7197264601308
17.55618	-966528.664241341	-1100126.14275328	1464395.84428847	131.30130016336
14.98558	1881434.69062716	85772.4509976529	1883388.80968468	-2.61024158896914
12.76553	2305968.2512859	-302533.699929973	2325729.17931815	7.47428600368315
10.8809	1649117.30255772	1403497.97894005	2165500.97078806	-40.3997812558459
9.278505	1103447.59883657	3510399.63504587	3679742.13785537	-72.5501505548658
7.923394	3137618.06634286	247020.328497938	3147326.82969729	-4.50153229886135
6.75822	1472214.35781205	-647774.186374307	1608423.61083169	23.7494902194733
5.761429	1112725.28236008	-528162.923421685	1231711.66580522	25.3916846631434
4.919708	-529452.164434232	1425178.33557078	1520346.30351258	-110.379975457276
4.191257	1946282.73539048	222719.580526311	1958984.55778213	-6.52814933742772
3.564097	3284902.95435553	1037927.46603578	3444979.07748148	-17.5349206833207
3.051758	1191405.88671011	-2793442.14089502	3036900.8843582	66.9017034273482
2.604164	19158488.2790882	9379063.71215403	21331069.1072108	-26.0841213472929
2.214424	7984966.83309694	-5174646.72511108	9515075.62005479	32.9451992707373
1.892567	-1469197.63042521	3131711.89652359	3459213.93962189	-115.132946846784
1.607507	2621691.1752263	1874608.24441225	3222952.16971612	-35.5662004341412
1.376413	-2309855.42267195	-2538123.68378761	3431836.81253211	132.304205487957
1.17375	-852165.699937572	8982479.39730893	9022811.23061042	-95.4194171728356
1.001604	15711194.027467	2775854.10140242	15954528.6286053	-10.0196166310841
