EC-Lab ASCII FILE
freq/Hz	Re(Z)/Ohm	-Im(Z)/Ohm	|Z|/Ohm	Phase(Z)/deg
1513.548	0.302650825951033	-0.0191568925901845	0.303256506908845	3.62181977571103
1292.065	0.30460845379163	-0.0166428219179079	0.305062770004337	3.12734688527282
1101.762	0.303898448772007	-0.0155744115397817	0.304297271530395	2.9337696564411
939.101	0.315376273719241	-0.0230313104919497	0.316216121170332	4.17678383128577
801.2801	0.291266628975908	-0.00244743651687014	0.291276911375573	0.481429964598296
684.3433	0.297487783121717	-0.0259548597353824	0.298617875972885	4.98624771804849
582.9476	0.300806031443136	-0.0240884663304239	0.301768989067334	4.57846047722459
497.0677	0.287285337632498	-0.0139720049492619	0.287624898332743	2.7843628899516
423.5089	0.291558958201873	-0.00650641319440946	0.29163154753973	1.27839718348298
361.5036	0.297322308235074	-0.018191074458501	0.297878280786275	3.5011640313812
308.1262	0.299349615159989	-0.0115287991316765	0.299571536207718	2.20553227742069
262.7298	0.291454525590264	-0.0164646298778549	0.29191920889873	3.23327360356322
224.2111	0.28751674295071	-0.0144154335682658	0.287877894604546	2.87027619245808
191.2854	0.292111049900968	-0.00668804589740107	0.292187603145944	1.31158977447049
163.1722	0.286802107613462	-0.00910430242336325	0.286946575609712	1.81819791100958
139.1537	0.288822760246147	-0.0145514202910202	0.289189091545116	2.88422771476952
118.6706	0.290169227760237	-0.0103449139491019	0.290353574084402	2.04180500379969
101.1982	0.280955106099405	-0.0128395652536137	0.281248335247037	2.61657964809888
86.24196	0.286404914744477	-0.0117129922384544	0.286644325562132	2.34189852449301
73.61024	0.296433089029508	-0.00126837585946738	0.296435802576034	0.245155290619853
62.69291	0.272048070184843	0.0177573673723677	0.272626991670477	-3.73456411880569
53.57697	0.287013534553542	-0.0139614470736644	0.287352903276282	2.7848928759121
45.65746	0.292510238256136	0.00901660980777	0.292649173477539	-1.76557975893594
38.96512	0.277666592105291	-0.0182286618334992	0.278264299692947	3.75604717133412
33.18414	0.273954644961252	-0.0103267528697833	0.274149209958152	2.15874912753267
28.30617	0.270052062521197	-0.0184419425216913	0.270681033166208	3.90668178637858
24.17237	0.288286800855145	-0.0144744265675885	0.288649941229432	2.87431726378714
20.61345	0.283358038847574	0.000433004573292016	0.283358369688463	-0.0875546547021928
17.55618	0.275563804630939	0.00294892083590044	0.275579582982438	-0.613122136569494
14.98558	0.277915836163583	-0.00863837573511238	0.278050055791838	1.78033456807615
12.76553	0.272305836487213	-0.00876203615412629	0.272446768860574	1.84298120043796
10.8809	0.270658530066078	-0.00899442275116476	0.270807938469604	1.90333141795689
9.278505	0.272912676027908	-0.00773113143061796	0.273022158679312	1.62265371806717
7.923394	0.268251850563822	0.00217782957139524	0.268260690882129	-0.465151316906157
6.75822	0.274655518407184	-0.00234389897788227	0.274665519594174	0.488947973011325
5.761429	0.261847298589692	-0.0112279602529327	0.262087914391642	2.45532755215285
4.919708	0.286324934737814	-0.00915270333915217	0.286471185690687	1.83090153124322
4.191257	0.258861379524048	0.0130181521834192	0.259188514589987	-2.8789822861551
3.564097	0.258598440584061	-0.0162588831235151	0.259109059573246	3.59762720576943
3.051758	0.257362488207129	-0.00726398194049277	0.257464979695873	1.61672761559214
2.604164	0.28628058813229	-0.00707210482896096	0.286367927338383	1.41511293481032
2.214424	0.265481096084555	-0.00824445897224709	0.26560908019494	1.77873658878553
1.892567	0.252453716833941	0.0087708425290845	0.252606030850298	-1.98979132219992
1.607507	0.260516941202961	0.0106263581410845	0.260733573099226	-2.33577188678967
1.376413	0.266143659445902	-0.00229769259381644	0.266153577572258	0.494638188762108
1.17375	0.263628040880952	-0.0122356451730157	0.263911831776312	2.65733528198212
1.001604	0.258559979427662	-0.0226037927241681	0.259546131558824	4.9962011408655
