EC-Lab ASCII FILE
freq/Hz	Re(Z)/Ohm	-Im(Z)/Ohm	|Z|/Ohm	Phase(Z)/deg
6999984	45.8140175081229	49.3444682402635	67.3335038903291	-47.124741595901
5969734	46.6224034452066	43.5845065805343	63.8220786004048	-43.0711797869095
5091109	47.0745679362873	39.2237357116276	61.2741086394877	-39.8019284445166
4341796	49.3429716505495	34.5653065445224	60.2452426986873	-35.0116746912797
3702781	50.8779687051366	29.3193660550909	58.7213157672175	-29.9534886843058
3157797	51.6128290033852	26.4039455402718	57.9745845851984	-27.093248993545
2693047	52.8963408763809	23.4433118133213	57.8585494709891	-23.9026074606441
2296687	54.4305845279765	21.0794138128671	58.3697714467967	-21.1699654708589
1958656	55.6028655101857	18.5710830127891	58.6222123193223	-18.469065342924
1670375	56.4578574550778	16.5819055742498	58.8425803384863	-16.3677311701258
1424531	57.0496367259062	14.7554061871215	58.9269298564316	-14.5012867750195
1214875	57.5960751358042	13.2104444631896	59.0916551973645	-12.9181299025596
1036062	58.0306089804607	11.7683288495185	59.2118665687338	-11.4638426973806
883578.1	58.3456764991979	10.6842861824813	59.315865814959	-10.3770563515765
753531.2	58.607366766746	9.74379124112895	59.4118246402396	-9.43939373111104
642624.9	58.9341307778313	9.0657499809629	59.6273393105533	-8.74517514821873
548046.8	59.2331076936034	8.44220233168558	59.8316958413443	-8.11145517891429
467390.6	59.487000662019	8.09055328466182	60.0346591579814	-7.74501429146042
398593.7	59.7297218741162	7.84836453802809	60.2431448472027	-7.48566494549445
339937.5	59.990040933036	7.74040479923753	60.4873447723025	-7.35214859049511
289906.2	60.2061786021316	7.80867534109071	60.7104550506281	-7.38994661623989
247234.4	60.4950684388509	7.98721025580699	61.0200691010074	-7.52130292035159
210843.7	60.7475968453746	8.28848362034784	61.3104353533144	-7.76953688509202
179812.5	61.0916530558037	8.75387104299888	61.7156408970056	-8.1544499318609
153343.8	61.4270369390704	9.37523294020081	62.1383606140116	-8.67773801573184
130781.2	61.7817492164855	10.1544916349061	62.6106878784452	-9.33372312495507
111531.3	62.2099089145025	11.0857940617027	63.189932719771	-10.1040362326187
95109.37	62.6817939434063	12.231169231547	63.8639866648989	-11.0414467516543
81109.37	63.1736751971453	13.5702811499517	64.6147488457793	-12.1234259815573
69171.88	63.7356455763689	15.0740870601928	65.4939739039767	-13.3064864256773
59000	64.368985133766	16.8424572578223	66.5359648132689	-14.6629926535392
50312.5	65.1172669841642	18.9092810177084	67.8072220939155	-16.1926696454016
42906.25	65.9378135819973	21.2324480314363	69.2720153408422	-17.8489302029421
36593.75	66.8670040357538	23.9252158499781	71.0183932667133	-19.6873626914446
31203.13	67.8787265517189	27.0244497176571	73.0605392864384	-21.7089067616928
26609.38	69.0971661321449	30.5248060632933	75.5392755637416	-23.8342306773732
22703.13	70.4164667264002	34.512054503831	78.4191347332118	-26.1100935241462
19359.37	71.9479697319663	39.0918192615135	81.8821145411303	-28.5167626355475
16500	73.6740809656612	44.2794795301447	85.9566315859067	-31.0066424075357
14112.02	75.5882753924799	50.0934575526202	90.6804381682485	-33.5330195910738
12011.13	77.8418922786884	56.8629461535711	96.3989358799715	-36.14786145818
10236.38	80.3581174056075	64.5330093338457	103.062778570421	-38.7668228918333
8750.684	83.1750341751512	73.0607257842526	110.706621130623	-41.2959846502556
7449.463	86.4437741195961	83.0206918979277	119.853916778929	-43.8428164270799
6363.206	90.1948724694507	94.1864360192855	130.407820891983	-46.2401692447324
5414.761	94.5320144397533	106.958358480152	142.745900826632	-48.5290840700785
4620.567	99.4709350160241	121.221075917313	156.808852299585	-50.6285675891984
3941.215	104.830312528123	137.610935115619	172.991802950715	-52.7002970327222
3361.769	111.278247199319	156.202711298811	191.786692230855	-54.5340656447722
2867.244	118.616490182327	177.315650694062	213.332397268283	-56.2191918160315
2442.658	127.157960584527	201.119967078836	237.946187399185	-57.6969072654534
2083.003	136.868808959115	228.090471367893	266.004387171931	-59.0335605057141
1777.843	148.29116724955	258.553005975153	298.06027441278	-60.1638916439482
1513.548	160.949271946358	293.07275293812	334.359546977189	-61.2253532552076
1292.065	175.808272547178	331.613737511321	375.334810006014	-62.0692627916557
1101.762	192.660027977373	375.368990943363	421.923886195225	-62.8306091098256
939.101	212.437660509291	425.019055085442	475.153613885428	-63.4426999223638
801.2801	234.786232472504	480.52091421067	534.812980351535	-63.9595078535719
684.3433	260.269369812237	542.939758230497	602.099431929519	-64.3883094674478
582.9476	290.000855673635	613.488809176053	678.578672871239	-64.6995401417628
497.0677	324.409672352607	693.130998273431	765.292242403808	-64.9187537941799
423.5089	364.09270648525	782.874962350182	863.398346993179	-65.0582117215147
361.5036	409.171420757819	880.627931750649	971.044183209187	-65.0787236105804
308.1262	460.866132862476	992.377226508194	1094.17098851674	-65.0895525129084
262.7298	520.294232406619	1116.86490854151	1232.10929393745	-65.0214278310673
224.2111	588.423561892319	1254.33811339201	1385.49860732441	-64.8682189166493
191.2854	666.526789564291	1407.19539095763	1557.06673894836	-64.6551359126402
163.1722	754.842402984041	1576.5818751585	1747.96952559849	-64.4156395542755
139.1537	856.408073453152	1766.7816315435	1963.40319899791	-64.1392447139044
118.6706	972.659980759925	1976.67084963925	2203.01953826684	-63.7995953329508
101.1982	1104.47197589416	2210.0172651124	2470.63446459213	-63.4460803733551
86.24196	1251.12864423043	2466.2513413844	2765.45087884312	-63.1013316680249
73.61024	1415.79817727362	2746.04660383663	3089.53984101419	-62.7254140586396
62.69291	1601.6488077829	3060.07489726651	3453.88727093879	-62.37235746528
53.57697	1801.51892171169	3394.72843182015	3843.1304363882	-62.0459434093939
45.65746	2027.61407230543	3774.8424000028	4284.9333683349	-61.7580321173407
38.96512	2276.25241190491	4189.81230761892	4768.21268566933	-61.4855333899765
33.18414	2554.17857037505	4654.09463880996	5308.90055250263	-61.2419117354868
28.30617	2858.35445250737	5165.32846557975	5903.45732037567	-61.041032732514
24.17237	3188.79373243617	5729.74487061925	6557.31513276674	-60.9026061292104
20.61345	3557.53654272498	6363.90515194491	7290.77190946024	-60.7940306270331
17.55618	3968.42075823814	7071.04852700606	8108.51962972835	-60.6979456047896
14.98558	4414.20974075525	7845.99906041295	9002.49681429432	-60.6376131489624
12.76553	4916.34662985184	8727.46590727957	10016.9419159533	-60.6066161322458
10.8809	5474.59020079294	9720.38825283651	11156.0335985735	-60.6114862735044
9.278505	6072.9965406762	10794.9005678846	12385.9260959196	-60.6387590645526
7.923394	6735.02735110786	11999.7133570815	13760.5855279596	-60.6959975482862
6.75822	7491.14278256154	13356.2297359903	15313.5917716673	-60.7131289863606
5.761429	8336.3077566257	14893.3198482109	17067.6595675649	-60.7627471314189
4.919708	9274.70599238926	16570.0974075642	18989.1626814198	-60.7631482018755
4.191257	10268.0555015441	18449.7255367284	21114.5763908111	-60.9022050587538
3.564097	11470.9023138573	20615.0854897643	23591.5948940369	-60.9070179042329
3.051758	12678.5797571918	22882.37657148	26160.0753481042	-61.0102076031359
2.604164	14133.503755011	25515.7551655328	29168.6422388894	-61.0173695755751
2.214424	15708.6852279256	28499.9911741619	32542.468998485	-61.1372323463164
1.892567	17512.1949842384	31703.1889555658	36218.3539537386	-61.0846348207234
1.607507	19541.0570306249	35495.0493881988	40518.5320679909	-61.1659375318525
1.376413	21692.7189841428	39434.758963147	45007.4912809689	-61.1851889137689
1.17375	24227.5012925621	43972.4822281494	50205.0895048103	-61.1465715583771
1.001604	27001.1320751664	49064.598827547	56003.5355263282	-61.1752194481336
