EC-Lab ASCII FILE
freq/Hz	Re(Z)/Ohm	-Im(Z)/Ohm	|Z|/Ohm	Phase(Z)/deg
6999984	41.5324026509276	56.1493134702758	69.840431507416	-53.5104880029269
5969734	46.4338587109887	51.3682881540452	69.2445251458127	-47.888305260738
5091109	48.3273331968276	47.1367990621893	67.5085843411518	-44.2855008083318
4341796	51.5018306572722	43.2893711819869	67.2785866259257	-40.0484091584039
3702781	55.032309293676	38.3504550795015	67.0769145906375	-34.8715464033246
3157797	57.18937145364	34.9606154620093	67.0288657277214	-31.4379936836
2693047	59.7945987703083	32.1709358157938	67.8996550312745	-28.2813228183724
2296687	62.5489154163645	29.1153175303772	68.9932499209757	-24.9610725026349
1958656	64.5453373728471	26.0692222688358	69.6110977235428	-21.993294363306
1670375	66.2350843366188	23.3013104850753	70.2142255344377	-19.38172408521
1424531	67.6273898446889	20.6954271287967	70.723154350247	-17.0152307744032
1214875	68.7005154892581	18.4328147059796	71.1303696495018	-15.0191145711028
1036062	69.5293755562887	16.6028411611742	71.4841828649571	-13.4301020699767
883578.1	70.3027737416874	14.8771892296679	71.8596601380096	-11.9484274821905
753531.2	70.9528886617939	13.4713417838012	72.2204227272931	-10.7504013804617
642624.9	71.4716889664807	12.2841431724139	72.5196697262317	-9.75238338585716
548046.8	71.8523527842453	11.3245054358326	72.739294909958	-8.95659657462201
467390.6	72.495662924566	10.4232386529193	73.2411431293095	-8.18176855953274
398593.7	72.6318566976936	10.2739551371209	73.3548959614413	-8.05121439633423
339937.5	73.2745979597717	9.84954419133013	73.9336204100891	-7.65578757402469
289906.2	73.4884542549606	9.68089761119894	74.1233612793022	-7.50456682315581
247234.4	73.7060256530821	9.34644021483085	74.2962594096244	-7.22693439394722
210843.7	74.147296543887	9.38046590935141	74.7383082859361	-7.21025559253096
179812.5	74.6759748434778	9.99235087083873	75.3415442816889	-7.62144448378455
153343.8	74.9770645375255	10.2622635924513	75.676114201941	-7.79376154067015
130781.2	75.6334364385146	10.9720206405585	76.4251394793341	-8.25422480230498
111531.3	76.0235602328322	11.6356011969269	76.9088351601362	-8.70173921776987
95109.37	76.5648511230087	12.5963545900045	77.5941014281731	-9.34254094542213
81109.37	77.2648689621699	13.5932889446973	78.4514976279951	-9.97799697684582
69171.88	77.8929835485798	15.2183808832333	79.3657104977111	-11.0549341781517
59000	78.581086035126	16.7006085272964	80.3361525568774	-11.9983836723479
50312.5	79.4452177133348	18.5651962299774	81.5855938789241	-13.1531571901223
42906.25	80.3359947791846	20.6418998798772	82.945524820885	-14.4101177306583
36593.75	81.2714953170674	23.0238930452039	84.4698502545677	-15.8172161318303
31203.13	82.3977381175182	25.7157992942014	86.3173770467034	-17.3328040915103
26609.38	83.5927743407507	28.9014603424668	88.4479865904863	-19.0723727124629
22703.13	84.8758155163608	32.457435525923	90.8701776188798	-20.9273980587123
19359.37	86.3504912682833	36.5209224716268	93.7559871179032	-22.925359186113
16500	88.042810033168	41.2005909668827	97.2060959742591	-25.0777553576133
14112.02	89.7704072494934	46.4580301263757	101.079545809046	-27.3624933206329
12011.13	91.7892884276184	52.6138298952831	105.799284337364	-29.821433371684
10236.38	94.1098361966901	59.624787878614	111.408153195974	-32.3569549616324
8750.684	96.6209205809079	67.3654990989091	117.786725749327	-34.8847645396582
7449.463	99.5178613020559	76.5582163789793	125.558612660645	-37.5707677649197
6363.206	102.728940253109	86.8002082990472	134.48981867147	-40.1959400610722
5414.761	106.554768701692	98.6768108508863	145.22751713354	-42.8017406541713
4620.567	110.829912551203	112.163638747511	157.683072563892	-45.3426824248615
3941.215	115.658628684976	127.520074591762	172.157741078284	-47.7924837990803
3361.769	121.37506483447	145.09746257928	189.169712191242	-50.0872771714045
2867.244	128.033442936823	164.782927987261	208.676725741784	-52.1534202764257
2442.658	135.648106182623	187.598561549088	231.502978396001	-54.1301934245625
2083.003	144.541496294876	213.236589497446	257.608399031678	-55.8687880172633
1777.843	154.39179924449	242.167880079579	287.196987825757	-57.4808448809096
1513.548	166.766632668724	275.571744635466	322.103859357661	-58.8191024029966
1292.065	180.626715007852	312.061724101595	360.566956089695	-59.9370003570764
1101.762	197.005040433637	353.996085296079	405.122468349026	-60.9032936785645
939.101	215.98293879832	401.534356016196	455.936913304133	-61.724456790546
801.2801	237.699478686603	454.137856097414	512.583880461177	-62.3720709863824
684.3433	262.508028103582	513.200657058732	576.441999878865	-62.9097345813332
582.9476	293.098825828881	580.094219389264	649.935554552225	-63.1943227181746
497.0677	328.15769851037	654.621149502623	732.267932158549	-63.3756638603335
423.5089	366.967840750491	738.001803208397	824.203893271515	-63.5613594817354
361.5036	413.786239646038	829.374097050266	926.865926107089	-63.4847550245264
308.1262	467.064671373529	932.236791243139	1042.69594906308	-63.388440819165
262.7298	528.113174238522	1045.41861786714	1171.24020225892	-63.1985053100791
224.2111	597.882570301732	1169.96831626294	1313.88333916286	-62.9318507522252
191.2854	676.829125706524	1306.72669794913	1471.60875525314	-62.6177552889345
163.1722	766.198302060537	1458.04579112744	1647.10575468149	-62.27822049954
139.1537	869.963006411542	1623.14259167853	1841.58288041714	-61.8098275020205
118.6706	983.317847202419	1804.55787609786	2055.077399227	-61.4136844824671
101.1982	1115.55567986725	2006.64426641034	2295.88451077174	-60.9289621877864
86.24196	1260.19464859405	2225.68181877201	2557.68452135078	-60.4811956708916
73.61024	1420.13476178815	2460.99830740202	2841.35450281634	-60.0126307860337
62.69291	1600.93106729027	2726.0143924768	3161.35014672621	-59.5751775094513
53.57697	1793.96134757466	3004.3894948984	3499.23613859479	-59.1580069388165
45.65746	2013.19225487712	3317.54887604448	3880.60222131066	-58.7493161435497
38.96512	2250.15489204265	3657.15432143908	4293.94629321374	-58.3970616911033
33.18414	2515.1525268098	4035.54870450835	4755.17040489368	-58.0668088179899
28.30617	2801.04476480472	4446.70833167715	5255.38454934051	-57.7925912172403
24.17237	3112.07442098802	4891.10335773974	5797.23203415741	-57.5325256740304
20.61345	3452.06940010602	5386.6643743801	6397.88529323277	-57.3460279117153
17.55618	3821.71332667847	5941.49927646816	7064.48203363725	-57.2499142415821
14.98558	4225.1156752411	6547.77959403279	7792.62600675794	-57.1668754683338
12.76553	4665.82738058877	7228.30172993864	8603.38834672048	-57.1579888929313
10.8809	5131.9176057354	7975.64577297718	9484.0657846762	-57.2408042126395
9.278505	5673.50732589542	8831.21804220334	10496.6231467995	-57.2817821541473
7.923394	6222.00832993844	9755.69294448713	11570.9520993278	-57.4709900068333
6.75822	6831.01489063564	10799.2126119224	12778.3315606377	-57.6847032644171
5.761429	7503.60333764023	11985.9942661951	14141.0085071012	-57.9521599631842
4.919708	8261.88465970527	13330.2157238111	15682.9011784686	-58.2099336752135
4.191257	9104.08743425426	14789.8890523451	17367.3609449226	-58.3851441689646
3.564097	10003.2931633704	16499.3503692695	19294.9329286279	-58.7722344553549
3.051758	11024.6256814015	18312.5220538973	21375.0049213911	-58.9509399916562
2.604164	12113.2898643527	20416.950077653	23739.916634462	-59.3195237412639
2.214424	13425.0672755248	22781.1912686807	26442.6758663449	-59.4889473612841
1.892567	14796.3555282089	25423.5091602699	29415.7603155092	-59.8008082891738
1.607507	16381.6160469714	28417.5774893051	32801.1593494963	-60.038241999476
1.376413	18124.1525996232	31630.841117352	36455.3839267343	-60.1877266882256
1.17375	20055.4479253347	35337.9577606097	40632.4039428686	-60.4236707082605
1.001604	22191.8938488187	39373.906563721	45197.1754724327	-60.5935526945168
