EC-Lab ASCII FILE
freq/Hz	Re(Z)/Ohm	-Im(Z)/Ohm	|Z|/Ohm	Phase(Z)/deg
6999984	-11.8359741042364	32.2084728058252	34.3143702183172	-110.177377580918
5969734	-11.7167879868387	33.5428057154255	35.5303101026618	-109.254743643419
5091109	-12.7207090051987	37.0362245319846	39.1599076247445	-108.955888857478
4341796	-12.4544993357987	42.4661847348718	44.2548460582756	-106.345378551303
3702781	-11.9025078066218	49.6577422689044	51.064283597556	-103.478985293823
3157797	-10.9245418432343	58.0023306436346	59.0221651125921	-100.666507364864
2693047	-10.7770099084409	65.7148300345181	66.5926634775351	-99.3134102358832
2296687	-10.5113101257313	77.4921671455799	78.2018133388082	-97.7246555657649
1958656	-9.99834907353698	89.462256413957	90.0192329831402	-96.3769442400582
1670375	-9.6802288805928	104.748035473226	105.194380870277	-95.2799592455007
1424531	-9.37493265973111	122.218088262191	122.577120462341	-94.3863742682147
1214875	-9.07976992055317	142.152768229688	142.442450614884	-93.6547071638326
1036062	-7.3628320442909	166.457565957894	166.620324571581	-92.5326839136279
883578.1	-7.28678372590515	193.67169816204	193.808730159496	-92.1547036561801
753531.2	-6.14810332036585	226.104934326522	226.188506563085	-91.5575670420948
642624.9	-4.69196628626133	264.22389917068	264.265554775095	-91.017325137066
548046.8	-3.22449475198323	309.510390509171	309.527186527363	-90.5968887069989
467390.6	-1.54382634479564	360.311469154482	360.314776555228	-90.2454936912452
398593.7	1.02418410074784	421.244106219393	421.24535128313	-89.8606952360354
339937.5	2.85543863714978	492.114059295779	492.122343413078	-89.6675511632968
289906.2	-102.12705509399	499.987277470939	510.310898389377	-101.544393298564
247234.4	-108.577175228052	601.809398925096	611.525596860089	-100.227163327558
210843.7	-112.287422839395	721.534658434207	730.219644113797	-98.8455901961589
179812.5	-113.556487361725	859.180973284123	866.652768226922	-97.5290477745073
153343.8	-118.48299560187	1018.08007100117	1024.95134090187	-96.6381556988584
130781.2	-110.690023119533	1206.40646451392	1211.4738292011	-95.2423159183606
111531.3	-99.9747902273036	1433.44479785241	1436.92691086608	-93.9896009950866
95109.37	-93.3881337497707	1677.95166708699	1680.54846422389	-93.1855693211795
81109.37	-58.5382222157607	1975.08390425806	1975.95120190743	-91.6976552230043
69171.88	-72.7875423192875	2303.02496963022	2304.1749145968	-91.8102414297475
59000	-59.3647982482523	2689.81018224761	2690.46520062869	-91.2643272425468
50312.5	-52.3567860090533	3137.72568056644	3138.1624686315	-90.9559613572074
42906.25	-8.72882224161144	3722.82424137496	3722.83447449746	-90.1343398789898
36593.75	16.6117548330753	4331.22762931555	4331.25948510881	-89.780251961599
31203.13	-779.894089332579	4684.59328679461	4749.0682300065	-99.4519514307458
26609.38	-760.95024550857	5641.2660100958	5692.35693476804	-97.6822566889253
22703.13	-715.97192299589	6663.34370358422	6701.69867321815	-96.1328642193325
19359.37	-641.755120285967	7809.52937403881	7835.85341098136	-94.6977768298683
16500	-581.016938535111	9219.57843480599	9237.86810895265	-93.6060057512465
14112.02	-646.089806662117	10742.7338256939	10762.1448646624	-93.4417387513825
12011.13	-445.862517703652	12658.1953814848	12666.045306272	-92.0173083769078
10236.38	-261.017019423889	14906.3463527968	14908.6314420194	-91.0031730795262
8750.684	-361.085188417073	17280.3472773612	17284.119431996	-91.1970619973985
7449.463	2.22600322364845	20176.4513933647	20176.4515161586	-89.9936787402852
6363.206	-99.9969092927094	23425.6166074034	23425.8300347912	-90.244576958773
5414.761	281.944154486452	27623.489834025	27624.9286536043	-89.4152205503211
4620.567	318.167640673569	32450.7182044395	32452.2779266959	-89.4382534536854
3941.215	-6701.0145623205	34265.4152296202	34914.4995241622	-101.065228694496
3361.769	-6668.06263421348	41034.0323679259	41572.2848983043	-99.2299302851326
2867.244	-6879.96274913292	48426.5336631594	48912.8106947307	-98.0859054555949
2442.658	-6660.9682624953	57757.2689905943	58140.0947663988	-96.5786826797238
2083.003	-5959.63087457795	68045.8409191102	68306.3223029177	-95.0053405742945
1777.843	-5954.62230371232	80065.0080172804	80286.1322744286	-94.2533907639648
1513.548	-5213.89290206226	94162.612615291	94306.8517857082	-93.1692973197978
1292.065	-4527.80209073291	109687.532124715	109780.944135962	-92.3637759556234
1101.762	-3880.01175210036	130278.35533946	130336.120707773	-91.7059058152542
939.101	-2409.73457127095	150513.954729691	150533.243468263	-90.9172294102566
801.2801	-1689.57198200146	176199.580932731	176207.681371592	-90.5493905057826
684.3433	-2682.208760223	204961.229015238	204978.778519314	-90.7497538467399
582.9476	4741.65787121858	241025.294326898	241071.930810568	-88.8729732930093
497.0677	13586.1764915991	273577.88661859	273915.031055901	-87.1569646965925
423.5089	-39603.5892425575	271607.079391869	274479.233926129	-98.2959517832899
361.5036	-73649.0416069323	358218.193002668	365710.890086303	-101.618018375238
308.1262	-40781.8831598619	420159.863458947	422134.425101656	-95.5439209017175
262.7298	-77177.948780514	492151.365300056	498166.03873074	-98.9123970750711
224.2111	-64322.9391469712	618482.506567718	621818.342790555	-95.9374856111929
191.2854	-35548.7434621938	601774.012604289	602823.087984865	-93.3807187462011
163.1722	41961.0950211041	765446.051061823	766595.323871408	-86.8622352067772
139.1537	-142643.144959518	980918.881126885	991236.055717891	-98.2738356123978
118.6706	39916.4449104797	810979.924095945	811961.67388674	-87.1821748395783
101.1982	154766.730450552	829013.132373468	843335.944035367	-79.4253003217587
86.24196	-304663.591241354	912593.929728046	962105.80728138	-108.461254392942
73.61024	195695.037400493	-481243.414431173	519511.089002491	67.8711480167095
62.69291	52626.3882785782	20473.7857184722	56468.6872956472	-21.2580405431264
53.57697	164274.25280998	3488.33761647997	164311.285782821	-1.21648393709893
45.65746	78062.7557148395	658524.309728456	663135.024209349	-83.2395949555036
38.96512	464860.896671733	-10319.1193639222	464975.415994109	1.27165977277003
33.18414	355375.653258762	555436.983940458	659395.251770866	-57.3883694927755
28.30617	604775.285696326	498302.510049692	783618.872737823	-39.4866985247915
24.17237	714007.038071147	-393252.27020276	815140.109695723	28.8445689788757
20.61345	519468.741537747	-825934.50057682	975712.853598789	57.8322971924428
17.55618	-722297.400510635	-1066262.78591898	1287878.0467964	124.114117581239
14.98558	500596.184124073	4382185.27491157	4410685.24417821	-83.4831020184342
12.76553	2745512.11372121	378975.373040813	2771544.53328127	-7.85913029551662
10.8809	5436396.81211653	-2473961.22204548	5972846.4258656	24.4690335369104
9.278505	-495913.027932551	3510864.05785935	3545715.18371708	-98.0398969446459
7.923394	1737456.51399786	-781624.312568996	1905174.97989884	24.2214069074328
6.75822	2092171.34407439	-106411.706533126	2094875.74434698	2.91166036104259
5.761429	615871.110441849	383894.261566524	725721.729549682	-31.9367477146834
4.919708	1730855.93953898	74437.0414857742	1732455.81663214	-2.46253994487796
4.191257	1416586.07904824	-292206.339941987	1446409.5770063	11.6552163305323
3.564097	2166641.42656739	1362736.8724698	2559567.70859979	-32.168365903365
3.051758	2010270.49660876	741917.83778301	2142808.79864636	-20.2572723511053
2.604164	1529148.17291858	9037914.26221943	9166361.78349783	-80.3969221507415
2.214424	6924670.86579225	2115801.93004203	7240696.40343535	-16.9902956511591
1.892567	-445779.151123009	-3099625.78387903	3131517.05274993	98.1839958301213
1.607507	4451744.72681942	1359089.63723333	4654584.38045757	-16.9771004331372
1.376413	2582777.90710671	4088048.48887608	4835584.98682843	-57.7158148726927
1.17375	10010714.1623216	8882262.38173894	13383160.4286043	-41.5818619421362
1.001604	7936675.69130139	17963368.0708063	19638569.5374219	-66.1629316463064
