EC-Lab ASCII FILE
freq/Hz	Re(Z)/Ohm	-Im(Z)/Ohm	|Z|/Ohm	Phase(Z)/deg
6999984	-11.3429820191268	33.4238642591526	35.2961462924849	-108.745556050886
5969734	-9.46332259226055	40.0808483815571	41.1828712145057	-103.284580713935
5091109	-7.71106985232791	44.7631129264785	45.4224270282439	-99.7740683031684
4341796	-6.12794906549006	49.6174408681393	49.9944216693477	-97.0406012541582
3702781	-13.8856209080899	48.7441263073934	50.6833337249465	-105.900534119164
3157797	-13.0561503779769	56.7172420682299	58.2005894344596	-102.963495165544
2693047	-12.9378493628286	66.2251171893886	67.4770634577668	-101.05417060905
2296687	-12.7835776613031	76.7511634689689	77.8084889434498	-99.4563059099888
1958656	-12.7979027370585	89.4201294186633	90.3313116240305	-98.1449201084934
1670375	-12.5294388943629	104.374274299762	105.123622343456	-96.8452226460186
1424531	-12.2042723521738	122.002034585094	122.610932247286	-95.712485085045
1214875	-11.7292845245453	142.604585748794	143.086141858822	-94.7020167175523
1036062	-10.6337937594255	166.35179491041	166.691323228394	-93.6575719528083
883578.1	-10.0039595993467	194.413902530105	194.671119338875	-92.9456718923582
753531.2	-9.07124224657093	227.025577844888	227.206735005152	-92.2881455266661
642624.9	-7.51116923869273	265.325785980263	265.4320824041	-91.6215664278109
548046.8	-5.65908897220951	309.97324882743	310.024902671749	-91.045915731043
467390.6	-4.27652198140924	362.656231866386	362.68144583337	-90.6756131080499
398593.7	-1.59371854398721	422.996081688943	422.999083997822	-90.215871773237
339937.5	1.91176763629675	493.697505905003	493.70120740415	-89.778132017757
289906.2	-118.607440147459	498.552839660176	512.467227041455	-103.382098130666
247234.4	-124.949121938026	602.4942941369	615.314275424035	-101.716280637103
210843.7	-130.875757290807	724.35046663813	736.07884249265	-100.241716455554
179812.5	-131.635359588846	863.926759437744	873.89777066124	-98.6634469130868
153343.8	-126.770743148256	1021.63850520823	1029.47367943161	-97.0734317358192
130781.2	-126.852924274052	1214.42533060396	1221.03257450791	-95.9632114161942
111531.3	-109.229951443788	1430.03517954924	1434.20075200121	-94.3679250272115
95109.37	-105.893947654276	1682.52340562995	1685.85246645203	-93.6013074973264
81109.37	-98.6333997162153	1974.5176914481	1976.97968158024	-92.8597282230886
69171.88	-89.1481403311353	2323.169874407	2324.87970791538	-92.1975608992559
59000	-60.464170991935	2706.37471802435	2707.0500605521	-91.2798543987949
50312.5	-93.7243894881704	3126.58011229844	3127.9845683451	-91.7170211964797
42906.25	-19.245179493669	3726.99969205298	3727.04938007222	-90.2958566814372
36593.75	5.40280919205787	4345.4435553353	4345.44691406445	-89.9287626220969
31203.13	-736.893780731244	4945.2611960555	4999.86207222686	-98.4752875731658
26609.38	-751.993745360009	5665.33003576643	5715.02047303575	-97.5610188194756
22703.13	-701.94165481096	6684.77141630759	6721.52445320567	-95.9944376160289
19359.37	-657.486451771105	7842.60078379987	7870.11280022853	-94.7922002745059
16500	-641.086789587292	9286.3982914314	9308.50071165509	-93.9491501747504
14112.02	-513.675293159805	10678.048003472	10690.3962261113	-92.754132101446
12011.13	-449.919007521089	12678.9333193769	12686.9136211505	-92.0323198711402
10236.38	-366.136700211256	14999.1356274797	15003.6037555906	-91.398342070828
8750.684	-188.603941649289	17344.3237373817	17345.3491562986	-90.6230155824569
7449.463	-47.764210519405	20327.985404155	20328.0415193237	-90.1346263578874
6363.206	-54.4046144846473	23657.4998820129	23657.5624384576	-90.1317615689118
5414.761	144.936051108734	27806.1495857179	27806.5273136045	-89.7013556732095
4620.567	1043.22522132969	32370.6760464421	32387.4819423511	-88.1541404432382
3941.215	-20.0056127216956	37416.520267656	37416.5256158886	-90.0306345180712
3361.769	-6918.05378786418	41073.3078503871	41651.8437285128	-99.5606988202617
2867.244	-6705.7985239979	48914.2369940695	49371.7562433872	-97.806187460012
2442.658	-6741.01160253246	57664.3436648845	58057.0216918452	-96.6676630253076
2083.003	-5982.14587063749	68224.4170658265	68486.1822062628	-95.0110701522458
1777.843	-6094.15727651636	80140.1520425511	80371.5293018251	-94.3486163495156
1513.548	-5396.40807932341	94341.252902034	94495.4666599627	-93.2738048216297
1292.065	-4542.24324965773	110184.432918695	110278.017897283	-92.3606246877502
1101.762	-2791.57090130079	128988.277614613	129018.481738399	-91.2398046489153
939.101	-2391.32237433944	150624.927191077	150643.908320301	-90.9095517758018
801.2801	-493.275899569849	177585.552556972	177586.237637037	-90.159148951519
684.3433	-524.496528252106	206683.587672029	206684.253172779	-90.1453979644359
582.9476	2057.24539872195	241530.670420022	241539.431588666	-89.5119931219187
497.0677	-1608.87196145441	274845.132069847	274849.840988639	-90.3353907693013
423.5089	-80637.1711809665	289038.298273764	300075.809163387	-105.588272120817
361.5036	-50579.5870098224	351636.464820759	355255.539033137	-98.1853136330501
308.1262	-52617.9631608609	420067.620214103	423350.275303486	-97.1397229527159
262.7298	-59721.4622569922	504913.062799849	508432.742887432	-96.7456425812249
224.2111	-57390.2084170885	599611.34331614	602351.557693299	-95.467259148729
191.2854	-17523.6454298028	725485.538153819	725697.143593308	-91.3836743512726
163.1722	16686.9096244373	731455.855766496	731646.17260525	-88.6931218411178
139.1537	110312.433913842	947117.481848749	953519.982747877	-83.3565929372693
118.6706	78936.7706580511	997800.834356414	1000918.33773005	-85.4767086665919
101.1982	-116251.615179274	828608.11357022	836723.277975573	-97.9863253908012
86.24196	-232280.583839136	723682.965520717	760046.909219101	-107.795076364543
73.61024	323004.222221118	19065.8602608478	323566.429964784	-3.37805889247719
62.69291	60998.389125221	-4260.59027855655	61147.0040590184	3.99548279617252
53.57697	106856.160363761	-132391.160834517	170134.236633303	51.0921477412388
45.65746	623343.784253053	-214878.294250261	659340.696989666	19.0200330178777
38.96512	497964.58784323	-56109.8382509422	501115.799685487	6.42887866984335
33.18414	651369.25432957	136167.215673025	665449.784814755	-11.8075085124781
28.30617	-22084.9304786545	711346.818313001	711689.567211911	-91.7782703847792
24.17237	528602.534004566	512950.497434948	736572.366963905	-44.1390470663184
20.61345	196602.540310248	-752134.173704215	777404.897148304	75.3510547363629
17.55618	1388752.84318177	-991228.491431755	1706214.63528816	35.5175162102889
14.98558	1658859.09693269	3747650.34486892	4098377.31436144	-66.1239132204581
12.76553	943056.087012798	2784885.04383915	2940227.79570748	-71.2921644198766
10.8809	2101904.40628574	2715533.75907865	3433966.47186009	-52.259056505114
9.278505	-417613.878265338	2853821.06834735	2884214.97837159	-98.3252872224006
7.923394	2129385.03306455	1147624.7502292	2418950.84414255	-28.3222950303022
6.75822	1597199.15587341	940653.280001414	1853610.99929305	-30.4955010289216
5.761429	798150.353562875	680343.170093238	1048766.33049744	-40.4442656990598
4.919708	1480546.1951412	-856508.137551906	1710445.3296261	30.0497341347318
4.191257	1836630.46846706	110731.041081558	1839965.44564308	-3.45020459212447
3.564097	1891799.30681043	-2883411.38224056	3448617.95745526	56.7312155496502
3.051758	1653528.97327995	-1086715.83530509	1978663.53182623	33.3133189245309
2.604164	7694079.29198165	4285307.78944591	8806969.9103373	-29.1161337850339
2.214424	5678981.68271536	6144164.80419198	8366695.53011749	-47.2531471673678
1.892567	2797014.35005124	-1873013.99405369	3366224.99193288	33.8081481947176
1.607507	2740023.81055235	2141081.81965904	3477349.83009594	-38.0044223313204
1.376413	1912086.0777763	-2892591.65616106	3467442.81252316	56.5341524455929
1.17375	16654839.7093827	11966020.8138517	20507787.2980671	-35.6961529916548
1.001604	18343485.5704099	4389572.82981112	18861384.1618279	-13.4577358244359
