EC-Lab ASCII FILE
freq/Hz	Re(Z)/Ohm	-Im(Z)/Ohm	|Z|/Ohm	Phase(Z)/deg
6999984	24.8074421181566	88.5681171773634	91.9767392593848	-74.3527330741269
5969734	23.2713905606841	88.6359539230209	91.640001890396	-75.2890034071502
5091109	22.1428925154169	93.707635448466	96.2882580083985	-76.7050113020365
4341796	23.6351138289711	102.621388333047	105.307967168256	-77.0301648507733
3702781	29.3928268479857	111.978147080609	115.771515035963	-75.2923838581415
3157797	32.9292457886397	123.328154375666	127.648614915779	-75.0504810770372
2693047	38.295010148414	138.8238339285	144.008904824927	-74.5783065580699
2296687	45.9688991117644	158.125064806741	164.671417695007	-73.7902031108675
1958656	57.2441354889041	178.448652414098	187.405476430865	-72.2143972869192
1670375	71.5523736384145	201.799100797143	214.108895788631	-70.476902773185
1424531	89.8245580389645	227.257135714935	244.365007642771	-68.4333342052919
1214875	114.072280538469	254.060358437881	278.494436060816	-65.8200737017002
1036062	146.000497981687	280.400824035696	316.134097387166	-62.4946839545404
883578.1	171.44110901969	303.113636927998	348.238324647962	-60.5074944336882
753531.2	216.823377620211	329.055798082657	394.068642922082	-56.6180793034236
642624.9	271.647949230695	354.305946183099	446.458633942657	-52.5224566626915
548046.8	314.958808289783	379.07682380655	492.847125655189	-50.2782497340995
467390.6	447.633814980711	388.183898121886	592.505502991566	-40.9315261967729
398593.7	505.198222932283	376.649418822295	630.150798740357	-36.7062890436263
339937.5	557.951739954873	358.325623780725	663.104363412363	-32.7092323323906
289906.2	600.72677156815	340.618284068262	690.574738547754	-29.5536844644414
247234.4	650.754791153024	308.265637012217	720.076038464802	-25.347137194572
210843.7	674.036464198016	275.696933360185	728.240313449326	-22.2457281086848
179812.5	709.584777236181	251.336320443075	752.78184227516	-19.5042453801207
153343.8	728.419749526588	223.382674346357	761.902323594375	-17.0490753913616
130781.2	748.400100934005	200.759992578855	774.859526429333	-15.0161982159256
111531.3	760.474694390585	177.505092696352	780.916012604168	-13.1383806085859
95109.37	772.629633931329	160.491032991193	789.122248387054	-11.7346340105154
81109.37	780.762702183238	142.017913529381	793.57386857413	-10.3091837711653
69171.88	787.159272335297	126.555591831784	797.267858280595	-9.13357177838201
59000	793.009017599819	115.3177125163	801.349784310585	-8.27383714763231
50312.5	799.117760232976	105.672858361572	806.074405817523	-7.53291104528094
42906.25	803.815792265803	92.8225007550664	809.157490568013	-6.587186908638
36593.75	806.154343981378	86.9907719029433	810.834274507631	-6.15886084973205
31203.13	809.638263221442	84.6337301253345	814.049743902153	-5.96761326729533
26609.38	808.769620024804	80.1137595829806	812.727822059504	-5.65705581838955
22703.13	813.906589299587	79.4041173166851	817.770719671553	-5.57209992835873
19359.37	819.287645648343	75.7690451276824	822.783807881248	-5.28377667965079
16500	820.121486999469	79.6210982912386	823.977410328295	-5.54515486916932
14112.02	824.617604032483	79.3695199314875	828.428460142714	-5.49778844824585
12011.13	827.799122742139	84.838550341391	832.135185673989	-5.85163515040495
10236.38	829.571969153753	89.7950208555339	834.417639899878	-6.17779137528317
8750.684	834.482594120384	96.0810599047488	839.99569639511	-6.56802719996883
7449.463	838.472415262495	104.259324956079	844.9295816791	-7.08802650609571
6363.206	842.295730457132	114.937172455375	850.101553438382	-7.77041924009652
5414.761	848.359187690664	126.051977507142	857.672672044891	-8.45136239087565
4620.567	854.942989164839	140.148083701901	866.353853853854	-9.30951565811079
3941.215	859.540807445311	156.185936743774	873.615731600724	-10.2987673984498
3361.769	867.646855098158	174.378500726537	884.996568737619	-11.3638386438185
2867.244	875.476179322305	197.770887828861	897.536553368941	-12.7295064668246
2442.658	884.221286109742	222.280468947928	911.732356388254	-14.1109363587748
2083.003	894.887243647602	250.255006663696	929.220505156579	-15.6236366111674
1777.843	905.086491095082	282.688261016171	948.205784246835	-17.3453003010221
1513.548	917.888031153127	320.267373362948	972.157203426979	-19.2347833290707
1292.065	930.645299896156	361.596891467133	998.425253154937	-21.2333517917343
1101.762	946.871448512063	409.62258627292	1031.67640430139	-23.3936146737617
939.101	965.145158132601	466.376465928571	1071.91985905609	-25.7907153899843
801.2801	985.021537731108	526.535943347545	1116.9187658156	-28.1264007601469
684.3433	1007.17749384953	596.53422632655	1170.58087601671	-30.6375429959125
582.9476	1033.54314843237	679.120261349075	1236.69550377056	-33.3081050085952
497.0677	1061.87580791208	772.299800739113	1313.02216799664	-36.028308084648
423.5089	1095.36529206233	879.351638948781	1404.66523697879	-38.7572544966546
361.5036	1135.09350402467	999.012098546582	1512.10529921743	-41.3514698831361
308.1262	1177.49775078198	1136.18427252904	1636.28104378159	-43.9770260610113
262.7298	1228.24121157926	1291.97994030381	1782.63530761878	-46.4487545300498
224.2111	1286.98381370253	1467.75438270899	1952.08357011009	-48.7544627483711
191.2854	1351.11092907241	1670.54165852402	2148.53675219278	-51.0345482940943
163.1722	1430.73369755801	1896.68650211902	2375.79851852983	-52.9715352529371
139.1537	1524.49478520264	2155.44165376444	2640.07823234328	-54.7291004782348
118.6706	1625.58444754432	2452.36144063088	2942.21029696912	-56.4609971943106
101.1982	1746.40074404207	2783.63254498591	3286.11103042722	-57.8965830570565
86.24196	1880.93103123118	3162.15390284964	3679.28238241584	-59.2547222146346
73.61024	2042.78254502412	3585.09723557663	4126.24317203851	-60.3255803337341
62.69291	2228.13104369268	4067.90218957714	4638.14576871334	-61.2889515704671
53.57697	2437.64703329719	4597.76994483074	5203.99956999724	-62.0683460591835
45.65746	2687.44627239845	5206.63450485721	5859.30118138657	-62.6991152958431
38.96512	2969.04952734252	5881.6047221416	6588.51494673354	-63.2152356776969
33.18414	3301.39872265658	6656.81780111112	7430.50851309306	-63.6212335713266
28.30617	3688.80474429468	7511.17729294811	8368.09803764453	-63.843942266294
24.17237	4103.41429449489	8458.86919733777	9401.62097565812	-64.1218840927119
20.61345	4597.89971227363	9535.4774857731	10586.1235891998	-64.2571594281423
17.55618	5190.61934753137	10739.7132223014	11928.2844243522	-64.2050202687854
14.98558	5828.89660740215	12066.9388172478	13401.009218674	-64.2172815656012
12.76553	6591.40055402637	13556.1620487649	15073.6886910933	-64.069630341796
10.8809	7439.1951883411	15203.9316352605	16926.3452115308	-63.9277659917216
9.278505	8402.24504037198	17038.0503670523	18997.180896877	-63.7499771878925
7.923394	9497.86370032664	18983.2102240494	21226.6739099755	-63.4198389063381
6.75822	10728.2022630868	21284.5882228592	23835.4362161547	-63.2502433989794
5.761429	12147.9511771335	23792.6545866874	26714.4741682002	-62.9522480497319
4.919708	13735.8780388209	26517.1630519978	29863.5945897944	-62.6158645282106
4.191257	15444.6869272924	29485.1656583717	33285.3323279744	-62.3539082242767
3.564097	17500.8246454511	32939.4391880152	37299.9399100291	-62.0181549563301
3.051758	19580.5941683255	36507.5302300523	41427.0374451619	-61.7933836133003
2.604164	22063.4296239493	40583.3613907814	46193.1179781764	-61.4689749096972
2.214424	24764.138324288	45139.045781635	51485.8815698149	-61.2499904403982
1.892567	27735.3473746065	50010.9026375977	57186.8855299654	-60.9878622491258
1.607507	31125.5760966051	55663.8772866615	63775.1418809089	-60.7873843166096
1.376413	34583.6083147917	61542.4663899683	70593.9171135255	-60.6663183344984
1.17375	38649.3291809642	68214.9846374762	78403.1553907726	-60.4649236695099
1.001604	43032.5238912764	75687.860823388	87065.7819609623	-60.3794956622559
