EC-Lab ASCII FILE
freq/Hz	Re(Z)/Ohm	-Im(Z)/Ohm	|Z|/Ohm	Phase(Z)/deg
6999984	37.4345127586956	75.1013735161122	83.913997935312	-63.5058971671668
5969734	35.504379536187	72.3729704114969	80.6127025501132	-63.8685794514846
5091109	35.6349384327721	74.37622840218	82.4722510208174	-64.4001123980274
4341796	39.3570782541708	78.2535384403251	87.593355268173	-63.3002053187148
3702781	47.352254041981	81.8843578314231	94.5900841543174	-59.9599759646611
3157797	55.8089003490685	85.1292821441691	101.792082386371	-56.7520253767693
2693047	65.2345962872479	88.3164611571522	109.796857259591	-53.548721476596
2296687	76.2772563603707	91.4238964392067	119.06531265651	-50.1609079776567
1958656	88.7044126706108	92.6173704142742	128.243713801858	-46.2362616725696
1670375	101.874195292738	92.4024442669378	137.53749806161	-42.2088152798801
1424531	114.89858290214	90.1398119187727	146.037221439165	-38.1147625435067
1214875	126.979131860534	86.3398382217973	153.552165703454	-34.2138596094498
1036062	138.178070046332	81.35431635093	160.348694508737	-30.4880583071628
883578.1	147.928367218933	75.5902885479482	166.122525717681	-27.0666923997407
753531.2	156.367147133479	69.2819075760255	171.028264974056	-23.8967919390235
642624.9	163.450337551549	62.9111250651692	175.139437314046	-21.0514376917802
548046.8	169.25049055657	56.5864035302576	178.459378061587	-18.486597851455
467390.6	173.9032014132	50.6564072841749	181.130878264034	-16.2403569226903
398593.7	177.623447247768	45.2141600396048	183.287777225509	-14.2813741140924
339937.5	180.566993639227	40.3307385608744	185.01623621935	-12.5907017113762
289906.2	182.95181650617	36.0551371824245	186.470748591169	-11.1486700734351
247234.4	184.895862897572	32.3094878828295	187.697584224966	-9.91202661631446
210843.7	186.403699015272	29.1355569711	188.666954410656	-8.8836533177239
179812.5	187.842428234946	26.5757752298005	189.713071964653	-8.05270981617952
153343.8	188.725488807064	24.3280905040592	190.287062390061	-7.34533612231101
130781.2	189.596001783684	22.6352047617146	190.94239023057	-6.80811943444045
111531.3	190.378443392146	21.3977830345068	191.57718242841	-6.41290460651511
95109.37	191.156789640055	20.4055700734117	192.242829555521	-6.09312540189669
81109.37	192.443964137088	20.527772127811	193.535704099601	-6.08865060151672
69171.88	192.526051607566	19.9803518587018	193.560055300666	-5.92494510029194
59000	193.208458515722	20.3592917196365	194.278174794151	-6.01532919247383
50312.5	194.004415165978	21.087968225927	195.147163719565	-6.20360312395382
42906.25	194.708500050333	22.0215266184673	195.949859980706	-6.45273090285465
36593.75	195.481853352611	23.5380520244555	196.893867053491	-6.86595379428095
31203.13	196.827495437872	25.8774912298544	198.521302415375	-7.48988764444456
26609.38	197.347708739769	27.6793790285957	199.279367141321	-7.98404655401104
22703.13	198.34300460645	30.4634640001271	200.668807030892	-8.73181377243628
19359.37	199.586279167088	33.8368837608776	202.434230145028	-9.62215580860187
16500	200.906061837684	37.7771778764534	204.426908335074	-10.6492113042636
14112.02	202.399626610457	42.1078008499815	206.733344539467	-11.7523384063849
12011.13	204.080227954716	47.3724274217181	209.506291843168	-13.0684281913784
10236.38	205.964694171554	53.4775253198933	212.794034125776	-14.555116159872
8750.684	208.097723888392	60.1782255729674	216.62428654387	-16.1289452794271
7449.463	210.497396860992	68.2019549451426	221.270560047181	-17.9525209723018
6363.206	213.246961899811	77.1062944027582	226.759007309576	-19.8790858288512
5414.761	216.242412762303	87.6283028899481	233.322739021799	-22.0593563970846
4620.567	219.593369912121	99.3961920932769	241.041181361205	-24.353290332716
3941.215	223.624361056425	112.962101213576	250.536007728391	-26.8002670250048
3361.769	227.973607690995	128.771003313194	261.828067819197	-29.459954298736
2867.244	232.732564814719	146.285432765025	274.88884037823	-32.151658454059
2442.658	238.63177904089	166.72348398178	291.104527754625	-34.9406221951055
2083.003	245.287208690274	189.811310655114	310.151815083643	-37.7338831196155
1777.843	252.755530058077	216.239953456663	332.633545280507	-40.5479825191344
1513.548	261.519264220992	246.766864704175	359.563917926448	-43.337524947554
1292.065	271.748982405998	281.351853172294	391.160292875158	-45.9946625590968
1101.762	283.126572880486	320.591838452935	427.714604793525	-48.5510799198335
939.101	296.603204581956	365.588686313413	470.774413629981	-50.9474758979682
801.2801	312.585326974897	416.880984138713	521.055986988409	-53.1367361740072
684.3433	330.640259401308	474.803245133452	578.585432521612	-55.1476805250456
582.9476	352.456150601046	541.613577702933	646.197033147536	-56.9458512692841
497.0677	375.835072810128	616.415156360721	721.955432797209	-58.6288804150132
423.5089	405.591606198303	704.69480998065	813.080147483742	-60.0771458337654
361.5036	439.457947549118	798.250338794985	911.222745024723	-61.1660521234115
308.1262	478.165027301804	907.607399268911	1025.86206896552	-62.2178880437127
262.7298	523.993170319175	1031.384996732	1156.85947894505	-63.0672406792146
224.2111	576.42385218502	1169.79955978258	1304.1071533564	-63.7680253584391
191.2854	638.271983219992	1326.88071671523	1472.414194768	-64.3109601651051
163.1722	708.924140865055	1502.52009801012	1661.36693190445	-64.7409649903508
139.1537	790.562753789641	1701.69403641047	1876.36671821753	-65.0816456953356
118.6706	888.302972230301	1924.10241830451	2119.25748473338	-65.2185826083718
101.1982	997.594419818865	2171.06428455442	2389.29168460478	-65.3214285325978
86.24196	1125.57940926479	2448.70721060842	2695.01317433636	-65.313521715025
73.61024	1269.58925017016	2758.47551950964	3036.61720601751	-65.2857332619612
62.69291	1436.11249776591	3105.03346537951	3421.06005901185	-65.1789339289488
53.57697	1626.41623655167	3484.23049850884	3845.13874148359	-64.9771381935037
45.65746	1842.92529595449	3914.09533616293	4326.258885809	-64.7869162055203
38.96512	2086.52656454182	4385.86170089344	4856.88953589667	-64.557733087468
33.18414	2366.78448591798	4910.89202681369	5451.47037979703	-64.2684466967064
28.30617	2676.13246641984	5493.88657769631	6111.01257619537	-64.0287784510032
24.17237	3023.82834097362	6129.20782268028	6834.52458985118	-63.7406952716114
20.61345	3420.20044750921	6841.3463806834	7648.64637708086	-63.4381162600028
17.55618	3855.67319369787	7631.15140292175	8549.89400582925	-63.1946091970722
14.98558	4334.37226184733	8499.88724683711	9541.21932004582	-62.9814688972835
12.76553	4876.65842247867	9472.75687551909	10654.3380926375	-62.760192596804
10.8809	5465.74807574317	10545.5781082116	11877.8625881883	-62.602400020025
9.278505	6126.88888751446	11748.7022513765	13250.3121484532	-62.4581865429906
7.923394	6811.72521405219	13078.3433132725	14745.9372103497	-62.4876938694398
6.75822	7623.98807610994	14553.7167263491	16429.7250352975	-62.3521320551118
5.761429	8490.232258461	16213.2782243351	18301.7604230388	-62.3607837178183
4.919708	9404.22601054639	18065.0509295948	20366.284195854	-62.4996113915785
4.191257	10474.3347986687	20215.8412282853	22768.2218462892	-62.6101922460388
3.564097	11622.2258279522	22571.2074708144	25387.7045021102	-62.7554370471044
3.051758	12878.3433463266	25204.0728851444	28303.6573139505	-62.9346582454213
2.604164	14242.3583925707	28145.6086455103	31543.9385398947	-63.1594868842307
2.214424	15860.1026340059	31594.6180712248	35351.9836307351	-63.3439219984833
1.892567	17509.7405133797	35363.365195795	39460.8490889015	-63.6582466448921
1.607507	19504.7782366853	39713.8972781255	44245.1128496671	-63.8428536464832
1.376413	21613.8163609772	44516.7638298486	49486.3548826195	-64.102460823457
1.17375	23952.8909695574	49978.5279795289	55421.9653639246	-64.3932942002654
1.001604	26646.5629862206	56055.6438062213	62066.6941403244	-64.575494779117
