EC-Lab ASCII FILE
freq/Hz	Re(Z)/Ohm	-Im(Z)/Ohm	|Z|/Ohm	Phase(Z)/deg
6999984	38.8607392683325	36.9917233459467	53.6520703476052	-43.588509109711
5969734	38.0442716353319	30.9534588590157	49.0457258035774	-39.1323814242826
5091109	39.1883296948231	27.0845485173941	47.6371488720854	-34.6498289253428
4341796	38.1235325376261	22.0607609605947	44.0463495344158	-30.0564721184026
3702781	38.8482704919967	18.0091069812644	42.8195755990407	-24.87128428656
3157797	38.8948183719843	16.2893879603813	42.1681284421477	-22.7242338112883
2693047	38.4293075199807	14.4008845080418	41.0389711259822	-20.5428345161985
2296687	39.0273328581523	12.8035977340833	41.0738946894161	-18.1629798296092
1958656	39.1755780532445	10.7130915860906	40.6139907807374	-15.2943749550396
1670375	39.472497802078	9.47667740902951	40.5941559519331	-13.5002321041008
1424531	39.4986800199498	8.4631421949344	40.3951791570487	-12.0935634212751
1214875	39.714962274685	7.78418357289697	40.4706281440777	-11.0894663444642
1036062	39.7592982528916	7.03308316786385	40.3765533002568	-10.0313679954623
883578.1	39.9275369979874	6.45501723176673	40.4459572539464	-9.1834534840261
753531.2	40.115523264579	5.83617815266856	40.5378364274743	-8.27756137330066
642624.9	40.2304120302801	5.63872891252273	40.6236546346464	-7.97864929158091
548046.8	40.4458298897536	5.37697772105273	40.8016794370475	-7.57265139795121
467390.6	40.5559245490921	5.16431200893865	40.8834090378642	-7.25687716832076
398593.7	40.7445850694933	5.14108669589426	41.0676513194982	-7.19148549516248
339937.5	40.9234856731327	5.19951414508305	41.2524741922714	-7.24089164583661
289906.2	41.0910698511472	5.31665675528677	41.4335957957476	-7.37237973024118
247234.4	41.2887941675932	5.55366460626386	41.6606254678533	-7.66074938853053
210843.7	41.5320795503251	5.85467271722799	41.942708834795	-8.02397025317576
179812.5	41.7423813708915	6.2954020858473	42.2144346158448	-8.57646199586451
153343.8	41.9905048154034	6.81068712392368	42.5392519181097	-9.21290924427378
130781.2	42.283598247325	7.44884978279533	42.934695105798	-9.99094582301578
111531.3	42.5967132921539	8.20901058255515	43.380500666065	-10.9080106107463
95109.37	42.9420593567989	9.09421100259031	43.8944772786107	-11.9573484350607
81109.37	43.3323583813931	10.1064501204502	44.495321292588	-13.1284627091522
69171.88	43.7990018761947	11.3112337773001	45.2360097147796	-14.4804311112767
59000	44.2842110167606	12.6880147504946	46.0660076812149	-15.9877111829274
50312.5	44.8355747040858	14.2697169388058	47.0516055045872	-17.6545943779897
42906.25	45.4693810984124	16.0675210193349	48.2247845944327	-19.4618866103267
36593.75	46.1545687573551	18.1177410143438	49.583230599067	-21.4322369015801
31203.13	46.926225981539	20.483627861499	51.2020477641163	-23.581607855922
26609.38	47.7949922418482	23.176724421518	53.1179991933932	-25.8696517854195
22703.13	48.7579106446557	26.2531608836796	55.3765501527189	-28.2997548706417
19359.37	49.8516667992171	29.7530745637728	58.055440129738	-30.830108381278
16500	51.0762054265891	33.7752696829647	61.2335496516095	-33.4755519242222
14112.02	52.4171923210445	38.266193003077	64.8988719298733	-36.1306154285466
12011.13	53.9785731851261	43.5620826204762	69.3638335542033	-38.904412976756
10236.38	55.7258836342399	49.5501378616645	74.5693654856122	-41.6427387078688
8750.684	57.6503261667856	56.2981992576856	80.5794474217516	-44.3201532957813
7449.463	59.8673007424731	64.1650584752454	87.7567571604681	-46.9845216346987
6363.206	62.3510094841398	73.0137084541618	96.0138011221337	-49.5038972739802
5414.761	65.3021708939081	83.3107917770413	105.853963317274	-51.9093001486543
4620.567	68.5428426841454	94.9378964153311	117.095369075774	-54.1716354618843
3941.215	72.3332805830332	108.227481665974	130.174080629219	-56.2434164716096
3361.769	76.6503745828743	123.420754011375	145.285795742155	-58.1576799242976
2867.244	81.5779586638566	140.736427445328	162.670542354281	-59.9012477906602
2442.658	87.4254228595695	160.696129040953	182.938378835392	-61.4519580631818
2083.003	94.1705599424305	183.267298877605	206.046104544018	-62.803966572352
1777.843	101.916990987001	208.872407707848	232.410747930292	-63.9904475745089
1513.548	110.585021091429	238.36588130852	262.768605928827	-65.1120124584775
1292.065	121.186096102831	271.776310186982	297.570886794215	-65.9677249255054
1101.762	133.274980778859	308.832096158272	336.362132409577	-66.6576234066224
939.101	147.353520238081	351.799762679145	381.413336090465	-67.27332385327
801.2801	163.399769169265	400.151554024952	432.227660791339	-67.7876107701794
684.3433	181.867467631192	454.511875891342	489.547567769312	-68.1917751988647
582.9476	203.719370915485	517.36057611937	556.024772657448	-68.5071311693047
497.0677	228.881610079453	587.77473033217	630.766141331014	-68.7238811032027
423.5089	258.545232805851	667.95877721525	716.250351110227	-68.8401915356143
361.5036	291.754466914385	756.928945937122	811.210267539791	-68.9210931762867
308.1262	330.984399309643	858.464210313587	920.06058114436	-68.915650077233
262.7298	375.883449721022	973.041455378881	1043.11938034917	-68.878579707888
224.2111	427.608271191095	1100.71082086965	1180.85271933911	-68.7696604310336
191.2854	488.159411956266	1244.94382920587	1337.230252933	-68.5891787255674
163.1722	556.481196986395	1406.40178442297	1512.49373612836	-68.4124212457696
139.1537	635.593885212943	1587.31833653465	1709.84183140407	-68.177852324443
118.6706	726.357666628506	1792.22362209649	1933.82030485531	-67.9381267829603
101.1982	831.700764660119	2018.25500100416	2182.90618465717	-67.60397779684
86.24196	955.839795791867	2276.46362700847	2468.99095994943	-67.2234765250936
73.61024	1094.15480931357	2559.08614628018	2783.18103091179	-66.850538296243
62.69291	1253.35437329685	2876.17639182168	3137.40144417872	-66.4538223188944
53.57697	1432.10559335742	3223.55774604594	3527.35750564334	-66.0462201434383
45.65746	1641.21370037422	3615.20041403434	3970.29677025913	-65.5830983576341
38.96512	1875.55169839133	4044.82591017085	4458.50993235722	-65.1232424312621
33.18414	2146.08595976449	4526.29510881559	5009.29459692542	-64.6326186712915
28.30617	2453.46112823281	5053.47476207248	5617.56875157331	-64.1034348517087
24.17237	2792.96595035075	5632.45353959613	6286.90636764439	-63.6245567265384
20.61345	3187.70135336999	6270.37103897297	7034.13057062974	-63.0523437765412
17.55618	3635.62575256937	6984.60675854345	7874.16701526177	-62.5021324058771
14.98558	4126.10758890404	7751.17411424501	8780.97169933678	-61.9727194031762
12.76553	4690.09304041637	8602.80898859856	9798.2291880765	-61.4015950729898
10.8809	5317.96035332736	9540.68749412948	10922.7020549038	-60.8647909147317
9.278505	6007.85719442789	10544.1488331831	12135.6261760552	-60.3263251788678
7.923394	6782.58129139706	11642.5011850861	13474.0952504849	-59.7761711039832
6.75822	7623.72497811196	12846.7436589117	14938.5409320883	-59.3135649801945
5.761429	8575.25188442717	14190.4188549924	16580.1969880185	-58.8554852229875
4.919708	9616.89792689341	15603.1066130649	18328.7114035591	-58.3526001662011
4.191257	10729.057649662	17181.0531434689	20255.8945783314	-58.0164458277979
3.564097	12018.700391799	18974.3374936649	22460.5129601113	-57.64906528956
3.051758	13318.6228786489	20790.2343545223	24690.4750845266	-57.355596306894
2.604164	14816.564666144	22909.4063568281	27283.1722519267	-57.1073967196213
2.214424	16421.6903409651	25234.7210305717	30107.5249588093	-56.9456220861661
1.892567	18217.7277485461	27729.6951508802	33178.6316396698	-56.6960703184968
1.607507	20173.564234865	30631.6780998106	36677.9551931217	-56.6316985102139
1.376413	22200.9138734323	33604.0110825923	40275.4284602231	-56.5487514102128
1.17375	24547.9188068384	37019.5554544744	44419.0027329975	-56.4513715033524
1.001604	27024.1371528647	40816.5184736443	48951.937338232	-56.4919254560917
