EC-Lab ASCII FILE
freq/Hz	Re(Z)/Ohm	-Im(Z)/Ohm	|Z|/Ohm	Phase(Z)/deg
6999984	35.2365528131481	81.7918795025012	89.0591163593343	-66.6932613814795
5969734	35.6392970862922	78.4650099436981	86.1795641800864	-65.5721548637471
5091109	37.4890752727017	79.7980987675134	88.1655677218273	-64.8359040970039
4341796	43.7313310004852	83.6139754098321	94.3595580474496	-62.3897753822519
3702781	51.7513313433971	86.4365121948178	100.744582664374	-59.090168735873
3157797	60.3763578173348	90.7979827549668	109.039342696378	-56.3779756097961
2693047	69.768669797973	94.4433965336101	117.419003718237	-53.5454097805402
2296687	83.5762678631574	99.0392234912829	129.590741720582	-49.8399713982921
1958656	96.5633048780019	100.246626592901	139.19000679725	-46.0721722896221
1670375	110.772468431927	100.295564111499	149.431388747298	-42.1583090502393
1424531	125.442416133303	98.3866572119243	159.423129070713	-38.1077037034707
1214875	138.974709625674	94.3337325590973	167.966731866973	-34.1680115266834
1036062	151.518118755251	89.3332769009097	175.892508859772	-30.5230946763351
883578.1	161.800034660125	82.6937681500905	181.707210938033	-27.0709494761585
753531.2	171.120928200237	75.8675198707171	187.185075899347	-23.9103996866579
642624.9	178.909550704577	68.7845996292479	191.676676931413	-21.03004344771
548046.8	185.285042869841	61.83599859204	195.331097967409	-18.4556294826282
467390.6	190.564600898198	55.3196376545536	198.431674451738	-16.1876619942721
398593.7	194.564565170235	49.3586128651926	200.727782541079	-14.2349244256411
339937.5	197.85896032548	43.7610438630989	202.640561440862	-12.4715035716772
289906.2	200.409861175848	39.4571789845158	204.257145358342	-11.1380760838031
247234.4	202.422150661614	35.1957369318405	205.459161335406	-9.8635773051582
210843.7	203.869997993841	31.5558845631294	206.297721588412	-8.79866648797215
179812.5	205.341424896255	28.8498428163908	207.358178543685	-7.99753398050842
153343.8	206.50551109784	26.664152887934	208.219843345948	-7.35736823600875
130781.2	207.461894189133	24.9874561608103	208.961265563577	-6.86782736627103
111531.3	208.275529558406	23.7844542031145	209.629188031091	-6.51478796164527
95109.37	209.01323929714	23.1028552966416	210.286176731475	-6.30746891305513
81109.37	209.737917631791	22.6477250606088	210.957136743323	-6.16298041627904
69171.88	210.577440939506	22.9582733784703	211.825260413275	-6.22211539031449
59000	211.212837583964	23.5896958977035	212.526084311587	-6.37277464254414
50312.5	212.143235214263	24.7029047949215	213.576650766138	-6.64186427102733
42906.25	213.06006481403	26.0143099520124	214.642343308206	-6.96127105307891
36593.75	213.97018593211	27.9231608357565	215.784483637915	-7.4350956904962
31203.13	214.713844069159	30.6036812291508	216.883886307237	-8.11186770852678
26609.38	216.116786086223	33.4959329920904	218.697148484494	-8.81017148049837
22703.13	217.317985654021	37.1740337403319	220.474523864434	-9.70696502143714
19359.37	218.885861385623	41.5581637984768	222.796098019752	-10.7503498142601
16500	220.402271243442	46.5976489561957	225.274281837747	-11.9377303601554
14112.02	222.246799753933	52.3181181002237	228.321758670552	-13.2465664994625
12011.13	224.241759209043	59.1118445132207	231.902084369506	-14.7676605835537
10236.38	226.692620983881	66.8110349845374	236.332940582236	-16.4213428310162
8750.684	229.153173753885	75.6479003838168	241.316766665638	-18.2690572357998
7449.463	231.97603921861	85.9348182145217	247.38163988687	-20.3269955851948
6363.206	235.340059647224	97.4056767447132	254.701412514447	-22.484336382467
5414.761	238.964056945787	111.102397088988	263.529055610398	-24.935295131432
4620.567	243.80133623644	126.3541910795	274.598749367197	-27.3962176164543
3941.215	248.249049232912	144.21415405621	287.098088943819	-30.153387929449
3361.769	253.698108967878	163.936435573775	302.056096449835	-32.8700214784381
2867.244	260.253551613642	186.93115040977	320.429658616419	-35.6883836839528
2442.658	267.042508477652	213.279347475852	341.759829988491	-38.6133790647193
2083.003	275.481863865414	243.142524436949	367.435088836565	-41.4318845096827
1777.843	284.501222682261	277.206441283822	397.220790992796	-44.2559533748369
1513.548	295.223151009985	316.963461196212	433.154181124628	-47.0338647600153
1292.065	307.648729509383	361.838141555225	474.946924879903	-49.6275301070135
1101.762	321.573519420632	413.318467757159	523.680899195013	-52.1160691577611
939.101	338.130176050849	473.372097028148	581.732892486753	-54.4617411822929
801.2801	356.872005944794	539.27000683738	646.660474206866	-56.5046565782995
684.3433	376.991046951583	615.499299621353	721.776722619971	-58.5126845741607
582.9476	404.796815209863	703.391992441082	811.554530906139	-60.079896031182
497.0677	433.697518281477	801.243206420796	911.089574739493	-61.5741699608832
423.5089	468.020666941136	920.522521229193	1032.66889987749	-63.0498800580222
361.5036	510.218812129154	1044.43645358016	1162.39870174462	-63.9639769243739
308.1262	558.36190171036	1191.18827719367	1315.55977629496	-64.8854649462828
262.7298	614.575445145496	1355.73571682417	1488.53025217781	-65.6144964448072
224.2111	679.494751408584	1541.66053531673	1684.76417440094	-66.2142686647502
191.2854	752.300206687029	1753.15612408466	1907.75050685274	-66.7752516419628
163.1722	840.421572138137	1989.99546620739	2160.18294929877	-67.1045304868244
139.1537	945.345352293477	2259.00965369185	2448.83695875733	-67.2917730942732
118.6706	1064.42823462084	2561.92587874052	2774.25155218816	-67.4381065151496
101.1982	1200.60514364911	2903.03845641246	3141.50998571807	-67.5315559315355
86.24196	1358.98921988219	3284.5476332829	3554.58926671708	-67.5225604941519
73.61024	1535.57935992096	3711.35970435234	4016.49036170952	-67.5226177899314
62.69291	1746.68343524087	4197.04930824856	4546.00109093856	-67.4044165967959
53.57697	1976.04383539838	4725.11133510277	5121.66246140183	-67.3052948982383
45.65746	2246.31571244278	5329.85945608337	5783.8858997709	-67.1465855889871
38.96512	2552.36536928451	5998.38777791876	6518.83616243022	-66.9498318821391
33.18414	2906.69400392594	6757.29048344499	7355.93941724068	-66.7247167644322
28.30617	3291.96943364529	7594.71871411129	8277.48845354237	-66.5654344973859
24.17237	3743.31055633009	8517.67828042957	9303.93557641249	-66.2756897403882
20.61345	4244.52163503433	9564.44730057052	10463.9675112103	-66.0692530468026
17.55618	4821.20662857563	10740.1454737373	11772.6274956979	-65.8248865471793
14.98558	5447.99123106648	12030.0103528691	13206.1257582955	-65.6358104747861
12.76553	6191.22988814086	13501.7549580942	14853.5758144707	-65.3661765363975
10.8809	7012.24483482139	15132.362239178	16678.1283290776	-65.1372798972428
9.278505	7925.22454801645	16957.4312312992	18718.0035821324	-64.9504956560301
7.923394	8990.62037602572	19014.2910158766	21032.7011480279	-64.6935813806935
6.75822	10123.3227915535	21212.8297567897	23504.5912670807	-64.4882906026981
5.761429	11434.4118322586	23739.1018299164	26349.3971399885	-64.2812809513173
4.919708	12944.1938359005	26593.5243638251	29576.4719354882	-64.0458525932981
4.191257	14641.7722259029	29675.3592333117	33090.911736326	-63.7383461446514
3.564097	16519.3038164309	33242.1563326123	37120.4573816297	-63.5754542434957
3.051758	18663.2094542016	37002.2917979184	41442.550421393	-63.2345443553928
2.604164	20996.1661083065	41288.1612458276	46320.0955343257	-63.0454109872201
2.214424	23777.5747065891	46089.528236448	51861.5240036943	-62.7108036348637
1.892567	26797.7510384086	51381.3926897228	57949.6934888531	-62.45589471181
1.607507	30285.5596721398	57328.4035847011	64836.4170989199	-62.1533157002014
1.376413	34103.9697681536	63635.6464665445	72198.1734890999	-61.812004741642
1.17375	38380.7743396641	70861.1163809197	80587.726445548	-61.5585282130761
1.001604	43111.1123373163	78632.2344134878	89674.9479833604	-61.2656894839848
