EC-Lab ASCII FILE
freq/Hz	Re(Z)/Ohm	-Im(Z)/Ohm	|Z|/Ohm	Phase(Z)/deg
6999984	34.0684490010503	77.4302986631043	84.593796276055	-66.2510525551976
5969734	32.348461405909	74.7753917682081	81.4725853856289	-66.6062863881787
5091109	32.6089447722617	76.8490794610234	83.4812810944292	-67.0072995489907
4341796	36.2857862014985	81.3379783010329	89.0647236247896	-65.9578127556496
3702781	44.2715441202704	85.7719271446509	96.5235365333261	-62.6992871831816
3157797	52.8778243146652	89.9803493272222	104.367272501017	-59.5589628038491
2693047	62.4961635221038	94.3414357932478	113.163938436734	-56.477653077415
2296687	74.329444547332	98.7703308361175	123.614095394461	-53.0367722274907
1958656	87.8052566594141	101.341084340531	134.088696288465	-49.0932641517879
1670375	102.416125601785	102.505499428782	144.901484452109	-45.0249887866174
1424531	117.160077990826	101.200621272036	154.816180099699	-40.8198223450342
1214875	131.383947543354	98.0864150193167	163.959404986162	-36.7436630806027
1036062	144.632151037287	93.0133039301477	171.959105085118	-32.7451739748791
883578.1	156.43451173976	87.2305471431743	179.111487119488	-29.1447816747904
753531.2	166.741989524143	80.3288767968647	185.082736952735	-25.7226995701244
642624.9	175.454690606237	73.217274670485	190.11869388859	-22.6507863515304
548046.8	182.440207098323	65.9919812068045	194.008687304662	-19.8859899702826
467390.6	188.302675570211	59.0003508142015	197.329518884274	-17.3971930885271
398593.7	192.972122004892	52.5795552185219	200.007123618257	-15.2415195984387
339937.5	196.646933058567	46.8127438574025	202.142151143198	-13.390304421527
289906.2	199.354475444624	41.5627417987096	203.641028247324	-11.7767063014118
247234.4	201.855508864104	37.1243668828274	205.24099267748	-10.421128265178
210843.7	203.661928990973	33.426518183673	206.386805387863	-9.32071125342764
179812.5	205.131211021171	29.9263232971505	207.302673791482	-8.30025050198784
153343.8	206.334947641924	27.2205817380027	208.122729870024	-7.51530405223657
130781.2	207.355151212556	25.0086581166311	208.857826559543	-6.8771035529742
111531.3	208.351626389562	23.3426638426713	209.655145833456	-6.39247293154074
95109.37	209.066023198513	22.0892362237749	210.229722953228	-6.03130898538003
81109.37	209.843027200406	21.0895893498067	210.900134764238	-5.7390546732397
69171.88	210.622294135179	20.8467098586782	211.651449554917	-5.65253976504833
59000	211.741545785432	20.5006056375355	212.731655009568	-5.5300837873262
50312.5	212.352496063713	21.179229397373	213.406050388352	-5.69562733715776
42906.25	213.108004358356	21.7620470267682	214.21626505099	-5.83068781341497
36593.75	213.986247850541	22.9673630532999	215.215273702345	-6.12616214836393
31203.13	215.489210537489	24.6214207739836	216.891249752036	-6.51824862672786
26609.38	216.095104271425	26.358302869144	217.696702364137	-6.95432680460193
22703.13	217.398005566526	28.6041833023645	219.271731253024	-7.49564587028563
19359.37	218.595951934334	31.3974558506194	220.839286441451	-8.17362682926393
16500	220.173439331359	34.7439682492656	222.897928919732	-8.96748277272949
14112.02	221.577853435533	38.4659735014039	224.891921265548	-9.84841111232108
12011.13	223.479945712047	42.9009311258931	227.560488720973	-10.866740460763
10236.38	225.403709674331	47.9082551780945	230.438784168724	-11.999323323132
8750.684	227.679245414898	53.5360341962416	233.888746523125	-13.2320420193559
7449.463	230.105385156881	60.4212265479027	237.905890838688	-14.7126279873314
6363.206	232.747148770274	67.8810723459231	242.443963099774	-16.2594077693784
5414.761	235.710291721946	76.4378928145495	247.794457326174	-17.9672287989028
4620.567	238.383499580084	86.2473792790171	253.506022225403	-19.890172562187
3941.215	242.442885633252	97.8876263182178	261.458486533509	-21.9866595120384
3361.769	246.484288187743	110.843445705378	270.260566452561	-24.2133453912553
2867.244	251.112814554353	125.646315716457	280.7928814741	-26.5814601726223
2442.658	256.091399638074	142.703011065683	293.167109914806	-29.1280684959065
2083.003	261.684327570283	162.283003036451	307.919568021326	-31.8050361767387
1777.843	267.955349048219	184.160888504873	325.138896378851	-34.5000405689617
1513.548	275.32661562592	209.834231036915	346.172138952395	-37.3120544021063
1292.065	283.44137918593	238.849534714804	370.659028850372	-40.120068989841
1101.762	293.023698069894	271.997438228219	399.806820893879	-42.8688225528252
939.101	303.91492564585	310.175261763007	434.249899297711	-45.5840810031061
801.2801	315.828074868864	353.479336288354	474.020056599115	-48.2197269677535
684.3433	330.888545734162	402.620447604451	521.143410710792	-50.5853551122896
582.9476	346.111989467291	460.188196258424	575.818274483007	-53.0528207753323
497.0677	365.382951768658	523.933631624594	638.757506249839	-55.1086964766648
423.5089	388.153225752763	596.606880903972	711.760280575027	-56.9519188923346
361.5036	412.615678272997	682.207360107175	797.281995369949	-58.8334263478749
308.1262	441.869865966025	777.907942117746	894.645038469839	-60.4024139740612
262.7298	475.259975580513	886.898067516292	1006.21082609606	-61.8145830517201
224.2111	515.060470415767	1010.15769427108	1133.88970163767	-62.9838180242436
191.2854	560.902473232231	1150.65789149811	1280.08795312858	-64.0125064496215
163.1722	615.752113006685	1307.17439925844	1444.94137415635	-64.776946739885
139.1537	676.829110865509	1488.5979127959	1635.24352660248	-65.5498668055165
118.6706	747.034717046467	1694.36489297602	1851.73790235614	-66.2076223543267
101.1982	830.78009028831	1924.58956147432	2096.24438903372	-66.6517792371121
86.24196	928.614434965297	2186.143004446	2375.19388781508	-66.9855271527758
73.61024	1039.98284242968	2478.18778435873	2687.56004716042	-67.2344200189806
62.69291	1171.23929727509	2811.89928963117	3046.07601784816	-67.3868267924854
53.57697	1317.07702335799	3177.68055713911	3439.8176708479	-67.4870944066333
45.65746	1490.26100656734	3597.18518707538	3893.66397340726	-67.4964909144735
38.96512	1686.87967196403	4062.71409410995	4399.00089090297	-67.4512845444376
33.18414	1915.01079434882	4591.4573460994	4974.81124300436	-67.3598977761143
28.30617	2176.40919264406	5178.84630223285	5617.58008362822	-67.205428354547
24.17237	2464.94666577221	5825.52862223894	6325.56288354061	-67.065397469417
20.61345	2799.97501698191	6553.99943529825	7127.04487804115	-66.8670394807427
17.55618	3182.30542514144	7379.83115585375	8036.72667867922	-66.6734943375475
14.98558	3606.37866217213	8277.23533547932	9028.76469146682	-66.4573173614447
12.76553	4091.78230422942	9309.69489168486	10169.2232447453	-66.2736270923257
10.8809	4617.77311385373	10432.7166146764	11409.0054120934	-66.1246580655917
9.278505	5226.96787767009	11710.1580519712	12823.7667943682	-65.9458379377314
7.923394	5924.1371233539	13111.3729606617	14387.6162573885	-65.6850275493878
6.75822	6606.3962794742	14707.6213727184	16123.2316315525	-65.8112501516552
5.761429	7438.07152959664	16508.9534542801	18107.1933837076	-65.7461621461283
4.919708	8360.64040915489	18511.3207731932	20311.8021066386	-65.6936792120943
4.191257	9351.98346383061	20741.8547427259	22752.6730929819	-65.7305776941007
3.564097	10513.1556952756	23367.9756467776	25623.9873653867	-65.7772164586244
3.051758	11738.9866725797	26137.0899627474	28652.2473781683	-65.8136565743947
2.604164	13143.1159113067	29405.62725649	32209.1976026363	-65.9173046395339
2.214424	14717.5638667055	33066.840837346	36194.2350262156	-66.0068579429128
1.892567	16503.0428913514	37174.4086084022	40672.9280979159	-66.0618618912454
1.607507	18532.0310610755	41962.6112188587	45872.616183882	-66.1722135625876
1.376413	20693.1233251719	47052.1032250764	51401.4179848573	-66.2605063588172
1.17375	23256.8277682278	52991.2881944596	57870.1707475387	-66.3042803343652
1.001604	26049.8801352904	59647.015967478	65087.3472257671	-66.4074700332683
