EC-Lab ASCII FILE
freq/Hz	Re(Z)/Ohm	-Im(Z)/Ohm	|Z|/Ohm	Phase(Z)/deg
6999984	21.9803757803224	-22.17644823086	31.2238975078416	45.2544125469437
5969734	15.1354698559691	-17.4123744409986	23.0710474715495	49.0016424707685
5091109	7.86509944056286	-11.7199873978544	14.114456908284	56.1350586933945
4341796	5.77881636009256	-9.35379360978541	10.9949157985924	58.2920385272558
3702781	5.17240258011598	-5.9556352360077	7.88817719851468	49.0260504728411
3157797	3.88580715216128	-4.93822747643781	6.2837558699263	51.8013950070973
2693047	2.82211674447012	-4.30199375055773	5.14504549535341	56.7350429077216
2296687	2.02284600136897	-3.62561649809573	4.15174673318573	60.8414715324699
1958656	1.77816736725535	-3.4390463332829	3.87155251397142	62.6586644755068
1670375	1.37451032274189	-2.77612716874106	3.09776704810841	63.6591633773643
1424531	1.07838293504837	-2.42331172219835	2.65242331793918	66.0107540559197
1214875	1.2776051880452	-2.38165706980121	2.70269595305393	61.7893156129548
1036062	0.780710198026065	-1.75666895696776	1.92234082245478	66.038370621645
883578.1	0.660334626953378	-1.62409448503807	1.7532041284131	67.8740128056852
753531.2	0.730555967381858	-1.37680076095449	1.55861873363632	62.0487509025901
642624.9	0.620583428100002	-1.12037622637564	1.28076800391799	61.0176560544726
548046.8	0.557747122506779	-1.01986951758922	1.16241803391562	61.3265948976072
467390.6	0.530595564299792	-0.889441328070073	1.03568215632677	59.181841983094
398593.7	0.497567731124567	-0.770677872211412	0.917342918309592	57.1527635178397
339937.5	0.473910218877817	-0.669291498025557	0.820086583774003	54.6985503685984
289906.2	0.452425921174986	-0.580769468943898	0.736194532856915	52.0810098702771
247234.4	0.433811072097124	-0.502937140408325	0.664182063500784	49.2204149456833
210843.7	0.420429568949249	-0.435087408940845	0.605030640435433	45.9815704734781
179812.5	0.408783294567578	-0.373823586853662	0.553938494785893	42.4422497447723
153343.8	0.400788975723405	-0.325386713422465	0.516244434675367	39.0719515656302
130781.2	0.393470272771112	-0.282106224914319	0.484151606100797	35.6393728741573
111531.3	0.387029768138352	-0.246303243367342	0.458756285099724	32.4724116869292
95109.37	0.380096920814846	-0.214650654212844	0.43651869669801	29.4545513067279
81109.37	0.372438143781046	-0.186285133603196	0.416428051342164	26.5731809324827
69171.88	0.367166481955789	-0.162188122453078	0.401392840664411	23.8324430490524
59000	0.357684949530162	-0.137095614644847	0.383058390686385	20.9711261976367
50312.5	0.351191876746011	-0.107002820929206	0.367131227191576	16.9451809543705
42906.25	0.380987166269525	-0.107766850276395	0.39593549333266	15.7942004171999
36593.75	0.365217556331034	-0.0977277727456	0.378066900188614	14.9806805622054
31203.13	0.358881603767064	-0.0854362142991774	0.368911035666046	13.3907169511394
26609.38	0.354763367186453	-0.0735990089257604	0.362317348207789	11.7202928769032
22703.13	0.354826579420601	-0.0654029965490535	0.360803898843845	10.4437543685077
19359.37	0.351925873733672	-0.0582956801458832	0.356721469674703	9.40550327752906
16500	0.349585312102871	-0.0520328564844018	0.353436427935758	8.46584676393655
14112.02	0.347480912933262	-0.0461181745866798	0.350527988725781	7.56019529548507
12011.13	0.345727341670306	-0.0415746002343166	0.348218095685821	6.85703857098872
10236.38	0.344673400262847	-0.0368216838610521	0.346634662506674	6.09781792623881
8750.684	0.344941289660159	-0.0322044407821574	0.346441364906827	5.33379245741894
7449.463	0.341736840635415	-0.0277723402656886	0.342863487603023	4.64611476071585
6363.206	0.337166319165272	-0.0274915526652034	0.338285252778482	4.661417890466
5414.761	0.338241250815775	-0.0236812037179667	0.339069230634323	4.00490050345109
4620.567	0.338536636756828	-0.0237706084843864	0.33937014638053	4.01647482387053
3941.215	0.334986627167672	-0.022675325712871	0.335753199206438	3.87245787135983
3361.769	0.334982282708265	-0.0218750758588025	0.335695768028535	3.73623486373629
2867.244	0.334690258073582	-0.0206615250520206	0.335327403393812	3.53257300475248
2442.658	0.331186795928087	-0.0193373698411024	0.331750851799184	3.34159815022624
2083.003	0.329584006415737	-0.0164796312646755	0.3299957507782	2.86247995573974
1777.843	0.327198508324066	-0.0188314852820308	0.327739971146977	3.29395040702537
1513.548	0.316955178856524	-0.0194272111759345	0.317549999115172	3.50745625388733
1292.065	0.333974648835414	-0.0112409291999639	0.334163769062441	1.92773540932489
1101.762	0.322158475980086	-0.00774165633021556	0.322251480816686	1.37658610675014
939.101	0.330896412193439	-0.0152687246152545	0.331248501209993	2.64195480292963
801.2801	0.322357919151424	-0.00709364750089992	0.322435959338445	1.26061887605786
684.3433	0.319377720507909	-0.0143056819788246	0.319697952595427	2.56469889270758
582.9476	0.32310594427844	-0.0153399078863378	0.323469881135823	2.71815647080865
497.0677	0.322768608999066	-0.00895797877271121	0.322892892982927	1.58975390851297
423.5089	0.317758703702287	-0.0136985606861516	0.318053838749715	2.46848953862259
361.5036	0.31932820639329	-0.0110774108299939	0.319520284847538	1.98677871011313
308.1262	0.317932805411825	-0.0126862397323516	0.3181858096075	2.28501928529698
262.7298	0.317007046194099	-0.011498858786126	0.317215527819953	2.07739026653968
224.2111	0.315641757586138	-0.0111423156546198	0.315838361080813	2.02173085448949
191.2854	0.311367030925474	-0.0100750043946422	0.311529988381371	1.85329157596134
163.1722	0.311501223852246	-0.0125245001477974	0.311752907869998	2.30244579663589
139.1537	0.311834573239367	-0.0108876720995167	0.31202458632474	1.99966395796782
118.6706	0.311004679491164	-0.00607611869348201	0.31106402859183	1.11924898856067
101.1982	0.301681758740813	-0.0133276112137264	0.301976006956868	2.52955194268087
86.24196	0.312232971234598	-0.00384648950551406	0.312256663351643	0.705807800214422
73.61024	0.324915110439049	-0.0113274192705715	0.325112502710909	1.99667712898181
62.69291	0.268618986283018	0.0533193507544253	0.273859659235509	-11.2269590265617
53.57697	0.296624873836633	-0.0139958645147992	0.296954878730953	2.70142438431744
45.65746	0.307574586704749	-0.0289248053978919	0.308931660329438	5.37238632154116
38.96512	0.295715702514504	-0.005717038581305	0.295770960785177	1.10755491996205
33.18414	0.301616106990085	-0.0153454949800933	0.302006225452454	2.91255875886535
28.30617	0.31463434479387	0.000525725847689733	0.314634784013997	-0.0957360336504249
24.17237	0.302438832716989	-0.00819313574784851	0.302549789305162	1.55177597402052
20.61345	0.295698681875598	-0.0205239420412617	0.296410092034463	3.97043480024279
17.55618	0.294064438135041	-0.0181449408314665	0.294623713664489	3.53089996799069
14.98558	0.296474148634901	-0.00881986918900486	0.296605311653889	1.70400111990426
12.76553	0.299890341250944	-0.00976578912064915	0.300049308302413	1.86515122936275
10.8809	0.289374583399192	0.0109936129499101	0.289583336956994	-2.17567430080083
9.278505	0.279660719457074	-0.00572434952192178	0.279719298913567	1.17261828830372
7.923394	0.282076682151931	-0.0204684115638773	0.282818334776566	4.15029599241687
6.75822	0.297524853515315	-0.0191992301332812	0.298143671569631	3.69216810675499
5.761429	0.297702031080711	-0.0216292265660921	0.298486721231327	4.15546292581336
4.919708	0.300434791976317	-0.00435327128179572	0.300466329562408	0.830152246829303
4.191257	0.297471001558074	0.0026072674181057	0.297482427399255	-0.502171953514504
3.564097	0.291672674544501	0.00385494717129961	0.291698148251983	-0.757216438382535
3.051758	0.287005148518917	0.00543327179326591	0.287056572331562	-1.0845323298381
2.604164	0.287167628048812	-0.00313253149717786	0.287184712951023	0.624978925181931
2.214424	0.279887525071037	0.00134267917795666	0.279890745609364	-0.274857766494112
1.892567	0.290902614985909	0.00177958054668769	0.290908058177429	-0.350499368128385
1.607507	0.271722771729084	-0.0203460852942257	0.272483445117196	4.28220806558984
1.376413	0.267483834914155	0.0212779483760231	0.26832881512703	-4.5482180459242
1.17375	0.315782505415578	-0.00617196534242338	0.315842815151347	1.11970277113441
1.001604	0.260101971985315	-0.0319464739684964	0.26205650732174	7.0021630509174
