EC-Lab ASCII FILE
freq/Hz	Re(Z)/Ohm	-Im(Z)/Ohm	|Z|/Ohm	Phase(Z)/deg
6999984	48.4038134528741	43.838359155157	65.3049070912529	-42.1665023467097
5969734	45.1442446572609	37.9018873583511	58.9453636090216	-40.0159109922641
5091109	44.0599224303655	34.0448256184919	55.6805793429213	-37.6930369584006
4341796	44.7249828591773	30.6399875466306	54.2137706548012	-34.4140854405362
3702781	46.1598091945242	26.5560817545787	53.2536708878435	-29.9121383202312
3157797	47.0270376474453	23.2376051755878	52.455014671533	-26.2954912074946
2693047	47.5683069224852	20.5318017922468	51.8102181843298	-23.3463685739752
2296687	48.3646517494689	18.2424593301476	51.6906844727316	-20.6657626111438
1958656	49.0262211117064	16.1198149404467	51.6083209396331	-18.2008580694453
1670375	49.685582003971	14.2661223690502	51.6931262985906	-16.0202551856908
1424531	50.1798475053068	12.5399095967954	51.7229777599052	-14.0308139407037
1214875	50.5311107902004	11.1205631401834	51.7403138978332	-12.4114404060136
1036062	50.9310904343144	9.8730095627438	51.8792086548585	-10.9707380301572
883578.1	51.1561918511681	8.76300983002181	51.9013131432585	-9.7203722338432
753531.2	51.4063852201473	7.86896310156758	52.0051634137997	-8.70291951082783
642624.9	51.6256984820743	7.12837881670361	52.1155113983973	-7.86158255487978
548046.8	51.8186982422227	6.52807217735243	52.22827982876	-7.18024406322201
467390.6	51.9964894170656	6.05108264651287	52.3474021599347	-6.63792805097479
398593.7	52.1502532216482	5.726492931296	52.4637172946619	-6.26640502787811
339937.5	52.2937092036055	5.47755576337109	52.5798025805736	-5.97969694719464
289906.2	52.4181147393948	5.29083781452119	52.6844542309392	-5.76364602180671
247234.4	52.5980298831411	5.37146925115864	52.871593786304	-5.83100294020229
210843.7	52.8062043425756	5.40790380495176	53.0823948276023	-5.84729785989581
179812.5	52.890209301229	5.58739998353058	53.1845210423462	-6.03044381910938
153343.8	53.1235784188089	5.87959143006533	53.4479576728974	-6.31565647994755
130781.2	53.3087153837314	6.28709062027008	53.6781766114607	-6.72624376551625
111531.3	53.5278110333213	6.81506591545357	53.959908056361	-7.25575990062025
95109.37	53.7660251785188	7.42187286073317	54.2758662782825	-7.8594511518819
81109.37	54.0431770648086	8.20229067221991	54.6620760631156	-8.6300851159108
69171.88	54.3495602925011	9.08534966203901	55.1037047980417	-9.49010622555807
59000	54.688266858272	10.1697317766137	55.6258031525823	-10.5342931592942
50312.5	55.0946092659172	11.4144392466683	56.2646016024282	-11.7048803122142
42906.25	55.5235122770324	12.8076417618005	56.9815417751782	-12.9892511536692
36593.75	56.0132886407089	14.4709664479135	57.8523757012969	-14.4855648131211
31203.13	56.5415114896726	16.4197743594721	58.8774278612165	-16.1934087609573
26609.38	57.1657489751645	18.540492327398	60.0971938748709	-17.9693659314786
22703.13	57.8708400621452	21.0319516613182	61.5741595166545	-19.9726211889063
19359.37	58.677794398832	23.9308249863765	63.3700871077212	-22.1873265206271
16500	59.5392288145996	27.2234019968755	65.4678041797702	-24.5715242273034
14112.02	60.5014727883	30.9171655681861	67.943353878978	-27.067717994194
12011.13	61.6371974390332	35.2913439239306	71.0255099530831	-29.7939715045634
10236.38	62.9043007608091	40.2958981897469	74.7041529309099	-32.6432390535474
8750.684	64.3402794078135	45.9067483500935	79.0386051139209	-35.5078332235512
7449.463	65.9600476712403	52.5373882736285	84.3261825022709	-38.5374335089747
6363.206	67.8234685447618	59.9557326869138	90.5246528160531	-41.4765809472809
5414.761	69.9809282059127	68.652259853527	98.0329694314994	-44.4508908054743
4620.567	72.5274069363322	78.4804444132357	106.86161571026	-47.2575474832344
3941.215	75.2502438039887	89.7578976256269	117.128473817139	-50.0245726703053
3361.769	78.6023158309008	102.715123428136	129.339555569199	-52.5751286727979
2867.244	82.4072851485329	117.526888103996	143.539298009154	-54.9627011008876
2442.658	86.8391339647348	134.524550138489	160.118361775619	-57.1566940083143
2083.003	92.0910244246916	153.941847061444	179.384639967524	-59.1113108785134
1777.843	97.9847157259436	175.939639980232	201.384610713599	-60.885589282695
1513.548	105.141785974236	201.615623745447	227.384376983375	-62.458129247211
1292.065	113.30212013481	230.158592856022	256.535276896779	-63.7899696419926
1101.762	122.428012483958	262.766523092233	289.88767462373	-65.0182765631941
939.101	134.058267881487	300.315231579004	328.878180343019	-65.9444055432436
801.2801	146.898084609353	342.580951515344	372.747576253763	-66.7904350235337
684.3433	161.793960351219	390.531997625366	422.720388407504	-67.4962044355759
582.9476	179.485020345066	445.942720265668	480.707585010069	-68.0759804284688
497.0677	199.877442853644	507.704980305648	545.632971134324	-68.5110272823116
423.5089	224.841118706215	578.673243323026	620.819016460556	-68.7665664589399
361.5036	252.548640446285	658.856425151799	705.600882053782	-69.0274914388425
308.1262	285.309674490167	749.277138083275	801.759215732472	-69.154172407346
262.7298	323.474582382067	851.342951131119	910.725329552163	-69.1953107770363
224.2111	367.649757314706	965.448086178324	1033.08099932142	-69.1527973086376
191.2854	419.272471976827	1094.50147835455	1172.05925271628	-69.0395808483198
163.1722	479.060028087776	1238.31224091649	1327.7483634014	-68.8502755928086
139.1537	547.871301580239	1402.17038471808	1505.40517830771	-68.6578763652036
118.6706	628.250782769215	1585.69519775467	1705.6166938185	-68.3865808492092
101.1982	721.308785117689	1789.03055530164	1928.96777870727	-68.0414883692019
86.24196	829.105827493013	2017.21278361151	2180.9548109827	-67.656575322433
73.61024	952.111867200766	2270.42136035068	2461.97688072028	-67.2490304427564
62.69291	1094.2220497763	2555.42505657727	2779.8415627513	-66.8195985753059
53.57697	1256.22755416276	2865.32885978058	3128.61265460095	-66.3262246179187
45.65746	1444.75813233138	3216.20646141219	3525.80629975148	-65.8098177571673
38.96512	1658.57232429561	3601.38341221989	3964.94951250731	-65.2721541622166
33.18414	1907.49952041614	4029.44173456216	4458.13359071026	-64.6675690967945
28.30617	2185.62518007185	4496.99597125016	4999.99301931555	-64.0793706243132
24.17237	2501.29426907501	5010.38079169423	5600.03470509657	-63.4706029669867
20.61345	2866.00756016867	5576.29411012781	6269.69340060502	-62.7985234732983
17.55618	3276.81425215218	6198.0926577149	7010.98168851745	-62.1354394169934
14.98558	3732.36909748694	6867.55923467613	7816.2618253012	-61.47688172727
12.76553	4257.64467106956	7606.04096138774	8716.61615831482	-60.7611428495926
10.8809	4841.9746338717	8407.35581725427	9701.97661267931	-60.0614467901788
9.278505	5492.16864202576	9271.17869064282	10775.8373552258	-59.3578546177582
7.923394	6202.46438981159	10195.9949967733	11934.3570619077	-58.6868637438804
6.75822	6972.59808617795	11207.5100398518	13199.4471613304	-58.1127600331594
5.761429	7846.16113056583	12298.701924275	14588.3622627411	-57.4634842597171
4.919708	8734.38540975345	13473.0944300126	16056.5800221016	-57.0453224720968
4.191257	9762.18647495595	14801.9003745907	17731.230624836	-56.5942499887241
3.564097	10858.1122950091	16212.5782452749	19512.7213881147	-56.1884411711668
3.051758	11979.8317655438	17758.2689333372	21421.3091252486	-55.9961679942768
2.604164	13223.7304926657	19423.2002479563	23497.3989201968	-55.7521280805968
2.214424	14591.9862493188	21395.2434036532	25897.5385510259	-55.7052257554873
1.892567	15974.1282580659	23449.2289381351	28373.2111576785	-55.736451955322
1.607507	17595.6115311524	25861.1710889633	31279.4775411587	-55.7691277383783
1.376413	19187.5576104799	28484.2264766969	34344.0464277471	-56.0349858848969
1.17375	20961.7865730194	31407.5253381735	37760.1528625194	-56.2803436015058
1.001604	22953.5083096095	34727.5372974531	41627.6997979147	-56.5368969134315
