EC-Lab ASCII FILE
freq/Hz	Re(Z)/Ohm	-Im(Z)/Ohm	|Z|/Ohm	Phase(Z)/deg
6999984	20.0226579048277	-4.35791698188758	20.4914194236217	12.2788866201101
5969734	13.7126275119316	-5.49412659256181	14.7723248101333	21.834092310351
5091109	12.3495747319623	-4.48840826470349	13.139931689738	19.9734920847549
4341796	8.15377439925994	-6.22357067704684	10.2575274275151	37.3535823830974
3702781	5.71135638784452	-5.6926872287792	8.06388737977398	44.9062031765309
3157797	3.84596871676938	-5.1962541129226	6.4647143924874	53.4932820803391
2693047	2.7861999956776	-4.29436561449444	5.11903178803043	57.024346487217
2296687	2.49628970000938	-3.4200799975316	4.23419525481392	53.8745854929987
1958656	1.68869695512163	-3.22530374525113	3.64064302773123	62.3644506477072
1670375	1.59213245702286	-2.88436675737661	3.2946103490041	61.1018808503569
1424531	1.14987430347837	-2.35412696824793	2.61994746062436	63.96678441757
1214875	0.851863856409134	-2.04284348680281	2.21334171366035	67.3639084806802
1036062	0.818966437616905	-1.75907983858687	1.94037828901112	65.0349496350324
883578.1	0.679858963922166	-1.56422748392706	1.70558372186712	66.5088262672269
753531.2	0.690929965093214	-1.38832100281442	1.55074802064015	63.5417070293625
642624.9	0.578048694784913	-1.16812559593275	1.30332563138142	63.6714246741801
548046.8	0.555918223787181	-0.984390789679747	1.13051771253042	60.5451377608283
467390.6	0.484917780827745	-0.884787950627121	1.00895736864242	61.2745703298093
398593.7	0.48050319920032	-0.738890073184502	0.881386331124065	56.9638879806748
339937.5	0.479452343544855	-0.654355594280654	0.811206381568243	53.7694248192804
289906.2	0.459818908449205	-0.579689067562636	0.739914078538216	51.5779701148861
247234.4	0.424312786232038	-0.481246939745934	0.641591737458348	48.5975525265966
210843.7	0.42243315950722	-0.422951157486292	0.597777095471419	45.0351072212794
179812.5	0.397140176553458	-0.385448169829532	0.553435282086214	44.1440547174478
153343.8	0.384446115629607	-0.324310333344514	0.502967203838106	40.1502466769105
130781.2	0.377464602885926	-0.281608164992785	0.470938090434861	36.7248471466106
111531.3	0.370565975214761	-0.245894813729937	0.444728458057439	33.566881396766
95109.37	0.363695305798118	-0.214558898031085	0.422267446275344	30.5381119001455
81109.37	0.357094621543114	-0.187231997485637	0.40320266568747	27.6689397973586
69171.88	0.34976200583467	-0.162806552821488	0.385797141470887	24.96094645192
59000	0.340745888250099	-0.137101010042577	0.36729340766483	21.9176639343488
50312.5	0.334786531613624	-0.107073474485629	0.351492177278961	17.735633528533
42906.25	0.363503384061449	-0.108450068269135	0.379336430535884	16.6123039345554
36593.75	0.348275716668418	-0.0982499825740024	0.361868807576298	15.7539730504037
31203.13	0.34311272737197	-0.0858020377213031	0.353678290769676	14.0399927245817
26609.38	0.337579207228443	-0.0742069061203617	0.345639098003887	12.3976206639951
22703.13	0.337214996119973	-0.06608865414779	0.343630126466321	11.0884980457904
19359.37	0.334316215759441	-0.059135914643156	0.339506094967964	10.0310700574088
16500	0.331838119451936	-0.0528002748046186	0.336012509500526	9.04080418177238
14112.02	0.329308956293385	-0.046982727269027	0.332643601105859	8.1196312866508
12011.13	0.327754957331564	-0.04200588835098	0.330435783037447	7.30335550466177
10236.38	0.325933338483139	-0.0377151658843358	0.328108175564778	6.60058839146611
8750.684	0.32508867892039	-0.0354254965067118	0.327013172463972	6.21908444357825
7449.463	0.323501969943763	-0.0397564314223196	0.325935727401789	7.00617375548332
6363.206	0.321434354533801	-0.0223697248470592	0.32221180745636	3.98099212057587
5414.761	0.327977671361355	-0.0228654294715313	0.328773753174633	3.98800397807268
4620.567	0.315558405729663	-0.0315075649018395	0.317127472907489	5.70191440304373
3941.215	0.326021213763212	-0.0237983782744074	0.326888657851768	4.17498130606229
3361.769	0.323464475162916	-0.0257071169652981	0.324484394933081	4.54399190922732
2867.244	0.303334944318517	-0.0250053770859003	0.304363856802883	4.71251483959356
2442.658	0.307288175781305	-0.0300084081921962	0.308749943380127	5.57756766459766
2083.003	0.322453661859735	-0.0116264287880325	0.322663195752344	2.06496911449904
1777.843	0.323168051097518	-0.0280275632776422	0.324381154744616	4.95671804624524
1513.548	0.292998634926016	-0.0225078751807921	0.293861879994093	4.39277975272537
1292.065	0.31136526623237	0.0011190235618093	0.311367277069518	-0.205915874949862
1101.762	0.322394950399352	-0.0186640286107587	0.322934745741277	3.31325851176348
939.101	0.289680371221196	-0.0150827281543381	0.290072760112748	2.98051613703023
801.2801	0.290451428000596	-0.00602319345720941	0.290513873828788	1.18799246482046
684.3433	0.288545002402179	-0.00184257705613346	0.288550885463	0.365871711180186
582.9476	0.290071205771208	0.00117252931336601	0.290073575567567	-0.231600426989986
497.0677	0.287869530569081	-0.0253522274447577	0.288983740142025	5.03296612370566
423.5089	0.309521023423991	0.00378610759464082	0.309544178675924	-0.700815618945447
361.5036	0.315327454352582	-0.0234772032991233	0.316200225400343	4.25800976607028
308.1262	0.306662894153454	-0.0290722515762956	0.308037865306017	5.41556843168679
262.7298	0.313353637141243	-0.0214757584611592	0.31408869784048	3.92064763263489
224.2111	0.305480021951501	0.00455843931161435	0.305514031069683	-0.854916628650448
191.2854	0.275793816489243	-0.0119352630453889	0.276051951120916	2.47798803295027
163.1722	0.308133517245176	-0.0222446055324242	0.308935408985723	4.12910228357498
139.1537	0.280024340666312	-0.00580685682339967	0.28008454250774	1.18797069242425
118.6706	0.284842004976941	0.00301195470341457	0.284857928923207	-0.605830102710864
101.1982	0.278237787678423	-0.0206194841625301	0.27900076992602	4.23829486129763
86.24196	0.275812325109973	-0.00395500882596479	0.275840680062574	0.821536107506126
73.61024	0.296020288273445	-0.0363620916306103	0.298245222555611	7.00293081436288
62.69291	0.253114255193316	-0.0101499026806311	0.253317679419526	2.29633520175082
53.57697	0.257987346256328	-0.0158887207971554	0.258476154174717	3.52423589587553
45.65746	0.299444793196322	-0.0203294740741059	0.3001340895142	3.88388264979474
38.96512	0.273789948333684	0.00468056925046221	0.273829953688543	-0.979403168798522
33.18414	0.268911388919093	-0.0100630118794242	0.269099608506741	2.14308216958261
28.30617	0.284993527878099	0.0106848666361263	0.2851937539769	-2.14710547922002
24.17237	0.288852760442417	-0.00278224881256601	0.288866159533545	0.551859655649162
20.61345	0.27294183409045	-0.0285531640892684	0.274431280972427	5.97213963387687
17.55618	0.259548709192937	-0.00237810424690718	0.259559603604892	0.524955505646322
14.98558	0.28970531653544	-0.0184946262999381	0.290295059604662	3.65277382059297
12.76553	0.270844401421538	0.00607130863308515	0.270912440780982	-1.28413993946357
10.8809	0.26693161201193	-0.0199885536992378	0.267678964004038	4.28246876138662
9.278505	0.290691651183048	-0.0122916620906555	0.290951406637737	2.42126349235894
7.923394	0.276927496280138	0.00841634782791855	0.277055361086456	-1.74079073992961
6.75822	0.26000164268789	-0.000218555456307731	0.260001734545923	0.0481623968107727
5.761429	0.264276165135249	-0.00923140609444326	0.264437346676058	2.00058011748224
4.919708	0.272630918758133	-0.0238593226130212	0.273672952880726	5.00150329230164
4.191257	0.289377640245734	-0.0130673903000525	0.289672531254593	2.58554195137885
3.564097	0.28753090705162	-0.00411821583498781	0.287560397502144	0.820573538410306
3.051758	0.277151097462904	0.0145759160894756	0.277534120703634	-3.01052308267682
2.604164	0.280005220664939	0.00780622898126	0.280114013948836	-1.5969279130658
2.214424	0.26671957753346	0.0113754569803036	0.266962046106068	-2.44215639835838
1.892567	0.259761180756314	0.0166011598566904	0.260291124582652	-3.65676103388929
1.607507	0.244608975189353	0.00438821754303613	0.244648333729029	-1.02776023374977
1.376413	0.264743060045584	0.000783973737095399	0.264744220819115	-0.169667356266233
1.17375	0.239796453607997	-0.00241799275183912	0.23980864423936	0.577723658070721
1.001604	0.271641042608753	0.00952800896287059	0.271808092198093	-2.0088679519888
