EC-Lab ASCII FILE
freq/Hz	Re(Z)/Ohm	-Im(Z)/Ohm	|Z|/Ohm	Phase(Z)/deg
6999984	4.8049424646768	3.77081258006599	6.10790468187236	-38.1240387302098
5969734	3.93797277215878	1.69725877010647	4.28816008177951	-23.3159502446317
5091109	2.58243152890046	0.28331311438446	2.5979258885198	-6.26076139359607
4341796	1.81332743517087	-0.454923873158688	1.86952189543559	14.0835776240573
3702781	1.07628192332124	-0.487968488747891	1.18173432906003	24.3887564202346
3157797	0.812524131870934	-0.48419046251542	0.945851927557116	30.7910956850075
2693047	0.623365889791449	-0.426428475445213	0.755265699754738	34.3750211780642
2296687	0.508727917945733	-0.332326702020469	0.607655438034749	33.1545924265458
1958656	0.429826015220656	-0.250840994724021	0.497666161191018	30.267291939121
1670375	0.384362198832691	-0.184725652160478	0.426447964536841	25.669082179656
1424531	0.36120085145039	-0.145758373683669	0.389501679826152	21.9759623900033
1214875	0.338932714246864	-0.111591656332148	0.356830607641355	18.2238336770301
1036062	0.328644390875862	-0.0917593173691343	0.341213874246368	15.60002502043
883578.1	0.319438086627357	-0.0673256444183205	0.326455867744001	11.9016282894842
753531.2	0.315862602402704	-0.0522581823245585	0.320156369945181	9.39425611601064
642624.9	0.309608029290465	-0.0429416223638212	0.312571775329064	7.89636109304422
548046.8	0.309325700495939	-0.0327455929558877	0.311054115621922	6.04289419199757
467390.6	0.306114718086772	-0.0266823787810044	0.307275397594336	4.9815752472292
398593.7	0.307130780459146	-0.0233037128052906	0.308013602517739	4.33903401971092
339937.5	0.305011140396488	-0.0181603380136276	0.305551294617999	3.40736339186695
289906.2	0.305631033243295	-0.0159318209464266	0.306045995562813	2.98399227197329
247234.4	0.306192286977656	-0.0152417050756308	0.306571404697535	2.8497293529669
210843.7	0.304480607790931	-0.0135386294687706	0.304781454502447	2.54596088097562
179812.5	0.304251745091862	-0.012622104329797	0.304513451113667	2.37559474538244
153343.8	0.302793487363095	-0.0116922601404608	0.303019149455438	2.21135696636599
130781.2	0.302217669966325	-0.0104537985806899	0.302398415909608	1.98108809329189
111531.3	0.301813913898187	-0.00964931569979891	0.301968124006519	1.83118399943622
95109.37	0.301144405507008	-0.00896606659611287	0.301277850693301	1.70538137523273
81109.37	0.300528601932216	-0.00802975621425452	0.300635855420129	1.53050892658085
69171.88	0.299837175796928	-0.00722146902902637	0.299924126413357	1.37968122475943
59000	0.299230866632549	-0.00643448504236787	0.299300040333153	1.23186498910922
50312.5	0.298861164021409	-0.00558914900994553	0.298913422159138	1.07139154280678
42906.25	0.298477537425607	-0.00484968081728523	0.298516933777105	0.930863330310629
36593.75	0.298147024838327	-0.00413053372673506	0.298175635706229	0.793725882046066
31203.13	0.297916425783551	-0.00356916484010276	0.297937805068947	0.686394844199799
26609.38	0.297783773793049	-0.00290450142313196	0.297797938312116	0.558829629931149
22703.13	0.297746106367937	-0.00243287028548193	0.297756045639871	0.468150865555226
19359.37	0.297548806250569	-0.00207932632838824	0.297556071521181	0.400387032533544
16500	0.297602601168137	-0.0016850296489862	0.297607371459376	0.324405953405655
14112.02	0.2975039413099	-0.00133609323286689	0.297506941498936	0.257314199877662
12011.13	0.297564678501822	-0.00111336903070565	0.297566761387241	0.214377086485236
10236.38	0.297481327395938	-0.000947030245314117	0.297482834825028	0.182400197347425
8750.684	0.297489793833924	-0.000791807844810522	0.297490847581928	0.152499821850728
7449.463	0.29745228530842	-0.000622378469392844	0.297452936428876	0.119883454517772
6363.206	0.297406909644369	-0.000511965682175466	0.29740735030102	0.0986306737272053
5414.761	0.297372556788411	-0.000435478333537342	0.297372875649841	0.0839050281387685
4620.567	0.297305652942788	-0.000354876088118343	0.29730586473996	0.0683905342579956
3941.215	0.297280824385762	-0.000344488578931144	0.297281023982122	0.0663942347082008
3361.769	0.297203072182044	-0.000260923173833069	0.297203186718023	0.050301609223407
2867.244	0.297147742463818	-0.000211385204695374	0.297147817651499	0.0407591117370622
2442.658	0.297102699777132	-0.000146700649673457	0.297102735995382	0.0282909828867983
2083.003	0.297051904499255	-0.000134823402730778	0.297051935095505	0.0260049213912719
1777.843	0.296973084376338	-9.39071985194988E-05	0.296973099223747	0.0181177562708396
1513.548	0.296931186303981	-8.02626098242096E-05	0.296931197151758	0.0154874560024207
1292.065	0.296911887969173	-8.5220483778412E-05	0.296911900199284	0.0164451950640275
1101.762	0.296843187329632	-6.95698032938608E-05	0.296843195482013	0.0134281540134733
939.101	0.296798133699688	-7.81497699914885E-05	0.296798143988477	0.0150865230556999
801.2801	0.296790813881552	-8.50062930129973E-05	0.296790826055227	0.0164105540357339
684.3433	0.296702083950961	-4.93017395951366E-05	0.296702088047093	0.00952059903941493
582.9476	0.296632256289095	-6.90849714846278E-05	0.29663226433396	0.013344055268304
497.0677	0.296539484115154	-7.49743759058605E-05	0.296539493593078	0.0144861492300721
423.5089	0.296522193533398	-7.19830767673618E-05	0.296522202270624	0.0139089973838809
361.5036	0.296480616724706	-0.000101866296705819	0.296480634224572	0.0196859704040024
308.1262	0.296368255436853	-9.61466369656377E-05	0.296368271032611	0.0185876733360941
262.7298	0.296329674559158	-7.78497781153505E-05	0.296329684785248	0.0150523690415322
224.2111	0.296314903770297	-6.94918910321854E-05	0.29631491191893	0.0134370291297199
191.2854	0.296243859641984	-6.39972065013763E-05	0.296243866554604	0.0123775384932758
163.1722	0.29625032907509	-6.24577468034913E-05	0.296250335658999	0.0120795316848723
139.1537	0.296219491556962	-5.58814226597908E-05	0.296219496827941	0.0108087743206296
118.6706	0.29616917092876	-4.55872476568897E-05	0.296169174437223	0.00881913826999217
101.1982	0.296114263153297	-1.71626494601649E-05	0.296114263650666	0.00332083759747747
86.24196	0.29607247023674	-2.69262398225226E-05	0.29607247146114	0.00521075091683019
73.61024	0.296068010153241	-4.61681649210901E-05	0.296068013752919	0.00893457207697718
62.69291	0.296069133410042	-3.65718510697442E-05	0.296069135668806	0.00707744397561964
53.57697	0.296031174572291	-3.27706511590152E-05	0.296031176386147	0.00634264279209821
45.65746	0.296008343343313	-1.39440768805215E-05	0.296008343671745	0.00269903457735395
38.96512	0.295970269281419	-6.58016789199138E-06	0.295970269354566	0.00127383013689799
33.18414	0.295976130723115	-9.82039034887354E-06	0.295976130886033	0.00190105505663683
28.30617	0.295955606049415	-3.52846266005267E-05	0.295955608152779	0.00683095753215436
24.17237	0.295943380292062	-6.22677893735118E-06	0.295943380357569	0.00120552841109824
20.61345	0.295942526836946	-7.17665066858176E-06	0.295942526923964	0.00138943124755917
17.55618	0.295903468524727	-3.14312808097653E-05	0.295903470194064	0.00608603791397092
14.98558	0.295882333809081	-8.04199898785768E-06	0.295882333918371	0.00155728324434731
12.76553	0.295872561873513	-4.59666132800862E-06	0.295872561909219	0.000890144365726271
10.8809	0.295861504445352	-3.17707031570271E-05	0.29586150615118	0.00615263279849898
9.278505	0.295826106721598	-1.01131822865899E-05	0.295826106894464	0.00195872726942132
7.923394	0.295788789239904	-4.18897858082293E-06	0.295788789269566	0.000811426267211043
6.75822	0.295801102124023	-2.89767440910118E-05	0.295801103543308	0.00561270773913083
5.761429	0.295755599249662	2.82054543669612E-06	0.295755599263111	-0.000546415181496711
4.919708	0.295765669104728	3.74440224403597E-06	0.29576566912843	-0.000725366287509008
4.191257	0.295737106729736	6.20260967782386E-06	0.295737106794781	-0.00120168672908189
3.564097	0.295725676944372	-3.78619950017983E-06	0.29572567696861	0.000733562448768354
3.051758	0.295702586472788	1.24081743517904E-06	0.295702586475391	-0.000240422659232072
2.604164	0.295648607635872	2.46003559531081E-06	0.295648607646107	-0.000476747237834471
2.214424	0.295629497791579	-2.0547719408207E-05	0.295629498505663	0.0039823414361834
1.892567	0.295593335810292	-4.17916361249824E-06	0.295593335839835	0.000810060335827451
1.607507	0.295546001256537	-5.91190123864343E-06	0.295546001315666	0.00114610581224963
1.376413	0.295497670387732	-1.60630878994036E-05	0.295497670824322	0.00311456648869463
1.17375	0.295402271843146	-3.02846409104204E-06	0.29540227185867	0.00058739633156812
1.001604	0.295269114329126	-7.12424138115106E-06	0.295269114415073	0.00138243027626047
