EC-Lab ASCII FILE
freq/Hz	Re(Z)/Ohm	-Im(Z)/Ohm	|Z|/Ohm	Phase(Z)/deg
6999984	21.3492089404267	87.8990905794029	90.4546231381684	-76.3481731872291
5969734	16.8754913266692	87.0706149767674	88.6908913020325	-79.0312772460472
5091109	12.6911289214472	91.9867952137783	92.8581458300907	-82.1446726090086
4341796	10.15575235246	100.709467784015	101.220236154556	-84.2416408434079
3702781	11.2671787460834	112.577783056161	113.14020750704	-84.2846699738222
3157797	12.1509079317784	126.13618635588	126.720093402632	-84.4975810904928
2693047	12.8672608257937	142.539824075466	143.119418139622	-84.8418141338074
2296687	13.0598057201489	163.5513726335	164.071965965396	-85.4345389728702
1958656	15.1510720899119	188.297910585672	188.906479815816	-85.3997031389263
1670375	18.0150812203064	218.282738916279	219.024878176354	-85.2820176078064
1424531	21.8907592170898	252.80999672844	253.755984727325	-85.0511156163687
1214875	26.877898232481	293.271103782046	294.500189689133	-84.7635480989925
1036062	33.5394049752189	340.044789841276	341.694821125942	-84.3670040089825
883578.1	41.5780389826041	394.690399318103	396.874343639801	-83.9864454414566
753531.2	51.9754066240553	458.452794004982	461.389647938389	-83.5319180225793
642624.9	119.996486176644	598.40225607094	610.315014370065	-78.6609746230541
548046.8	149.570098089009	683.642172896295	699.812714091937	-77.6590433267089
467390.6	183.351888544572	779.921834851783	801.184113366854	-76.7705576737995
398593.7	223.346455793299	889.307849616047	916.925346309145	-75.9019536563812
339937.5	270.98896069943	1013.57841416053	1049.17883054946	-75.0315734697979
289906.2	327.360409797592	1155.54693471877	1201.02188000086	-74.1828510878706
247234.4	398.043687661878	1317.0228130378	1375.85895619771	-73.1836126931625
210843.7	484.366350273451	1500.84627493346	1577.07016402532	-72.1136140107557
179812.5	589.761187114005	1705.77934645852	1804.85496276863	-70.9275340790553
153343.8	724.598350200538	1936.51588914685	2067.64033575271	-69.4853420129316
130781.2	893.5664845323	2190.03579773382	2365.31559366504	-67.8038254757816
111531.3	1108.94552861134	2460.736161086	2699.07069931548	-65.7410055259721
95109.37	1368.57226921824	2748.95684369711	3070.79041690936	-63.5335137328921
81109.37	1689.83414398494	3040.80732043464	3478.79987843311	-60.9382441040675
69171.88	2075.00128790777	3321.0216077979	3915.96921135489	-58.0025229533762
59000	2508.98395725872	3576.39356418108	4368.70592094473	-54.9487954151997
50312.5	3019.48621109251	3832.77019694267	4879.28523059985	-51.7686848465733
42906.25	4230.97536184457	3814.92677133175	5696.9130924703	-42.0399073218756
36593.75	4736.66333558833	3814.13745488115	6081.41628894404	-38.8423100813418
31203.13	5251.10237444277	3765.90806789822	6461.89908020385	-35.6467754888704
26609.38	5783.2911576679	3647.31725461915	6837.35180974347	-32.2381808107017
22703.13	6262.97007303709	3481.4229550532	7165.54952029009	-29.0685496401483
19359.37	6703.2257055473	3265.16484770993	7456.17437713408	-25.9708762390853
16500	7080.9625597023	3031.78201108764	7702.70945412459	-23.1786523681845
14112.02	7399.10391962322	2785.338633157	7906.00089265999	-20.6284802474146
12011.13	7681.99185785604	2528.83123140448	8087.52040498775	-18.2210032655221
10236.38	7907.45285838535	2282.58734860147	8230.31079070421	-16.1014604939947
8750.684	8084.04353385533	2063.88004315514	8343.34229729322	-14.3218478527404
7449.463	8234.38369220856	1841.49002890502	8437.78171778975	-12.6058793633692
6363.206	8357.12841199282	1653.17909317061	8519.07250870856	-11.1895964487413
5414.761	8458.26487877374	1488.58671888727	8588.25565403971	-9.98138315741505
4620.567	8556.96349181198	1385.29348801918	8668.37137230238	-9.19587520902454
3941.215	8618.18826923617	1249.64766727892	8708.31719313987	-8.25045474001302
3361.769	8642.05689676251	1134.27495118725	8716.17617259835	-7.477362787043
2867.244	8766.09781918946	1119.53344244326	8837.2974434692	-7.27794482644772
2442.658	8822.84101534309	1019.63650958468	8881.56417494679	-6.59230342174852
2083.003	8839.75830350873	988.50195598233	8894.85598429972	-6.38056686855792
1777.843	8887.66387403972	988.343986369552	8942.44893601879	-6.34545028529435
1513.548	8937.8303642112	1011.40971953958	8994.87416477823	-6.45615719046953
1292.065	8968.14951627077	1016.83350858103	9025.6111222654	-6.4687278844947
1101.762	9010.85586166019	1062.60351035549	9073.29320477607	-6.72553329785029
939.101	9053.62478075322	1118.8819052091	9122.50066530407	-7.04511196724041
801.2801	9069.13177659457	1194.34941891691	9147.43798643667	-7.5023322877548
684.3433	9090.22085450284	1289.49312063272	9181.22582729547	-8.07382331093009
582.9476	9129.23682694848	1426.1744575367	9239.9642112858	-8.87901235958334
497.0677	9155.83311688968	1565.41368400737	9288.69205358921	-9.70230114498477
423.5089	9169.91200645038	1757.57454889602	9336.82786073353	-10.850153332594
361.5036	9214.77638071023	1959.06752160268	9420.72445731715	-12.0024172952257
308.1262	9264.73089153106	2196.04608187676	9521.44195414834	-13.3348822140039
262.7298	9331.5889538239	2477.19759017075	9654.79467952975	-14.8670458426971
224.2111	9400.88766627562	2793.1027072702	9807.04398110324	-16.5472388473403
191.2854	9497.96964086537	3167.91645598224	10012.3484743033	-18.4454079155631
163.1722	9608.51578603569	3554.53672031023	10244.9161493167	-20.3012525914595
139.1537	9709.15701373195	4076.49604666055	10530.2207923547	-22.7756338550895
118.6706	9849.14970192503	4671.679196016	10900.9328207002	-25.3760658336482
101.1982	10012.636888517	5291.59660149901	11324.923489997	-27.8560850019822
86.24196	10192.7356257744	6036.62313456605	11846.2094530575	-30.6360361169113
73.61024	10410.5418254274	6888.4750708929	12483.2075165514	-33.4919155988511
62.69291	10662.0760320276	7876.27832749045	13255.7770652962	-36.4539870785405
53.57697	10936.8780922898	9001.62960231282	14164.9086796507	-39.4561885222008
45.65746	11258.5005818886	10313.0767478922	15268.0511971994	-42.4904870615444
38.96512	11641.6396986987	11792.1461152427	16570.5306154495	-45.3679842410945
33.18414	12087.0893464476	13508.4482758185	18126.6627841274	-48.1784568177702
28.30617	12516.1481063595	15475.453762014	19903.3573188183	-51.0349608237067
24.17237	13161.6016933068	17708.8514911763	22064.2511830742	-53.3794697439144
20.61345	13854.2949028666	20291.4077836396	24569.9555778505	-55.6760450149813
17.55618	14635.7662368621	23283.1444340531	27501.0993976069	-57.8465638415416
14.98558	15534.4036129445	26650.3103519052	30847.3132940736	-59.762190933782
12.76553	16619.6468477389	30542.503790013	34771.4998110021	-61.4472598092617
10.8809	17856.5924726557	34997.7268570367	39289.9322968907	-62.968348163775
9.278505	19332.9380711183	40043.4543273161	44466.175110139	-64.2287980172833
7.923394	21253.6233743809	45849.6256020316	50536.1719403687	-65.1298887416856
6.75822	22998.6421076519	52327.9084422623	57158.9672819379	-66.2740281627823
5.761429	25350.1244038728	59832.1432655303	64980.8754560815	-67.0382392699278
4.919708	28068.6709430502	68239.9716827368	73787.1535144834	-67.641506532421
4.191257	31228.5064851031	77833.04675148	83864.192501378	-68.1381463492405
3.564097	35075.8303139585	88873.5057423283	95544.8266268	-68.462268573946
3.051758	39339.5572777644	100936.475649799	108331.772271172	-68.7068642566873
2.604164	44294.3243120851	114620.462725753	122881.396646237	-68.8713031438899
2.214424	50258.1974820423	130493.101507153	139836.819025248	-68.9362765578577
1.892567	56837.2717211388	147563.046223272	158130.73093929	-68.9346722760313
1.607507	64949.9412662303	167289.404125358	179455.397252644	-68.7813487700543
1.376413	73784.4481904767	188480.490113634	202408.102476775	-68.6211497705357
1.17375	84027.0590284597	212698.275739715	228694.344380486	-68.4433609667066
1.001604	96050.1148737099	239863.7354238	258380.022715982	-68.1770501835298
