EC-Lab ASCII FILE
freq/Hz	Re(Z)/Ohm	-Im(Z)/Ohm	|Z|/Ohm	Phase(Z)/deg
6999984	17.6753381415882	-0.665972885406515	17.6878799832987	2.15777452632315
5969734	9.3188467634527	-0.666606728173491	9.34265859007804	4.09157985052966
5091109	12.7823195281176	-6.29905340509049	14.2501146072261	26.2338123008488
4341796	9.56109721487917	-5.39322513672554	10.9773155793107	29.4264821043444
3702781	5.02728290263721	-5.04146712873139	7.11968848990091	45.0807146617718
3157797	4.16863928616048	-4.66652627054295	6.25731739100615	48.2253706020355
2693047	2.91699493041484	-4.37381935699313	5.25729542556567	56.2998184369623
2296687	2.49897703065139	-3.83617836226407	4.578334918595	56.9188305796658
1958656	1.7027791579579	-3.10796974709311	3.5438584635425	61.2827636262797
1670375	1.64504333240954	-2.80357294409311	3.25056746097601	59.5970072014458
1424531	1.13529351410685	-2.44925348409449	2.6995803363712	65.1310346572758
1214875	0.949265684012503	-2.03766416608918	2.24792806659992	65.0210840563902
1036062	0.860530659371664	-1.86936666091459	2.05792243018477	65.2818371489543
883578.1	0.740977720429181	-1.50024493599225	1.67325516587962	63.7150267623895
753531.2	0.69305300093711	-1.3190356849697	1.49002604015212	62.2814863589722
642624.9	0.610986732294434	-1.19404313660489	1.34128438413077	62.9013693975242
548046.8	0.559488064324942	-1.00055923211502	1.14636192849059	60.7871551334915
467390.6	0.508536860900475	-0.874264736721803	1.01140919946862	59.8145592762569
398593.7	0.479157307292632	-0.761404975835655	0.899627290803931	57.8175148813285
339937.5	0.452340543555452	-0.659852184310002	0.800010545232201	55.5686612650179
289906.2	0.432516590047854	-0.571685304704851	0.716864483903409	52.8901580572947
247234.4	0.414569540537644	-0.495549107925708	0.646093508950181	50.0846129176571
210843.7	0.401452382340639	-0.428076828206052	0.586867775681991	46.8383257236931
179812.5	0.391540386660524	-0.368529419284543	0.537696761441312	43.2659109527406
153343.8	0.383896746350672	-0.320131425683169	0.49986082219811	39.8247207056069
130781.2	0.37806870873753	-0.278274811612449	0.469438834465586	36.3546648447545
111531.3	0.372074421479011	-0.242166264385876	0.443941296485865	33.0582667620284
95109.37	0.365173629060835	-0.210813239942315	0.421656259880529	29.9976637303104
81109.37	0.360569098231444	-0.183737027740011	0.404684284303418	27.0022575661003
69171.88	0.35360023976623	-0.160441781236312	0.388297173217906	24.4055899202556
59000	0.344550857736764	-0.135647892940666	0.370291296719734	21.4893034979751
50312.5	0.338071443722555	-0.105753181130846	0.354225967963878	17.3703672045591
42906.25	0.368676379881611	-0.105361088485265	0.383436086003143	15.9489849655545
36593.75	0.352828114224616	-0.0964312041045107	0.365768581636455	15.2861530106794
31203.13	0.346341636371644	-0.0844813858280349	0.356496330466406	13.7081814062655
26609.38	0.341649619089678	-0.0728603961919552	0.349332362596669	12.0385881208323
22703.13	0.342266991049346	-0.0647623363338297	0.348340140336122	10.714597247844
19359.37	0.339271870728354	-0.0578355291092858	0.344166167272247	9.67419183555566
16500	0.336844792042418	-0.0517587868128951	0.340798160115988	8.735612482618
14112.02	0.334301513448243	-0.0463194055708485	0.337495169189461	7.88843708673756
12011.13	0.331959346161399	-0.0413601020708031	0.334526031195198	7.10210407912207
10236.38	0.329357025501346	-0.0354820935854228	0.331262779696572	6.14883981789521
8750.684	0.330423290050616	-0.0328485738644848	0.332052073345136	5.67732649222348
7449.463	0.32749704712602	-0.0338332913622178	0.329240045378237	5.89822807830499
6363.206	0.323794316432848	-0.0258468434535339	0.324824288917449	4.5639514669785
5414.761	0.322322736647358	-0.0245250338173051	0.323254425868513	4.35116239031824
4620.567	0.319156436019673	-0.0253290597998574	0.320159947406174	4.53762692108121
3941.215	0.317669023509025	-0.0233294008992832	0.318524519375663	4.20022353468457
3361.769	0.316031774219607	-0.0218887982233093	0.316788891541439	3.96205758432018
2867.244	0.314070817742703	-0.0208183809031718	0.314760041207583	3.7923388910355
2442.658	0.311869032251612	-0.0197886357940949	0.312496213391696	3.63065020124959
2083.003	0.30962023879652	-0.0191965262736578	0.310214762532973	3.54781024435619
1777.843	0.307298878288342	-0.0183978942724235	0.307849123940499	3.42619193093054
1513.548	0.305341213198341	-0.0167628855650188	0.305800998706513	3.14231884541738
1292.065	0.304126460008923	-0.0156372820171355	0.304528206027689	2.94338732599016
1101.762	0.303807346052205	-0.0146279762659966	0.304159302348166	2.75659735519956
939.101	0.303117999405982	-0.0135703941075402	0.30342161617149	2.56338280865216
801.2801	0.3022889604575	-0.0136135072859069	0.30259534562696	2.57855874177179
684.3433	0.301046507639751	-0.0134874584150512	0.301348488127265	2.56524492148634
582.9476	0.300036621885233	-0.0134760777368745	0.300339106916619	2.57169871809069
497.0677	0.298112291516473	-0.0129846364401543	0.29839493818878	2.49400965177552
423.5089	0.297294966661995	-0.0130996317521269	0.297583429569925	2.52297725198174
361.5036	0.296635502465042	-0.012662042693005	0.296905622459137	2.44421675458967
308.1262	0.295141258737167	-0.0123739593128496	0.295400537369239	2.40075103033546
262.7298	0.294416784592572	-0.0125306022718575	0.294683319926874	2.43708113820911
224.2111	0.292888546873804	-0.0120158941930189	0.293134922182783	2.34926962652736
191.2854	0.290346473623382	-0.0124820689362895	0.290614653433827	2.46164441184417
163.1722	0.290915052148082	-0.0114736316028948	0.291141223100543	2.25856353206461
139.1537	0.288616584289663	-0.0119940214691993	0.288865694186824	2.37966790234803
118.6706	0.287536564733889	-0.0118473065408657	0.287780532231142	2.35941097950118
101.1982	0.285796527332232	-0.0117554093163029	0.286038187456425	2.35536761634094
86.24196	0.288604670354991	-0.0102622496049393	0.288787066049827	2.0364742044738
73.61024	0.295480594510306	-0.0182529878913203	0.296043836786251	3.53489176494937
62.69291	0.259281234874915	-0.0259475566524096	0.260576350527999	5.71484491456424
53.57697	0.274624669127348	-0.0201258069973667	0.275361139234643	4.19141545450002
45.65746	0.284180281311764	-0.0283815961652643	0.285594025300463	5.70332044147298
38.96512	0.283544501671226	-0.00329667660810503	0.283563665698979	0.666128754028227
33.18414	0.283770273351697	-0.012453272689831	0.284043398160887	2.5128158454851
28.30617	0.281480915404815	0.00518877065303536	0.281528735794452	-1.05606091108246
24.17237	0.270056013023099	0.000305231748862397	0.270056185517668	-0.0647587266819998
20.61345	0.272626966056164	-0.0216591508677857	0.273485980330441	4.54238590852757
17.55618	0.267624874958213	-0.0183107100019539	0.268250546685696	3.91403799151027
14.98558	0.276283298088017	-0.00620050635519405	0.276352866968035	1.28564853733815
12.76553	0.274947635922717	-0.00637069213332655	0.27502143228801	1.32733809242746
10.8809	0.273545789752238	-0.00888041174589407	0.273689898980492	1.85940159788862
9.278505	0.272915368237931	-0.00844293258553778	0.273045932639711	1.77194188229308
7.923394	0.272633123061808	-0.00922602453664321	0.272789184754795	1.93817470035218
6.75822	0.27031771674313	-0.00838940998005773	0.270447869625613	1.77762505066298
5.761429	0.270234941158109	-0.00543303786893895	0.270289550895353	1.1517689270967
4.919708	0.264730088159126	-0.00509116738980841	0.2647790391291	1.10175028453958
4.191257	0.267299584691369	0.00266653679382111	0.267312884827221	-0.57155433501165
3.564097	0.273029989752827	-0.00490134373272469	0.273073979856769	1.02844434535715
3.051758	0.262868876313259	-0.00169093288928981	0.262874314812672	0.368556304929272
2.604164	0.270733241919834	0.00335331637560334	0.270754008301148	-0.70963229349692
2.214424	0.258635270285926	-0.010119049366812	0.258833147405741	2.24054229053436
1.892567	0.271770727228141	-0.00536091618662561	0.271823596474759	1.13006299398597
1.607507	0.257058591910911	0.00121173125129144	0.257061447844374	-0.270080730877208
1.376413	0.262429292974989	-0.0096344749594971	0.262606086980287	2.10253566529459
1.17375	0.274003987057338	-0.00541130115523027	0.274057415706108	1.13138652649272
1.001604	0.265886254364696	0.0119942890546125	0.266156651673433	-2.58289603228093
