EC-Lab ASCII FILE
freq/Hz	Re(Z)/Ohm	-Im(Z)/Ohm	|Z|/Ohm	Phase(Z)/deg
6999984	31.1662381009969	80.3517102255265	86.1842893660731	-68.8000844899551
5969734	28.4843870468281	78.6371719879689	83.6371037500636	-70.0883227965272
5091109	27.0936589949512	82.1293825153145	86.4829568763786	-71.742795725747
4341796	28.9308236955631	88.7384654899981	93.3354585204538	-71.9428152920272
3702781	35.3372395412939	96.5004046448489	102.766962565887	-69.8879021597905
3157797	42.5076696945134	104.689304123572	112.990054344334	-67.9010564136153
2693047	50.9093819004916	114.124881758811	124.965010310697	-65.9590732627989
2296687	62.2025706759061	125.454785545007	140.0287935206	-63.6270204450574
1958656	76.7313273017411	136.003273222281	156.155649646951	-60.5688582135467
1670375	94.3560793244648	146.395953387537	174.169012380878	-57.1971448286506
1424531	114.788936786431	154.78087790248	192.70085669976	-53.4385474221703
1214875	137.055676821663	160.707175451732	211.213292173381	-49.5415062236526
1036062	160.435511544809	163.457435105075	229.036867023137	-45.5345545312949
883578.1	185.163883144764	163.731663758783	247.171441187017	-41.484808621219
753531.2	209.09174952878	160.148781637626	263.376141632119	-37.4494382222228
642624.9	231.645294919969	153.885324214776	278.101124893888	-33.5966637429569
548046.8	251.896889994966	144.922111656361	290.610498151864	-29.9128144104294
467390.6	270.02116777935	134.760161600112	301.780934128404	-26.5225257338152
398593.7	285.11665774167	123.376139491937	310.665705087824	-23.3991780939524
339937.5	297.887755974422	111.911797441095	318.215910296726	-20.5904186610841
289906.2	308.342069701953	100.754047708253	324.385896853857	-18.09535362105
247234.4	316.692959409594	90.0312819601323	329.241647230407	-15.8696933362863
210843.7	322.890575448526	81.5034517067964	333.018222254582	-14.166570560682
179812.5	328.615672391849	71.6968286937843	336.346094649979	-12.3078267183422
153343.8	332.840168190651	64.2834420129498	338.991059584487	-10.9312898859624
130781.2	336.002317934264	57.479771788082	340.883384490955	-9.70759527501178
111531.3	338.776724109456	52.1288149964363	342.763886883183	-8.74770189209526
95109.37	341.105063516507	47.2516124026096	344.362279048165	-7.88671248377422
81109.37	342.469020476634	43.6958206317212	345.245354388592	-7.27111516952976
69171.88	344.431285466976	41.1157675858405	346.876659279068	-6.80735167099497
59000	346.009431013767	38.996924345308	348.200066712895	-6.43037408968864
50312.5	347.676071152179	37.6189377263326	349.705354444957	-6.17544224832314
42906.25	348.778897159588	36.6604471974369	350.700310083374	-6.00037499402091
36593.75	349.796912728762	36.7200970635776	351.718986810396	-5.99270308914411
31203.13	350.811505316222	37.0890151665537	352.766647102952	-6.03509050682789
26609.38	352.431358960836	39.1414073781232	354.598241042622	-6.33736012122711
22703.13	353.803125948757	41.0904795374532	356.181245210539	-6.6246182413939
19359.37	355.428638420501	44.1544778463821	358.16076686781	-7.08150624638712
16500	356.943038238937	48.0054063925568	360.156704213815	-7.65976963070085
14112.02	358.854412323801	52.5837107629076	362.686553213457	-8.33634684308108
12011.13	360.941626635112	57.5548276639215	365.501595106539	-9.05996389044156
10236.38	362.804761756403	64.3744763512917	368.471665611649	-10.0615915191554
8750.684	365.380596916332	71.6852226876429	372.346279361983	-11.1000603340962
7449.463	368.337455904573	80.5518189802825	377.042539991558	-12.3358214362123
6363.206	371.341860201177	90.617808515556	382.238622273878	-13.7137505560342
5414.761	374.575474706704	102.094432133005	388.239693133396	-15.2462178523588
4620.567	378.339804583576	114.604365644381	395.316541972492	-16.8522873070459
3941.215	382.783840632465	130.369454074768	404.37564615725	-18.8079412308542
3361.769	387.602100001018	148.035981099472	414.909676466194	-20.9032421580696
2867.244	393.111248666772	168.121754690237	427.552778295817	-23.1549261858881
2442.658	399.552917850912	191.426957940204	443.042677842009	-25.5992157061178
2083.003	406.72912071082	217.976205542908	461.456610979928	-28.1879593456558
1777.843	414.864125979084	248.090485228429	483.385076192125	-30.8796004756214
1513.548	424.262216512478	283.7892643196	510.426071927307	-33.7785893020668
1292.065	434.885331339381	322.910316899534	541.660709461486	-36.5945622735758
1101.762	447.308543423932	368.895871749456	579.800911704898	-39.5124415185268
939.101	461.259631459148	421.766848007572	625.018177089332	-42.4391901501463
801.2801	477.626638414783	480.221778540419	677.303596851463	-45.1552335526065
684.3433	497.115531383031	548.133005201819	739.982190957194	-47.7943287231807
582.9476	517.863954134573	626.29132260319	812.664688392419	-50.4135422582638
497.0677	544.261335734092	715.259216862632	898.785930509598	-52.7314487480434
423.5089	571.775843111695	817.570435971906	997.671806027103	-55.0326076814715
361.5036	607.169810504301	932.875026629211	1113.06378707434	-56.9415598153986
308.1262	648.032075269542	1064.37131169507	1246.12674304728	-58.665263235004
262.7298	695.774540032487	1214.54381376561	1399.72100295513	-60.1929406041613
224.2111	749.393391512046	1383.92316005499	1573.79597412705	-61.5644869741455
191.2854	813.186595432511	1575.99405464507	1773.42315854613	-62.7070221134159
163.1722	887.495084121473	1793.95382611683	2001.47891684599	-63.6777272099265
139.1537	974.583795069233	2043.25548468979	2263.78147119515	-64.4999789417188
118.6706	1078.18560647471	2319.93068375653	2558.23426985182	-65.0733951030857
101.1982	1194.66910105606	2636.52732412571	2894.56570004544	-65.6236637695293
86.24196	1332.59889113264	2993.45033458921	3276.66975911522	-66.0027326467879
73.61024	1490.84316244038	3392.49904444978	3705.62587177765	-66.276778360199
62.69291	1674.87234096005	3843.23781219847	4192.33517739518	-66.4525618117451
53.57697	1887.1063914631	4343.53984343435	4735.76909320995	-66.5168476763588
45.65746	2134.81582280519	4910.37200782217	5354.36194634832	-66.502695618819
38.96512	2416.14042749448	5535.2807895588	6039.62482151266	-66.4188145976119
33.18414	2744.18383428176	6249.34863883621	6825.31342328374	-66.2929930658011
28.30617	3112.65376348417	7027.65703300833	7686.12885820447	-66.11073519117
24.17237	3537.31293538167	7893.92917252313	8650.24280489456	-65.8625871700989
20.61345	4016.39257694958	8860.4232477352	9728.23259699222	-65.6154131772795
17.55618	4568.18973715575	9950.74408717166	10949.2312681319	-65.3410809849708
14.98558	5185.93273662697	11134.8414472842	12283.2647290929	-65.026756338562
12.76553	5884.36579712916	12461.1762447683	13780.6630550784	-64.7225730451271
10.8809	6662.18406972603	13933.6804055907	15444.4859488445	-64.4458917258584
9.278505	7523.1682384819	15580.1353620112	17301.4068284373	-64.2255321578511
7.923394	8495.83521104527	17394.2824532704	19358.2095762337	-63.9678730373808
6.75822	9529.08028354683	19366.9651427819	21584.3162942913	-63.8015433894543
5.761429	10660.87041289	21625.1170269211	24110.1606047837	-63.7573683434497
4.919708	11929.1839159049	24140.8968037749	26927.4641841743	-63.703796789605
4.191257	13443.0657263778	26885.1422205076	30058.7239972131	-63.4341055554369
3.564097	14987.3931443599	30103.8423896492	33628.3106903164	-63.533284549774
3.051758	16713.7474709259	33515.1148069003	37451.4655927053	-63.4948963775003
2.604164	18554.4655140398	37465.7954208758	41808.5400011841	-63.653662982531
2.214424	20743.9629945857	41983.1339125272	46828.3624936633	-63.7059167334469
1.892567	23018.6162928922	46991.0770145923	52326.0739500944	-63.9020401867202
1.607507	25638.956499447	52788.3079704443	58685.2753999077	-64.0944394143252
1.376413	28465.7983883211	59004.3917950616	65511.9830946192	-64.2457002722397
1.17375	31611.2761998981	66273.8444180641	73426.8018977812	-64.4998070543802
1.001604	35066.9616210208	74308.5463904965	82167.2189136197	-64.7368969900053
