EC-Lab ASCII FILE
freq/Hz	Re(Z)/Ohm	-Im(Z)/Ohm	|Z|/Ohm	Phase(Z)/deg
6999984	29.2202375154762	86.3764604809412	91.1850602109602	-71.3098688157462
5969734	28.2576245887035	85.58149176017	90.1259401021268	-71.727612344176
5091109	27.3732844671749	88.6966517444961	92.8245265714041	-72.8488907492471
4341796	31.0974917650269	96.397867657629	101.289697812826	-72.1205468000768
3702781	38.1064751354049	103.091381673911	109.90876408495	-69.7137802858502
3157797	44.808905509227	111.580670357008	120.241773149992	-68.1204419533709
2693047	53.4087977937635	123.2431338834	134.318166050527	-66.5699608639674
2296687	66.3017744965926	136.156521600392	151.441485979618	-64.0361123107809
1958656	81.0247113636204	148.776109056408	169.4087792221	-61.4269198075346
1670375	100.257950663795	160.928225145042	189.60366641929	-58.0771793540817
1424531	121.443692094162	172.044472778479	210.589341997848	-54.7822881503568
1214875	146.090895512839	179.893565014975	231.741762497699	-50.9200770562051
1036062	172.173257348136	185.303277637756	252.944529984664	-47.1035135095914
883578.1	200.524056897318	187.511018597393	274.536481164144	-43.0792642213988
753531.2	228.466574431285	185.529642207151	294.309741207931	-39.0788327887497
642624.9	255.217012721354	179.699541112053	312.134023551254	-35.1495627142559
548046.8	279.942851877659	170.672961569939	327.867747923535	-31.3694392834126
467390.6	302.010131459474	159.121921836659	341.36476899815	-27.7836745958335
398593.7	320.73836550361	146.653256319406	352.675880512139	-24.5716044413947
339937.5	336.433876067396	133.499876309352	361.952994103301	-21.6436067617818
289906.2	349.059196494024	120.333539900651	369.21874746832	-19.0209554799279
247234.4	359.27603754656	107.732649999989	375.080784673351	-16.6919049610329
210843.7	368.150814291405	95.7462301863381	380.397637556176	-14.5781547928142
179812.5	374.754909445223	85.6916387683497	384.427235127928	-12.879850592267
153343.8	379.205494876677	76.5626891017507	386.85740616816	-11.414728755182
130781.2	383.230913096966	68.339560627586	389.276544759514	-10.1109747515177
111531.3	386.472111056527	61.822512390819	391.385635483473	-9.08839405623595
95109.37	389.220959092208	56.1102042863934	393.244593124583	-8.2032602064281
81109.37	385.291983269976	51.7423232689352	388.750794712214	-7.64870581567688
69171.88	392.756979268316	48.5013799138648	395.74035505306	-7.03978918932364
59000	394.814944577092	46.2257780251242	397.511840094657	-6.67790904591901
50312.5	395.909320041209	44.6789382630914	398.422385440137	-6.43867051856214
42906.25	397.562995772442	43.5249897562336	399.938445689883	-6.24782973615996
36593.75	398.766851492325	44.1555172316364	401.20407718653	-6.31863013090428
31203.13	400.462141644449	46.6567233570761	403.170902626761	-6.64541087977919
26609.38	401.452503538642	47.1956625471327	404.217198002146	-6.70504432709641
22703.13	402.875614542411	49.9412532063511	405.95922155402	-7.06644891553108
19359.37	404.846773913156	54.0780794217022	408.442589627759	-7.60834093900991
16500	406.333344056001	58.6437869188576	410.543396288281	-8.21246763819585
14112.02	408.491004584322	64.523333231331	413.555511821074	-8.97601411429899
12011.13	410.686281120944	71.5735266222543	416.876469969339	-9.88609454650684
10236.38	413.255394297799	79.5483502848495	420.841966715857	-10.8957092068848
8750.684	416.062488378997	87.6543140257713	425.195570300834	-11.8968612806287
7449.463	419.368395028054	99.5047926628291	431.011664008387	-13.3479055446873
6363.206	422.678072680839	112.515926850195	437.397515905323	-14.9063278291313
5414.761	427.095551373111	127.975615444907	445.856892008191	-16.6804056980846
4620.567	430.983477199936	145.099666758251	454.753417703158	-18.6068903405428
3941.215	436.728501311666	165.328736682279	466.974704915472	-20.7347524592555
3361.769	442.751411815494	187.486295829259	480.811734245733	-22.9505807882547
2867.244	449.82985361858	213.522912905052	497.93466593718	-25.3925154519464
2442.658	457.709213063031	244.312605239816	518.831738429565	-28.0920748586407
2083.003	466.49066757531	278.285783164127	543.191052987924	-30.8182596140747
1777.843	476.737828379632	317.506070254697	572.790591452677	-33.6635049993369
1513.548	488.287985647019	362.740656413118	608.281136270263	-36.6080153226055
1292.065	501.574332132344	413.246104687982	649.883954020868	-39.4850426767636
1101.762	516.491456048502	472.307026191223	699.883812615135	-42.4414418742812
939.101	533.831212214504	539.367287742582	758.876033500332	-45.295556646212
801.2801	553.541149893442	617.360082214538	829.181087421376	-48.119768750815
684.3433	576.583919919133	702.567771564739	908.873198169446	-50.6249293071993
582.9476	603.000888479532	806.660648765031	1007.13031618213	-53.2208807558001
497.0677	633.873716912139	923.177655571186	1119.84502174985	-55.5256665120713
423.5089	669.559620482154	1055.44284830637	1249.90787317357	-57.6094739059164
361.5036	710.577010969267	1206.83113068119	1400.48601081883	-59.51060516594
308.1262	759.169986900882	1379.73355980216	1574.8027702082	-61.1791155611405
262.7298	816.644900122711	1577.48989473873	1776.33984949368	-62.6300165857503
224.2111	883.19260537619	1800.78983946492	2005.71015456154	-63.8744809167744
191.2854	959.709344440904	2054.64760683401	2267.73429088946	-64.963100727523
163.1722	1051.51944745833	2348.78541362375	2573.41913951746	-65.8825833971489
139.1537	1156.70624717142	2679.44036266855	2918.45335740401	-66.6502895468447
118.6706	1277.77479841032	3054.16783947007	3310.68718351731	-67.2969870102089
101.1982	1425.38120818067	3476.0929194274	3756.98463839391	-67.7037870447518
86.24196	1590.83898958024	3961.54570933121	4269.02952647194	-68.1210722069456
73.61024	1785.97657841325	4498.80186325677	4840.34405218092	-68.3474478318017
62.69291	2011.37495945982	5111.18535431869	5492.70834413624	-68.5191632830025
53.57697	2272.76379306796	5792.43712107554	6222.36153407166	-68.5765736540746
45.65746	2570.79766900853	6570.85015114297	7055.85376575757	-68.6324370390998
38.96512	2912.53637425217	7433.51707266515	7983.7362306721	-68.6041902197999
33.18414	3307.35269886552	8418.89627597451	9045.24164300272	-68.5526813140176
28.30617	3738.47370005577	9493.46516788247	10203.0420218583	-68.5057560705964
24.17237	4285.61974693258	10739.0821326392	11562.6303956699	-68.2446592033553
20.61345	4867.80995596516	12115.8062237487	13057.1181437107	-68.1110454455308
17.55618	5548.27773222659	13664.7967358566	14748.2221174689	-67.9015147798514
14.98558	6298.51934032673	15392.4445961873	16631.2566129913	-67.7458421469144
12.76553	7170.03779057572	17340.7840619778	18764.6538417959	-67.535967706558
10.8809	8140.37214079781	19530.6651663179	21159.2188048023	-67.3736487631974
9.278505	9239.34756615128	21958.5599356912	23823.1798443761	-67.1804473946793
7.923394	10475.1651807191	24698.9808881146	26828.506154365	-67.0175554935236
6.75822	11861.6641609244	27732.9959767757	30163.1918489144	-66.8431471406858
5.761429	13431.8941556206	31220.7648481607	33987.5262164216	-66.7215082007795
4.919708	15240.5131138652	35029.3252960679	38201.1370337538	-66.487168462571
4.191257	17294.9055917299	39355.4418564458	42987.9583504839	-66.2767210644194
3.564097	19528.5012000666	44348.130466851	48457.3940181046	-66.2339211171232
3.051758	22096.0860612971	49599.2114574528	54298.4235169803	-65.9873773778784
2.604164	24948.0111709714	55705.4627145815	61036.8891542856	-65.8745046922376
2.214424	28380.4854011152	62684.6967968472	68810.0513305693	-65.6413681653989
1.892567	32074.7309423386	70173.9964629552	77156.8412041749	-65.4360773874035
1.607507	36382.2137090912	78874.238084351	86860.870982053	-65.2376048071702
1.376413	41148.2624839655	88039.9141263136	97181.3047083543	-64.9494643319989
1.17375	46621.1591088853	98659.9905456129	109120.695613236	-64.7072177762176
1.001604	52783.5701422507	110244.176409162	122228.817015859	-64.415467666937
