EC-Lab ASCII FILE
freq/Hz	Re(Z)/Ohm	-Im(Z)/Ohm	|Z|/Ohm	Phase(Z)/deg
6999984	-11.2764213406392	31.8655578789068	33.8019445769852	-109.48759369136
5969734	-12.1614521925071	33.6442874019272	35.7748374449712	-109.87348076638
5091109	-13.7588071606567	37.5188098241585	39.9620553163312	-110.138874817085
4341796	-13.3436787437961	42.8525302523675	44.8819909479037	-107.295858237646
3702781	-12.5254563897477	49.9485286622556	51.4950732914873	-104.077611598176
3157797	-11.3286916956254	57.8382989701936	58.9373233469253	-101.082130949452
2693047	-10.5525387433652	67.1720231085187	67.995858421095	-98.9280388228782
2296687	-10.7714114273216	77.4083566936271	78.1541872847798	-97.921867638849
1958656	-10.7465341773124	89.7655877975561	90.4065747026448	-96.8268307007949
1670375	-10.5688615358315	104.635893036323	105.168298197092	-95.7676609207161
1424531	-9.95908780436874	122.088211151341	122.493733439836	-94.66345665794
1214875	-9.24492017086776	143.005049785989	143.30356873874	-93.6988822098372
1036062	-9.00796845027429	165.602184794961	165.846999081881	-93.1135485263316
883578.1	-7.59029316406381	194.137176702771	194.285501076223	-92.2389857478439
753531.2	-6.80642340855203	226.286857723016	226.38919889821	-91.72286536599
642624.9	-5.65973877797155	264.709658589574	264.770156916605	-91.2248504504623
548046.8	-4.10628643590309	309.174463709421	309.201731234322	-90.7609265237449
467390.6	-2.0362702101104	361.186000467765	361.191740395969	-90.3230148809264
398593.7	0.482002135603408	421.947491821292	421.947767123299	-89.9345494958277
339937.5	1.68100931511903	492.770964338368	492.773831577209	-89.8045453721125
289906.2	-99.6117738525279	502.820768102375	512.59265535619	-101.205546058523
247234.4	-106.896682897304	605.318211480251	614.684502785043	-100.014939760241
210843.7	-108.764155456235	725.179762200719	733.29075339704	-98.5297758594828
179812.5	-109.866795826737	860.035205410227	867.024375303397	-97.2799257251844
153343.8	-107.226845629071	1025.4931415543	1031.08378893204	-95.9692274730431
130781.2	-108.519959744524	1210.27115044736	1215.12667622275	-95.1237709505481
111531.3	-110.62638695947	1433.77842824421	1438.0399086222	-94.4120427774366
95109.37	-103.590134728496	1677.32818525917	1680.52395314018	-93.5340422521781
81109.37	-77.6443481452835	1965.76955426039	1967.30236243848	-92.2619040596491
69171.88	-76.9855977984529	2309.45159366814	2310.73439533078	-91.9092485367461
59000	-59.6351055678913	2701.56789761153	2702.22601779002	-91.2645564256649
50312.5	-26.4260268736069	3174.3488034756	3174.45879812974	-90.4769686404781
42906.25	-0.210600232395909	3716.04591245662	3716.04591842431	-90.0032471354639
36593.75	13.8755660229009	4330.2445165302	4330.26674747322	-89.8164055984717
31203.13	-602.059270298273	4662.23280821366	4700.9456626232	-97.3581917599993
26609.38	-699.923037754532	5637.2279662033	5680.51330442277	-97.0776716235032
22703.13	-672.147383058999	6665.38982700056	6699.19425382155	-95.7583217086555
19359.37	-613.797336154202	7887.17436292236	7911.02184303707	-94.4499152876947
16500	-639.709083667426	9256.74130471947	9278.81928341241	-93.9532754708753
14112.02	-615.190723801118	10812.1764970877	10829.6639020252	-93.2565014962167
12011.13	-443.230948709001	12575.6198721096	12583.4283421368	-92.0185688840571
10236.38	-272.454131839121	14986.7433140353	14989.2196733098	-91.0415039560205
8750.684	-251.818240419574	17375.5375663613	17377.362232118	-90.8303117127353
7449.463	-8.94836994076326	20352.3190867339	20352.3210539132	-90.0251914190174
6363.206	172.809067436118	23638.6134187185	23639.2450669096	-89.581149127791
5414.761	115.003481697956	27782.977902292	27783.2159211285	-89.762834044627
4620.567	391.680700798478	33374.675200624	33376.9734775118	-89.3276153034456
3941.215	696.68081372239	37370.5959950243	37377.0893620616	-88.9319879459078
3361.769	-6590.88978399646	41073.4148420521	41598.8609811867	-99.1163127543582
2867.244	-6644.64491874096	48762.3775242287	49213.0142128233	-97.7596632870474
2442.658	-6330.08723603892	57814.7888674969	58160.2941551116	-96.2483725108308
2083.003	-5800.69067889622	68011.7134899162	68258.6345027989	-94.8749353801228
1777.843	-6125.22223780129	80171.1632265122	80404.811799758	-94.3690136470222
1513.548	-4118.65627548426	94225.8321945135	94315.8034597818	-92.5028328125016
1292.065	-3669.61757785654	110962.731187575	111023.39305648	-91.8941224509547
1101.762	-4578.1196267029	129734.737147936	129815.489068757	-92.0210326025761
939.101	-3319.31954866121	150828.627779917	150865.147864704	-91.2607176084375
801.2801	-3465.37838583885	175575.671601604	175609.866766395	-91.1307134847223
684.3433	-84.1275585012409	206360.272854584	206360.29000286	-90.023357954073
582.9476	-902.670087034901	243393.22948978	243394.903345881	-90.2124913222457
497.0677	9541.049978867	287203.342471422	287361.778184671	-88.0973030299612
423.5089	-5980.27237956113	305627.866186051	305686.369089582	-91.1209732022051
361.5036	-67217.936595045	343882.818792723	350390.702018368	-101.06001477856
308.1262	-84128.3449642372	427560.589358657	435758.690101693	-101.131519911392
262.7298	-96736.076294228	485411.417768738	494956.67785884	-101.27063406405
224.2111	-62275.0480479559	592291.463272883	595556.344165108	-96.0021725462631
191.2854	-67761.9251229272	688394.257841309	691721.282544676	-95.6217858660758
163.1722	-205516.866439366	837313.943271176	862166.933944571	-103.790502447035
139.1537	369816.174252844	769546.018202325	853794.516772076	-64.3327325613201
118.6706	1072527.94459393	253828.651744419	1102154.78785027	-13.3148630686421
101.1982	293706.131366347	1073060.90273798	1112529.99626394	-74.692554342419
86.24196	306940.301428378	677191.497643371	743505.66448509	-65.6173612337829
73.61024	242610.519453999	172491.284533829	297679.538077224	-35.412074787251
62.69291	41414.0403092566	-20913.5963942176	46395.05629781	26.7932311032806
53.57697	111515.534685964	-75185.7571473302	134493.91270282	33.9885496860925
45.65746	235575.979658156	142340.758636908	275239.775034842	-31.1413963513725
38.96512	390664.712203274	-106344.215782982	404880.241048343	15.227717045154
33.18414	484826.876104385	415422.122830466	638461.149898808	-40.5914986636746
28.30617	378816.294301889	-580515.648768254	693181.21966297	56.8734866997591
24.17237	604451.408952951	-350295.843085056	698619.126182412	30.0934450849224
20.61345	357688.302066061	385885.279731592	526163.824819257	-47.1716668393222
17.55618	-468293.483190428	592624.126398927	755315.921710058	-128.315903571831
14.98558	1392708.24715925	143038.456847504	1400034.37880743	-5.86401676835773
12.76553	1968205.6405158	295200.764226181	1990220.32311951	-8.52990917501013
10.8809	1938491.10757384	1900422.56456037	2714655.35529523	-44.4318456883641
9.278505	1772856.33068824	168621.623191675	1780857.32754456	-5.43322699093272
7.923394	1119964.03294016	1051879.29292332	1536479.57420867	-43.2044325813231
6.75822	728017.601792029	861888.105905068	1128211.29918985	-49.8129678974076
5.761429	455688.867438907	561265.874805576	722960.390428841	-50.927032763838
4.919708	1860833.88581573	-511991.110163711	1929983.84643156	15.3837449119241
4.191257	1811301.99059399	-49179.1112336014	1811969.50474104	1.55526987065522
3.564097	1609756.56785927	-1101995.49485353	1950822.97465545	34.3944788247868
3.051758	1326166.95736204	-630246.874936646	1468308.52417546	25.418911617568
2.604164	8813677.69479044	6337095.06091178	10855399.0400482	-35.7163955905568
2.214424	4771281.39347411	11020238.7610071	12008779.6418002	-66.5894987247814
1.892567	2016216.10781662	1836676.15095812	2727362.58625756	-42.3320183945671
1.607507	3688382.06218919	-1670776.05968103	4049154.83505907	24.3697399510142
1.376413	-1491021.29205478	7932023.70549705	8070944.46505041	-100.645938180019
1.17375	3314900.45353359	-5859638.23107031	6732304.59915904	60.5023951093115
1.001604	13948201.3135388	3226838.75137381	14316592.0599273	-13.0259032638237
