EC-Lab ASCII FILE
freq/Hz	Re(Z)/Ohm	-Im(Z)/Ohm	|Z|/Ohm	Phase(Z)/deg
6999984	22.4983232443832	85.9995457436128	88.8937366574075	-75.3394236931217
5969734	18.7843205351737	84.7269174266008	86.7842222675423	-77.4994745807649
5091109	15.7511236632605	88.9076753582098	90.2921515651064	-79.9535674088693
4341796	14.6835161354877	97.0731483034541	98.1773994748564	-81.3985096724097
3702781	17.5114531139463	107.802674712433	109.215693310607	-80.7734700137015
3157797	20.4840457911844	120.058962441137	121.793885702106	-80.3176247918954
2693047	23.5614195786053	134.711526878807	136.756484184767	-80.0791597575619
2296687	27.8336657662629	153.626435791331	156.127495092748	-79.7306868265634
1958656	34.6217460780505	175.345397062121	178.730729233576	-78.8306847219719
1670375	43.5820137404477	200.940268224944	205.612215872465	-77.7626340960685
1424531	55.7385648323262	229.830837912446	236.493132384651	-76.367825639602
1214875	71.1567220535483	262.330182845316	271.80949932823	-74.823761677504
1036062	90.2310472700432	298.452943043541	311.794485363035	-73.1783987772268
883578.1	114.994991726272	338.307344982425	357.31737683911	-71.2264461607751
753531.2	146.087329798193	381.733644254766	408.732287791888	-69.0584311597796
642624.9	184.483589501084	427.325161087885	465.447084096561	-66.649315518593
548046.8	231.460833009404	474.391979078295	527.846442662285	-63.9917653774377
467390.6	363.768061814066	546.718829394796	656.68004477887	-56.3615603689656
398593.7	435.146089033925	581.131657724223	725.993197220762	-53.1744654448166
339937.5	512.529761515065	610.144935950953	796.846032370923	-49.9692994318091
289906.2	595.74282076337	632.763430815756	869.079437030254	-46.7260661028931
247234.4	683.507266418799	646.240555526974	940.642885932334	-43.3946832171962
210843.7	775.550610815842	651.867090168453	1013.11867675091	-40.0477789048293
179812.5	863.202595408853	649.060137692917	1079.99897363957	-36.9402735480019
153343.8	950.849861460729	635.786139817196	1143.8266803251	-33.768682861789
130781.2	1034.40237679147	614.411984986123	1203.11693712891	-30.7093689851101
111531.3	1112.01099484816	586.752532659574	1257.31737729406	-27.8183671903287
95109.37	1182.70009178119	556.999519504326	1307.29796596923	-25.2183649301164
81109.37	1246.3213765882	517.131681048796	1349.34878711364	-22.5348540712637
69171.88	1300.15773342687	479.430814285017	1385.73591909703	-20.2413613131345
59000	1348.3792659631	441.754415358193	1418.89873083587	-18.1397693093285
50312.5	1393.50607860863	408.694558007234	1452.20192565081	-16.3456264583897
42906.25	1425.70696966494	363.747087869052	1471.37769022247	-14.3127893899994
36593.75	1453.69052453242	333.107149129004	1491.36733031008	-12.9062754057784
31203.13	1477.81600448714	305.05687087444	1508.97310697906	-11.6634096270027
26609.38	1498.5680169591	278.365753584154	1524.20260930796	-10.5230116203081
22703.13	1516.2154495209	257.112600364719	1537.86091004102	-9.62439034400288
19359.37	1531.03769630304	237.834522042839	1549.40042835164	-8.82986976949497
16500	1543.62477178992	222.336838900774	1559.5547781389	-8.1962586621716
14112.02	1556.20801645568	210.335394504331	1570.35803836647	-7.69739003952914
12011.13	1565.4660722385	201.80809877494	1578.42026471437	-7.34562833078652
10236.38	1576.19269995021	197.229804990392	1588.48450522908	-7.13237916901678
8750.684	1585.47950517167	195.659597747198	1597.50678856461	-7.03514250160513
7449.463	1594.30078344842	198.214805762872	1606.57526973617	-7.08705247784398
6363.206	1605.24752507934	201.609925207838	1617.85851628493	-7.15854042194246
5414.761	1615.60150055695	208.180846572926	1628.95901528605	-7.3424770629133
4620.567	1624.83076427339	221.28331285254	1639.82966099416	-7.75531607261687
3941.215	1638.40486350697	234.601788943601	1655.11585580552	-8.1487432722214
3361.769	1648.28876049083	252.914876304253	1667.57961507581	-8.72347723651713
2867.244	1663.51543480677	272.413626755598	1685.6727991762	-9.30008477280293
2442.658	1679.1810079296	298.54267717687	1705.51358466809	-10.0813127264638
2083.003	1693.91376186126	328.051352883447	1725.38735440817	-10.9604878152023
1777.843	1711.76410056428	362.187071177515	1749.66162743223	-11.946840389098
1513.548	1730.70027389526	399.81794585623	1776.28202374787	-13.007992603148
1292.065	1750.89833085827	443.95641188025	1806.30624774756	-14.2280145546318
1101.762	1774.16896505836	496.160470906719	1842.24068174238	-15.6240720590917
939.101	1795.73566461253	553.969699190574	1879.24160362171	-17.1445645374981
801.2801	1825.79542491328	618.724087552486	1927.7832943959	-18.7204505755377
684.3433	1856.30396945845	696.536282016731	1982.68182500191	-20.5674717013891
582.9476	1887.01495205485	779.957286323418	2041.851806025	-22.4567083575858
497.0677	1922.62091325511	877.007051782527	2113.19959894048	-24.5201872088597
423.5089	1962.73750789949	995.210026744951	2200.63207334829	-26.8873795281765
361.5036	2003.98830073562	1114.99847325001	2293.29254671861	-29.0911127181205
308.1262	2048.65397531507	1260.9440665053	2405.61074353877	-31.6122473378331
262.7298	2100.18043342154	1425.15543659701	2538.07522965508	-34.1603109739169
224.2111	2159.81177579564	1613.23624571097	2695.79637423548	-36.7572937465489
191.2854	2223.72085649757	1830.99507436621	2880.5342230176	-39.4677851879743
163.1722	2292.6363074604	2083.43585283495	3097.88414747288	-42.2630285464554
139.1537	2377.17064872929	2367.85348105367	3355.24520727145	-44.8874961045198
118.6706	2470.37627729961	2693.24600575706	3654.63171865115	-47.4714383577347
101.1982	2573.5297754121	3073.18934387628	4008.43463814085	-50.0567442505019
86.24196	2690.54486825566	3507.55069551472	4420.62705616552	-52.5091869601563
73.61024	2830.69146179607	3995.96708918768	4896.99572490688	-54.6867359788628
62.69291	2991.29670817607	4565.77044204128	5458.39864115501	-56.7689047134139
53.57697	3166.27676294187	5202.15636136012	6089.97038971334	-58.6733419399154
45.65746	3376.57228025058	5943.78859669071	6835.9244616882	-60.3997783682036
38.96512	3622.77976485753	6787.10448001255	7693.45958897995	-61.9078605807674
33.18414	3907.16133248277	7759.52665035058	8687.70185466499	-63.2733335981232
28.30617	4227.25396870644	8841.96618407469	9800.51233947821	-64.4480116697004
24.17237	4607.82766014809	10084.4418492281	11087.2919667558	-65.4431820640631
20.61345	5057.14323738834	11517.5116507857	12578.8621245901	-66.294540051848
17.55618	5586.92015771843	13151.2954674949	14288.8155325091	-66.9832926173748
14.98558	6188.18454229672	14974.646347153	16202.8905184175	-67.5474268624606
12.76553	6901.95865147117	17068.994087232	18411.6156916382	-67.9837342234527
10.8809	7735.44642323899	19434.0824896788	20916.9953287378	-68.2957097429014
9.278505	8681.26760878902	22106.6244441306	23750.1000336681	-68.5600724695748
7.923394	9851.49201191449	25058.4318160789	26925.3950749453	-68.5381854818008
6.75822	11100.8466930625	28446.9638969381	30536.1843106924	-68.6828000292918
5.761429	12601.9310406869	32232.5148326002	34608.4336309522	-68.6460161388444
4.919708	14320.867736589	36511.9275570878	39219.9962603632	-68.5836783307342
4.191257	16389.3797320177	41290.0758533781	44423.891454689	-68.3502553249979
3.564097	18662.9037572155	46770.3472775526	50356.4232359086	-68.2463780767407
3.051758	21305.8083309489	52625.9836106849	56775.272959513	-67.9592689256006
2.604164	24219.0373351365	59247.1234855104	64006.1201038467	-67.766239444421
2.214424	27642.4684612509	66962.888713985	72444.0096043337	-67.569027371337
1.892567	31480.6192638485	75116.5800301545	81446.4854039878	-67.2619219931469
1.607507	36043.4956404644	84617.1294386619	91973.8667906457	-66.9279448943651
1.376413	40909.1452700467	94830.8007761607	103278.453428456	-66.6650718579591
1.17375	46389.0849449485	106380.840099129	116055.290022584	-66.4396129655751
1.001604	52722.2582054122	119248.525698257	130383.462875804	-66.1487795887667
