EC-Lab ASCII FILE
freq/Hz	Re(Z)/Ohm	-Im(Z)/Ohm	|Z|/Ohm	Phase(Z)/deg
6999984	23.56936602341	92.2607291092757	95.2237215746194	-75.6694473831171
5969734	16.6016057076009	92.4515087851887	93.9302655629615	-79.8198390594857
5091109	14.6606213241435	97.4667967522475	98.5632298920538	-81.445893282067
4341796	14.1866601498266	106.507433193712	107.448102131772	-82.4129314486888
3702781	17.1210583966167	117.537494660928	118.777915842079	-81.7123186568029
3157797	17.7139695870031	130.250139094755	131.44916680121	-82.2553107592483
2693047	18.4584523689789	147.741644403723	148.890254734734	-82.8785169530121
2296687	20.4944181475058	169.794348345271	171.026728628014	-83.1176122409202
1958656	24.0313135952204	194.672709939863	196.150370961774	-82.9627417488963
1670375	27.6292903532874	224.580102272075	226.273286143022	-82.9863476100557
1424531	36.034752624418	259.052289413403	261.5465389697	-82.080845110631
1214875	31.5939357585681	301.479054070493	303.12999986797	-84.0174424581732
1036062	55.6846159818576	355.948432735326	360.277758436157	-81.1087076196325
883578.1	63.2684083944237	403.52983580734	408.459569464913	-81.0892843503776
753531.2	77.1072852915992	471.410869343828	477.675351238207	-80.7105592477961
642624.9	144.832189972179	605.984124403424	623.051460379576	-76.5582768107035
548046.8	177.591050888664	690.845663647352	713.30660471924	-75.5835037138474
467390.6	216.081335794924	783.344240742739	812.600358838056	-74.578764924306
398593.7	233.263450024054	895.448831054724	925.332613795924	-75.3990113038153
339937.5	287.848380099897	980.412244889641	1021.79492064488	-73.6377963373627
289906.2	377.601195462939	1091.87559268505	1155.32461789593	-70.9231795998124
247234.4	489.646463063009	1246.84279338117	1339.54119391554	-68.5596141033387
210843.7	568.615687817073	1394.05057681196	1505.55664494613	-67.8100707157485
179812.5	710.34012225035	1598.98042271307	1749.66324802755	-66.0470222843515
153343.8	800.686191261381	1774.30101431278	1946.59766419977	-65.7118419742
130781.2	966.155464233187	1987.85631753686	2210.21019820262	-64.0789122580771
111531.3	1187.18967926289	2212.82678771929	2511.17934982677	-61.7862789366406
95109.37	1441.29164562182	2580.23757761991	2955.49447042303	-60.8127663469339
81109.37	1697.22888597542	2726.16350826467	3211.31645360331	-58.0948264541718
69171.88	2079.40040206635	3044.02049595301	3686.45721688123	-55.6626320729973
59000	2410.31171148941	3239.92071146663	4038.1541282043	-53.3529074205321
50312.5	2872.30007603517	3335.59213409665	4401.84990791816	-49.2680449271926
42906.25	3402.19484209386	3467.45113642498	4857.7924129243	-45.5442489771886
36593.75	4497.9376583344	3389.07933428064	5631.8116012799	-36.9970765838111
31203.13	4674.8366635791	3362.61009479021	5758.58007504701	-35.7274651351587
26609.38	5112.28305642359	3246.31889644628	6055.90822473557	-32.4157003243671
22703.13	5797.9069851576	3080.31241288463	6565.36746644926	-27.9808179139822
19359.37	6153.23959458049	2912.33300414824	6807.64577775343	-25.3282295873327
16500	6343.18806114517	2757.30871068183	6916.55883406312	-23.4940140682024
14112.02	6672.45624222405	2588.62100191642	7156.99874220734	-21.2040736484031
12011.13	6988.93102958764	2381.94599431165	7383.68631891621	-18.8199790741299
10236.38	7241.58448984569	2170.03894602148	7559.73643395215	-16.6815573432528
8750.684	7391.18583051595	1945.29299039504	7642.89165170485	-14.7453324182775
7449.463	7630.41910272837	1814.22373344017	7843.13097163752	-13.3744277610239
6363.206	7728.93484192215	1629.68665237734	7898.88045077371	-11.9067046955491
5414.761	7829.52372228779	1460.9796106501	7964.66591519083	-10.5697649763908
4620.567	7923.86568938982	1357.08519663628	8039.23676068932	-9.71850439143107
3941.215	7988.2651353111	1271.13853122509	8088.76832636415	-9.04142870576908
3361.769	8043.85410654271	1190.62286728909	8131.49258743164	-8.41958615155769
2867.244	8101.98484816252	1160.50073947881	8184.67595242389	-8.15140752596876
2442.658	8137.99680702827	1107.52515684468	8213.01430683315	-7.74994745807649
2083.003	8193.43569901778	1085.00856025403	8264.96413360418	-7.54345346871134
1777.843	8239.74442697271	1096.7941117799	8312.42116025548	-7.58208228325906
1513.548	8282.32846340189	1104.6018540001	8355.66335077817	-7.59662395209948
1292.065	8332.95643837884	1138.43417229509	8410.36238033586	-7.77948916199344
1101.762	8385.06632178993	1197.39813025923	8470.12983980553	-8.12696514642848
939.101	8434.77863929529	1266.93789923093	8529.39753642775	-8.54219911971569
801.2801	8494.97279239628	1354.69985465261	8602.31215660934	-9.06070873557523
684.3433	8550.83706313715	1439.22595170861	8671.11214437869	-9.55413425916394
582.9476	8615.64659925745	1598.0092592424	8762.59093624259	-10.5076735401325
497.0677	8689.88539042261	1744.73577734892	8863.30700311354	-11.3527748287945
423.5089	8748.3556946032	1927.36607194149	8958.15088813352	-12.424458007119
361.5036	8859.45346317241	2121.66431851001	9109.96021651885	-13.4675735097783
308.1262	8948.97469992893	2363.16384390061	9255.73830297115	-14.7924753856609
262.7298	9047.54434472053	2631.40757967834	9422.43941450796	-16.2166593882837
224.2111	9168.90572673699	2934.8347780268	9627.15364996872	-17.7491209550303
191.2854	9286.75783103109	3303.71490885412	9856.89622605424	-19.5827463276316
163.1722	9476.08215439868	3715.91909765101	10178.6142346196	-21.4119656547883
139.1537	9586.30469566249	4186.81104127683	10460.7181595452	-23.593261817475
118.6706	9762.26656694369	4723.62404616429	10845.020638688	-25.8207383784492
101.1982	9949.3340656947	5347.55858753249	11295.3809673639	-28.2570981627942
86.24196	10157.5124060119	6067.79549106252	11831.8722271517	-30.8528376170108
73.61024	10398.855039984	6879.53857795898	12468.5298727728	-33.4873032886003
62.69291	10681.3229361339	7827.09900073266	13242.1349650746	-36.2333524907915
53.57697	10985.3362529589	8879.1391328837	14125.0389143421	-38.9476369128206
45.65746	11326.1022666715	10101.8137172356	15176.535603781	-41.7299486138657
38.96512	11740.298793301	11522.8872105489	16450.2749345723	-44.4645443897322
33.18414	12223.197008456	13138.034194252	17944.76212149	-47.0658931007631
28.30617	12758.050243386	15014.8081256994	19703.1040464271	-49.6455152522027
24.17237	13373.9284770862	17061.8847458509	21678.7885729557	-51.9089391852434
20.61345	14106.9387663741	19459.4584951394	24034.8964275339	-54.0601436045298
17.55618	14962.6391216675	22222.3730453637	26790.19285583	-56.0470581056404
14.98558	15933.7494231348	25316.886718817	29913.6945864709	-57.8148219796913
12.76553	17080.75876187	28871.403877706	33545.6447508587	-59.3907996909782
10.8809	18436.0539229572	32864.2997265609	37682.22765134	-60.7086599155586
9.278505	20004.6199290813	37448.3050008805	42456.5703507239	-61.8891821566461
7.923394	21974.9581615398	42453.5012727818	47803.7504440761	-62.6328240789464
6.75822	23925.4838203139	48379.7257838516	53972.4618945327	-63.6859778021764
5.761429	26416.7360063444	54989.7039467848	61005.831535878	-64.3406393788929
4.919708	29385.6141625834	62382.7689864921	68957.4084934626	-64.777061331444
4.191257	32792.5654514575	70625.1278060852	77866.9443763783	-65.0936778090333
3.564097	36800.4610894137	80297.840873367	88329.0279880743	-65.3780367627567
3.051758	41388.6010331876	90424.8332824893	99446.8037176176	-65.4058252158206
2.604164	46687.0859772858	102094.43743054	112262.897483135	-65.4257068513116
2.214424	53211.806800619	115331.483563371	127015.146671231	-65.2322762996755
1.892567	60199.181497772	129881.040479362	143153.854747273	-65.1325243475432
1.607507	68711.1607061187	146376.644432135	161701.408901697	-64.8540095633301
1.376413	78339.6154533412	163816.258746869	181584.310939019	-64.4421102044105
1.17375	89218.9532432836	183556.001531662	204090.24306938	-64.0775371593688
1.001604	101832.113184697	204947.272200857	228851.837786445	-63.5786055113689
