EC-Lab ASCII FILE
freq/Hz	Re(Z)/Ohm	-Im(Z)/Ohm	|Z|/Ohm	Phase(Z)/deg
6999984	-10.9362516234079	30.4019328692073	32.3091182447661	-109.784786899694
5969734	-12.4729261710584	32.8740048272685	35.1606894223072	-110.777550871317
5091109	-13.1899598218705	36.7742920681442	39.0681916297099	-109.731559120526
4341796	-12.8652058642605	41.8734755518275	43.8052676823153	-107.079051007968
3702781	-12.5891140798421	48.8564331633275	50.4523225903224	-104.449403911436
3157797	-11.847769705401	56.8407453966315	58.0623801117118	-101.774034782852
2693047	-12.0800725002722	66.5261332613721	67.61401155324	-100.291850262628
2296687	-11.7614115510253	76.5733144688279	77.4713062392431	-98.7322018485025
1958656	-11.5552679138474	89.3446357375321	90.0887792770725	-97.3693644370043
1670375	-11.4255891942367	104.439612748505	105.062727927144	-96.2432731864542
1424531	-11.0283512082695	121.907035177537	122.404860018506	-95.169206503702
1214875	-10.7894342518871	142.064955767832	142.474080270033	-94.3431159546823
1036062	-9.74557994624797	166.501804149937	166.786771398911	-93.349779025264
883578.1	-9.20525381442031	193.993960222313	194.2122377723	-92.716717957424
753531.2	-8.13287302536975	227.054847053166	227.200455972217	-92.0513993657181
642624.9	-6.90586779113998	264.942096266098	265.032083687661	-91.4931092901426
548046.8	-4.6800396301128	310.474800900898	310.510071922621	-90.8636005606323
467390.6	-4.04302895844396	362.729237272614	362.751768645628	-90.6386000344845
398593.7	0.152728606771078	422.688276323894	422.688303916364	-89.9792974996274
339937.5	0.990322331738246	493.59905149041	493.600044945858	-89.8850459423284
289906.2	-118.943202707202	498.052621503444	512.05849202674	-103.431601684166
247234.4	-125.244028122908	598.986207394721	611.939983355854	-101.810016532386
210843.7	-129.623055225046	722.752915927271	734.284627325976	-100.167690308423
179812.5	-134.708717898672	862.809329198288	873.261917885753	-98.8738370154588
153343.8	-128.632679954505	1025.20719186081	1033.2454464431	-97.1515258832956
130781.2	-128.16994515394	1210.75566057201	1217.52076140324	-96.0427952539379
111531.3	-117.560574435709	1432.17581911667	1436.99271589113	-94.6926202097121
95109.37	-114.511795357648	1694.73303014699	1698.5973609856	-93.8655556324408
81109.37	-105.546541672278	1972.43955572899	1975.2614696448	-93.063013648801
69171.88	-73.0696221724152	2320.40159708346	2321.551795983	-91.8036524151035
59000	-69.5829616898245	2716.14543251875	2717.03658406544	-91.4674980767002
50312.5	-87.6507682526204	3143.9831346069	3145.20470047148	-91.5969292426203
42906.25	-12.8212461213628	3722.03534169615	3722.05742421947	-90.1973652364542
36593.75	19.2211503169469	4325.81817828178	4325.86088127815	-89.745416127655
31203.13	-783.296636242019	4827.55097605354	4890.68523284248	-99.216236593829
26609.38	-771.840661349372	5703.14485860375	5755.136773764	-97.707352240352
22703.13	-713.217122479545	6717.75917431179	6755.51382115736	-96.0603277624689
19359.37	-696.044963072504	7918.32671738366	7948.86008141107	-95.0235606321797
16500	-653.697027575549	9269.63872404598	9292.6595696923	-94.0338333368707
14112.02	-411.447665696298	10960.7460005907	10968.4658029768	-92.149776219142
12011.13	-351.128886699068	12667.0924673997	12671.9581388485	-91.5878192136777
10236.38	-422.943136426184	14894.3033821292	14900.3071825904	-91.6265511606286
8750.684	-309.909271678358	17332.1726339192	17334.9430910127	-91.0243725179461
7449.463	-11.0303151063901	20288.500363948	20288.5033623914	-90.0311501800868
6363.206	-72.4526331843989	23765.2263269345	23765.3367692207	-90.174676107767
5414.761	293.088463019842	27731.6889408109	27733.2376825543	-89.3944794781374
4620.567	464.651206058377	33018.9572809771	33022.2264644024	-89.1937723625031
3941.215	-6542.9056762873	34358.6350739117	34976.0692307044	-100.781729177465
3361.769	-6553.42234927981	41255.4378317111	41772.7003577003	-99.0260146058456
2867.244	-6517.64606012338	48847.6155566934	49280.5159849159	-97.5999799495445
2442.658	-6493.45854853062	57858.834223694	58222.0722891791	-96.4034721859728
2083.003	-5786.33326147769	68546.8156978606	68790.6068800774	-94.8251453477259
1777.843	-5611.76642016416	80131.6583336907	80327.919116966	-94.0059875880274
1513.548	-5200.13977137716	94774.3586035211	94916.9136790207	-93.1405921342618
1292.065	-4685.94980531781	110716.352342583	110815.471851294	-92.4235354536555
1101.762	-3994.53005599602	129086.729133229	129148.518801742	-91.7724262152689
939.101	-2490.75112666996	151920.070604744	151940.487342003	-90.9392882853691
801.2801	-1702.16557840459	175971.260143532	175979.492453408	-90.5542033512617
684.3433	-591.809109853721	205726.349571804	205727.200793095	-90.1648212336908
582.9476	3678.40677281484	234852.772885357	234881.577839402	-89.1026720730773
497.0677	-55482.8681014492	242981.941145505	249235.977289797	-102.862482706262
423.5089	-71829.2903910637	259499.095498788	269256.805898705	-105.472076279965
361.5036	-59914.3740692364	358425.230076767	363398.373380635	-99.489823941004
308.1262	-69831.1005731829	418743.878637606	424526.581622079	-99.4677077701119
262.7298	-73507.5503408196	521597.672549249	526751.83147845	-98.0217341825403
224.2111	-60785.2397483058	603869.311208894	606920.909502353	-95.7480084683431
191.2854	-49532.4892419523	657305.895845824	659169.55952485	-94.3094833321081
163.1722	-16579.7160325892	738667.408948242	738853.455041005	-91.2858131598642
139.1537	-171449.139908843	948513.872485885	963884.523101005	-100.245899047459
118.6706	51806.4909424768	844965.20877103	846551.898312941	-86.4914742175481
101.1982	-187433.318502389	856280.283488929	876554.147087731	-102.346877986424
86.24196	100404.238349412	889827.894765786	895474.563224348	-83.5622274899417
73.61024	202914.134923575	-306874.278409301	367893.964208455	56.5261711435067
62.69291	54221.5548236668	-236.459639164478	54222.0704202344	0.249864717216931
53.57697	157512.119098508	54396.2833288356	166640.401172385	-19.0521816797625
45.65746	-337886.70335125	353803.569112557	489228.36162508	-133.68176791479
38.96512	125812.083222266	416527.549545545	435113.640116169	-73.1930664967822
33.18414	644207.131370578	135069.152882186	658214.633815612	-11.841519287197
28.30617	777020.825312869	296242.721235481	831577.48457669	-20.8695751580277
24.17237	704456.093067765	-136729.518356489	717602.500170043	10.9840994059396
20.61345	396182.807590215	-558449.092809381	684708.847824888	54.6468122796981
17.55618	-654752.024889451	-969346.468483894	1169757.57747451	124.037341236691
14.98558	1681489.30036299	9044147.35603476	9199130.81029429	-79.4678137901574
12.76553	617615.004154329	4747233.45224477	4787240.72336752	-82.5874543930857
10.8809	4907131.38164805	1378847.9977656	5097171.78420517	-15.694757862277
9.278505	3411271.41055817	2374810.29873005	4156500.52224776	-34.844313719322
7.923394	1926609.55485075	-790254.641656415	2082384.87689037	22.3024050937791
6.75822	1618135.71683446	-723370.491916997	1772463.8407233	24.0865269128811
5.761429	929460.880955477	-72037.5425551583	932248.323551144	4.43182969125251
4.919708	1420242.7268343	-705941.697996514	1586014.84359256	26.4299987794795
4.191257	1009176.33710271	-663219.140619922	1207599.48155531	33.3124594878382
3.564097	151197.883049809	2465355.24722571	2469987.30661963	-86.4905001892963
3.051758	548635.556351759	-1644028.02956481	1733155.83133432	71.5454117653244
2.604164	3434285.09434887	7567620.96160398	8310427.25302224	-65.5908332878683
2.214424	6157960.06305134	2492812.13394509	6643386.52144214	-22.0386611615245
1.892567	698507.443979731	-2886986.25414855	2970286.56545758	76.3986507689801
1.607507	768100.62673202	2806049.75768682	2909277.19810271	-74.6914084268288
1.376413	-545505.867868004	-4341340.38409224	4375478.60038517	97.1618964193874
1.17375	1926064.89733147	-8515508.86939456	8730613.79820857	77.2551080811416
1.001604	9630778.74418914	12522916.9281013	15797953.9057326	-52.4378307963507
