EC-Lab ASCII FILE
freq/Hz	Re(Z)/Ohm	-Im(Z)/Ohm	|Z|/Ohm	Phase(Z)/deg
6999984	-13.2295451651021	30.7005774698957	33.4297221385483	-113.312258861197
5969734	-14.1160467667817	32.4109328494543	35.3515394925568	-113.534738373046
5091109	-15.1981722616002	36.25793606216	39.3144040725655	-112.741879376144
4341796	-15.1466615509563	41.8995017393616	44.5532221297853	-109.874913160868
3702781	-14.2494376264034	49.2356885922306	51.2562142946576	-106.141119097339
3157797	-12.8165225579182	56.6524087898187	58.0840655616181	-102.747490076779
2693047	-13.0001278688104	65.8002006780461	67.0721233738471	-101.175981436294
2296687	-13.0167297335765	76.6392621269467	77.7368107933418	-99.6393659255331
1958656	-12.7714921206772	89.2935333042206	90.202251085771	-98.1397061925577
1670375	-12.4214423254007	104.048733266668	104.787552332524	-96.8078085019966
1424531	-12.1456254562449	121.772305344456	122.376511498844	-95.6958693089862
1214875	-11.4700799785749	142.332623150251	142.794041708841	-94.6073067940171
1036062	-10.1792648432983	165.373353781577	165.686340938886	-93.5222966173779
883578.1	-10.1759457466191	193.55460117738	193.821911838607	-93.0094993907358
753531.2	-8.96283279074514	226.229146171885	226.40662302436	-92.2687795531907
642624.9	-7.79828892696466	264.194369477407	264.309436406938	-91.6907224336832
548046.8	-6.43544102518045	308.599551245334	308.666645314991	-91.1946555746589
467390.6	-4.76799108554466	361.308912764011	361.3403716466	-90.7560563824863
398593.7	-2.26688090010495	421.845354896341	421.851445649574	-90.307888795135
339937.5	1.06254025965586	492.753981132592	492.755126725052	-89.8764515754015
289906.2	-102.796795210789	501.490921561032	511.918280112893	-101.584156569546
247234.4	-109.321151412167	603.260400113817	613.085821473278	-100.271510260901
210843.7	-112.834048784449	723.49479361291	732.240560847375	-98.8642686202801
179812.5	-115.035192494772	860.182421797312	867.840362210353	-97.6171686833984
153343.8	-110.683383084994	1024.43673842493	1030.398681252	-96.1664968419067
130781.2	-110.743820907041	1207.1918228507	1212.26081806956	-95.2414564816679
111531.3	-128.327155517506	1427.92854818001	1433.68329750704	-95.1353446980097
95109.37	-115.808743589447	1675.53621904957	1679.53365147552	-93.9538484286705
81109.37	-86.6518564712017	1972.4129722335	1974.31544522776	-92.515495179774
69171.88	-89.2384063157355	2279.94229321406	2281.68804913116	-92.241449466363
59000	-65.118237765695	2689.56901914	2690.35720557836	-91.3869402107048
50312.5	-40.0341977826301	3138.86254666173	3139.11784165996	-90.7307316479415
42906.25	-4.83621001563356	3729.7040504323	3729.70718592471	-90.0742939020601
36593.75	42.3488670467237	4335.18666482781	4335.3935052589	-89.4403161017479
31203.13	-732.371293512784	4826.44084615567	4881.69017380266	-98.6283246002453
26609.38	-655.198180767275	5651.72589223665	5689.57733202203	-96.6127163727545
22703.13	-695.964271428278	6631.55054870176	6667.97037689065	-95.9911144608171
19359.37	-690.417901337784	7858.00576122865	7888.27810247523	-95.0212115052197
16500	-581.048821681629	9253.99174297697	9272.21553417863	-93.5928277219585
14112.02	-422.359532747442	10721.9541010541	10730.2696760153	-92.2558307070207
12011.13	-478.647332472013	12678.1921550237	12687.2242665047	-92.1620948117373
10236.38	-322.684603899622	14853.0846763486	14856.5894389114	-91.2445601986148
8750.684	-258.06198518437	17229.6401786886	17231.5726698197	-90.8581001657991
7449.463	-176.0658600903	20380.6158829974	20381.3763754407	-90.4949595152452
6363.206	407.422025506761	23611.7708072448	23615.2855871091	-89.0114571920925
5414.761	167.42688861195	27549.0907457469	27549.599501271	-89.6517948239307
4620.567	584.50905688408	32477.6520026093	32482.9113602856	-88.9689437236938
3941.215	-6506.3899881428	34065.6554179173	34681.4358083699	-100.813012673079
3361.769	-6686.44456466226	41066.4773656772	41607.2602335455	-99.2477492725612
2867.244	-6890.74369955552	49011.9335765614	49493.9590419501	-98.00294116686
2442.658	-6431.31666773791	57948.1348844041	58303.9292900729	-96.3329983771717
2083.003	-5916.46112735179	68140.8890745225	68397.2607356307	-94.9623687396597
1777.843	-5390.26616640279	80133.7688353134	80314.854647793	-93.8482523070278
1513.548	-4557.902465671	94820.6991825154	94930.1820726561	-92.752012157604
1292.065	-4451.90723291878	110297.911530171	110387.720177236	-92.3113503173689
1101.762	-5352.32791021442	128964.058389011	129075.078036864	-92.3765529144548
939.101	-3614.94335487933	151068.045044807	151111.290276799	-91.3707828008822
801.2801	-2272.73071859864	174779.647088747	174794.423084337	-90.7449982970403
684.3433	374.271817083684	205043.503695596	205043.845279879	-89.8954164784203
582.9476	-2542.49148950081	237325.84576671	237339.464337178	-90.6137909619553
497.0677	-14630.0311528715	281680.975784941	282060.649383586	-92.9731738665245
423.5089	-69823.8030532051	273507.311555904	282279.317250399	-104.321175956886
361.5036	-49208.9781530711	360241.641920882	363587.079122351	-97.7784563027277
308.1262	-48427.5084543582	445035.606033922	447662.723725214	-96.2103281132342
262.7298	-77917.6027731985	522399.825681572	528178.692010629	-98.4833089822977
224.2111	-47363.670073131	627980.486714271	629764.089907236	-94.3132075577765
191.2854	-85677.4866171277	634002.741610887	639765.666539827	-97.6961795633469
163.1722	-41382.9818732301	713480.191063005	714679.32265319	-93.3195268536811
139.1537	141844.852479782	937645.297582598	948313.590672289	-81.397650235717
118.6706	77373.4741008962	1039668.86800527	1042544.00846861	-85.7438215906819
101.1982	320656.963473745	789928.595962979	852530.395319866	-67.9062130337715
86.24196	762768.765716422	307492.811291412	822415.964672653	-21.9557026023675
73.61024	256245.853737065	160594.896374672	302411.40570261	-32.0762743969537
62.69291	54871.3272693922	37265.3093127952	66329.2230806531	-34.1819916968846
53.57697	99712.3679300873	70592.6235998547	122171.497596354	-35.2970649690344
45.65746	115056.587331496	461258.015290833	475391.391338136	-75.9939133824997
38.96512	412480.617155867	56199.8326962681	416291.581375811	-7.75868506445224
33.18414	496611.086400326	106760.181754506	507956.993793734	-12.1326448724809
28.30617	-270035.908188433	-1858583.27883681	1878097.75999092	98.2667309357382
24.17237	431287.584603242	447733.649263355	621670.653413509	-46.0718514332568
20.61345	284587.701041034	595110.036168549	659656.057906204	-64.4423966833081
17.55618	6150.51410803119	1016546.58778617	1016565.19415309	-89.6533418099775
14.98558	1168685.95561131	-962467.48213074	1513991.58419134	39.4730506701115
12.76553	2543941.72423725	1036808.64783125	2747109.69357484	-22.1738390941297
10.8809	594673.929197392	1317680.95677058	1445655.62493386	-65.7101803965941
9.278505	2261581.98416953	991861.776258109	2469522.79890713	-23.680809768571
7.923394	3291454.91463973	-53651.0883015752	3291892.14501052	0.93384500267649
6.75822	1022504.61678471	-926568.032067576	1379871.01186873	42.1820810691593
5.761429	831575.638149229	-888480.956307304	1216929.10709048	46.8948480101827
4.919708	1348353.46589404	771340.184712029	1553390.72661711	-29.7721819196146
4.191257	281910.790431023	-1341104.49492987	1370414.15640767	78.1288114229366
3.564097	1283477.26035357	1230556.41960582	1778084.07553686	-43.7940920961819
3.051758	135374.125659763	-1920918.31561776	1925682.56189173	85.9688221168297
2.604164	3987085.48803734	4926263.7146601	6337580.36440523	-51.014924489611
2.214424	3979650.40929787	-1722639.24046771	4336485.1358011	23.4059504550908
1.892567	-2558892.5797494	1376318.48057288	2905543.63151941	-151.726099644184
1.607507	2675964.82593139	1358081.11845748	3000861.88851349	-26.9082867581209
1.376413	-2948401.82848249	-1727560.98599009	3417241.62190998	149.632626452335
1.17375	19879880.8569348	-4272197.28760378	20333748.61038	12.1284336326867
1.001604	2774887.10328095	8634314.40411031	9069254.85720749	-72.1836867491002
