EC-Lab ASCII FILE
freq/Hz	Re(Z)/Ohm	-Im(Z)/Ohm	|Z|/Ohm	Phase(Z)/deg
6999984	-12.3455940212522	30.2655730016593	32.6866731383961	-112.190980456126
5969734	-13.7162098546498	33.3261639200462	36.0384185890915	-112.370831908017
5091109	-14.7076270228951	37.0917776783654	39.9013065448474	-111.629309929559
4341796	-14.4361336247344	42.1848066172649	44.5865435234357	-108.891545697085
3702781	-13.5591103706248	49.385534614292	51.2130891782777	-105.35261457968
3157797	-12.550142481982	57.0538867682705	58.4179088267004	-102.405778047763
2693047	-12.0428990804657	66.1167875718638	67.2046205039895	-100.323019166683
2296687	-12.4571660697953	77.0469234482198	78.0474816975302	-99.1842655488607
1958656	-11.9910287506109	89.4036674864617	90.2042157026366	-97.6390556711724
1670375	-11.4971081321773	104.37497013924	105.006275464708	-96.2859012464119
1424531	-11.3707098236865	122.108879284859	122.637153595877	-95.3200089953804
1214875	-10.6461144547146	142.898845323965	143.294869928778	-94.2607246237425
1036062	-10.1291050841989	165.769503591168	166.078677411247	-93.496628108156
883578.1	-9.39073279034	193.568759025775	193.796414654963	-92.7774514837078
753531.2	-8.43507121495262	226.171939742433	226.329177865462	-92.1358533447203
642624.9	-6.76801403734824	264.755727513342	264.842219566912	-91.464346808827
548046.8	-6.52101909825523	308.50006914914	308.568981518078	-91.2109275760407
467390.6	-1.23304779400536	361.312945326003	361.315049322628	-90.1955317715098
398593.7	-1.96274805707988	420.855780608215	420.860357424272	-90.2672087916807
339937.5	1.59174473737777	491.683193441282	491.685769942476	-89.8145148377478
289906.2	-100.776316001356	500.748049831432	510.788092340441	-101.37886579155
247234.4	-107.815419217782	604.126551171355	613.671780719386	-100.118759712719
210843.7	-112.63418100854	720.887441124276	729.63358030053	-98.8803114385438
179812.5	-114.602961337747	859.154023463171	866.763794110216	-97.5978600057025
153343.8	-113.802324332623	1022.14919092776	1028.46484506656	-96.3529373084422
130781.2	-109.749009386818	1208.63606537298	1213.6086616293	-95.1884578856183
111531.3	-91.6750806986478	1417.54755060575	1420.50884497404	-93.7002573085455
95109.37	-96.7275841610335	1668.68171892	1671.48284603684	-93.3175215013981
81109.37	-20.9795980356859	1974.5368357858	1974.64828752077	-90.6087489333582
69171.88	-75.7776084825628	2308.07901669569	2309.32262649857	-91.880428759651
59000	-63.7628011846729	2698.1469836231	2698.900301984	-91.3537659543668
50312.5	-12.8612289940669	3071.9268543413	3071.95377726203	-90.2398787048529
42906.25	-22.4037783542698	3731.0122173325	3731.07948121839	-90.3440424320077
36593.75	40.0494538769322	4329.39424021226	4329.57947680129	-89.4699953155357
31203.13	-714.031456474164	4707.73669971873	4761.57807399114	-98.6244284872384
26609.38	-697.151419404913	5648.85734305203	5691.71409891003	-97.0355592255611
22703.13	-671.702930431342	6674.95702780999	6708.66873156366	-95.7463468907372
19359.37	-620.303332061895	7911.45219529515	7935.7326103018	-94.4831468398123
16500	-598.166122940213	9274.91916756462	9294.18787605947	-93.6900586597922
14112.02	-509.435491958323	10953.4432203438	10965.2835303863	-92.6628599246817
12011.13	-380.579942334472	12646.0560076948	12651.7814414516	-91.7237820984623
10236.38	-226.669070931153	14697.8734679388	14699.621197407	-90.8835394919029
8750.684	-399.942287251409	17467.2662607554	17471.8443347362	-91.3116535564246
7449.463	-47.9136110108361	20417.6375965692	20417.6938153886	-90.1344544705489
6363.206	12.8262400331932	23563.4895924229	23563.493083256	-89.9688123719765
5414.761	248.637465409287	27584.7906020744	27585.911135025	-89.4835744152802
4620.567	390.257105622396	32274.2155185341	32276.5749103785	-89.307218005939
3941.215	1301.90894673721	37313.0950882924	37335.8009419049	-88.0016763739539
3361.769	-6399.83440938061	41251.2699228705	41744.7619554479	-98.8187184755672
2867.244	-6421.91388738495	48947.213191572	49366.6958302678	-97.4745594881903
2442.658	-6437.03128090491	57917.2122366713	58273.8264144288	-96.3419365187757
2083.003	-5809.98562017529	68584.7960572241	68830.4451759369	-94.8421048984618
1777.843	-5603.54478001058	79984.4190197461	80180.4652021171	-94.0074772782947
1513.548	-4836.52775046444	94252.3908031105	94376.4015672524	-92.9375358916674
1292.065	-4296.33566297003	110274.514275846	110358.175949509	-92.2311362260506
1101.762	-4767.55777655371	129524.047208067	129611.760316379	-92.108007595877
939.101	-1518.04612260718	152063.046114672	152070.623256772	-90.5719650429108
801.2801	-3468.88624712043	178503.834579418	178537.537037317	-91.1132955677504
684.3433	1178.33599806914	208614.605666126	208617.93348837	-89.6763747133418
582.9476	-3165.17239298281	239053.290959636	239074.24418977	-90.7585773967849
497.0677	-49946.2412037592	247764.398081832	252748.539001191	-101.397372328333
423.5089	-47333.9332598906	262584.136832941	266816.285399059	-100.218511664851
361.5036	-48175.8833229972	365906.774774771	369064.606214177	-97.5005144763098
308.1262	-38832.2205011361	427515.794627874	429275.78082784	-95.1900621674447
262.7298	-49127.7004347768	478472.011406889	480987.52234311	-95.8623708442512
224.2111	-53487.2664862146	600684.246702974	603060.902325202	-95.0884194545885
191.2854	-52847.4543874027	612376.503308583	614652.613465261	-94.9323457511949
163.1722	-129512.73988318	723854.038906748	735349.045986775	-100.144084447264
139.1537	467810.580278833	1015947.54272957	1118479.3912268	-65.2754773174283
118.6706	277265.617323619	1010530.26497551	1047877.68321562	-74.6569736633414
101.1982	-499534.177133284	774664.733194207	921759.102466083	-122.815508738575
86.24196	729341.115844322	441464.448677973	852542.856815766	-31.1861901917959
73.61024	323365.699062578	-234231.272459478	399286.443957488	35.9178475513248
62.69291	63948.8081956463	-13127.2920783855	65282.2783529711	11.600418647006
53.57697	104022.631948543	-39017.9235293348	111099.533365551	20.5606019374255
45.65746	326540.577881229	605866.391706367	688260.730829748	-61.6769012935502
38.96512	333523.28242915	279972.383976666	435456.445252442	-40.0114018144164
33.18414	412288.044626655	399895.626520935	574367.429310404	-44.1258403891406
28.30617	697657.788081553	11141.0069211673	697746.738656701	-0.914887548108996
24.17237	471099.383081469	-488889.276079559	678931.037002534	46.0616470549255
20.61345	-1859.24267074398	1071192.89405934	1071194.50757859	-90.0994467492664
17.55618	-637458.346215591	-786072.565287519	1012058.90197044	129.040007633317
14.98558	1398455.32578767	614860.577911277	1527655.33694394	-23.7337109617954
12.76553	1782445.14895699	-2142799.26689934	2787238.67066755	50.2452932017236
10.8809	1337555.91427329	-861160.041985583	1590802.45213542	32.7746927604843
9.278505	870545.293808554	-1609636.54707724	1829966.91835097	61.5939943005947
7.923394	2510835.83468559	-372833.3744517	2538365.87470095	8.4461198270502
6.75822	1588384.72008704	4967.35425637654	1588392.48726953	-0.179180461017688
5.761429	-365597.635015693	716118.165523806	804044.064540152	-117.04553726271
4.919708	1745409.25967767	-157290.302140743	1752482.16051293	5.14939000176065
4.191257	1403971.63315588	748960.115805745	1591250.326559	-28.0780545813938
3.564097	1238696.93145575	2410992.09421576	2710581.66568889	-62.8072324317843
3.051758	1363834.56734741	-419871.582762502	1427002.75861793	17.1115621684985
2.604164	-8342014.57951986	15544283.8303354	17641257.5244212	-118.220730996303
2.214424	4133314.94959009	-2380420.16454567	4769768.61412381	29.9380990379286
1.892567	2640851.82046969	-1388517.62032803	2983635.28596233	27.7346752451939
1.607507	2286.30821724194	3795793.18091879	3795793.86947116	-89.9654892167648
1.376413	3613015.45104183	2392941.55537638	4333595.49761097	-33.5169653136542
1.17375	11417689.4415364	-4644379.84935492	12326146.8581413	22.1350441218214
1.001604	-3154050.61120437	17754819.9821717	18032794.2332119	-100.073209568006
