EC-Lab ASCII FILE
freq/Hz	Re(Z)/Ohm	-Im(Z)/Ohm	|Z|/Ohm	Phase(Z)/deg
6999984	-9.05610664822914	34.5130375583209	35.6814073310761	-104.702765848443
5969734	-7.06750827320708	39.5682562030242	40.1944843497216	-100.127124896528
5091109	-5.77301297169107	44.397488224525	44.7712479099941	-97.4086120459708
4341796	-4.42569383177266	49.4984281009292	49.6958866542841	-95.1092751183313
3702781	-10.7439659435745	49.4446356010771	50.5984663198401	-102.259387331107
3157797	-10.0005532520006	57.4440164546538	58.3080276787736	-99.8757683118041
2693047	-9.54152403878842	66.758424308195	67.4368437658212	-98.1339766146064
2296687	-10.0480902518131	77.0539014943303	77.7062922369002	-97.4296395970521
1958656	-9.71218184248178	89.3594908304268	89.8857334487212	-96.202936957677
1670375	-9.65317526291504	104.785770771529	105.229470913998	-95.2634007652215
1424531	-9.16649614932927	121.919438271859	122.263543545005	-94.2996857538114
1214875	-8.17860226808457	141.402797604837	141.639121380831	-93.3102449374
1036062	-7.65008673945138	165.800273325379	165.976668426293	-92.6417750778209
883578.1	-6.87955660298745	193.465250167858	193.587528837902	-92.0365597588242
753531.2	-5.94209806251258	226.325089490095	226.403080063156	-91.5039381924706
642624.9	-4.80012900271142	263.994631204918	264.038267195237	-91.041675843359
548046.8	-3.3614455212542	307.455599686471	307.473974662182	-90.6263960334482
467390.6	-1.00077536783767	360.421526751113	360.42291616508	-90.1590916557395
398593.7	2.26230359324882	420.707514007222	420.713596594744	-89.6919018695898
339937.5	2.77690933232266	493.375759987751	493.383574684981	-89.677520628932
289906.2	-100.275008130858	502.380432811301	512.290129250324	-101.287880093684
247234.4	-107.66876834492	600.851856648514	610.422408922607	-100.159210533055
210843.7	-108.661577527764	723.277851584589	731.394687582321	-98.5439279170225
179812.5	-116.537396976207	862.71326635254	870.548760745002	-97.6930855912532
153343.8	-108.778072799787	1020.79317596992	1026.57263611923	-96.0826158206995
130781.2	-106.634603897941	1203.09342359113	1207.80988762168	-95.0651000723267
111531.3	-122.963512426665	1367.69364309439	1373.21008106885	-95.1374073460722
95109.37	-95.8726273608155	1672.63496338556	1675.380339331	-93.2805084278327
81109.37	-83.6373476616835	1956.26013716141	1958.04722368248	-92.4481153430666
69171.88	-92.4388256722748	2317.29615729315	2319.13915431939	-92.2843640052183
59000	-50.007911105043	2690.93933937685	2691.4039680767	-91.0646514509438
50312.5	-58.2207984356844	3119.77816905061	3120.32137534826	-91.0691205217458
42906.25	-4.64600266397705	3705.91012955285	3705.91304183776	-90.0718301835411
36593.75	12.0525072614051	4314.73894717393	4314.75578048062	-89.8399541638516
31203.13	99.6245343496057	4983.22259277071	4984.21833961402	-88.8546959393447
26609.38	-724.272343307504	5666.43457101906	5712.53456662803	-97.2839364297503
22703.13	-696.643836175774	6635.40500747612	6671.87471762779	-95.9934635877772
19359.37	-650.684598840086	7843.14290418548	7870.08774173724	-94.742524833668
16500	-527.80642298075	9219.31044393037	9234.40656900612	-93.2766123148258
14112.02	-504.605937392079	10860.366981032	10872.0834302696	-92.6602243188241
12011.13	-514.040819857219	12681.1396452457	12691.5539106408	-92.3212624872247
10236.38	-397.823951944386	14764.1909344222	14769.5496832102	-91.5434722803346
8750.684	-320.618203253611	17253.4817211072	17256.4604578354	-91.0645941551642
7449.463	-102.034530762638	20186.0056301045	20186.2635062579	-90.2896114414703
6363.206	173.19353464833	23482.4027653435	23483.041447697	-89.5774249021227
5414.761	357.790707100284	27564.6511593912	27566.9731332443	-89.2563393537314
4620.567	535.76343612619	32035.8226547238	32040.3023647469	-89.0418812510139
3941.215	782.894477605444	37611.4330882885	37619.5803102303	-88.8075415128054
3361.769	-6544.69429729975	40781.8819742436	41303.6913702183	-99.1171148952714
2867.244	-6636.79705503958	48494.5243881745	48946.5624000811	-97.792894839165
2442.658	-5608.9670645065	57569.6659263485	57842.2591744313	-95.5647192696808
2083.003	-6009.04536443638	68351.3098477453	68614.9414056031	-95.0241908857543
1777.843	-5149.31976803737	79801.0001481097	79966.9626702935	-93.6920067162957
1513.548	-4299.45038526807	94023.2874203748	94121.5376571686	-92.6181692166615
1292.065	-4590.05097119316	110084.222514891	110179.873909105	-92.3876109999008
1101.762	-4576.34601756973	129416.422192083	129497.309917511	-92.0252151944806
939.101	-1853.74465984038	151026.635901401	151038.012172295	-90.7032296737752
801.2801	-57.97792552286	173237.422279781	173237.431981611	-90.0191753621685
684.3433	359.003206832514	207476.905288875	207477.215885387	-89.900859577474
582.9476	2603.96511868871	244487.020223525	244500.886894338	-89.3897812242173
497.0677	-51943.2328505911	243234.650732637	248719.108144104	-102.054554919348
423.5089	-74600.6886343309	293974.704671645	303292.581069002	-104.239128400623
361.5036	-57045.7364767523	353929.983054351	358497.7670154	-99.1560760253403
308.1262	-62518.3221384933	412383.582174064	417095.623867867	-98.6205323742315
262.7298	-80922.8033289742	492439.710515662	499044.455526127	-99.3320313642249
224.2111	-70340.2036098974	575856.727198732	580136.806713655	-96.9641113885083
191.2854	9198.40567092955	721555.788433522	721614.416768962	-89.2696319745784
163.1722	-116802.726251892	826701.250857636	834911.872612586	-98.0419595927084
139.1537	181310.040836408	754167.766996458	775656.078223154	-76.4820161281716
118.6706	98624.6810275051	815075.133358573	821020.2803386	-83.1007099859638
101.1982	-45349.9008751802	1007169.79407251	1008190.26359188	-92.5781194667818
86.24196	790126.40605269	642647.81321426	1018477.26993331	-39.1231166967354
73.61024	387177.488628273	-309329.574229782	495571.582310442	38.6225750373311
62.69291	49402.363503876	-28682.0053048463	57124.8715366287	30.1385769704448
53.57697	49276.1169793206	-144296.53363268	152478.278200427	71.1453726327641
45.65746	366384.651056541	281218.003106432	461867.164670744	-37.5079887793072
38.96512	575110.590347172	79563.3883620071	580588.084529055	-7.8765596716445
33.18414	182925.219086427	994294.88676922	1010981.68016697	-79.5755871514215
28.30617	645485.283884449	366474.489090901	742263.29753385	-29.5857586418129
24.17237	829367.453714169	-227850.53577669	860096.645693987	15.3617662509028
20.61345	611456.781780948	-531352.672113262	810071.020434516	40.990466365158
17.55618	-122463.74505459	-1188063.64250808	1194358.65111881	95.8851745644974
14.98558	1662573.45987829	2650995.52400557	3129205.61449535	-57.9060941564557
12.76553	1167043.89534147	-1045145.3379972	1566627.02363743	41.8460126744253
10.8809	1748499.376404	677210.321710322	1875063.70268217	-21.1718562315829
9.278505	1982517.33600526	1016194.26544223	2227784.94758338	-27.138667357965
7.923394	2115834.66979392	-89566.1336545406	2117729.54888007	2.42396040470062
6.75822	626469.352992018	1207021.30269052	1359913.33377791	-62.5697414257025
5.761429	833385.696259465	-760128.03084939	1127974.44209204	42.3678282567628
4.919708	143057.175150597	-1896962.66358929	1902349.25878868	85.6872706563024
4.191257	1156451.59857551	437120.187933805	1236306.74128516	-20.7057894427116
3.564097	2180968.39033909	-755311.828228789	2308055.2587667	19.1019659825814
3.051758	2330442.45356532	913466.341587933	2503074.66660378	-21.4037494400062
2.604164	4684576.92813276	3156005.32640398	5648506.93687138	-33.9681982252095
2.214424	4936597.44712721	3397583.71724993	5992793.1276413	-34.5374604425617
1.892567	1272533.70415744	-4246445.28921305	4433016.98874439	73.3180858876797
1.607507	4168964.86095506	257477.673825272	4176908.27818813	-3.53413144995523
1.376413	-2705524.8805558	4022464.44233529	4847688.63162211	-123.924926917287
1.17375	6636539.32825602	-5999949.47597349	8946678.04102302	42.1160419536925
1.001604	6498088.87771096	-8512823.36361803	10709496.7520791	52.6444393772749
