EC-Lab ASCII FILE
freq/Hz	Re(Z)/Ohm	-Im(Z)/Ohm	|Z|/Ohm	Phase(Z)/deg
6999984	37.929746409464	74.2172609745822	83.3478703342532	-62.9300745830603
5969734	35.0350560306688	72.3015633883667	80.3428355205	-64.1466358694616
5091109	35.0598782785773	74.7526279194123	82.5660368781665	-64.8728598747899
4341796	38.2727545251771	79.1398134894247	87.908553725365	-64.1911546901432
3702781	46.2118873367397	83.4141155826787	95.3595994625817	-61.0133015752296
3157797	54.5981762727106	87.3590235366506	103.017279354403	-57.9951890935985
2693047	64.0717130469428	91.3038431027422	111.541813586206	-54.9410604849655
2296687	75.5941159110491	95.2750053197806	121.621531806902	-51.5704357198801
1958656	88.5337204427713	97.2457886229735	131.510315414202	-47.6848995138886
1670375	102.554371867522	97.9393615157839	141.808031236815	-43.6813855683017
1424531	116.567603348418	96.2207001327841	151.150353239539	-39.5379610587219
1214875	130.042758615799	92.8032652261336	159.760962393944	-35.5130414099089
1036062	142.0768872392	87.8724731267405	167.055120906215	-31.7361838384979
883578.1	153.03007459716	81.9663796611775	173.599225591512	-28.1745120262041
753531.2	162.612124911249	75.3502468993739	179.221546907587	-24.8617846463167
642624.9	170.463787436098	68.4989353299249	183.7117496743	-21.8921673124654
548046.8	176.980933419297	61.6945888750489	187.425913604354	-19.218276414993
467390.6	182.311440722393	55.3078490934847	190.516192460437	-16.8762312133044
398593.7	186.406178241483	49.3583922251916	192.830272959542	-14.8309552311818
339937.5	189.74764619447	43.8173680164399	194.741189726852	-13.0030594365319
289906.2	192.440424142339	39.1418726850952	196.380760364603	-11.4969768466731
247234.4	194.422025567178	35.02895648623	197.552402714213	-10.2133909573974
210843.7	196.142685195008	31.5453786314783	198.663192032423	-9.13656834765055
179812.5	197.290449836849	28.5280910283942	199.342352686404	-8.22790885077463
153343.8	198.622441145518	26.1716924764041	200.339291237851	-7.50639455852228
130781.2	199.517444217463	24.290778085477	200.99067751283	-6.94146390210124
111531.3	200.327861432319	22.9246881533248	201.635297983695	-6.5282925768765
95109.37	201.192445773959	22.0275232986659	202.394693653714	-6.24813340379138
81109.37	201.75358210063	21.6617449352785	202.913131867005	-6.12821906684845
69171.88	202.528108484364	21.3783922991008	203.653309287005	-6.02569399898774
59000	203.428403971971	21.7014240133008	204.582666291132	-6.08919491142209
50312.5	204.099996736256	22.4560963934244	205.331646204307	-6.27871216131752
42906.25	204.695163397969	23.4632441430679	206.035515735123	-6.53900688764545
36593.75	205.533242067452	25.0977369316886	207.059918849231	-6.96194141369922
31203.13	206.06644615437	26.9256938495279	207.818125340333	-7.44438333635527
26609.38	207.490666795192	29.65775176508	209.599520626533	-8.1344938118565
22703.13	208.546929397335	32.5547496121426	211.072578710183	-8.87242334493934
19359.37	209.907662662507	36.0841196237248	212.98659707469	-9.75407934093075
16500	211.190856681372	40.2977852454416	215.001138233033	-10.8028728553398
14112.02	212.737915341463	44.9552418527161	217.435954694405	-11.9320580779836
12011.13	214.528285154156	50.6739015749907	220.4319156384	-13.290277449653
10236.38	216.566987033677	57.1260538977503	223.974654608001	-14.7768966632113
8750.684	218.813398055562	64.3368069458767	228.075706502497	-16.3847021800176
7449.463	221.351744886365	72.8595849791643	233.034577021468	-18.2193474174942
6363.206	224.197853219614	82.3621318816155	238.84764632788	-20.1714948395962
5414.761	227.374045867619	93.7217526486773	245.932355849632	-22.4010626965227
4620.567	231.08138142299	106.288940833246	254.353973398905	-24.7006918326377
3941.215	235.083376735454	120.696127063964	264.256975509795	-27.176797699231
3361.769	239.682095564184	137.256403112413	276.200700812644	-29.7980509640647
2867.244	244.954284691376	156.140227584989	290.486440748885	-32.5144954369815
2442.658	250.785082351921	177.84339576712	307.443378442666	-35.3422312320245
2083.003	257.492130649297	202.84407100522	327.79248693081	-38.2299098715941
1777.843	265.20394587136	230.78115409387	351.558066314283	-41.0298744023071
1513.548	274.175708236771	263.45233636748	380.236048428629	-43.8573466367644
1292.065	283.461994216963	301.359874404029	413.725121386494	-46.7529320939068
1101.762	295.467961362614	343.09212767591	452.784191712743	-49.2652546227303
939.101	308.245453142891	392.178862439666	498.818122693769	-51.8332972971302
801.2801	323.675619919738	448.04787183791	552.732125345458	-54.1551629252743
684.3433	341.266332997864	511.721725235485	615.078721885085	-56.3007466285904
582.9476	361.590099845671	584.722498481807	687.493854908689	-58.2675159336242
497.0677	385.827706936694	667.242602313692	770.763069809637	-59.9616948380465
423.5089	413.106996748551	763.536573518473	868.127576951071	-61.5846550885341
361.5036	446.669955353247	870.963532768622	978.821497734939	-62.8491729423878
308.1262	484.836682851422	995.138941351352	1106.96346896917	-64.0244239717602
262.7298	530.881655483677	1134.92462384708	1252.95220736608	-64.9313015698932
224.2111	583.677073419247	1293.27613560342	1418.88762379428	-65.7095501430194
191.2854	645.63289117856	1472.37151954719	1607.70635432759	-66.3226149838094
163.1722	720.114515520658	1674.01938294597	1822.33526277202	-66.7240292150781
139.1537	803.289180067289	1905.65942698756	2068.04529894288	-67.1432051379958
118.6706	907.073453216703	2163.35565134979	2345.82393281285	-67.2521817106297
101.1982	1021.35363655441	2451.18516012257	2655.46077736201	-67.3796075242668
86.24196	1158.55329917643	2777.66236825594	3009.59365680116	-67.3591529309806
73.61024	1318.48557100049	3138.86156533663	3404.53464180995	-67.2150540455052
62.69291	1504.62531861246	3550.53148428217	3856.18609124204	-67.0339993822438
53.57697	1712.79975313145	3995.88667290158	4347.50426072242	-66.798055362209
45.65746	1960.25659947292	4502.35861276172	4910.584386169	-66.4724434472361
38.96512	2238.1773554864	5057.27787787614	5530.41566328133	-66.1274655587879
33.18414	2559.5187875473	5680.58631515582	6230.58563120219	-65.7449589347585
28.30617	2928.06636769878	6362.68700710675	7004.0958448649	-65.2884261635983
24.17237	3331.64945138757	7113.83431316122	7855.35019601552	-64.9047163281992
20.61345	3800.06740493426	7948.54046226023	8810.21042667154	-64.448298148598
17.55618	4324.10809158295	8881.10927540364	9877.85466330385	-64.0390916913155
14.98558	4906.39259517308	9896.62305647538	11046.0778659183	-63.629426867797
12.76553	5571.26913350267	11031.6753759396	12358.6771686144	-63.2050943247231
10.8809	6301.3150777016	12281.6658349958	13803.8359665338	-62.839146180973
9.278505	7111.70550782023	13651.3656954268	15392.7301210746	-62.4826518408426
7.923394	8019.9067489804	15151.5671515441	17143.1879010321	-62.1071925976934
6.75822	8983.85494059878	16868.811430156	19111.9451825261	-61.9614894303916
5.761429	10116.753938435	18758.9486732293	21313.0679531524	-61.6618897993177
4.919708	11337.5632018848	20771.6159329384	23664.3269040603	-61.3734055494694
4.191257	12650.1790251941	23152.1273091315	26382.7221549955	-61.3480808149246
3.564097	14203.000139747	25770.8744367942	29425.5532183622	-61.1396960648355
3.051758	15759.3275315353	28581.6608200413	32638.4395993144	-61.12858068361
2.604164	17635.1044113709	31772.0087478324	36338.0991174868	-60.9674649516192
2.214424	19640.2391590486	35395.6218149835	40479.4891011974	-60.9750852902944
1.892567	21934.118287551	39339.7139966007	45041.2992972741	-60.8578581254107
1.607507	24564.4850546891	43971.8450528337	50368.0164722859	-60.8104745157533
1.376413	27251.8317612651	48792.8932967349	55887.4652369461	-60.8157457274685
1.17375	30428.7190017137	54256.9157785679	62207.0723462201	-60.7151343386436
1.001604	33971.1574377083	60389.5130603941	69288.7640626464	-60.6407644168356
