EC-Lab ASCII FILE
freq/Hz	Re(Z)/Ohm	-Im(Z)/Ohm	|Z|/Ohm	Phase(Z)/deg
6999984	20.1946297520854	0.350400675137655	20.1976694560771	-0.994049688915451
5969734	12.8192625558772	-1.89975584542547	12.9592655944982	8.42961864255043
5091109	12.2078867743819	-4.62730707010739	13.0554383387611	20.7588338753849
4341796	7.4007182586165	-10.312930795633	12.6935878434324	54.3361946702238
3702781	6.12323863879116	-4.55265157282567	7.63024821163355	36.6309450935666
3157797	4.29452369192652	-4.86333305365707	6.48806150797845	48.5541681623493
2693047	3.47359461062013	-4.50611934466158	5.68954928507193	52.3727485204018
2296687	2.599158296666	-3.63933758421001	4.47218088889205	54.4661644164713
1958656	1.71368610748489	-3.22050271541137	3.64806219998491	61.9817721363393
1670375	1.46132754229262	-2.80244898928578	3.1605693353274	62.460363782612
1424531	1.13235464270881	-2.43037245796487	2.68121937209516	65.0183338589736
1214875	0.857908833102774	-1.92708508905883	2.10942278986187	66.0021023932132
1036062	0.7923632303957	-1.82993231439767	1.99411428061681	66.5873214851599
883578.1	0.709985646012687	-1.56640364479964	1.71979649842232	65.6171893464443
753531.2	0.6537745638613	-1.35582016779731	1.50521410694889	64.2567010619062
642624.9	0.586276626496985	-1.15003434449968	1.29085215121853	62.9879433203685
548046.8	0.545028521877413	-1.01454251622842	1.15167382834506	61.7545943705699
467390.6	0.508932442888272	-0.88003182931627	1.0165964056763	59.9587154575119
398593.7	0.477357739589868	-0.7655870130975	0.902216097268221	58.0556934367643
339937.5	0.452632318297657	-0.664743936043209	0.804214222750213	55.748570012689
289906.2	0.431277828899883	-0.575288972554027	0.718997891264547	53.1421448955932
247234.4	0.412695956890037	-0.498578758074569	0.647223864544998	50.3839203402555
210843.7	0.399067629982702	-0.431791674474401	0.587961753386577	47.255473376016
179812.5	0.388364944564877	-0.370586991587054	0.536807273144117	43.6581292113974
153343.8	0.37956614951856	-0.321785832594622	0.497610876005499	40.2903692352877
130781.2	0.37325028391566	-0.279559567580127	0.466336065803094	36.8327293698558
111531.3	0.36642305080113	-0.243767166990492	0.440100311134835	33.6342956109411
95109.37	0.359687094575246	-0.212576591812449	0.417808105941685	30.5832667039797
81109.37	0.352841572247395	-0.185583852232708	0.398670968739317	27.7429945923792
69171.88	0.346183150098701	-0.161075394030352	0.381822021332313	24.9520656060954
59000	0.337590692678789	-0.135797218638412	0.363879595983718	21.9126562832193
50312.5	0.331365207081881	-0.106124162655846	0.347944303536963	17.7583627642658
42906.25	0.360714952186387	-0.106198835071393	0.37602322973634	16.4050651000566
36593.75	0.345435244671419	-0.0968501374584936	0.358755428372774	15.6619732172396
31203.13	0.339421609197696	-0.0848105539401278	0.349856911965427	14.0291179856301
26609.38	0.33496016288284	-0.0728791037260242	0.342796841406696	12.2748472676545
22703.13	0.334855484765152	-0.0648034576628436	0.341068444454137	10.9528617469491
19359.37	0.332254797604536	-0.0579098591162269	0.337263698482497	9.88696544235544
16500	0.329862687304792	-0.0516996601275811	0.333889573561748	8.90755138735881
14112.02	0.327950046698775	-0.0462945120327942	0.331201471877893	8.03497104284227
12011.13	0.325997692608488	-0.0413601886415162	0.328610956589277	7.23063570130377
10236.38	0.324293520552169	-0.0371034438541995	0.326409180351843	6.52700915141541
8750.684	0.322800656924904	-0.0335865192866533	0.324543245791592	5.9400941043952
7449.463	0.321460949264765	-0.0306459089534085	0.322918431864433	5.44573351368483
6363.206	0.319146635998825	-0.027778999157442	0.320353317547291	4.97457255705711
5414.761	0.318195491179173	-0.0273180744801187	0.319366009149466	4.90698874737466
4620.567	0.316351887617132	-0.0222448429002219	0.317133015995778	4.02223362266938
3941.215	0.316136798596934	-0.0243683175511808	0.31707458164822	4.4077322323049
3361.769	0.31510174157072	-0.0194852207586186	0.315703629008146	3.53854322497774
2867.244	0.313654208944982	-0.0189279541724161	0.314224808438251	3.45341544760838
2442.658	0.311349293765228	-0.0193228278471828	0.311948320085424	3.55131158944223
2083.003	0.310046181497026	-0.0186526117605787	0.310606752319356	3.44280770698933
1777.843	0.305748539918711	-0.0227449098908515	0.306593379883465	4.25444826041575
1513.548	0.30777602981229	-0.0131470047570969	0.308056696504229	2.44596771361159
1292.065	0.302432220808686	-0.0137936964919378	0.302746617233265	2.61140583920885
1101.762	0.302045595134199	-0.0120332146491285	0.302285196122411	2.28140392160971
939.101	0.303023233529338	-0.0132294690901839	0.303311883893433	2.49984694579231
801.2801	0.302882441324999	-0.0106716141876244	0.303070382275076	2.01789719388227
684.3433	0.303341334371806	-0.011939012647239	0.303576193337783	2.25390366631681
582.9476	0.299338539728134	-0.0111887756198912	0.299547575631057	2.1406241806415
497.0677	0.301868029580233	-0.0127102910546193	0.302135497387092	2.41104077937821
423.5089	0.29894083774964	-0.0111670249433221	0.29914933882685	2.1393063777127
361.5036	0.296510433919257	-0.0126346213978306	0.296779499091249	2.43995738634067
308.1262	0.297135463518394	-0.0123273058620535	0.297391066022682	2.37567667834715
262.7298	0.294138757835694	-0.0129598237588169	0.294424125867743	2.52283401253296
224.2111	0.29530966541091	-0.0125100982231799	0.295574527053089	2.42575032485261
191.2854	0.290294577528512	-0.0107867244606257	0.290494914184477	2.1280093688661
163.1722	0.291412112934678	-0.0122082858574111	0.29166772500335	2.39892043018001
139.1537	0.289957344481429	-0.00933235442832938	0.290107487765997	1.84344357737863
118.6706	0.29112751063959	-0.0113225548801347	0.29134760630597	2.2272296161645
101.1982	0.297910695631667	-0.012644196261023	0.298178903128359	2.43034086270719
86.24196	0.290823354307288	-0.0124441265901947	0.291089470261525	2.45015145143164
73.61024	0.281384344293132	0.00953597053199619	0.281545882490337	-1.94098162059052
62.69291	0.264080092563467	-0.0155492562227734	0.264537473068393	3.36973266979834
53.57697	0.288345882807805	-0.0112623472532795	0.288565743978501	2.23674816401501
45.65746	0.282903143059217	0.00650713866822189	0.282977969471886	-1.31764479244944
38.96512	0.277764964973007	-0.0113247354545135	0.277995729103112	2.3347090500797
33.18414	0.275817985188025	-0.000212091246875723	0.275818066732182	0.0440577901918129
28.30617	0.274678925897647	-0.0227494763795155	0.275619395195308	4.7345490775209
24.17237	0.279095135444763	-0.0060527247617285	0.279160760326325	1.24237647281869
20.61345	0.271539360860134	-0.00240506555635321	0.271550011667575	0.507464192780789
17.55618	0.268623925777149	-0.000994784757519278	0.268625767745093	0.212180309002925
14.98558	0.275259982406639	-0.00568971553447286	0.275318780284539	1.18415422055088
12.76553	0.275535912660311	-0.00860435966777373	0.275670227211505	1.78863558061201
10.8809	0.264223015297632	0.00559877221128426	0.264282326429988	-1.21389130307597
9.278505	0.284841667749069	0.00367839339718333	0.284865417809981	-0.739866130430383
7.923394	0.285453883118355	-0.00883916550808178	0.285590704040287	1.77361434609706
6.75822	0.275304255018414	-0.0155996384659731	0.275745864069641	3.24309811087633
5.761429	0.260632683491533	-0.0172769965029264	0.261204690448238	3.79251307020522
4.919708	0.25945420874462	-0.00822966727073507	0.259584694962326	1.81676437060616
4.191257	0.264379803663497	-0.00755505074796229	0.264487730106622	1.63686765504878
3.564097	0.259835263878419	7.70714547920044E-05	0.259835275308755	-0.0169948793135201
3.051758	0.265731705697839	0.00645474952844761	0.265810088605677	-1.39146811252086
2.604164	0.266365121150453	-0.000661890453681189	0.266365943514684	0.142373938737381
2.214424	0.268934945972944	0.00107917987559241	0.268937111226164	-0.229914785156711
1.892567	0.271110476099121	-0.000521533697315849	0.271110977734376	0.11021943268308
1.607507	0.266843938804268	0.00198457817762528	0.266851318578565	-0.426113696971611
1.376413	0.270793286696741	0.00154334916007242	0.270797684714351	-0.32654589347469
1.17375	0.265740637309032	-0.000573842552856926	0.265741256888512	0.123724792759448
1.001604	0.267782163491599	-0.00166417885077994	0.267787334606192	0.356070007587324
