EC-Lab ASCII FILE
freq/Hz	Re(Z)/Ohm	-Im(Z)/Ohm	|Z|/Ohm	Phase(Z)/deg
6999984	20.2796403616839	87.7160948779151	90.0298678985515	-76.9821509875413
5969734	16.6508807333335	86.7862434926362	88.3691342537588	-79.1391651988703
5091109	12.6767654304892	91.3180792986183	92.1937741312741	-82.0967160415561
4341796	10.7625016539413	99.8432856069216	100.421676557586	-83.8476177676964
3702781	12.4732835070479	111.419830932944	112.115839766614	-83.6124185927952
3157797	13.9156537763849	124.626429535095	125.400926466635	-83.6288051857359
2693047	15.3990983917274	140.632531306336	141.47311084763	-83.7510743792168
2296687	16.8770382642451	161.266805205365	162.147515804954	-84.025578458864
1958656	20.3623373827313	185.395658197559	186.510522121929	-83.732224067757
1670375	25.0280689510443	214.292274804084	215.748889397205	-83.3383728793841
1424531	31.6865809393523	247.790303619554	249.808074288036	-82.7127602628808
1214875	40.2788255668211	286.476122592894	289.29388622109	-81.9966203147468
1036062	51.6151933690435	332.01186308608	336.000008060139	-81.1634250890675
883578.1	65.405512463393	382.775394479778	388.323169125599	-80.3034154385762
753531.2	83.9135159701752	442.10480487604	449.99792961408	-79.2528400254243
642624.9	107.521198919512	510.229343166361	521.435317987826	-78.1001062374006
548046.8	208.711208174106	643.316480661161	676.325707560904	-72.0253785103055
467390.6	260.5170121204	724.668371259269	770.073608110096	-70.2265775124923
398593.7	322.880367773741	813.500328183729	875.233977773225	-68.3517450152652
339937.5	397.266111310298	910.217542617967	993.134602199066	-66.4210491330129
289906.2	486.47465358546	1011.13609077554	1122.07565816657	-64.3070067563187
247234.4	598.288238311112	1118.69830686287	1268.63498212814	-61.8617947740389
210843.7	725.397047474099	1227.97590188512	1426.22778408454	-59.4285576096773
179812.5	881.465383633876	1332.42124463254	1597.60057451571	-56.513308241006
153343.8	1059.89870937752	1428.97053130068	1779.14081889711	-53.4348633035476
130781.2	1261.76241825368	1507.91754266407	1966.17896326642	-50.0788145847704
111531.3	1483.46276733338	1564.76904574592	2156.19200179135	-46.5279029198691
95109.37	1719.3908003066	1592.17103942538	2343.35514657165	-42.7999587554284
81109.37	1953.59357219262	1589.00031534573	2518.22354994173	-39.1239761334281
69171.88	2183.81220271197	1554.26412198783	2680.44263091235	-35.4402413924596
59000	2398.91903786403	1493.76336434321	2825.97620989286	-31.9097728616886
50312.5	2604.28171075633	1420.65610802033	2966.57159128772	-28.6128132803233
42906.25	2778.57393643329	1290.08827332073	3063.46223629182	-24.9053810049482
36593.75	2916.74405305122	1183.75484837677	3147.8042207331	-22.0896773236029
31203.13	3029.97695555132	1072.53430720451	3214.20133023784	-19.4926601735032
26609.38	3135.58747742823	969.089968821766	3281.92690294524	-17.1743755315787
22703.13	3210.26064049496	868.641121884189	3325.70455370577	-15.1406904856516
19359.37	3277.01249754979	778.501296038339	3368.21542913022	-13.363707720677
16500	3327.95861953619	696.487666761827	3400.05935879016	-11.8204688178039
14112.02	3366.87978526558	628.401661271441	3425.02089574921	-10.5721656695524
12011.13	3403.61382565497	564.463551318908	3450.10234267872	-9.41636655732474
10236.38	3428.29982432505	512.325737673566	3466.36947640467	-8.49939344284146
8750.684	3454.76158538037	472.695898623354	3486.94981673026	-7.79108582776689
7449.463	3482.36370009014	443.120298279729	3510.44335354567	-7.25174346647639
6363.206	3491.35069898555	413.098926799148	3515.70482643659	-6.7479015701722
5414.761	3513.93058033299	400.487821727463	3536.67903813045	-6.5020281915477
4620.567	3526.7887811427	394.985044944101	3548.83816093712	-6.39024985529563
3941.215	3548.31726325825	385.634992491721	3569.21136221583	-6.20262336612414
3361.769	3565.4839893226	398.059910700771	3587.63540101595	-6.37027081697942
2867.244	3590.75198023572	404.920809992006	3613.51084762884	-6.43393215759641
2442.658	3619.55155781221	389.844890113133	3640.48520365186	-6.14736158678377
2083.003	3641.53102259196	418.500720302847	3665.50010795166	-6.55592060175771
1777.843	3665.58194999813	457.828461247569	3694.06252411629	-7.11933292002165
1513.548	3695.36844276203	503.284485421296	3729.48296698446	-7.75558536278058
1292.065	3724.72527807816	553.228551044791	3765.58630585538	-8.44830279624965
1101.762	3757.54805592119	612.142421636797	3807.08362620583	-9.25277564765898
939.101	3794.08866003257	681.310759936298	3854.77536463446	-10.1801995123254
801.2801	3826.45899804649	759.156635135135	3901.03925389129	-11.2215732232875
684.3433	3864.18218890707	836.954094418538	3953.78251111902	-12.2210809081594
582.9476	3902.2210132806	954.180167689385	4017.18665596962	-13.7404790371771
497.0677	3943.63311007606	1075.570837656	4087.67595752209	-15.2555857123092
423.5089	3988.81338234242	1201.04579178021	4165.7104067742	-16.7572336088337
361.5036	4041.88853024892	1368.2764653335	4267.20556998878	-18.7021961401848
308.1262	4095.58404193246	1549.20318164627	4378.79425670523	-20.7197180467113
262.7298	4153.93338766038	1753.29277323196	4508.7912058319	-22.8836421290496
224.2111	4216.54973167902	1986.01738714302	4660.85364517668	-25.2206854091866
191.2854	4285.96100024304	2257.18161541721	4843.9994364762	-27.7733269780535
163.1722	4373.20396925744	2564.86010973805	5069.85407474954	-30.3913888679684
139.1537	4460.06994899044	2922.23990154495	5332.13934477232	-33.2328355430488
118.6706	4566.59418933142	3321.39620032911	5646.72074832784	-36.0293164903675
101.1982	4686.65276404782	3789.6507531744	6027.11929214881	-38.9591762828146
86.24196	4818.96216608671	4334.55455618536	6481.57076322726	-41.9707112089576
73.61024	4974.02863892014	4933.28001130002	7005.58438466699	-44.7643445560344
62.69291	5147.61923423431	5637.14474786063	7633.83158636551	-47.5988985488395
53.57697	5344.82629020429	6432.0664643475	8362.9329229788	-50.2745828042107
45.65746	5585.78233276627	7354.32627686942	9235.10039229114	-52.7824820988558
38.96512	5853.99202574805	8402.66043710446	10240.7970909887	-55.1357228958612
33.18414	6169.82000243246	9616.49582354987	11425.5709173226	-57.316291402148
28.30617	6534.69595498088	10986.1969158683	12782.7529858899	-59.2554097639888
24.17237	6959.51161627099	12557.635450083	14357.1936684782	-61.0045353209641
20.61345	7458.55727966318	14343.7986778242	16167.0849940231	-62.5262539290521
17.55618	8044.71107375192	16409.3600187499	18275.2420636525	-63.8835336499375
14.98558	8711.62148438978	18731.1102825004	20657.8518075446	-65.0574095806015
12.76553	9488.0438741785	21410.3153941333	23418.4666841063	-66.0993333310469
10.8809	10404.1487967351	24468.6797743068	26588.7683445882	-66.964671489033
9.278505	11456.0574777577	27914.0754359075	30173.4462793898	-67.6865410151184
7.923394	12691.751390043	31847.4481498047	34283.2394473037	-68.271874698624
6.75822	14080.2994335117	36292.2954690369	38927.9532283579	-68.795271644476
5.761429	15760.8339115745	41377.7399458263	44277.7737540255	-69.1480990547176
4.919708	17766.5676455038	47088.7394362188	50328.9211844877	-69.3285234644043
4.191257	19929.9030507902	53517.7808636597	57108.264762507	-69.5747807247515
3.564097	22555.1143746369	61065.8725885646	65098.1872209646	-69.72793234339
3.051758	25531.4953488741	69092.6831761432	73659.053233316	-69.719452568022
2.604164	28957.0147436438	78439.9299480135	83614.1812918889	-69.7377872174662
2.214424	33185.3900674645	89009.311443296	94994.3558193824	-69.5530083285365
1.892567	37679.3418441587	100854.886793395	107663.554613051	-69.5143336773652
1.607507	43105.0409866286	114506.79486498	122351.340935478	-69.3716098905981
1.376413	49014.0605118814	129074.810130461	138067.681729205	-69.2065407498209
1.17375	55765.0169125725	145440.095864813	155764.433027651	-69.0220483397888
1.001604	63139.9719861905	163053.146929207	174851.321945059	-68.8318263518053
