EC-Lab ASCII FILE
freq/Hz	Re(Z)/Ohm	-Im(Z)/Ohm	|Z|/Ohm	Phase(Z)/deg
6999984	29.50428507463	81.3623485740512	86.5467191940309	-70.0679254990206
5969734	25.7683460604776	80.3018392253743	84.3350048418235	-72.2088968920859
5091109	23.222131525639	84.383343386307	87.5203749628935	-74.6131996877934
4341796	23.8484115184222	91.8932043585915	94.9373885212874	-75.4513796462903
3702781	28.8440341833522	101.059065640953	105.094781298563	-74.0703221769069
3157797	34.3854992710159	111.269581683133	116.461505949633	-72.8273475361501
2693047	40.9965270696705	123.346041894516	129.980618873807	-71.6147396585353
2296687	50.1140280494731	138.465380720855	147.255144105443	-70.1035634738777
1958656	62.7489680219996	154.404682809854	166.668050511901	-67.8835239050843
1670375	79.0410472558662	171.834434663405	189.141640278908	-65.2983383334541
1424531	99.3858239497237	188.940600831891	213.485579477588	-62.2549011172781
1214875	123.407340880696	205.038950593255	239.312229197815	-58.9574144147412
1036062	151.992232941468	219.355833336715	266.868170626206	-55.2818099448857
883578.1	183.549119362391	230.865172424896	294.938988703572	-51.5135811178693
753531.2	218.5153224864	237.940627036814	323.055240099905	-47.4368546252206
642624.9	254.457715850393	240.387378312864	350.04974047688	-43.371300809577
548046.8	290.545696281019	237.664880894911	375.368348743223	-39.2829891103107
467390.6	324.474990440162	229.932293843788	397.684396441964	-35.3224813768264
398593.7	357.00320404493	218.319280687651	418.466959291076	-31.4471667379
339937.5	384.937444985557	203.682874056992	435.503788429131	-27.8847672692064
289906.2	408.833676461455	188.190590988897	450.067410001813	-24.71712999178
247234.4	429.278131090902	170.137199583754	461.764421014763	-21.6200696555578
210843.7	445.130821937109	153.773018036062	470.943297769832	-19.0577680182651
179812.5	458.574595573073	137.135130576924	478.640474409924	-16.6491107433146
153343.8	469.233330719234	122.655254902256	484.999206404509	-14.6490583199617
130781.2	477.559802978139	109.035444055903	489.849051730211	-12.8611950864575
111531.3	484.310795577251	97.2669035679636	493.98157581267	-11.3559662037134
95109.37	489.566369058272	87.6690857177489	497.354097503465	-10.1526287832237
81109.37	493.653910135862	74.3158091118542	499.216408460675	-8.56115256357861
69171.88	496.890074006362	71.4125077755524	501.995509853267	-8.17848551136664
59000	503.077592528786	54.6171469417923	506.033691412559	-6.19610883599351
50312.5	506.202419224147	52.4479817774538	508.912251788958	-5.9153480572235
42906.25	506.430566482382	48.032918007553	508.703331893931	-5.41806824654694
36593.75	507.801589446028	47.5763184000643	510.025450655569	-5.35246056829989
31203.13	509.08827921501	47.1958630625681	511.271283688338	-5.29655994101796
26609.38	510.355034252308	48.5488015717709	512.658996917766	-5.4340526231155
22703.13	512.319060379112	50.6405924979747	514.815781844615	-5.64511022131887
19359.37	513.609344347231	53.2283445947343	516.360160420117	-5.91677472213337
16500	515.412463991383	57.3125483853555	518.589178676235	-6.34507786272752
14112.02	517.283608408936	61.9047472024133	520.974595594415	-6.82428830341904
12011.13	519.594479488306	67.7715880395234	523.99562141312	-7.43123395495702
10236.38	521.831708330602	75.3504600295483	527.243799058746	-8.21649553149562
8750.684	524.596085226633	83.4994343447656	531.199781787422	-9.04384658766453
7449.463	527.69883294079	93.4165304229176	535.903635407829	-10.0388508242667
6363.206	531.067792682264	104.797020601552	541.308983808115	-11.1629080746441
5414.761	535.033833424161	118.322031057973	547.961044183103	-12.4701800391705
4620.567	538.522617153435	133.744996366037	554.882269710194	-13.9475230660255
3941.215	543.680994846717	151.472506036669	564.387228986044	-15.5681284599751
3361.769	549.0630244517	171.997310740669	575.372296623735	-17.3934803220147
2867.244	555.322392450428	195.558402535027	588.749563361977	-19.3998639290038
2442.658	561.915017361085	222.47937695921	604.355491336073	-21.6001307242872
2083.003	569.397262062623	253.493491193112	623.275374230109	-23.9984461110356
1777.843	578.095208666601	289.401551049304	646.488459319285	-26.5931084045973
1513.548	588.060399636627	330.815358354394	674.725006905728	-29.3600762958888
1292.065	598.370949711294	377.66862888086	707.58843030334	-32.2585380011627
1101.762	611.07581223462	432.01610221556	748.365927118362	-35.2594044531604
939.101	624.771811712169	494.030294630535	796.495918836274	-38.3347325002133
801.2801	640.481157539921	566.155373508156	854.838008113722	-41.4751772006828
684.3433	658.834568034634	647.731541774783	923.915114200066	-44.5131197516034
582.9476	679.338639360175	744.332370052541	1007.73590986715	-47.6138642064483
497.0677	701.819090835211	853.557214120885	1105.03844007282	-50.5719822773513
423.5089	731.169849753801	979.885022645547	1222.61359668297	-53.2704645233907
361.5036	760.524344293109	1124.93832741377	1357.89672609774	-55.9389982654787
308.1262	796.153218979712	1291.6490486749	1517.30590621487	-58.3509385885952
262.7298	837.351327901647	1483.79450438929	1703.76153777297	-60.5626129735797
224.2111	884.543826469053	1702.50118005897	1918.57448358064	-62.5456199025275
191.2854	939.150061917065	1955.00712122199	2168.88351066339	-64.341212336688
163.1722	1006.66101336225	2240.52365377648	2456.28024438488	-65.8057497568219
139.1537	1078.22381818354	2573.87758187013	2790.593558466	-67.2706882474124
118.6706	1162.7433745056	2954.80641997796	3175.35086793564	-68.5199081281361
101.1982	1264.45447535352	3392.45260435653	3620.43917129497	-69.5582795402517
86.24196	1378.50808640521	3898.97967256127	4135.49598371592	-70.5286408620853
73.61024	1513.54360109673	4466.69186784421	4716.15844461214	-71.2809917428716
62.69291	1674.24961977356	5135.80077020786	5401.81093158392	-71.944247686515
53.57697	1852.12460951743	5874.52251202771	6159.57630957686	-72.5009334802641
45.65746	2067.20386986059	6742.81612853006	7052.58117165139	-72.9555754907004
38.96512	2316.5153912208	7722.71315464272	8062.66345736039	-73.3027879145497
33.18414	2609.78389175421	8860.89447368202	9237.23025778768	-73.588808445879
28.30617	2947.92896425416	10154.7597812245	10573.9978907064	-73.8119755070825
24.17237	3347.68449399547	11607.8517041512	12080.9441955876	-73.9125296001279
20.61345	3811.47929656834	13264.2868431445	13801.0390871624	-73.9680492104761
17.55618	4365.0607237542	15204.9474993697	15819.1081790552	-73.9822012680158
14.98558	4994.28698433476	17361.7886998687	18065.8409530469	-73.9516053217558
12.76553	5738.19619935269	19865.5851690637	20677.7264159189	-73.8885799642915
10.8809	6618.63409956344	22696.5787362082	23641.9331627683	-73.7425903180921
9.278505	7653.93712715518	25901.5466307164	27008.7554583624	-73.5375287232148
7.923394	8778.68925651753	29523.2474452096	30800.771496402	-73.4402404896016
6.75822	10218.3652527362	33631.7921989693	35149.85682692	-73.0996170803963
5.761429	11896.3000185701	38296.1154487172	40101.3018815263	-72.7431227402659
4.919708	13768.8433158897	43564.0962290288	45688.1989851821	-72.4603680683689
4.191257	16076.6594806188	49531.9437616464	52075.6414541643	-72.0180446505279
3.564097	18767.079174018	56341.8434682815	59385.2387898558	-71.5774401060723
3.051758	21860.3707708246	63716.426681001	67362.1469315913	-71.0634969638399
2.604164	25441.2437285488	72031.2571273255	76392.1389005328	-70.54691821575
2.214424	29988.1726402479	81807.0507920916	87130.2706159069	-69.8684788905355
1.892567	34746.3896727613	91820.2883926369	98174.7266652594	-69.2724881920405
1.607507	40682.3586036979	103712.39637366	111406.083600166	-68.5818448657898
1.376413	47029.864348208	116232.664971387	125386.763842766	-67.9708426730623
1.17375	54576.9595208222	130345.705946609	141310.465179538	-67.2804858257091
1.001604	63221.0085448893	145818.488311538	158933.720320438	-66.5603924687887
