EC-Lab ASCII FILE
freq/Hz	Re(Z)/Ohm	-Im(Z)/Ohm	|Z|/Ohm	Phase(Z)/deg
6999984	11.4899247422737	4.27045474719597	12.2578609198735	-20.3885656298595
5969734	7.97836485724153	1.66571770689553	8.15039393369007	-11.7927777675652
5091109	5.12225691590118	0.571534331995186	5.15404379154336	-6.36664972371419
4341796	3.69911321285384	0.116755573191942	3.70095533955508	-1.80783367745346
3702781	2.43168583315139	1.21349660991952	2.71765892146814	-26.5208068604298
3157797	2.20289638528614	0.790022660342003	2.34027525905835	-19.7293089316261
2693047	2.00994028673138	0.538289615282083	2.08077285308761	-14.9927585125268
2296687	1.8757169321917	0.398558887415782	1.9175930737382	-11.9959944383422
1958656	1.79078882677153	0.303768693937772	1.81637001778448	-9.62735253580371
1670375	1.72787208761405	0.233792976113119	1.74361724780285	-7.70571511629239
1424531	1.67490561697167	0.185406786961712	1.68513634534856	-6.3167450997583
1214875	1.64810010841354	0.13974470357369	1.65401407174475	-4.84659613097889
1036062	1.6196967537002	0.0990685002738871	1.62272368001871	-3.50012697777201
883578.1	1.59531288867285	0.0755609439048764	1.59710133335662	-2.71175022970129
753531.2	1.56855284692854	0.0650338369619698	1.56990045339112	-2.37418297737524
642624.9	1.55187748591895	0.0568834370898975	1.55291965558984	-2.09921365599842
548046.8	1.53963030538995	0.0461202340971995	1.54032092541403	-1.71580462344175
467390.6	1.53116637632339	0.0385564234844764	1.53165174559206	-1.44246479403428
398593.7	1.52568752307713	0.0332366376017338	1.52604950514467	-1.24797369751932
339937.5	1.52249702944934	0.0280304945201177	1.5227550404793	-1.05474597294263
289906.2	1.52309234995861	0.02509974181418	1.52329915103422	-0.944118135943185
247234.4	1.51299047547397	0.0181464825544269	1.51309929406634	-0.687160315814094
210843.7	1.51130216565662	0.0163187530618622	1.51139026648311	-0.61864487675676
179812.5	1.50933544862496	0.0134804023595057	1.50939564651673	-0.511715023958644
153343.8	1.51376687136326	0.0103269551824266	1.51380209632576	-0.390867166880107
130781.2	1.50627204255119	0.00656854907787266	1.50628636454305	-0.249853773723044
111531.3	1.50566091403977	0.00551240732958357	1.50567100480206	-0.209765864854243
95109.37	1.50930240627926	0.00635869696292637	1.50931580082746	-0.241385915877246
81109.37	1.5063556790276	0.00334520872076988	1.50635939342512	-0.127238227254969
69171.88	1.50504504887132	0.00274245699215925	1.50504754748893	-0.104402879738471
59000	1.50430831003876	0.00416360207763771	1.50431407200555	-0.15858199802916
50312.5	1.50601057625527	0.00285745217392587	1.5060132870681	-0.10871089210428
42906.25	1.5044511619602	0.00246174466012776	1.50445317604443	-0.0937534277919337
36593.75	1.50416415844454	0.00288980524080519	1.50416693439375	-0.110076708896313
31203.13	1.50509482949557	0.0031633813636964	1.50509815386105	-0.120423066169227
26609.38	1.50486069091314	0.0028714371983381	1.50486343041724	-0.109326420663589
22703.13	1.50624655916454	0.00278136575757706	1.50624912713352	-0.105799636251441
19359.37	1.50472521277535	0.00281189381129667	1.50472784007894	-0.107069024246554
16500	1.50643517281191	0.00183417159605631	1.50643628941629	-0.06976087741661
14112.02	1.50587387004076	0.00177846497311761	1.50587492024045	-0.0676673469289815
12011.13	1.50617725721428	0.00230970957266366	1.50617902817289	-0.0878625049255166
10236.38	1.50624569288078	0.00148329731423429	1.50624642322989	-0.0564228324755769
8750.684	1.50635833027864	0.00163852233732014	1.50635922141941	-0.0623227393202216
7449.463	1.50577063410138	0.00145890187153431	1.50577134084719	-0.0555123681616463
6363.206	1.50604720939824	0.00142341985914031	1.50604788206096	-0.0541523038658766
5414.761	1.50582932796928	0.000632643058701523	1.50582946086522	-0.0240716357397856
4620.567	1.50590613917925	0.000749191528454952	1.50590632554143	-0.0285047706288954
3941.215	1.50583418785212	0.000765751384715782	1.50583438255322	-0.0291362216853312
3361.769	1.50580799703211	0.000843787429654369	1.50580823344245	-0.0321059879882091
2867.244	1.50582779157587	0.000580154066534951	1.50582790333457	-0.022074488212454
2442.658	1.50590338814754	0.000576486349043736	1.5059034984921	-0.0219338328033273
2083.003	1.50594859916076	0.000705337281498714	1.50594876433925	-0.0268354752815156
1777.843	1.50576340974819	0.00083313581752885	1.50576364023435	-0.0317016344834515
1513.548	1.50594582182116	0.000677491940135176	1.50594597421553	-0.0257761106957865
1292.065	1.5057486941299	0.000721317824559034	1.50574886690089	-0.0274471191869737
1101.762	1.50580483050553	0.000576572547197633	1.50580494089031	-0.0219385482459813
939.101	1.50592792607984	0.000661964395329718	1.50592807157048	-0.0251856433104364
801.2801	1.50606167533003	0.000815993783728465	1.50606189638532	-0.0310432143035989
684.3433	1.50601153273998	0.000879726797235103	1.50601178968329	-0.0334689514504223
582.9476	1.50596851710911	0.000819538208519679	1.50596874010276	-0.0311799850588746
497.0677	1.50603985884594	0.00054362890609116	1.50603995696167	-0.0206818168885634
423.5089	1.50611166690458	0.000655570387435322	1.50611180958076	-0.0249393287543097
361.5036	1.50614290366558	0.000731879928169676	1.50614308148676	-0.0278417324092141
308.1262	1.50623739404618	0.000678902510375398	1.50623754704616	-0.0258247777309049
262.7298	1.50614605137192	0.000660632751691304	1.50614619625681	-0.0251313383706139
224.2111	1.50628443678784	0.000836045940220997	1.50628466880669	-0.0318013635172719
191.2854	1.50615817103029	0.000736815949593964	1.50615835125629	-0.0280292213885148
163.1722	1.50641239623222	0.000619222148440525	1.50641252350018	-0.0235518598871988
139.1537	1.50654856827849	0.000534832748914379	1.50654866321272	-0.0203403053947756
118.6706	1.50633821339079	0.000353401713459922	1.50633825484655	-0.0134421513724083
101.1982	1.50640503692937	0.000429423664765244	1.50640509813624	-0.0163330328460527
86.24196	1.50647971805127	0.000187304089213814	1.50647972969524	-0.0071237160471544
73.61024	1.50638846781003	0.000246943318212084	1.50638848805082	-0.00939253724262524
62.69291	1.50645566484203	0.000220636251478195	1.50645568099928	-0.00839156851537579
53.57697	1.50631127428159	0.000284109741113998	1.50631130107497	-0.010806723131723
45.65746	1.50632067204598	0.000225689316604235	1.50632068895329	-0.008584523512042
38.96512	1.50635121532705	0.000121497785301616	1.50635122022687	-0.00462130626114448
33.18414	1.50642162129595	6.76745150890576E-05	1.50642162281605	-0.0025739567447613
28.30617	1.5062994020283	0.000346569221904149	1.50629944189761	-0.013182607220792
24.17237	1.50613135387932	5.33506366788332E-05	1.50613135482422	-0.00202954829064626
20.61345	1.50633269996297	0.000164431278181074	1.50633270893763	-0.00625440729164807
17.55618	1.50641555505288	4.38172147112693E-05	1.50641555569014	-0.00166656634940159
14.98558	1.50621932657512	-1.09955200755205E-05	1.50621932661526	0.000418263716812083
12.76553	1.50634582108592	0.000141119914840595	1.50634582769623	-0.00536767546254959
10.8809	1.50635235372497	0.000148864533728834	1.5063523610807	-0.0056622273354484
9.278505	1.50630624370983	4.84872297855821E-05	1.50630624449022	-0.00184432192167857
7.923394	1.50672521650201	-0.000206989090024479	1.50672523071976	0.00787111084301281
6.75822	1.5063473670235	0.000126597289271973	1.50634737234328	-0.00481528398747499
5.761429	1.50612771968871	6.61284654189073E-05	1.50612772114044	-0.00251564453811966
4.919708	1.50624531674973	0.000103928426653432	1.50624532033518	-0.00395331367540869
4.191257	1.50629355889816	0.000174680044669081	1.5062935690267	-0.00664440820363772
3.564097	1.50609634757004	0.000107085920490695	1.50609635137703	-0.00407382388845855
3.051758	1.50621126245794	1.8889124325448E-05	1.50621126257638	-0.000718536057633253
2.604164	1.50612556174799	6.85858705720107E-05	1.50612556330962	-0.00260913234267777
2.214424	1.50609130046587	3.66261825158596E-05	1.50609130091122	-0.0013933588732448
1.892567	1.50605823876139	2.1131397725371E-05	1.50605823890963	-0.000803913071643492
1.607507	1.50582936261962	8.32556490477881E-06	1.50582936264263	-0.000316782062392086
1.376413	1.50582718673805	1.00524821728796E-06	1.50582718673839	-3.82490638506853E-05
1.17375	1.50575605172051	4.54494244701633E-05	1.50575605240642	-0.00172940377670918
1.001604	1.50569811785216	-6.16738617081319E-05	1.50569811911525	0.0023468528905475
