EC-Lab ASCII FILE
freq/Hz	Re(Z)/Ohm	-Im(Z)/Ohm	|Z|/Ohm	Phase(Z)/deg
6999984	46.608848394434	63.4652869335696	78.7415226815919	-53.7064739463294
5969734	46.9897460906241	53.9586031797599	71.5511501988061	-48.9490850522212
5091109	49.915896982305	50.3775848996186	70.9189525575947	-45.2637517590043
4341796	52.6602357249324	47.4929741474545	70.9132076553883	-42.0465249844093
3702781	58.3634116472018	42.7743483866073	72.3597450175136	-36.2375637305857
3157797	61.379051356846	39.5427663789019	73.0138227896797	-32.79120540414
2693047	64.7515335884574	36.8129315704774	74.4845825179263	-29.6193568869193
2296687	67.0375654404978	34.1159460091521	75.2192325957159	-26.9719022621142
1958656	70.2153103667462	31.1119765274277	76.7993808135307	-23.8978404517886
1670375	72.7088875988891	27.7854779793534	77.8371063337341	-20.9142028406905
1424531	74.8243911059137	24.0425673348396	78.592204119881	-17.8132463914614
1214875	75.8324365505498	21.5068121134438	78.8232288128071	-15.8338490966229
1036062	77.1432782064442	19.0352996372967	79.4570827851018	-13.8609892502269
883578.1	78.3628077582445	16.9500483942482	80.1750196777209	-12.2051755997666
753531.2	78.7887075491512	15.1285631376966	80.228011690911	-10.8693187708411
642624.9	79.486056779233	13.6781704612197	80.6543586514556	-9.76398005163061
548046.8	80.0779583509729	12.3106502686181	81.0187109481284	-8.73984664072402
467390.6	80.5305281122613	11.1765525134055	81.3024063858175	-7.90140885121933
398593.7	80.8626880891046	10.3355039417431	81.5205309521817	-7.28379472553601
339937.5	81.2025607325304	9.65243981090646	81.7742347186659	-6.77886420942107
289906.2	81.4613686848684	9.22992838070717	81.9825967259213	-6.46429319116039
247234.4	81.7304855739088	8.9388287928179	82.2178504482708	-6.24160741450484
210843.7	82.1317214323729	8.75370931122315	82.5968951725807	-6.08369451658884
179812.5	82.2904587773538	8.87598853541969	82.7677641251005	-6.1562195142965
153343.8	82.5619528511048	9.11996006917371	83.0641302262979	-6.30345247891127
130781.2	82.8706365146597	9.52407540644881	83.416127989092	-6.55606957078444
111531.3	83.1772955947489	10.1003213883682	83.7882986735294	-6.92359907804906
95109.37	83.5371796684896	10.8920472474366	84.2442703108401	-7.42863845614508
81109.37	83.9044659998518	11.7949778132845	84.729457193683	-8.00199159215454
69171.88	84.3502410821656	13.0185367319059	85.3489629067597	-8.77374855346191
59000	84.8909818222846	14.3986400145639	86.1034240261121	-9.62651028784487
50312.5	85.4394093287215	16.0465077149003	86.9332104335574	-10.6368984412463
42906.25	86.0960911365909	17.9076905130928	87.9387416814277	-11.7497944737745
36593.75	86.8112432367951	20.1366706185896	89.1160897701396	-13.0593353511696
31203.13	87.6899443646217	22.6394114006871	90.5652764101121	-14.4762657081061
26609.38	88.5943211923759	25.6197280379805	92.2243146479168	-16.1288249582901
22703.13	89.6405419796209	28.9258524764439	94.1919938630093	-17.8842244031222
19359.37	90.8980169328248	32.8005642647584	96.6350169369606	-19.8419868116165
16500	92.2793817840506	37.1668169591939	99.4829462034815	-21.9378034008476
14112.02	93.8380295453446	42.0405211126845	102.825002817306	-24.1329307647087
12011.13	95.6541283321655	47.7839069526639	106.925273114672	-26.5443668849656
10236.38	97.6739541268467	54.2449793250297	111.72608959749	-29.0463876326326
8750.684	99.9592514432119	61.4831832341242	117.354308696733	-31.5949440124202
7449.463	102.570130254358	69.9499883984736	124.15165120667	-34.292904866866
6363.206	105.507381727208	79.4821728216002	132.095508611661	-36.991914234077
5414.761	108.92061332466	90.4856618603516	141.602807208494	-39.7180646120433
4620.567	112.675487349063	102.853761575441	152.560354350554	-42.3908210530814
3941.215	117.269659534667	117.00889254585	165.660055481648	-44.9362261649957
3361.769	122.417554219921	133.020467596698	180.777494121452	-47.376911780694
2867.244	128.336388139573	151.326823392857	198.418839828491	-49.6995795497512
2442.658	135.219749375493	172.218506719605	218.960258215736	-51.8622775024079
2083.003	143.151752782236	195.871173403705	242.606555754725	-53.8389303294077
1777.843	152.256564187187	222.509767406954	269.615759794534	-55.617368407182
1513.548	163.111248973647	253.094483560257	301.101473178688	-57.1995226035003
1292.065	175.561490101685	287.030195471528	336.464217888243	-58.5480360701203
1101.762	190.04240785021	325.851459407243	377.2204797984	-59.7484972424784
939.101	206.395507936957	369.977594873103	423.653781293925	-60.8446228003431
801.2801	226.263435655758	419.119571266053	476.294401954282	-61.6374245014657
684.3433	248.163405350192	473.864453662357	534.913634337103	-62.3588929570944
582.9476	274.833344967549	536.426964574939	602.733154745227	-62.8720912541931
497.0677	305.416649896959	606.592264235293	679.141741512316	-63.2749378799495
423.5089	340.089124222124	685.033879500029	764.808491373515	-63.5976277101672
361.5036	380.196268780547	771.927911031786	860.477717680444	-63.7784531903105
308.1262	426.230013846704	869.404581230674	968.264607722829	-63.883361762599
262.7298	479.244645496844	978.266491541993	1089.34877734878	-63.9001494259963
224.2111	539.775438742004	1098.47365240209	1223.92887427772	-63.831108011683
191.2854	607.497567555342	1232.2050083558	1373.8203948125	-63.7559359489619
163.1722	687.223597924217	1382.81097855418	1544.16400552333	-63.5737353701103
139.1537	774.886108826008	1545.52078647583	1728.89646395624	-63.3719396346652
118.6706	876.493143415802	1728.08310928444	1937.65617771809	-63.1056288514884
101.1982	989.374675217131	1930.70693879357	2169.44498235531	-62.867507591832
86.24196	1121.95025434906	2158.66165045029	2432.81575429762	-62.5371401271596
73.61024	1264.14102712419	2405.20269432501	2717.17731060137	-62.274209794974
62.69291	1428.17887313803	2683.38411619706	3039.77716432249	-61.9767301077421
53.57697	1608.1401957202	2978.84914444906	3385.21153171791	-61.6374817972452
45.65746	1814.28956715266	3314.72671431193	3778.7643250211	-61.30625489588
38.96512	2041.15043155712	3679.9038463216	4208.08595473266	-60.9839661361189
33.18414	2299.49220490694	4087.63346266493	4690.03323288075	-60.6401341632609
28.30617	2586.50979977011	4533.57525666718	5219.51506867944	-60.2942395423405
24.17237	2901.62571331649	5024.10904754134	5801.81898216122	-59.9918324180704
20.61345	3251.58001862334	5565.04386226377	6445.34605792662	-59.7028325062064
17.55618	3652.40867173908	6166.59924928092	7167.07997769153	-59.3622090970011
14.98558	4090.15166969724	6819.87434317874	7952.35982195693	-59.0471969012382
12.76553	4576.37166438645	7544.82604623246	8824.26074402309	-58.7607752994523
10.8809	5122.94842702051	8346.36686334634	9793.18336413027	-58.4586546540798
9.278505	5742.51108960907	9233.33709578285	10873.4055170697	-58.1211825127478
7.923394	6378.9760498631	10143.171754196	11982.2897928503	-57.8344744320643
6.75822	7111.66963166738	11233.7993150734	13295.641842398	-57.6637330091153
5.761429	7938.67572325672	12387.2822469965	14712.8288818222	-57.3452830665816
4.919708	8802.99864523879	13629.8752754899	16225.4825867673	-57.1431779339272
4.191257	9792.0691473169	15075.7618240913	17976.7408826674	-56.9953089861598
3.564097	10909.482684327	16622.278614705	19882.5792789696	-56.7224321066508
3.051758	12041.5957445163	18304.0503663163	21909.7760802569	-56.6604781802633
2.604164	13369.9070179293	20145.5930427946	24178.4890494416	-56.4291980366808
2.214424	14822.8962300914	22340.6246586583	26810.851586384	-56.4359188316177
1.892567	16357.0556684336	24507.2650842155	29464.5433028962	-56.279386761988
1.607507	18160.8585545306	27132.7191859215	32649.6743300717	-56.2042490767345
1.376413	19971.1226769851	29904.3147659172	35959.8913040382	-56.2636476113557
1.17375	22053.6839911904	32996.447811982	39687.9143542734	-56.2426028715406
1.001604	24363.1238199131	36467.3275369162	43856.9011667393	-56.2538729513708
