EC-Lab ASCII FILE
freq/Hz	Re(Z)/Ohm	-Im(Z)/Ohm	|Z|/Ohm	Phase(Z)/deg
6999984	-14.1387408014454	30.8820410033031	33.9647530239828	-114.599752322635
5969734	-11.8082953362683	38.4430445570016	40.2157122721971	-107.075040303402
5091109	-10.1860013625317	43.5873665221816	44.7617375008667	-103.153487970409
4341796	-8.55123433959004	48.7817380292523	49.5255648517529	-99.9426897822754
3702781	-15.1936444787433	48.892102026061	51.1984811598274	-107.263085051764
3157797	-14.1623110561756	56.3872372970506	58.1385550598376	-104.098868332375
2693047	-14.0669563400646	66.2475265725882	67.7245453115712	-101.988091815113
2296687	-14.0193545240697	76.9402416003277	78.2070526154026	-100.326628800793
1958656	-13.6262889839383	89.7243553162739	90.7531580078333	-98.6354292769049
1670375	-13.2077593031095	104.965503085013	105.793202729186	-97.1718085892432
1424531	-12.7884205218352	122.221642729014	122.88886707437	-95.9732954733885
1214875	-11.9334877014385	142.62203015375	143.120409494585	-94.7829183582247
1036062	-11.4329595007351	165.283819992235	165.678766636437	-93.9569424007641
883578.1	-10.6386668582087	194.102754574221	194.394085727473	-93.1372116832705
753531.2	-9.00685743535969	226.84716989139	227.025905941578	-92.2737069902288
642624.9	-8.16468103643702	264.98881269321	265.114565554184	-91.7648058765936
548046.8	-6.29888368515858	308.74606059463	308.810307257356	-91.168757882319
467390.6	-4.54455127048441	359.926137433583	359.954826824296	-90.7233977881639
398593.7	-2.40491915990544	423.048637570704	423.055473178866	-90.3257077825635
339937.5	2.99049358151431	492.47297224326	492.482051898312	-89.6520813028282
289906.2	-102.603684888598	500.943537294385	511.343273848136	-101.575275723721
247234.4	-107.776146854718	606.863943200494	616.359913839067	-100.07045937059
210843.7	-110.035564851434	725.704360715424	733.999076766147	-98.6218501771603
179812.5	-114.719518516418	861.704385043708	869.307204118426	-97.5832495819267
153343.8	-116.347474736742	1023.54126836824	1030.13274044197	-96.4850613759994
130781.2	-107.979687294901	1205.28909988458	1210.1162866307	-95.1193591755256
111531.3	-101.537130797294	1394.51212722315	1398.2037984153	-94.1644677141605
95109.37	-95.8543812780531	1679.93244568742	1682.66487586908	-93.2656688209388
81109.37	-80.2809512892263	1980.14992594686	1981.77666763116	-92.3216635576813
69171.88	-67.334620729701	2302.82543967294	2303.80966157225	-91.6748515027581
59000	-74.8167339807493	2697.38327055686	2698.42065882315	-91.5887932419294
50312.5	-114.633667386365	3115.53092801523	3117.63914543006	-92.1072054549638
42906.25	-36.0021019097584	3706.59745716326	3706.77229686301	-90.5564951824422
36593.75	26.0485245399285	4298.15198439335	4298.23091592055	-89.6527688521824
31203.13	-722.104581455734	4765.52842794891	4819.92699365338	-98.6162924865475
26609.38	-689.658474431062	5659.45365440485	5701.31953829207	-96.9477820913471
22703.13	-698.839172639889	6627.08534221258	6663.8304541896	-96.0197050547941
19359.37	-625.15791496963	7852.5358234864	7877.38162575525	-94.5518444794485
16500	-551.585517682034	9273.8267105435	9290.21573702714	-93.4038089453448
14112.02	-618.952062703619	10811.1818447031	10828.8851935535	-93.2766696106053
12011.13	-475.729031019342	12781.5958900857	12790.4461067005	-92.1315561612569
10236.38	-234.132236068235	14763.3645424874	14765.2209776333	-90.9085777475501
8750.684	-292.468690240517	17245.3291088821	17247.8089625444	-90.9716031050145
7449.463	1.74476619898448	20211.177731558	20211.177806868	-89.9950538389935
6363.206	450.022741216171	23660.9747106811	23665.2539544181	-88.9103874370314
5414.761	136.143297258387	27725.6909255829	27726.0251802947	-89.7186589986224
4620.567	520.972637861141	32940.3340001988	32944.4535018272	-89.0939058188118
3941.215	680.175128146348	37860.5797494787	37866.6890178107	-88.9707771886382
3361.769	-6557.6565622539	41039.9613356554	41560.5736969614	-99.0783829483205
2867.244	-6388.82364704113	48871.1818961288	49287.0113469817	-97.4479169507167
2442.658	-6307.32936569284	57830.8875297348	58173.8253530242	-96.2243655792149
2083.003	-5706.37001660373	67728.0222282676	67967.9899196607	-94.8160353187833
1777.843	-6200.41803353282	80045.6280842879	80285.4143615059	-94.4293461028495
1513.548	-5384.36558754512	94551.9475807424	94705.1328286477	-93.2592516936333
1292.065	-4344.3134277522	110331.760686775	110417.256239241	-92.254856678769
1101.762	-3134.1084261374	129737.149455335	129774.999843663	-91.3838462386111
939.101	-1666.9231154689	150157.978283997	150167.230363386	-90.6360217244064
801.2801	-3343.45216740785	179361.746930011	179392.906588251	-91.067917310376
684.3433	-969.040585568015	202782.899712874	202785.215081421	-90.2737978063247
582.9476	4286.91926784762	236920.964185607	236959.745415644	-88.963386033081
497.0677	-58723.6033434818	243208.951876864	250198.033291002	-103.574440062492
423.5089	-69717.6727502059	296924.643866929	304999.66890016	-103.213648538898
361.5036	-61970.1947224733	350978.887703019	356407.750543096	-100.013163591076
308.1262	-72273.1467788742	420796.367977461	426957.832869176	-99.7456495965299
262.7298	-65881.8898526179	486820.812252652	491258.513058944	-97.7070657614544
224.2111	-42045.5485925233	655308.058791838	656655.526188559	-93.6711510525529
191.2854	-73899.3914419003	630896.092636895	635209.414098992	-96.6808410545956
163.1722	-8553.89979227092	817299.309712644	817344.071281135	-90.5996389044156
139.1537	31202.1827525023	1001984.43114014	1002470.13743839	-88.2163636597894
118.6706	-200234.337975729	870136.796998354	892878.399108823	-102.95919798208
101.1982	74407.2325328798	1221683.93182368	1223947.73807111	-86.5146790082509
86.24196	581320.582799302	132048.560637198	596129.551651716	-12.7977285514909
73.61024	69168.0835241457	-426348.749403683	431923.002277591	80.7849864653836
62.69291	39615.1910042723	35195.1442813521	52991.1458574937	-41.6187031283631
53.57697	179090.287738202	-18176.4918573686	180010.32197736	5.79530193998769
45.65746	461098.071695183	193856.121308762	500191.590782865	-22.8029925898069
38.96512	275481.639292367	-353274.435519354	447987.678824683	52.0530724481865
33.18414	975807.642853627	576356.265501576	1133308.03431127	-30.5680260266292
28.30617	-218250.320567941	-937422.440946987	962493.654638313	103.106104360752
24.17237	847682.971794965	361504.853440617	921548.794005106	-23.0964214654273
20.61345	300868.490853911	752701.714303994	810605.773175149	-68.2125162710484
17.55618	-166333.808863239	844470.379344523	860695.740410766	-101.142807179956
14.98558	2046295.78568861	5984803.42163878	6324966.27960863	-71.1236575323286
12.76553	1644994.07201749	-830894.598812281	1842930.09398298	26.7985653403533
10.8809	4434110.80079196	1674094.42761943	4739612.93211654	-20.683982669029
9.278505	2075226.39272539	1423389.65878044	2516466.31246817	-34.4460736742384
7.923394	1689787.33062522	2008329.10532651	2624646.07481525	-49.9230903856318
6.75822	1989239.3744776	284216.118603366	2009440.74086448	-8.13120503411244
5.761429	674617.601298492	275152.036200205	728572.268897773	-22.1887646446928
4.919708	599691.382639706	1346663.21091274	1474154.52312101	-65.9957998574668
4.191257	1304651.266912	-177381.947759602	1316654.58023207	7.74252765462955
3.564097	1850598.04352109	1479642.65710489	2369399.82092692	-38.6440265771808
3.051758	-749432.860690556	-2662951.76296274	2766398.68864725	105.718161652974
2.604164	8023801.3365101	2497386.39710012	8403471.11045204	-17.2886118567719
2.214424	7988122.90627831	1803677.32306347	8189222.1518006	-12.7237253226718
1.892567	-165450.714443011	2815166.5361792	2820024.21360755	-93.3634727165676
1.607507	2801702.0996934	1752179.80021346	3304492.20118651	-32.0217918402147
1.376413	-2678900.33449401	-1895035.97987708	3281412.55668664	144.724669979244
1.17375	4962047.89496498	7099232.72070284	8661467.80485988	-55.0481634856093
1.001604	18266380.265258	-242564.934809154	18267990.7418032	0.760803727137849
