EC-Lab ASCII FILE
freq/Hz	Re(Z)/Ohm	-Im(Z)/Ohm	|Z|/Ohm	Phase(Z)/deg
6999984	36.8226851326171	77.9078594755252	86.1716003590165	-64.7025195222975
5969734	35.6373842821122	74.6132715348093	82.6871419726073	-64.4695548827973
5091109	37.009021774031	76.3549840711987	84.8513481636191	-64.1406771083922
4341796	42.4586256733337	80.6098871018358	91.1081159537337	-62.2234457343255
3702781	52.4391663507155	81.6006920196606	96.9976242268104	-57.273926902776
3157797	59.0224870887106	84.8771522001481	103.38174378363	-55.1857421113761
2693047	69.9023909956931	88.3111517283489	112.62860998211	-51.6367441255106
2296687	80.6028065270046	90.9130876985131	121.498979151708	-48.440063617449
1958656	93.9533710928599	91.6390136914741	131.24383707458	-44.2855523745334
1670375	106.489922510878	90.8088738417127	139.951259961362	-40.4557592324301
1424531	119.332991985447	87.7350445450238	148.114148606796	-36.3237709604411
1214875	130.659211713961	83.7796392982383	155.212298374377	-32.6682887683505
1036062	141.386807858088	77.9723144674697	161.461795046735	-28.875955606893
883578.1	150.562374504409	72.5585233997926	167.133981985604	-25.7301938580847
753531.2	158.202722087446	66.109916974163	171.46026477936	-22.6791248440776
642624.9	164.428830910342	59.7909051996589	174.962261014015	-19.9826765982109
548046.8	169.71934546244	54.1567454737726	178.150524289181	-17.6976693450276
467390.6	173.781705105072	47.8567052687167	180.250784376665	-15.3967052172499
398593.7	177.571747427365	42.2191953214791	182.521741000905	-13.3742386849515
339937.5	180.56035643436	37.8570887138495	184.486317870978	-11.8413645885923
289906.2	182.525454829646	34.0732320691186	185.678557739997	-10.5740736190102
247234.4	184.111757977281	30.3582383981029	186.597861895899	-9.36326482887201
210843.7	185.938067893622	27.2299140408164	187.921348735804	-8.33152253844608
179812.5	186.744346377943	24.8592516495137	188.391701772395	-7.58258648611878
153343.8	187.469232687611	23.2198295279553	188.901756709113	-7.06066204180026
130781.2	188.460844912141	21.6974535238932	189.705744653185	-6.56753445626501
111531.3	189.223722100404	20.6727810605932	190.349628006755	-6.23486370125615
95109.37	190.128073485222	20.456087184065	191.22535352323	-6.14089289327675
81109.37	190.531631267944	19.9854106537747	191.57692750596	-5.98802202395789
69171.88	191.343290552916	19.9390122791265	192.379362329447	-5.949060893889
59000	191.948041563058	20.3237533484527	193.020997847545	-6.04404583716578
50312.5	192.888197057358	21.3072103229539	194.061469065306	-6.30356707047029
42906.25	193.706086237569	22.4429405305508	195.001880568199	-6.60886763160575
36593.75	194.591640584154	24.0453437608687	196.071632680026	-7.04422961223591
31203.13	195.542187787117	26.0621752064087	197.271346578923	-7.59173089252907
26609.38	196.7887609306	28.5633602368309	198.850903886856	-8.25865376606135
22703.13	197.894918025217	31.3962959298428	200.369972746221	-9.01491794858837
19359.37	199.265211716339	34.8959814324343	202.29768688863	-9.93310000401937
16500	200.719004286081	38.9289631334613	204.459244966429	-10.9761066446976
14112.02	202.353046732181	43.521304837869	206.980336014287	-12.138047864489
12011.13	204.270635740534	48.8807753710776	210.037670018308	-13.457489452584
10236.38	206.264115557849	55.0288424889457	213.478474026153	-14.9379207219548
8750.684	208.379107746748	61.9716813309343	217.399038250664	-16.5624107697554
7449.463	211.036404609711	70.310026566011	222.440697504542	-18.4262883139396
6363.206	213.932580708264	79.3697133032717	228.181288624509	-20.3550246805326
5414.761	217.03253151423	90.028214322345	234.96425070539	-22.5293765947422
4620.567	220.377822416116	102.286769345529	242.958777976871	-24.8980299564367
3941.215	224.481614336689	116.379095107842	252.855865965822	-27.4037978480838
3361.769	228.998841863521	132.284710194385	264.461176973192	-30.0135403908134
2867.244	234.078574752318	150.67278944462	278.379361011371	-32.7687626473047
2442.658	239.663271988562	171.902230046395	294.938740478743	-35.6505741990521
2083.003	246.010705479775	195.98092241403	314.531062314854	-38.5420801966932
1777.843	252.759615646345	223.435282454813	337.358486994695	-41.4761454993566
1513.548	260.982601462053	255.057037982686	364.919184053678	-44.3421147680687
1292.065	270.029766049274	291.611934597261	397.43376171657	-47.2006183967102
1101.762	280.197048094566	333.538113279862	435.612280326437	-49.9672195950128
939.101	291.980490651513	381.506510008579	480.416302908243	-52.5718857316775
801.2801	305.122939394306	436.065354193987	532.215183241655	-55.0188108577647
684.3433	320.044688492413	498.254402618571	592.187514526433	-57.2860736080328
582.9476	337.359113229013	570.616855056988	662.883674979098	-59.407644650155
497.0677	357.405883291224	653.56157152565	744.903814721241	-61.3275689258589
423.5089	380.160432841964	749.001566852883	839.955535636657	-63.0896433290042
361.5036	405.947591671431	857.434594350829	948.676726168301	-64.6650480824959
308.1262	436.396095379142	981.899158977101	1074.50803182764	-66.0376830722908
262.7298	472.922618856454	1124.42067140005	1219.82689333273	-67.1887552827087
224.2111	512.018612331665	1287.23838834711	1385.33235283397	-68.309059659528
191.2854	558.206529910456	1473.3809311357	1575.57795689993	-69.2502574295894
163.1722	612.248607921898	1687.7429623668	1795.36198715495	-70.061164597038
139.1537	675.844852679181	1932.4322656424	2047.20803197642	-70.7233319208707
118.6706	752.682555011668	2215.35804911497	2339.7312483269	-71.2344675699069
101.1982	834.87693670435	2532.3485586998	2666.42245756178	-71.7533954449569
86.24196	934.793952808488	2898.85134086243	3045.84616003948	-72.1270212231617
73.61024	1048.44489699042	3313.75677200895	3475.66118113668	-72.4430647429559
62.69291	1185.17114112897	3795.10080393145	3975.85471889582	-72.6569498878782
53.57697	1340.16294726428	4327.96205568967	4530.70549481089	-72.7947462376072
45.65746	1522.10435644077	4946.83220303214	5175.70773101146	-72.8972483871561
38.96512	1737.43110498911	5645.69911326861	5906.99460996416	-72.894555485519
33.18414	1989.50162420554	6448.72914637726	6748.64610985434	-72.8544484398598
28.30617	2284.103202135	7349.65496310361	7696.39886665685	-72.7359607678268
24.17237	2618.35228003	8369.10019081249	8769.1280448056	-72.6272133783109
20.61345	3017.74923532595	9530.62827321561	9996.98383161277	-72.4302877841245
17.55618	3493.28158361966	10856.0969972811	11404.2912202746	-72.1628310853574
14.98558	4030.88190920806	12325.1636874323	12967.5621798386	-71.8899312875366
12.76553	4671.45550468232	14013.3962011723	14771.5188664963	-71.5638610063277
10.8809	5418.25280993883	15907.3345774269	16804.7837495938	-71.1904644112409
9.278505	6282.01185909493	18019.9188918207	19083.5308542629	-70.7806849961633
7.923394	7245.86942888337	20372.3058743766	21622.5222955044	-70.4209247966007
6.75822	8405.38384903485	23022.7681650187	24509.1479172535	-69.9433644743591
5.761429	9723.9919056922	26022.7656898747	27780.215131134	-69.5106667474764
4.919708	11277.5098639177	29358.278253127	31449.8128884544	-68.9865249564907
4.191257	13055.8044263593	32982.9830427009	35472.9643477175	-68.4046290197558
3.564097	15018.1061230606	37239.5153550849	40153.7671384033	-68.0365609321638
3.051758	17267.2699540079	41683.1935299963	45118.1475076682	-67.4982097878588
2.604164	19784.4767615506	46791.2535115771	50802.0366315467	-67.0801797805314
2.214424	22776.5393195944	52489.2201806917	57217.9078484539	-66.5426307771397
1.892567	26015.8221785008	58796.9687419431	64295.4628015415	-66.1321065169284
1.607507	29756.1091402457	65949.7157350278	72351.8557930423	-65.7153943125298
1.376413	33847.4672131966	73464.2378518178	80886.6199064893	-65.2628722459354
1.17375	38474.0547748462	82088.2858960598	90657.2643099885	-64.8879286648018
1.001604	43595.4920913071	91412.4667003493	101275.89051164	-64.5030729138125
