EC-Lab ASCII FILE
freq/Hz	Re(Z)/Ohm	-Im(Z)/Ohm	|Z|/Ohm	Phase(Z)/deg
6999984	39.5876695863411	74.3704643049944	84.2505165813111	-61.9734642483099
5969734	42.3130943953702	72.7684645972147	84.1762876179961	-59.8230390516249
5091109	44.8109717524812	71.6691652461585	84.5250994467492	-57.9844174870501
4341796	50.6981076600522	71.8073548610321	87.9010485287203	-54.7767820259456
3702781	59.8812283349855	70.9554403961139	92.8463032581973	-49.8380691784123
3157797	66.9972258553678	71.8924364521839	98.270802842688	-47.0185725164633
2693047	75.8610360817114	71.6426868475941	104.343525789256	-43.361887113003
2296687	85.3738441270204	70.2180150307857	110.540774811327	-39.4365074219381
1958656	93.6311513376116	67.3494002851507	115.337479682782	-35.7276713999649
1670375	102.127298449486	63.0338212984465	120.013531387402	-31.6832310790719
1424531	110.032641848746	58.7115495011926	124.716591987776	-28.0836237311625
1214875	116.130824187923	53.6814309006734	127.937736223954	-24.8087230249096
1036062	121.589692147701	48.6841801854849	130.974053296466	-21.821028872622
883578.1	125.829120564979	43.9104851336683	133.270770564404	-19.2374132053504
753531.2	129.167243402314	39.2962687469806	135.012493887001	-16.9212198593781
642624.9	132.057391478063	34.8512268509888	136.578778208803	-14.7838409116882
548046.8	134.34336459198	30.993337280732	137.872138467824	-12.9909814862105
467390.6	136.083919278477	27.609010071074	138.856366520573	-11.4686326245479
398593.7	137.481439394143	24.6522776164762	139.674195789936	-10.1658698378692
339937.5	138.546528608859	22.1607858237034	140.307665570664	-9.08759191532277
289906.2	139.429074887114	20.0727806984015	140.866544817577	-8.19224795760568
247234.4	140.172914847354	18.4881269554877	141.386904963387	-7.51366539294249
210843.7	141.15058771974	17.3903548126091	142.217835921295	-7.02368907528047
179812.5	141.699935692478	15.9986767750225	142.600243456328	-6.44171865403224
153343.8	141.733846614516	15.4865407098992	142.57740430835	-6.23568303090319
130781.2	142.578795641172	15.1059919728482	143.376790171809	-6.0478330881916
111531.3	143.068027701127	15.0416909015322	143.856570984671	-6.0018360363985
95109.37	143.209715772389	15.5196180610865	144.048190673714	-6.18499918434592
81109.37	144.037567158266	15.6617238791274	144.886543018108	-6.20559701708087
69171.88	144.525794119751	16.5837370260566	145.474140312614	-6.54582508540751
59000	145.076482697472	17.6490864150442	146.146077891799	-6.93615831291833
50312.5	145.861479039595	19.0753689347288	147.103503587149	-7.45070306083557
42906.25	146.543464350065	20.7128658156177	148.000032952749	-8.04505510003657
36593.75	147.321738851381	22.8121654312777	149.077461844031	-8.80210996432088
31203.13	148.334827609332	25.266822044192	150.47137062612	-9.66677776168666
26609.38	149.342620296656	28.1568504474672	151.973769000417	-10.6771315376204
22703.13	150.43562832924	31.5946085599093	153.717590277974	-11.8609196381401
19359.37	151.805538882946	35.3925236154163	155.876721685469	-13.1237243481864
16500	153.315379905589	39.8307606927177	158.404845926366	-14.5632808084526
14112.02	154.91024433662	44.8404299601376	161.269488619024	-16.1436531060281
12011.13	156.831585065371	50.7408556910965	164.835616631787	-17.9283249646134
10236.38	158.821334763746	57.3890874927839	168.871915188383	-19.8670021489519
8750.684	161.206766283669	64.9332540911824	173.792833518841	-21.9393217390047
7449.463	163.759369937168	73.7528243349701	179.601253725032	-24.2455227010299
6363.206	166.704504521825	83.5947798972564	186.489889951005	-26.6316971120994
5414.761	170.085030527477	95.2070202439409	194.918686413753	-29.2384144376707
4620.567	173.572564283867	107.048429798075	203.928422232681	-31.6636244633225
3941.215	177.866218259152	122.926733277314	216.211408931269	-34.6490898097871
3361.769	182.690170698954	139.934144055745	230.124451422762	-37.450824780087
2867.244	188.231983359	159.298240777499	246.591178013466	-40.240796926853
2442.658	194.305816922105	181.965686738655	266.207178040031	-43.1216115320369
2083.003	201.568721123267	207.522954006507	289.302135793804	-45.8338676834713
1777.843	209.610336270576	236.671763771841	316.148725821152	-48.4700235805564
1513.548	219.264556472768	269.934565632206	347.766610600051	-50.9134651232493
1292.065	230.236337004337	307.805639593388	384.386631716907	-53.2037836951934
1101.762	242.965359374394	351.390101329501	427.20857806028	-55.3384468229344
939.101	258.061646783355	401.113072606566	476.956508034451	-57.2442362298324
801.2801	275.381357695887	456.907760801004	533.478766256557	-58.9223493976792
684.3433	295.097398042855	520.31444585756	598.171879061297	-60.4401718927603
582.9476	319.426654300592	592.915569803663	673.48515974242	-61.686928054965
497.0677	346.966785401138	675.619880748017	759.505216199049	-62.8170873058605
423.5089	379.963525558723	768.463562574232	857.268060620069	-63.6901030983013
361.5036	416.816542072167	873.156298094083	967.542221634985	-64.4817015880541
308.1262	459.817985696229	991.747539982836	1093.15861750788	-65.1254769666631
262.7298	509.998927900467	1125.58167414871	1235.73177172032	-65.6248096851196
224.2111	567.84818206492	1276.15205377285	1396.78760812913	-66.0124156335256
191.2854	633.513053769653	1442.44891907354	1575.43570907638	-66.2892688401328
163.1722	711.224832657936	1635.92902315328	1783.84543371464	-66.5028675061576
139.1537	800.56280286242	1847.27794174669	2013.28999287008	-66.5693306103927
118.6706	901.453414435831	2083.93471977923	2270.55107291145	-66.6080052615641
101.1982	1019.2461947019	2355.6409164172	2566.69182655674	-66.6026767540694
86.24196	1151.06906561134	2656.89947526768	2895.52669051506	-66.5759196250368
73.61024	1300.87950287473	2989.18589444043	3259.98769821624	-66.4815534761787
62.69291	1474.45810226685	3367.60454206473	3676.24632567996	-66.3544714372187
53.57697	1662.66380485069	3781.79248427235	4131.150605105	-66.2673245565793
45.65746	1884.23947051367	4253.72027408363	4652.36440451431	-66.1084433599895
38.96512	2128.53012847976	4776.60020968828	5229.39289698529	-65.9814759125885
33.18414	2410.11948609443	5368.20463414462	5884.41134960022	-65.8217352793061
28.30617	2730.82802450619	6018.34933048659	6608.92959284609	-65.593812668403
24.17237	3075.65190441848	6746.85199454468	7414.82612563805	-65.4934304626961
20.61345	3469.47920802813	7563.64047067129	8321.41473215439	-65.3588426766199
17.55618	3927.02398971454	8490.77000948549	9354.92879554792	-65.1792204078463
14.98558	4435.08492961369	9499.36129887552	10483.6941685391	-64.9729556015993
12.76553	5003.35203122976	10641.2986860984	11758.8591825555	-64.8179132222369
10.8809	5650.20682588774	11925.4060380691	13196.2171226501	-64.6486041937757
9.278505	6370.25549367133	13351.073134987	14792.9479452346	-64.4925877861616
7.923394	7171.8173051838	14941.5789855586	16573.6461299444	-64.3594323945732
6.75822	8094.58702746276	16687.4235116992	18547.0332561297	-64.1233164871997
5.761429	9104.54202360089	18663.6326319666	20765.9304747108	-63.9958333777831
4.919708	10252.2219312638	20890.0247351623	23270.1780819051	-63.8595267183215
4.191257	11584.090669922	23327.1306321499	26045.0797690919	-63.5913251744208
3.564097	13038.4442609164	26137.8450589409	29209.3815934234	-63.4884219544153
3.051758	14679.6687921167	29109.1712000269	32601.1736567676	-63.2383258768407
2.604164	16462.3741926565	32471.9040951011	36406.5147963999	-63.1162285706983
2.214424	18604.2434321731	36308.2263314779	40797.1221169016	-62.869512944115
1.892567	20863.2008986067	40452.9278493453	45516.0688473857	-62.7180229030824
1.607507	23506.5525262978	45154.3682814592	50906.5318654615	-62.4993249126809
1.376413	26383.4383747058	50146.97724945	56663.9669254523	-62.2501455675786
1.17375	29564.8061428973	55864.6138490484	63205.4811133527	-62.1112033022593
1.001604	33123.6512972932	62111.4831646261	70391.8504954537	-61.9292892023053
