EC-Lab ASCII FILE
freq/Hz	Re(Z)/Ohm	-Im(Z)/Ohm	|Z|/Ohm	Phase(Z)/deg
6999984	-11.0112317875437	31.2072342151386	33.0928797906367	-109.434996165767
5969734	-12.0773327068944	33.0792552697137	35.2150407427267	-110.057285627058
5091109	-12.9158857564527	37.0371952746851	39.2246598288487	-109.225064429631
4341796	-12.9087180557539	42.1082247353875	44.0424521593524	-107.043470328891
3702781	-12.5137644023723	49.2690888634772	50.833428144827	-104.251103218541
3157797	-11.6440970049479	57.5234699322237	58.6901575062129	-101.443380839282
2693047	-11.1437178435043	66.2197967407271	67.1509041469945	-99.5524482280118
2296687	-11.422239473488	77.1036705123426	77.9451317342244	-98.4265861605797
1958656	-10.9686403295905	89.7205852556816	90.3885749932034	-96.9700128537981
1670375	-10.795514926634	104.774212167092	105.328907132686	-95.8827681417579
1424531	-10.1729440631101	122.370399770855	122.792522292646	-94.7522078204057
1214875	-9.72262557878028	142.317054451693	142.64877649651	-93.9081836923985
1036062	-9.36657884837723	166.437149975536	166.700502972553	-93.2210354086981
883578.1	-8.22840061257931	194.848433541322	195.022097799578	-92.4181496503813
753531.2	-7.10906874096395	227.20753353389	227.318723718302	-91.7921359634214
642624.9	-5.85578822369717	265.48134586418	265.545919301308	-91.2635823974132
548046.8	-3.8536573382964	309.622332377417	309.6463133669	-90.7130845478515
467390.6	-1.87855235287986	361.696893089478	361.701771393953	-90.2975755548226
398593.7	1.32831318931435	423.523733602982	423.525816616814	-89.8203017114786
339937.5	0.914829217658272	493.081957576364	493.082806230188	-89.8936976050349
289906.2	-109.043277215805	504.270658565637	515.925705306669	-102.201747776917
247234.4	-116.212287328487	608.065954961701	619.071483198511	-100.819773575062
210843.7	-119.287785763843	727.885450560131	737.595285349334	-99.3070504043572
179812.5	-119.027382025552	868.139885039719	876.26159203096	-97.8069323051457
153343.8	-113.8962602405	1026.4649268329	1032.76454437342	-96.3316232784634
130781.2	-113.698612257169	1216.8455602388	1222.14585541255	-95.338057165927
111531.3	-118.780745555371	1443.64096671328	1448.51928060607	-94.7036209993786
95109.37	-99.5854387735253	1684.93731438409	1687.87766530029	-93.3824376195865
81109.37	-90.7341142187503	1980.11259367424	1982.19034482322	-92.6236123157152
69171.88	-87.1037691327357	2294.02127463631	2295.67433994483	-92.1744707001122
59000	-59.3726359455437	2697.50227513477	2698.15559859997	-91.2608894957761
50312.5	-42.4945426817793	3143.90222849159	3144.18940403916	-90.7743910319305
42906.25	-26.6927451453839	3728.14348936643	3728.23904544072	-90.4102190573453
36593.75	38.4605489516176	4323.56622893033	4323.73728963411	-89.4903353172628
31203.13	-607.370476148951	4781.91153615576	4820.32953592562	-97.2386154681554
26609.38	-704.295358768838	5642.21658797956	5686.00386722125	-97.1152003590843
22703.13	-678.928252194659	6667.43884398459	6701.91646545245	-95.8142423894602
19359.37	-622.617513295247	7876.3779950823	7900.94822722429	-94.5197588429212
16500	-597.878879757433	9271.18705785646	9290.44501714666	-93.6897721808947
14112.02	-478.377470758449	10808.2155387814	10818.7969819793	-92.5342881954543
12011.13	-449.030643374512	12723.9066827757	12731.8274332741	-92.0211471941352
10236.38	-357.385981480183	14748.8701949504	14753.1995433958	-91.3880861262951
8750.684	-132.222334697445	17329.6765791606	17330.1809882095	-90.4371480737165
7449.463	45.237486431608	20291.9606013997	20292.0110259909	-89.872268983497
6363.206	27.6568678356924	23733.132574993	23733.1486896394	-89.9332316928989
5414.761	209.073196203541	27741.5302824899	27742.3181081841	-89.5682002816211
4620.567	-92.9324784017197	32923.4823999056	32923.613559001	-90.1617272615971
3941.215	229.02787818069	37341.0734497681	37341.7758033808	-89.6485862602779
3361.769	-6343.32170656722	40959.191525849	41447.4739969058	-98.8034205024372
2867.244	-6404.62193839581	48730.4054098515	49149.4821293395	-97.4874510385808
2442.658	-6210.14187140051	57981.0290196198	58312.6537574557	-96.1134409500775
2083.003	-5611.93910896056	68199.8768462687	68430.3811359319	-94.7040793656147
1777.843	-5104.9128120762	80057.1104931753	80219.7050314658	-93.6485765154248
1513.548	-4826.80345551067	94915.9633223898	95038.6138630787	-92.9111798330914
1292.065	-4376.89876745241	110563.111109442	110649.712069302	-92.2670033840258
1101.762	-4210.87019215398	129672.644386827	129740.996335189	-91.8599168705853
939.101	-2001.70603837869	150442.472048088	150455.788266865	-90.7623016224532
801.2801	253.169192995116	174199.647071516	174199.831040334	-89.9167305083992
684.3433	743.599995135224	204098.27250026	204099.627090652	-89.7912527512655
582.9476	2826.62612568688	240751.071437579	240767.664385392	-89.3273288245481
497.0677	-57312.2239046368	247595.915095659	254142.535166689	-103.032994946093
423.5089	-43488.8536872939	295493.433577905	298676.496702862	-98.3723270573808
361.5036	-58512.4231061726	345517.409809306	350436.847576118	-99.6116920640283
308.1262	-50018.6390942806	407565.810046137	410623.615705926	-96.9966553912717
262.7298	-75780.4891236406	468300.105278197	474391.896152736	-99.1919431833155
224.2111	-65850.8907982524	608962.301054262	612512.386751668	-96.1717680536219
191.2854	-46956.5360994619	731551.425448409	733056.890260271	-93.6726407428202
163.1722	58675.8050731597	735285.106701004	737622.558113084	-85.4374610576254
139.1537	21962.4530374677	978147.969647072	978394.50114364	-88.7137483217425
118.6706	87492.5214368352	1080600.67599523	1084136.87432386	-85.3710552491697
101.1982	136746.97432511	737216.836431583	749792.237159911	-79.4915915386553
86.24196	283844.381065803	683778.551926033	740351.768240403	-67.4560973899167
73.61024	383306.866757522	238780.587190701	451597.523158181	-31.920796569667
62.69291	64699.9761879567	-17580.4045904676	67045.936075848	15.2014927668709
53.57697	72553.7305955872	94145.6095460284	118858.906355941	-52.3801969717385
45.65746	302734.60248349	48493.9958829464	306594.042958326	-9.10069546009741
38.96512	464267.36738637	36957.8751431203	465736.055030063	-4.55141686929442
33.18414	457156.538908637	97286.1065121435	467393.504006224	-12.0137274821015
28.30617	984867.827675671	277702.492907178	1023270.88913809	-15.7468225371205
24.17237	755847.665186912	-294560.318463007	811216.046550815	21.2912892839779
20.61345	680181.724240294	-436643.870301428	808272.879331176	32.6985065624657
17.55618	1090854.98787465	782483.68526687	1342477.30791988	-35.6523389090611
14.98558	1126335.701684	4479259.7718602	4618701.13957301	-75.8852805845429
12.76553	2074824.87921118	-145789.437124373	2079940.58553862	4.01933331031043
10.8809	1374860.72382209	-339036.261553688	1416046.46694835	13.8525782297944
9.278505	2143233.35449671	282860.006630881	2161818.4463961	-7.51834072855076
7.923394	2835294.06286941	326406.35285933	2854020.59034785	-6.56712765623047
6.75822	-370413.906382787	-1603210.97978997	1645445.80821152	103.009618268052
5.761429	972160.95417444	-89767.4566104834	976296.633758241	5.2756211983949
4.919708	-310983.023798801	1219135.48473678	1258173.98289563	-104.31011787144
4.191257	432581.291766253	-1071364.40256276	1155399.60925422	68.0127831836658
3.564097	1088565.5318969	1909875.96689753	2198317.79462541	-60.318303769736
3.051758	-556441.744386223	-1519270.32766772	1617964.69165033	110.115555434823
2.604164	7893006.280767	3911283.15199943	8808954.764519	-26.3601552242531
2.214424	3457971.0792306	-6308700.30362791	7194252.11580677	61.2716482450541
1.892567	-53954.0194762727	3390132.76039962	3390562.07277678	-90.9117863112029
1.607507	3175064.12383264	2191351.17443382	3857855.90194108	-34.6124835362562
1.376413	6779168.75415188	-2060681.66314156	7085445.49863147	16.9078355652839
1.17375	-1017972.28137571	8201970.93279271	8264901.37557767	-97.0749787218661
1.001604	9569784.91419704	10101815.7073428	13915008.5838677	-46.549222679426
