EC-Lab ASCII FILE
freq/Hz	Re(Z)/Ohm	-Im(Z)/Ohm	|Z|/Ohm	Phase(Z)/deg
6999984	-14.310894515764	32.3227272703215	35.3491216302882	-113.8813778391
5969734	-14.6929246361961	32.5308410945585	35.6950648785564	-114.306856297764
5091109	-15.1559037162682	36.111407906702	39.1629314334488	-112.767719772704
4341796	-15.2909738319364	41.8150611077798	44.5231761690058	-110.08650647461
3702781	-14.6239968336707	48.9857888175259	51.1220968805707	-106.622231757911
3157797	-13.8835537091507	57.2995017113061	58.9574928228706	-103.620162094543
2693047	-13.7415520531312	65.5495389621905	66.9744153463443	-101.839810337733
2296687	-13.0868362456857	76.7887287239572	77.8959186476601	-99.6717953367375
1958656	-12.9071038903098	89.4299303513947	90.3565480388143	-98.2125864240983
1670375	-12.8285771185435	104.130311487126	104.917558879781	-97.0232979287453
1424531	-12.1303875319467	121.850250870037	122.452561993476	-95.6851549982173
1214875	-11.8864572199193	141.907947556367	142.404892629788	-94.7880176826014
1036062	-11.6449584772106	166.02365485111	166.431544570302	-94.0121755322148
883578.1	-10.2620877688097	193.52464369802	193.79653805943	-93.0353970830757
753531.2	-9.13652553811849	226.187335938352	226.371789403621	-92.3131264865338
642624.9	-7.53301085119238	264.349720496296	264.457030496362	-91.6322807385799
548046.8	-6.54096666544404	308.902809230129	308.972053420992	-91.2130475198826
467390.6	-5.16742654924702	360.913001193241	360.949992003677	-90.8202849513205
398593.7	-2.26417978894407	421.892290689834	421.898366260918	-90.3074877246784
339937.5	0.218729477514011	492.271601964879	492.271650558564	-89.9745419499279
289906.2	-102.160837599426	502.286166323895	512.570219208424	-101.496665914229
247234.4	-107.536347992609	604.698796706643	614.18621026367	-100.083751991437
210843.7	-111.295125169834	722.498416754075	731.020223453985	-98.7571255125907
179812.5	-112.341443966551	860.726457407334	868.026862783329	-97.4361713159166
153343.8	-113.345095333682	1022.48647223372	1028.74957911882	-96.325549925835
130781.2	-113.020375699	1208.71252503922	1213.98499723425	-95.3418959831544
111531.3	-110.316982242944	1409.00819375038	1413.32017838383	-94.4767870082863
95109.37	-79.6638052094589	1671.02062516516	1672.91848324652	-92.7294376204759
81109.37	-87.935666458491	1965.59258062381	1967.55860762491	-92.5615609865025
69171.88	-81.2585477948237	2316.24252856258	2317.66744868881	-92.0092296719964
59000	-66.9216692624746	2699.13443298747	2699.96392515816	-91.4202863543815
50312.5	-24.4749096701592	3080.99215958139	3081.08937043465	-90.4551389484836
42906.25	-14.4960056105088	3693.53839804268	3693.5668441216	-90.2248672106205
36593.75	21.6473458247009	4289.68692503335	4289.7415449399	-89.7108667726086
31203.13	-749.192991261085	4801.9521688101	4860.04472918664	-98.8677063670509
26609.38	-714.893838297384	5638.11016344424	5683.25253839461	-97.2263541713397
22703.13	-662.312221365099	6676.86329154272	6709.6319491102	-95.6649295880491
19359.37	-673.640435810228	7920.72343693183	7949.31765632244	-94.8611843930396
16500	-484.894687531754	9236.47247100297	9249.19167092953	-93.0051449114928
14112.02	-493.455908202309	10710.4845251074	10721.8458063854	-92.637878964814
12011.13	-394.059036188036	12614.3985006877	12620.5519712156	-91.7892711744457
10236.38	-273.511886091031	14724.0898546219	14726.6299878422	-91.0641930847077
8750.684	-265.895822920615	17194.6097332316	17196.6655043002	-90.8859459146425
7449.463	-153.052206266215	20285.7430768934	20286.3204440719	-90.4322779324579
6363.206	-286.706034491945	23511.5227246308	23513.2707461349	-90.6986460114142
5414.761	150.886208147297	27683.6086612744	27684.0198518639	-89.6877192776854
4620.567	-315.214261564768	32270.1456413472	32271.6851085352	-90.5596464503155
3941.215	192.218007573267	37306.6993455012	37307.1945315921	-89.7047934199803
3361.769	-6615.55473849074	41071.9443962722	41601.3242696485	-99.1501745600504
2867.244	-6475.09500568487	48676.854952629	49105.6316873323	-97.5771189335187
2442.658	-6287.5286053506	57766.1716517018	58107.3455189357	-96.211875099281
2083.003	-6010.66585541709	68551.2537947552	68814.2608828898	-95.0109555606868
1777.843	-5912.47326720537	80139.686047065	80357.4926180351	-94.2194716624931
1513.548	-4629.45960947511	94167.0113347908	94280.7399207408	-92.8145218530528
1292.065	-3917.17478609742	110160.957012839	110230.579733073	-92.0365024630447
1101.762	-3279.05068025464	129381.23689329	129422.782512977	-91.4517990331137
939.101	-1646.8763514693	149714.44152571	149723.499167874	-90.6302348506756
801.2801	-66.3053062946902	176497.291461633	176497.303916197	-90.0215244891286
684.3433	-48.577800441997	207887.761612862	207887.767288527	-90.0133884884377
582.9476	-1096.91827511143	238372.105894929	238374.6297291	-90.2636564533509
497.0677	-59663.1844595296	246262.554311169	253386.93974969	-103.618901587394
423.5089	-87699.377465138	279376.708070001	292818.247074534	-107.427638530526
361.5036	-58046.6569490828	366165.02300516	370737.425215386	-99.0079091395194
308.1262	-62640.5568678145	438250.312547267	442704.388743197	-98.134377685063
262.7298	-38494.2060761546	452983.057722152	454615.721774714	-94.8572882800327
224.2111	-42248.1845953759	596305.780888065	597800.546522107	-94.052626352551
191.2854	-19238.304442378	679024.931608936	679297.409169458	-91.6228842307397
163.1722	-59821.3197936051	783447.120799906	785727.676355817	-94.3664353369442
139.1537	-304551.788032982	739183.509681165	799464.853873297	-112.392203233775
118.6706	-346809.302863814	1125081.56642223	1177321.20666197	-107.132049604018
101.1982	138679.270770174	832246.78533709	843721.904329423	-80.5395886417291
86.24196	677161.72176475	359644.011204673	766741.033347497	-27.9729970400786
73.61024	192949.053395976	277481.368964752	337972.25822389	-55.1868479199207
62.69291	60380.931045964	-38951.5535191985	71854.5778328454	32.8259381056808
53.57697	79852.309932999	83684.4545406882	115669.699288138	-46.3423619970719
45.65746	371770.544417281	171879.630920235	409580.206091063	-24.8123842252205
38.96512	-144310.545483008	518894.497641232	538587.999513497	-105.541862539412
33.18414	515081.34744333	-141516.676272192	534168.291970952	15.3627345495766
28.30617	973324.194155213	386986.597296542	1047434.30028573	-21.682407463668
24.17237	622853.751730067	97432.152678688	630428.283327947	-8.89064913240245
20.61345	613501.265275118	43249.8007563214	615023.859504354	-4.03249071311782
17.55618	881759.52150051	531512.160244972	1029565.45699877	-31.080977951876
14.98558	1551379.76231566	301541.066328736	1580413.2945547	-10.9994088382255
12.76553	1772928.37818968	-1222750.73661868	2153693.19962056	34.5931977768721
10.8809	1448929.96434193	749438.668398491	1631274.45859328	-27.3496304181322
9.278505	776282.186082413	1201622.22327578	1430562.82626773	-57.1363883840549
7.923394	2294700.22822895	344143.918159911	2320362.94011097	-8.52927319185754
6.75822	974596.00614464	-501764.577414548	1096177.47939879	27.2413872314761
5.761429	634391.870601673	-361513.161571841	730167.659839271	29.6769907115315
4.919708	691442.168022143	-1320253.90189205	1490356.54699818	62.3580908161812
4.191257	800803.83019653	1291744.25951477	1519832.22970392	-58.2035738436876
3.564097	2671258.66498104	-1024795.65104703	2861088.77556101	20.9886988132134
3.051758	1406751.51680028	708081.823681199	1574906.25087577	-26.7181850912744
2.604164	15576445.0800786	3671339.78372199	16003261.453224	-13.2624546191215
2.214424	662025.590421122	4020844.1416212	4074980.42861337	-80.6502267919688
1.892567	1974220.10423812	-2118509.83949081	2895795.04799586	47.0191340151025
1.607507	776168.623051602	-4200047.86036963	4271163.74783329	79.52986511937
1.376413	2467976.54632396	-1585414.3728247	2933333.76327418	32.7164630597651
1.17375	9105143.93128331	-2998592.63395825	9586198.61017984	18.2282397224746
1.001604	9738182.18129444	5374644.0994499	11122903.9100332	-28.8949434282236
