EC-Lab ASCII FILE
freq/Hz	Re(Z)/Ohm	-Im(Z)/Ohm	|Z|/Ohm	Phase(Z)/deg
6999984	9.50941000865682	-3.12803526765452	10.010668476602	18.2081575517553
5969734	5.22327433749268	-2.37563448095136	5.73813854762977	24.4568524541859
5091109	2.84785971697105	-1.62519723628437	3.27895883236933	29.7122448046659
4341796	1.90200392694034	0.0458443164846471	1.90255634330509	-1.38074234259601
3702781	1.21341945348426	-0.100402355273307	1.21756618014729	4.73006797460519
3157797	0.938547002562858	-0.0476196702720178	0.939754281190855	2.90456255987651
2693047	0.793142045211079	0.0179989582962381	0.793346246213697	-1.30000342193736
2296687	0.718224991643512	0.0779220202028819	0.722439602910736	-6.1919434328229
1958656	0.686357419548777	0.113779431124971	0.695724274635274	-9.4124876330517
1670375	0.667969434365119	0.127808621022711	0.680086912720561	-10.8319963000663
1424531	0.661109897463818	0.12913365657075	0.67360359098208	-11.0523444089177
1214875	0.657889392581704	0.117576680201779	0.668313346117519	-10.1328101730902
1036062	0.659075101724779	0.103844234010579	0.667205826301578	-8.95394378003055
883578.1	0.655004641279904	0.0893822554558739	0.661075084758604	-7.77061404574686
753531.2	0.650895737846084	0.0792379525303604	0.65570108637046	-6.94085083726045
642624.9	0.646447543661327	0.0688111840961998	0.650099535273241	-6.07597677508843
548046.8	0.642894930735037	0.0586110897548761	0.645561113921108	-5.20910996570493
467390.6	0.639052949213811	0.0497506473812976	0.640986582397578	-4.45153141799588
398593.7	0.636941363228517	0.0419964605376008	0.638324371216615	-3.77231287018009
339937.5	0.634564628637181	0.0365635952117207	0.635617152389904	-3.29773479326221
289906.2	0.633257530124249	0.0315493453299292	0.634042948584567	-2.85215869401825
247234.4	0.632786886798843	0.0276320908313898	0.633389908783118	-2.50036318076572
210843.7	0.632537162497947	0.0245341766393369	0.63301278641456	-2.22121413227342
179812.5	0.633261297964149	0.0220156939520688	0.633643876542203	-1.99111886541124
153343.8	0.633145769892344	0.0192245760669391	0.633437566187483	-1.73917098824277
130781.2	0.633707206054913	0.0182284100023112	0.633969319397347	-1.64764269934401
111531.3	0.634521583377323	0.0162487559740129	0.634729597421113	-1.46690316286999
95109.37	0.635230245297997	0.0143242774727764	0.63539172914547	-1.29178606123959
81109.37	0.635821383953221	0.0126744823746172	0.635947698160512	-1.14198452682925
69171.88	0.636146317500795	0.0111842608847431	0.636244626666002	-1.00722886411905
59000	0.636740365190094	0.00966565239699505	0.636813722762532	-0.869677167368608
50312.5	0.63690941166545	0.00857465618669353	0.636967128976644	-0.771321513383066
42906.25	0.637320066543312	0.00758313461981207	0.6373651788021	-0.681700028026497
36593.75	0.637575002958049	0.00650657675703169	0.637608202533539	-0.584694262606283
31203.13	0.637798097011157	0.00584733285813089	0.637824900621328	-0.525272981560604
26609.38	0.637985853656317	0.00517178228010842	0.638006815635642	-0.464453568903247
22703.13	0.638342217586052	0.00461027701987921	0.638358865691453	-0.413798141052612
19359.37	0.638397751127159	0.00397876654696345	0.638410149690189	-0.357087064969461
16500	0.63851820598931	0.00356333508969873	0.638528148742692	-0.31974333746044
14112.02	0.638599126910974	0.00307096960323911	0.638606510885821	-0.275528470889092
12011.13	0.63865453517808	0.00277744625137663	0.638660574570881	-0.249172183129956
10236.38	0.638821437261368	0.00237571696816803	0.63882585478031	-0.213076644177627
8750.684	0.638684876916968	0.00203371428402905	0.638688114807401	-0.182441851379131
7449.463	0.63887039556359	0.0017248903721573	0.638872724080762	-0.154692875107371
6363.206	0.638857644314045	0.001511734859632	0.638859432927758	-0.135579289540704
5414.761	0.638835306216587	0.00136331558203188	0.638836760916446	-0.122272688523468
4620.567	0.638818120289775	0.00120196326444424	0.638819251061089	-0.107804300985045
3941.215	0.638870100615164	0.0010426861229943	0.638870951487373	-0.0935111239403729
3361.769	0.638817744543357	0.000935524980600439	0.638818429563872	-0.0839074918572876
2867.244	0.638894582254001	0.000871866116203458	0.638895177148833	-0.0781885136251893
2442.658	0.638917619322688	0.000777414258570068	0.638918092288754	-0.0697156137507946
2083.003	0.638985824125689	0.000656629092845659	0.638986161505358	-0.058877773281218
1777.843	0.638931881762412	0.000563762586682365	0.638932130480782	-0.0505550112674595
1513.548	0.639005999146345	0.000503270429783672	0.639006197329998	-0.0451251876458299
1292.065	0.63898750862926	0.000460204570273124	0.63898767435098	-0.0412649303377596
1101.762	0.63894294093699	0.000375852669554427	0.638943051483025	-0.0337037438252889
939.101	0.638998328136088	0.000322126944180127	0.638998409330167	-0.0288835071906328
801.2801	0.638966228841525	0.000322796309571059	0.638966310377486	-0.0289449798324724
684.3433	0.638963947116753	0.000288053784576722	0.638964012046064	-0.0258297280862548
582.9476	0.639017597270744	0.000241335870382552	0.639017642843041	-0.0216387251613673
497.0677	0.638879844234599	0.000182839238749637	0.638879870397724	-0.0163973187106664
423.5089	0.638792132636668	0.000190359677885325	0.638792161000203	-0.0170741079174308
361.5036	0.638676765925565	0.000151014293837606	0.638676783779132	-0.0135475125813549
308.1262	0.638603181398512	7.57696292253032E-05	0.638603185893507	-0.0067980869434477
262.7298	0.638690923395582	5.75621537519713E-05	0.638690925989483	-0.00516379416073024
224.2111	0.638649193922871	0.000119338372954919	0.638649205072691	-0.0107063237372823
191.2854	0.638660309238518	0.000101768669023614	0.638660317346789	-0.00912991630764908
163.1722	0.638584415680978	1.92596740535572E-05	0.638584415971413	-0.00172803784532559
139.1537	0.638676598215551	7.89228004670521E-05	0.638676603091891	-0.00708017698430241
118.6706	0.638617158480341	-6.44413888615086E-05	0.638617161731657	0.00578158533037226
101.1982	0.63868624187524	1.27691837800264E-05	0.638686242002886	-0.00114550821726931
86.24196	0.63865651808741	4.00273438774106E-05	0.638656519341753	-0.00359097230097898
73.61024	0.638628444021504	8.40023121830483E-05	0.638628449546147	-0.00753642900614304
62.69291	0.638568242350193	-4.13958313222635E-05	0.638568243691956	0.00371425677567287
53.57697	0.63858895385266	-3.28596738648225E-05	0.638588954698085	0.00294825116471303
45.65746	0.638591392801501	3.65785597210723E-05	0.638591393849112	-0.00328190626121392
38.96512	0.63855042144997	6.86117960635534E-05	0.638550425136115	-0.00615639140163504
33.18414	0.638562182035788	-4.43337695789E-05	0.638562183574779	0.00397790215918673
28.30617	0.638407215532276	3.41897580109303E-05	0.638407216447788	-0.00306846286675163
24.17237	0.638508700533843	1.83097477997871E-05	0.638508700796366	-0.00164300231416125
20.61345	0.638486817830294	4.95213888579684E-05	0.638486819750747	-0.0044438921717134
17.55618	0.638590872553987	4.04514367014974E-05	0.638590873835182	-0.00362939198593148
14.98558	0.638511449125294	-6.10244932237422E-05	0.638511452041443	0.00547593297315059
12.76553	0.638447033645634	-1.32733776761085E-05	0.638447033783612	0.00119118498565493
10.8809	0.638554141466077	2.64893585740403E-05	0.638554142015511	-0.00237682030210623
9.278505	0.638377475819946	5.20832010948882E-05	0.638377477944597	-0.00467458159580913
7.923394	0.638353782407563	0.000133684625584537	0.63835379640574	-0.0119989337118313
6.75822	0.638358931781499	3.47617143763244E-05	0.63835893272797	-0.00312003078718679
5.761429	0.638337397517995	2.59943052989826E-05	0.638337398047264	-0.00233319243079599
4.919708	0.638460583869605	7.83390501878805E-05	0.638460588675702	-0.00703018641667725
4.191257	0.638344779768477	-2.62381153017207E-05	0.638344780307714	0.00235504905180685
3.564097	0.638384562891013	-1.70467063807829E-05	0.638384563118611	0.0015299623248443
3.051758	0.638376151713503	-6.74629533394427E-06	0.63837615174915	0.000605496068316303
2.604164	0.638341272347293	1.19927600546831E-05	0.63834127245995	-0.00107643758210849
2.214424	0.638353328881128	4.48976174740678E-06	0.638353328896917	-0.000402981213542558
1.892567	0.63832540519064	-5.14397591745958E-06	0.638325405211367	0.000461720789403591
1.607507	0.638314205901512	-2.12755933565035E-05	0.638314206256079	0.00190972047033039
1.376413	0.63825003813696	1.33681917282362E-05	0.638250038276959	-0.00120006411260608
1.17375	0.638270377249671	-2.57081521317409E-06	0.638270377254848	0.000230775023990321
1.001604	0.63820839678702	5.2495461516858E-07	0.638208396787236	-4.71283111229647E-05
