EC-Lab ASCII FILE
freq/Hz	Re(Z)/Ohm	-Im(Z)/Ohm	|Z|/Ohm	Phase(Z)/deg
6999984	-9.90246769212745	33.2491025566784	34.692386588676	-106.584932205447
5969734	-7.63801781482385	39.5353059656624	40.2663598297401	-100.934537021426
5091109	-6.41326658799266	44.2636311243485	44.7258206033277	-98.2440991028305
4341796	-4.96332491866827	49.317419637472	49.5665459150301	-95.7469198485324
3702781	-11.6767368462393	49.8207246082913	51.1708001097454	-103.190615635533
3157797	-10.7722024263121	57.5070750776555	58.5072989386841	-100.609669951587
2693047	-10.46154431912	67.0633910024918	67.8744600147508	-98.8663885641221
2296687	-10.4000399822763	77.598576345014	78.2923999019439	-97.6334979805596
1958656	-10.3702380008336	89.8587704411963	90.4551848231904	-96.5831517505258
1670375	-9.97974660435213	104.816250456523	105.290273539638	-95.4388404420905
1424531	-9.52619638736606	122.329086365266	122.699444939948	-94.4528373724499
1214875	-9.12470731635552	142.201327434049	142.493781645428	-93.67149482723
1036062	-8.20665003846688	166.093492008418	166.296112980443	-92.8286739105925
883578.1	-7.32800404761568	193.946492913617	194.084882865239	-92.1638136851227
753531.2	-6.20951206617216	226.355614944362	226.440770306366	-91.5713753249575
642624.9	-4.94978955605538	264.73920421109	264.785472907731	-91.0711258740287
548046.8	-3.23858504137803	309.289252275304	309.306207513019	-90.5999253833131
467390.6	-0.916841673800422	360.864868104274	360.866032802438	-90.1455698517744
398593.7	0.952469020396509	421.198474732029	421.199551654347	-89.8704355185526
339937.5	3.61200522904316	492.672147450232	492.685387904896	-89.5799459164213
289906.2	-99.0429171833772	501.182251080885	510.874885116402	-101.178674337932
247234.4	-107.415459920361	605.325215590452	614.781829317954	-100.062437961458
210843.7	-109.284269859439	724.370434178253	732.567797238113	-98.5793940045411
179812.5	-107.413783843162	863.599429714275	870.253811231141	-97.0899902160985
153343.8	-114.293407015499	1022.03382061131	1028.40464475836	-96.3808403530651
130781.2	-110.806308453732	1207.85970721042	1212.93161814489	-95.2415137774475
111531.3	-99.752543943034	1438.71529934316	1442.16929747766	-93.9662243170453
95109.37	-88.3209546509347	1676.4815296489	1678.80639452094	-93.0156873349232
81109.37	-84.2365647301608	1967.27929773409	1969.08192671881	-92.451839568735
69171.88	-56.3019342861118	2285.84828577828	2286.5415573306	-91.4109471423208
59000	-59.8645684838827	2706.81026569217	2707.4721754833	-91.2669628484044
50312.5	-47.6393460301529	3154.75207547153	3155.11175158379	-90.8651475466792
42906.25	4.19052500727519	3717.22135147252	3717.22371351834	-89.9354089325204
36593.75	37.675868072999	4307.01950657019	4307.18428918605	-89.4988150926307
31203.13	-657.451515324245	4729.35917824645	4774.83829379238	-97.9142473001737
26609.38	-694.246535716732	5629.62655242049	5672.2723288002	-97.0302307180664
22703.13	-669.688864675554	6667.59191044792	6701.13908673301	-95.7355179884093
19359.37	-557.097733829884	7842.49290766127	7862.25494955205	-94.0632260717609
16500	-568.518500283777	9175.60564856327	9193.20141752106	-93.5455014080807
14112.02	-487.883151209904	10679.6562202044	10690.7944957793	-92.6156482023629
12011.13	-360.531700360317	12662.9591068446	12668.0904815439	-91.630848344092
10236.38	-484.144266286626	14735.1187479652	14743.0702429044	-91.8818611541389
8750.684	-153.621521506654	17333.0885345591	17333.7692876862	-90.5077937698561
7449.463	-182.087888920276	20182.8357859816	20183.6571602668	-90.5169037987987
6363.206	197.658800413392	23565.8118858783	23566.6408052141	-89.5194415732554
5414.761	361.976854677296	27682.3846747637	27684.7511913132	-89.2508389588981
4620.567	446.317442769864	32168.8384394415	32171.9344429676	-89.2051169268467
3941.215	650.638215333397	36892.2941389116	36898.0310710372	-88.989627500098
3361.769	-6585.06007854831	41031.3147209856	41556.3689940623	-99.1175732615075
2867.244	-6397.6427072184	49008.800394788	49424.6127789121	-97.4373745272863
2442.658	-6408.30419368886	58095.797891485	58448.1658847147	-96.2946102048979
2083.003	-5731.14419397793	67977.3731803747	68218.5405756829	-94.8191865866565
1777.843	-5648.88068962608	80290.6332100036	80489.1025810884	-94.0244368290306
1513.548	-5411.08537277417	94569.646845841	94724.3260702262	-93.2747788498814
1292.065	-3794.36585811044	111304.792699797	111369.448639247	-91.952449554499
1101.762	-5047.39292733782	128301.969380947	128401.213087697	-92.2528513264861
939.101	691.847056549687	152545.195584144	152546.76446308	-89.7401449159398
801.2801	-1386.79243886327	175769.468286309	175774.93898426	-90.4520449763899
684.3433	-1692.29154342431	210278.793181449	210285.602722855	-90.4610977095529
582.9476	1416.49787670917	243284.50126326	243288.624931681	-89.6664052477065
497.0677	7621.27692669604	262228.410023278	262339.137159002	-88.3352524022791
423.5089	-39219.0939890588	278903.876946282	281647.847335976	-98.0043735613478
361.5036	-61512.5244007026	349063.573014387	354442.052617515	-99.9941413922781
308.1262	-46303.0245884395	436945.942254988	439392.451618296	-96.0490404939048
262.7298	-70598.3154721288	515491.483655556	520303.365229275	-97.7983379382188
224.2111	-56132.9862964886	549413.308432792	552273.388489458	-95.8336083629356
191.2854	-69977.906358248	693287.274115982	696809.98258453	-95.7637075119297
163.1722	-106094.673747	800812.872696616	807810.210924627	-97.5468094661563
139.1537	-144669.285453704	878264.939901019	890100.279077041	-99.3538610562194
118.6706	128880.646041894	794147.850424239	804537.773667349	-80.7819497890694
101.1982	-534716.354475625	579943.377037529	788831.984844299	-132.676513463233
86.24196	338314.692618252	501877.409548423	605258.428653759	-56.016158491749
73.61024	279680.042891809	-44219.897091002	283154.243638874	8.98459702207005
62.69291	34815.7348643609	-38977.5600887391	52262.659563179	48.2279718304254
53.57697	131486.92686292	-22620.2546106651	133418.468940797	9.76128714999349
45.65746	272926.535472304	-189686.665658098	332370.162459571	34.7996860366592
38.96512	514867.50392027	88473.0140728794	522413.649144267	-9.75028063074903
33.18414	673545.962773565	35801.0371936948	674496.759245523	-3.04258350906116
28.30617	562990.772212524	267064.906736929	623123.000704402	-25.3781743183342
24.17237	703913.108630372	-383209.63698893	801463.218359309	28.5638311184175
20.61345	-99406.964924966	715406.466772822	722279.833150536	-97.9106949618439
17.55618	778232.515771733	-557855.361095773	957522.03760942	35.6338438314343
14.98558	7679758.01191751	1320600.23535176	7792475.09480925	-9.75707591019928
12.76553	1492196.10291142	1684090.77457219	2250069.0981708	-48.4573096470824
10.8809	2160060.51148063	2841899.48590009	3569629.40670557	-52.7623941985585
9.278505	1460072.39896045	899012.675893864	1714653.0849195	-31.6219188654149
7.923394	56003.4664137863	-1902108.80138421	1902933.07306212	88.3135373018436
6.75822	996934.613796693	-811553.472090229	1285495.10393765	39.1472725973781
5.761429	682543.488271471	-437473.98542364	810709.011485768	32.6577062378745
4.919708	1451148.49560496	667483.226702917	1597299.53804108	-24.7009611228014
4.191257	1070179.1454507	-834923.075206822	1357342.97245406	37.9603332289851
3.564097	596699.170139359	1954109.55775249	2043182.33727307	-73.019632172196
3.051758	1190682.4036455	-1437056.09736124	1866240.82404018	50.356326692842
2.604164	18164328.0886689	3702269.92452232	18537788.9055526	-11.520279040201
2.214424	3533463.87049016	2663643.78204648	4424970.63512225	-37.0102145060535
1.892567	3136076.1864157	722839.420164058	3218302.45227927	-12.97951660073
1.607507	3926542.53494867	1270411.73396998	4126945.87468382	-17.9287088463362
1.376413	1358714.64156853	3409327.40797443	3670097.93493013	-68.2713017408289
1.17375	7430269.71821941	6084299.60245169	9603520.69492653	-39.3124391409804
1.001604	7567766.11833189	11364539.2593844	13653711.4587888	-56.3399369417774
