EC-Lab ASCII FILE
freq/Hz	Re(Z)/Ohm	-Im(Z)/Ohm	|Z|/Ohm	Phase(Z)/deg
6999984	9.48700005873982	-3.73567654223761	10.1960016350898	21.4929303208183
5969734	5.1582593311698	-2.5324318445391	5.74637715215736	26.148590558401
5091109	2.86948884708554	0.457683751549258	2.90575991093216	-9.0623473948693
4341796	1.91020925639009	0.0149008303143899	1.91026737341725	-0.446933951922634
3702781	1.19918764907149	-0.10306139096943	1.20360818707508	4.91208234217337
3157797	0.941606057242234	-0.0489948641294678	0.942879877686617	2.9786018850367
2693047	0.79315049909434	0.0154028325537716	0.793300045042403	-1.11253335024394
2296687	0.725983573958494	0.0764602541322031	0.729998849396017	-6.01220084291241
1958656	0.693515918407525	0.114734043052065	0.702942550796085	-9.39382639766429
1670375	0.684459606699859	0.127850581749324	0.696297870496073	-10.5803818843346
1424531	0.675955934499583	0.131347896484207	0.688599081683987	-10.9963549731775
1214875	0.671738593701011	0.120390852661334	0.682441715952311	-10.16083353885
1036062	0.674954214237753	0.104554938427153	0.683004338541717	-8.80551333362396
883578.1	0.670844887348944	0.0902422663768161	0.676887383190913	-7.66145412661854
753531.2	0.666988779309339	0.0792016107337387	0.671674718049876	-6.77187985389842
642624.9	0.662687187375928	0.0695865380199507	0.666330694614784	-5.99446779915311
548046.8	0.659408057314535	0.0586783506614876	0.662013696903381	-5.08515111968618
467390.6	0.656096292627365	0.0505625307241342	0.658041727181949	-4.40682982377757
398593.7	0.653290618759416	0.0425912118014397	0.654677511360957	-3.73011338265312
339937.5	0.651245082049352	0.0369615132260404	0.652293116898704	-3.24834583132193
289906.2	0.650022159912967	0.0317405717413747	0.650796644330921	-2.79553155625209
247234.4	0.649638486695174	0.0281009369746865	0.650245973501144	-2.47685758722048
210843.7	0.649537408131559	0.0247352043866436	0.650008211408373	-2.18084180715512
179812.5	0.650092043629046	0.0222519930472281	0.650472763752921	-1.9604111923812
153343.8	0.650165680927273	0.019458952773556	0.650456811401548	-1.71430633880748
130781.2	0.650810008156542	0.018355370482776	0.65106880307866	-1.61553529042047
111531.3	0.6517065110669	0.0163916386297982	0.651912618672136	-1.44079233023029
95109.37	0.65251392625602	0.0145502741592881	0.652676132883804	-1.27741513382212
81109.37	0.653119706312713	0.0126127082075065	0.653241479992148	-1.10632879028047
69171.88	0.653257599137855	0.0111507332426712	0.653352760523137	-0.977911186700001
59000	0.653650387619999	0.00980820449688936	0.653723970886205	-0.859674470181214
50312.5	0.653810558502456	0.00858760244064429	0.653866953840742	-0.752519330378052
42906.25	0.654271643056239	0.00763859552828964	0.654316231687061	-0.668895567220914
36593.75	0.654382564289073	0.00653824144362267	0.654415226783973	-0.57244981074966
31203.13	0.654530245071808	0.0058976276490658	0.654556814742348	-0.51624815144216
26609.38	0.654776321491435	0.00517863241098717	0.654796800098705	-0.453143439323144
22703.13	0.654971712364261	0.0046292350620325	0.654988071505605	-0.404950641371761
19359.37	0.655136034984757	0.00392582651345256	0.655147797408618	-0.343334187125597
16500	0.655098136795348	0.0035544113211696	0.655107779432191	-0.310870627636603
14112.02	0.655185406876897	0.00292777051370719	0.655191948382019	-0.256031003599688
12011.13	0.655253921443692	0.00267461130797158	0.655259380026707	-0.233868251238894
10236.38	0.655205821305134	0.00232119033852448	0.655209932919765	-0.202980268390729
8750.684	0.655158774988886	0.00188291905546161	0.655161480727543	-0.164666981700788
7449.463	0.655184481563969	0.00168847049277778	0.655186657232007	-0.147656151242251
6363.206	0.654950679408075	0.00146362464938181	0.654952314794148	-0.128039222252562
5414.761	0.654701310246713	0.0011962551978103	0.654702403130813	-0.104689415931816
4620.567	0.654372790732967	0.00106655792108758	0.654373659920271	-0.0933859326621368
3941.215	0.654197874609105	0.000858623427886912	0.654198438073082	-0.0751996792868893
3361.769	0.653998856201512	0.000861781331592793	0.653999423990533	-0.0754992216221837
2867.244	0.653737188379213	0.000770462973821396	0.65373764239422	-0.0675259982409227
2442.658	0.653599802828037	0.000595762921272429	0.653600074349986	-0.0522256759839697
2083.003	0.653522689130793	0.000575390344538726	0.653522942430327	-0.0504457310271942
1777.843	0.653478062097944	0.000487003831764778	0.653478243567463	-0.0426996109271892
1513.548	0.653207419309342	0.000431369554761492	0.653207561744706	-0.037837370756572
1292.065	0.653180336227615	0.000319496393870883	0.653180414366786	-0.0280256346727173
1101.762	0.65306252617671	0.00037138102517	0.653062631774451	-0.0325827347103816
939.101	0.652940308839229	0.000273214073485209	0.652940366000601	-0.0239746454442259
801.2801	0.652900369606185	0.00023746868905214	0.652900412791469	-0.0208392485019315
684.3433	0.652775737236726	0.000250142565034083	0.65277578516383	-0.021955645306588
582.9476	0.652756856057263	0.000149536480607327	0.652756873185508	-0.0131255750018647
497.0677	0.652569494594289	0.000120053080761007	0.652569505637359	-0.0105406930978659
423.5089	0.652522048114511	0.000146001745449895	0.652522064448449	-0.0128199249364742
361.5036	0.652463260708251	4.33699507127396E-05	0.652463262149676	-0.00380851348959205
308.1262	0.652281761434334	7.41112104022548E-05	0.652281765644533	-0.00650985479502919
262.7298	0.6523283202754	9.24142447935199E-05	0.652328326821484	-0.0081169956807932
224.2111	0.652171679598286	0.000157277986169603	0.652171698562897	-0.0138174731056867
191.2854	0.651982822413916	5.37887720462007E-05	0.651982824632711	-0.00472691842560535
163.1722	0.651844295015314	0.000110103412024726	0.65184430431413	-0.00967786449502244
139.1537	0.651848762202268	6.02846489516567E-05	0.651848764989908	-0.0052988609395232
118.6706	0.651879436271717	3.59564572454613E-05	0.651879437263362	-0.00316032862779173
101.1982	0.651789888833303	2.3752709640547E-05	0.651789889266105	-0.00208798883983401
86.24196	0.651833373600878	6.22530401733386E-05	0.651833376573601	-0.00547200649338056
73.61024	0.65173822287765	3.36877947930583E-05	0.651738223748297	-0.00296157014161864
62.69291	0.651654033120993	-6.64395175078674E-05	0.65165403650792	0.00584160265941221
53.57697	0.651538816896148	-0.000103094551551048	0.651538825052597	0.00906604870222585
45.65746	0.651610568650906	2.84651190016951E-05	0.651610569272644	-0.00250292315619437
38.96512	0.651531358382401	6.14358629469557E-05	0.651531361278935	-0.00540268031904311
33.18414	0.651545307127893	2.71535220711005E-05	0.651545307693712	-0.00238783426980203
28.30617	0.651614928188451	-7.15322670975951E-05	0.651614932114746	0.00628975305802969
24.17237	0.651493397787459	-3.395472838465E-05	0.65149339867229	0.00298615862539668
20.61345	0.651482816602636	-8.85356027004095E-07	0.651482816603237	7.78641622173657E-05
17.55618	0.651549174438601	6.53521415981239E-05	0.651549177716099	-0.00574692138376684
14.98558	0.651383320705655	-2.3528232621282E-05	0.651383321130579	0.00206954704728213
12.76553	0.65130496010635	-1.55050245006672E-05	0.651304960290907	0.00136398848370859
10.8809	0.651245390359211	8.02740698086788E-06	0.651245390408685	-0.000706241529265336
9.278505	0.650921861752428	1.65667359821919E-05	0.65092186196325	-0.00145824577058557
7.923394	0.650785371454125	3.5209532096089E-05	0.650785372406598	-0.00309988158040542
6.75822	0.65067966406603	2.63728015731509E-06	0.650679664071375	-0.000232226440676946
5.761429	0.650500467842716	-3.5358902695098E-05	0.650500468803708	0.00311439574727168
4.919708	0.650337581803588	-1.56448005160452E-05	0.650337581991767	0.0013783319091519
4.191257	0.6498959178709	6.81148115263587E-05	0.649895921440416	-0.00600510189583074
3.564097	0.649877363630563	1.21475206799445E-05	0.649877363744094	-0.00107097385657413
3.051758	0.649787964907433	1.23937242507973E-06	0.649787964908615	-0.000109283047758498
2.604164	0.649739654211615	9.58892928891314E-06	0.649739654282373	-0.000845577416589815
2.214424	0.649651544589401	4.09216742816023E-05	0.649651545878233	-0.00360907203772716
1.892567	0.649577518187633	-1.88013846832235E-05	0.649577518459727	0.00165837018814225
1.607507	0.649416439627104	1.11170028520205E-05	0.649416439722257	-0.000980814936805724
1.376413	0.648908935716398	1.83304639791541E-05	0.648908935975298	-0.00161849862813689
1.17375	0.648269833007736	7.54250930151374E-06	0.648269833051614	-0.000666626654352196
1.001604	0.6474825455246	-1.61781737061317E-05	0.647482545726716	0.00143160781677434
