EC-Lab ASCII FILE
freq/Hz	Re(Z)/Ohm	-Im(Z)/Ohm	|Z|/Ohm	Phase(Z)/deg
6999984	29.4508615775287	80.7287776811473	85.9330483199034	-69.9574019403398
5969734	27.172762580053	78.8639935703957	83.413958712576	-70.9884967884573
5091109	25.9217209844833	82.254578563513	86.2423985836348	-72.5082673400418
4341796	27.6491522830149	88.6511797089029	92.8628412539136	-72.6779774389595
3702781	33.8009775149094	96.3724981429315	102.128176715698	-70.6725678602221
3157797	40.7872362644556	104.723314252045	112.385814007041	-68.7202714690934
2693047	49.1041117766762	114.138906517322	124.253385363725	-66.7219665670156
2296687	59.8756642450761	125.892551533994	139.405988754173	-64.5638064400963
1958656	74.10625966353	137.165217184779	155.903927232979	-61.6189752604624
1670375	91.4526006953705	148.239799924745	174.179839406503	-58.3285932345851
1424531	111.734372401921	157.557383994457	193.15511701021	-54.6570223876073
1214875	134.298714263895	164.237280015126	212.15567114669	-50.7267381778161
1036062	158.179128072492	168.537297405942	231.139475587086	-46.8158886964358
883578.1	183.640708076568	169.874020530082	250.162132453971	-42.7698956599179
753531.2	208.586953932854	167.210808866928	267.334943381741	-38.7169182678774
642624.9	232.442471518518	161.75623875465	283.186481565926	-34.8339775606978
548046.8	254.463087394865	153.131560653902	296.986090103268	-31.0388139877323
467390.6	273.705436847826	143.033264827811	308.825486330649	-27.5907138695894
398593.7	290.249352705608	131.64371944116	318.707947209239	-24.3968523138798
339937.5	303.97519002446	120.131518946823	326.852410110248	-21.5640171944602
289906.2	314.975194057566	108.207825928511	333.044000792352	-18.9598495310772
247234.4	324.459172064098	97.6284635071121	338.828970460437	-16.7463302219924
210843.7	331.728551969197	87.9281501176793	343.183903723204	-14.8454682521325
179812.5	337.339574125986	79.0422594421538	346.476069951768	-13.1871163986397
153343.8	342.130031473636	71.1483766323591	349.449638622751	-11.7476286933089
130781.2	345.923157344326	64.7918601531645	351.938653644601	-10.6086573515243
111531.3	348.954977999913	59.4329876003477	353.980023004156	-9.66570060103182
95109.37	351.28984176577	55.3097113807772	355.617374576728	-8.94762405555026
81109.37	352.389695592484	51.8819005070634	356.188474209917	-8.37541683513106
69171.88	355.538231518887	49.9485547130257	359.02965363532	-7.9969839410251
59000	357.163427619264	48.7299290759381	360.472356799363	-7.7692332174606
50312.5	359.006353564375	48.7908964446881	362.30665668114	-7.73938784591223
42906.25	360.406565376343	49.214408297446	363.751220410929	-7.77578785463689
36593.75	361.82568082955	50.9048442629044	365.389007055765	-8.00831704621278
31203.13	363.78562890557	53.7360428485694	367.732982066124	-8.40259795293206
26609.38	365.450710537712	57.4159851320253	369.933530760864	-8.9287565553566
22703.13	367.338740945926	62.1801934376131	372.564258961696	-9.60750527778038
19359.37	369.639660954694	68.2297572371765	375.883996365029	-10.4581986345229
16500	372.221112059877	75.4250928351986	379.786125197182	-11.4550363360695
14112.02	374.401681932018	83.9276998096154	383.693208473719	-12.6348309207572
12011.13	377.683477155881	94.2128829610076	389.25682554373	-14.006543448502
10236.38	381.052376250375	105.658625259759	395.4297137771	-15.4976890286417
8750.684	385.094627444957	119.463730618965	403.199026561785	-17.2348913339004
7449.463	389.294714981225	135.178212952735	412.096498856042	-19.1489828992499
6363.206	394.515157201031	152.221541248789	422.863579516505	-21.0988384901714
5414.761	400.290442110603	173.624613933823	436.323211173519	-23.4486243516722
4620.567	406.239562041165	197.414894921812	451.667158983678	-25.9177515923207
3941.215	413.257426378148	224.743323827349	470.41605208757	-28.5388386993939
3361.769	421.436863566946	256.295901158398	493.251070879466	-31.3057836723735
2867.244	430.08234004456	292.347536014214	520.036442022851	-34.2058210115841
2442.658	440.109488210352	333.746892045499	552.343506853125	-37.1740231396814
2083.003	451.024983332168	381.287969161508	590.596352018102	-40.2105447552701
1777.843	462.964508334524	435.340069131498	635.497530891226	-43.2386095138026
1513.548	476.81782678408	498.729909626139	689.990407683171	-46.2867220655868
1292.065	491.853789436345	570.562046956768	753.300205502686	-49.2369734259626
1101.762	508.785540230064	653.798546027947	828.441467295944	-52.109972886821
939.101	527.832621063803	748.895393614365	916.215906015552	-54.8232489031307
801.2801	548.85421017518	860.464202915857	1020.6074605482	-57.4678960347396
684.3433	572.969895141501	986.227456152415	1140.58717159511	-59.8446395605013
582.9476	600.937840621534	1134.55026602157	1283.87327817838	-62.0911497794297
497.0677	633.376622784352	1304.76935558784	1450.37547468607	-64.1065861195819
423.5089	673.370170691484	1504.01427445333	1647.8732732029	-65.8812082984406
361.5036	715.02780628818	1725.9747721052	1868.22206327537	-67.4970065764891
308.1262	761.751671529586	1985.71175513551	2126.80906137845	-69.0123653530511
262.7298	820.092154185749	2285.95121662153	2428.60538295756	-70.2643927269709
224.2111	887.021530246295	2629.14497444073	2774.74512194317	-71.3566221718288
191.2854	968.232271784739	3021.651210639	3172.98751508442	-72.2329038237019
163.1722	1051.8130094985	3479.64736260668	3635.14186450074	-73.1812062704229
139.1537	1158.36567510654	4004.738514834	4168.90172700915	-73.8675524132101
118.6706	1279.9899129029	4605.34772798724	4779.91651316322	-74.4674965204916
101.1982	1424.47312117626	5299.30954489338	5487.42246647292	-74.9543387590143
86.24196	1595.26086902279	6101.55168233782	6306.64650765165	-75.3479034684897
73.61024	1786.0938817272	7007.99670363428	7232.02248008759	-75.7017049069829
62.69291	2016.82554172936	8068.78825548523	8317.02646248215	-75.9662395209948
53.57697	2279.47820295213	9255.72067249471	9532.28126132354	-76.1646548054486
45.65746	2590.6132467099	10635.2006319325	10946.1760206698	-76.3100141980733
38.96512	2955.15892916932	12212.7824288985	12565.2305570674	-76.3974475576103
33.18414	3382.55225223239	14036.5943186613	14438.4084928276	-76.4511337030141
28.30617	3891.7695582549	16099.7809745785	16563.4784306908	-76.4106828826778
24.17237	4464.2396581774	18444.5174954001	18977.0825303513	-76.3940098108395
20.61345	5159.17155434649	21156.9479026832	21776.9028028329	-76.2957475489746
17.55618	5959.06492773663	24271.7699696298	24992.5843455934	-76.2059077666981
14.98558	6900.31077976842	27771.8934019895	28616.2952177401	-76.0466254996517
12.76553	8006.31031982398	31836.4703725977	32827.7603671437	-75.883848190055
10.8809	9277.31594183953	36417.3197875469	37580.4440047368	-75.7078928511704
9.278505	10777.0879737778	41647.5805334763	43019.3745827033	-75.491887762406
7.923394	12604.8336268516	47582.7821127688	49224.0082109517	-75.1629526922214
6.75822	14516.6687876981	54252.6883826951	56161.2666296046	-75.0199997223363
5.761429	16885.1059613014	61888.0943039031	64150.1599366142	-74.7392504027222
4.919708	19516.2069153245	70528.9007577719	73179.2878788896	-74.5325845260185
4.191257	22684.9399865965	80417.1933929256	83555.5593326421	-74.2467358820277
3.564097	26475.5047339563	91752.9444165033	95496.3620250305	-73.9043935994371
3.051758	30445.1490781625	104054.16200409	108416.676451388	-73.6910814123099
2.604164	35318.7419657968	118384.128668722	123540.339382321	-73.3880440344652
2.214424	40958.6066376843	135017.562875575	141093.407863587	-73.1244261529255
1.892567	47101.3956482818	152961.767709376	160049.504381591	-72.8848724987813
1.607507	54600.2560244197	174353.020485073	182702.391090539	-72.6115716305039
1.376413	62439.6071136458	197168.795596926	206819.337813583	-72.427995952944
1.17375	71951.464336883	223740.671952264	235025.320988765	-72.1730297341107
1.001604	82771.7893450107	253596.319296416	266762.557852605	-71.9237357974493
