EC-Lab ASCII FILE
freq/Hz	Re(Z)/Ohm	-Im(Z)/Ohm	|Z|/Ohm	Phase(Z)/deg
1777.843	0.330830848554095	-0.0121614660524745	0.33105430311592	2.10526638214618
1513.548	0.331915054306565	-0.0194414025110273	0.332483941577523	3.35218010774451
1292.065	0.32481871945842	-0.0113602877458666	0.32501731745905	2.00305987881956
1101.762	0.324377967389712	-0.0112458467626136	0.324572849753779	1.98558982268823
939.101	0.330331143844594	-0.0124751402592617	0.33056662523335	2.16277931266362
801.2801	0.329239273372693	-0.0119785116876534	0.329457104754519	2.08363837129558
684.3433	0.324247088466695	-0.0152039817177125	0.324603350936495	2.68463901275129
582.9476	0.321603095688587	-0.0141178181139404	0.321912820410714	2.51357157681687
497.0677	0.323542937240602	-0.0147223415818616	0.323877723191838	2.60536228038581
423.5089	0.321898660701417	-0.0101730744953099	0.322059372175463	1.81013582187429
361.5036	0.321695999215051	-0.0103184355193957	0.321861439166822	1.83713874980101
308.1262	0.317476935716709	-0.0110905264851394	0.317670591162904	2.00071877326866
262.7298	0.317933118980705	-0.00990703435605117	0.31808743683857	1.78480192000479
224.2111	0.318620563377222	-0.0110826260495015	0.318813249421932	1.9921244063417
191.2854	0.325625396692938	-0.0113793850550445	0.325824169416058	2.00145788882438
163.1722	0.316668893728611	-0.0189684148575933	0.317236487525492	3.42791195023152
139.1537	0.318330170813619	-0.00713713294492101	0.318410169933218	1.28438688427327
118.6706	0.312668849895035	-0.0175043050891424	0.31315844295075	3.20427506363606
101.1982	0.312095105016701	-0.0129534662122129	0.312363805301281	2.37668966772894
86.24196	0.31354699274878	-0.00492540370177284	0.31358567611329	0.899966008250404
73.61024	0.303190226975044	-0.0280499309296691	0.304484995292605	5.28572702798542
62.69291	0.264549238659369	0.00509434789917015	0.264598284302393	-1.10319184635213
53.57697	0.304922842435427	-0.00833831123956359	0.305036829371845	1.56639957582564
45.65746	0.291828203151299	0.00432859074096975	0.291860303659676	-0.849786937510641
38.96512	0.30431803784811	-0.0174519162796762	0.304818040052679	3.28218185391338
33.18414	0.295523828145762	-0.00520886603825825	0.295569729991639	1.00978368292754
28.30617	0.301960031040445	-0.0267340233524357	0.303141169012978	5.05948834004227
24.17237	0.311424550299298	-0.0154334379169832	0.311806737475407	2.83711740598048
20.61345	0.303484759148986	0.0162669145475195	0.303920403304244	-3.06814258334415
17.55618	0.29220857171944	-0.00469921530541186	0.292246355000026	0.921335042177603
14.98558	0.308442706414752	-0.0159503874960019	0.308854849406205	2.96027926770621
12.76553	0.301507219863137	0.00185755521194137	0.301512941912886	-0.352988984339788
10.8809	0.288854480473555	-0.00537786692479641	0.288904538459173	1.06660448042846
9.278505	0.292288556810943	-0.0123181721417358	0.292548009406212	2.41323807252254
7.923394	0.296676771743053	-0.012801585096897	0.296952837118746	2.47077678614076
6.75822	0.300101913747478	-0.00979118479912508	0.300261595837146	1.86868064938076
5.761429	0.291221848041855	-0.00315933931219437	0.291238984687495	0.621552637567049
4.919708	0.296158103901157	-0.000779475121413316	0.296159129671522	0.150799626889457
4.191257	0.291561373371086	-0.00335926220319503	0.291580724816617	0.660111551263763
3.564097	0.289888089788951	-0.00323395464468381	0.289906128021004	0.639157911738034
3.051758	0.293508086854254	-0.0108429612916576	0.293708302331441	2.11569478697536
2.604164	0.294575838049401	-0.000848712159754336	0.294577060673157	0.165076302749629
2.214424	0.277000584276264	0.00253430057866581	0.277012177293372	-0.524189060003775
1.892567	0.279650515012813	-0.0164186145361026	0.280132078581187	3.36004624531386
1.607507	0.262126391067032	0.0178828040228093	0.26273568386031	-3.90278911111846
1.376413	0.29596010041864	0.0159835124879689	0.296391386027436	-3.09129179714082
1.17375	0.287111568370835	0.00226171849133032	0.287120476564968	-0.45133759094445
1.001604	0.27956601109314	0.0124287709073837	0.279842149978872	-2.54554376770076
