EC-Lab ASCII FILE
freq/Hz	Re(Z)/Ohm	-Im(Z)/Ohm	|Z|/Ohm	Phase(Z)/deg
6999984	24.6374836083315	-13.6417114836487	28.1620647459294	28.9731865447267
5969734	14.1428130974015	-15.504144097143	20.9856533492052	47.6290647767531
5091109	11.7592564906204	-4.62719137787013	12.6368909649341	21.479316843606
4341796	9.31414133475178	-6.8879721819303	11.5843596967108	36.483580348659
3702781	5.98230973895015	-5.04036516684828	7.82261534449415	40.1156457556625
3157797	4.40054425111267	-4.99784975598403	6.65907590356128	48.6364850087758
2693047	3.14716761144281	-4.38401073137114	5.39668547048019	54.3264142806609
2296687	2.43209693971047	-3.7266240669472	4.45003623136926	56.8704328347111
1958656	1.72991865611762	-3.2765321691591	3.70516957942794	62.1671812788436
1670375	1.42335756054818	-2.76695546456213	3.11158951149406	62.7781261757916
1424531	1.20875551761751	-2.4339134860591	2.71754020374881	63.5896063010354
1214875	1.12440539827633	-1.97596127199626	2.27347981035725	60.3582962238361
1036062	0.794604378640394	-1.82030745670486	1.98618109836183	66.4176686820216
883578.1	0.721798312412836	-1.57536482987255	1.73284943113975	65.3837663407081
753531.2	0.677223227646313	-1.35781652015912	1.51733219911814	63.4918597011861
642624.9	0.599473258911527	-1.14686967092158	1.29409359407648	62.4037555524531
548046.8	0.584621676097299	-1.01588674198696	1.17209571994257	60.0804689889772
467390.6	0.534608767676617	-0.888001102567235	1.03650976485383	58.9505389211997
398593.7	0.508376931730528	-0.754208282377019	0.909547820580006	56.0179117426021
339937.5	0.477363080549126	-0.670423978983176	0.823009004973205	54.5479312234144
289906.2	0.457487640469137	-0.581652134638171	0.740009558662021	51.8138396504076
247234.4	0.446429144870067	-0.492875484153048	0.665000168622927	47.8308318643084
210843.7	0.429481915825949	-0.436203262290522	0.612150310017418	45.4448465293113
179812.5	0.416199353266507	-0.370338900516343	0.557111122573506	41.6630500617062
153343.8	0.409673635956584	-0.32164383487446	0.52085242104711	38.1362427312461
130781.2	0.4027595504166	-0.278939323763384	0.489920811757732	34.7053256173792
111531.3	0.395995182856846	-0.24307224917036	0.46464642811773	31.5426959910822
95109.37	0.389330094862937	-0.212079558438759	0.443345984388674	28.5784300830375
81109.37	0.381632854039447	-0.180903642923617	0.422338446397353	25.3621372296485
69171.88	0.375771023652341	-0.16036264799753	0.408558491637988	23.1106709257922
59000	0.367104451889143	-0.135185309883625	0.39120422621076	20.2161053335251
50312.5	0.360891853962708	-0.105117165180565	0.37588901110865	16.2392854916134
42906.25	0.390900665505473	-0.105900825805734	0.40499174707512	15.1584235294109
36593.75	0.375332250492982	-0.0965768846983237	0.387558244549332	14.4297759126092
31203.13	0.370077052533415	-0.0844407778036332	0.379588289819249	12.8531851364816
26609.38	0.364526153402776	-0.0724808165307101	0.371662192426917	11.2457749605538
22703.13	0.364853785704384	-0.0640292564965184	0.370429521812608	9.95364627055276
19359.37	0.362030012153499	-0.0575355752038565	0.366573419813687	9.03020446256246
16500	0.359568494589836	-0.0510731591700105	0.363177601029037	8.08422249491172
14112.02	0.357545387750389	-0.0455617943809178	0.360436653808662	7.26202805889899
12011.13	0.355861597809815	-0.0407325521283181	0.358185172220516	6.52975934883204
10236.38	0.354085289832641	-0.0367807898872991	0.35599047596895	5.93035955145593
8750.684	0.35280478158541	-0.0332947126411552	0.354372334980295	5.39112146848414
7449.463	0.351244381872451	-0.0300816482675197	0.352530170849887	4.89504200438838
6363.206	0.350327628099454	-0.0275326972981156	0.351407877587141	4.49371199791561
5414.761	0.34883706047517	-0.0254500498332679	0.349764205998088	4.17272614418065
4620.567	0.346774137868543	-0.023799467025692	0.34758986942254	3.92611193112706
3941.215	0.346117552216493	-0.0216222704155532	0.346792275764988	3.5746727976231
3361.769	0.344741131300922	-0.0206346416398762	0.345358127233522	3.42537890381925
2867.244	0.343298595108304	-0.0194530329360546	0.343849306955455	3.24320009736386
2442.658	0.341906084215388	-0.0186298500620221	0.342413261625238	3.11886023441134
2083.003	0.340342985583125	-0.0181221362245974	0.340825115942147	3.04793207007871
1777.843	0.338240483454335	-0.017308847558974	0.338683068444884	2.92945299241258
1513.548	0.3365486793836	-0.0160701324590699	0.336932133748173	2.73378561354422
1292.065	0.335116019209735	-0.0145028956998894	0.335429695040051	2.47805678788569
1101.762	0.334405787216355	-0.0134693637899923	0.334676940174697	2.30654129895548
939.101	0.333690047005484	-0.0130102807695004	0.333943580378817	2.23278100424152
801.2801	0.333052587419587	-0.0127834949793298	0.333297830372129	2.1980941393243
684.3433	0.332647653610309	-0.0125811728220806	0.332885486860006	2.1659695416669
582.9476	0.330773553916686	-0.0125089371020226	0.331009996039541	2.1657352019287
497.0677	0.329750975523615	-0.0126944533132815	0.329995234819685	2.20463216072454
423.5089	0.328604791802444	-0.0124322647196067	0.32883988566107	2.16666568538799
361.5036	0.326583712339966	-0.0117465886473296	0.326794895172191	2.05993109660645
308.1262	0.325988506143429	-0.0120871348010938	0.326212515034791	2.12346352171953
262.7298	0.325019014362583	-0.0123811964468952	0.325254752037048	2.18155685848344
224.2111	0.323625404372441	-0.0125756337063338	0.323869648035042	2.22531479121317
191.2854	0.322502450390997	-0.0107033620510729	0.322680015599655	1.90086139690208
163.1722	0.320489520875054	-0.0117623741578962	0.320705295304821	2.10188478523932
139.1537	0.318918686438816	-0.0119363775827691	0.319141983558507	2.14344599778252
118.6706	0.316362033022384	-0.00969017971177402	0.316510403495529	1.75442312474916
101.1982	0.318665674769838	-0.00930300440968079	0.318801440033703	1.67219623269655
86.24196	0.319251691071746	-0.0117856987162522	0.319469161182108	2.1142073885392
73.61024	0.307743477984473	-0.0245831288887965	0.308723789928705	4.56719669993012
62.69291	0.249822700142133	-0.0408209457963495	0.253135795813264	9.28010000490877
53.57697	0.291190350903186	-0.0037969995750821	0.29121510548887	0.747070501746358
45.65746	0.303130817388184	-0.028761229976749	0.304492201542509	5.42003177291085
38.96512	0.305299583220857	-0.00541718751499534	0.305347640297746	1.01654057420552
33.18414	0.308047894732089	-0.0180512384308459	0.308576331979235	3.3536291180084
28.30617	0.318413859206347	0.00513752479865399	0.318455302822447	-0.924372291449592
24.17237	0.297168928449266	-0.0147345248955335	0.297533995132627	2.83857157286452
20.61345	0.299731361890714	-0.0205377653227326	0.300434167672909	3.91981283312739
17.55618	0.299213238647975	-0.0197466289605656	0.299864121791048	3.77576952455811
14.98558	0.303306067278261	-0.00660683848875876	0.303378016281044	1.24786197074927
12.76553	0.304835159955661	-0.0106363326468114	0.305020665393949	1.99835818715272
10.8809	0.304153500266764	-0.0099528705182132	0.30431630149579	1.87423146449999
9.278505	0.297957545260936	-0.00964209955599525	0.298113516737787	1.85348179794932
7.923394	0.299602148595317	-0.00819120637634262	0.299714102612523	1.56609247044745
6.75822	0.301537350864295	-0.00169927413498371	0.301542138844379	0.322879421952088
5.761429	0.301302396868741	-0.00814967039662718	0.301412593443641	1.54936668649199
4.919708	0.294405677862055	-0.00270269825691223	0.294418083234172	0.525971016042412
4.191257	0.297161226829403	-0.00263224869915342	0.297172884806084	0.507511690982005
3.564097	0.304273964069417	-0.013156723406055	0.304558277807878	2.47591163390072
3.051758	0.286441924145572	-0.0052426443648538	0.286489897253208	1.04854714255711
2.604164	0.304464336513621	-0.00251315016005182	0.304474708526679	0.47292772928479
2.214424	0.277327608845072	-0.011701253603175	0.277574353937123	2.41604155501411
1.892567	0.306977770402681	0.00649130924066864	0.307046394893441	-1.21138805046904
1.607507	0.293075375949643	-0.000581610898613101	0.293075953055282	0.113703875514168
1.376413	0.270890848440991	0.009632018039162	0.271062036332251	-2.03639800108704
1.17375	0.315017590089645	-0.0392695133161762	0.317455787066446	7.10573090196525
1.001604	0.297577061522726	-0.0180717968014563	0.298125304836965	3.47529326805766
