EC-Lab ASCII FILE
freq/Hz	Re(Z)/Ohm	-Im(Z)/Ohm	|Z|/Ohm	Phase(Z)/deg
6999984	4.36081619176498	4.85046604775446	6.52255615068037	-48.0428434372407
5969734	3.91412724490242	2.59227336886639	4.69470694593617	-33.5159683670907
5091109	2.67359075185564	0.885818653428449	2.81651596749775	-18.331154401636
4341796	2.09169216481939	0.00132170029436638	2.09169258239792	-0.0362041029953501
3702781	1.34150921173249	-0.198245497146317	1.35607825817757	8.40621331661934
3157797	1.07373099513487	-0.268236803090646	1.10672906912469	14.0264021656812
2693047	0.875148548287946	-0.274965835024137	0.917328290199872	17.4423708106732
2296687	0.718319678139412	-0.213515479411189	0.74938109126832	16.5542117437071
1958656	0.648899550495819	-0.18575439635641	0.674963200774242	15.9743326184111
1670375	0.598841867149819	-0.142400759826422	0.615540054139959	13.3761409048313
1424531	0.561855005222455	-0.111938976872124	0.572897356807224	11.2675645455027
1214875	0.541799502311698	-0.0695433890357535	0.546244435819516	7.31428180981492
1036062	0.518332569873099	-0.0680215889247446	0.522776806630801	7.47629135596611
883578.1	0.507027833733156	-0.0504348151539328	0.509530072478306	5.68061011334738
753531.2	0.510899115190891	-0.0392327109391199	0.512403270394001	4.3912109942823
642624.9	0.500917564187615	-0.025077245985038	0.501544887699843	2.86598416561476
548046.8	0.495461843247081	-0.0285641109677175	0.49628454192043	3.29953445369671
467390.6	0.487116853964426	-0.019840289167927	0.487520734421077	2.33237023635998
398593.7	0.487147107732756	-0.018854058093961	0.487511825578621	2.21641274595022
339937.5	0.486425587368973	-0.0157186000560547	0.486679490460583	1.85084046251377
289906.2	0.487782014100629	-0.00915037109978982	0.487867833097582	1.07469349858011
247234.4	0.488782803290488	-0.0122168000729471	0.488935454836863	1.43177168270375
210843.7	0.48688505608845	-0.00923524758424248	0.486972635412089	1.08665743030024
179812.5	0.485063254370133	-0.0115009378361284	0.48519957987539	1.35823885223446
153343.8	0.48479550855859	-0.00866935365097955	0.484873017202759	1.02448234220382
130781.2	0.483490895634546	-0.0086500768657959	0.483568268180698	1.02496248083614
111531.3	0.482701901494364	-0.00796070766645298	0.482767540927127	0.944834906144894
95109.37	0.48228934003694	-0.00759783822443106	0.482349183329827	0.902545464244083
81109.37	0.481581190303946	-0.00576408933696892	0.481615684524964	0.685745683017916
69171.88	0.480321971332574	-0.0056368274782353	0.480355045740991	0.672364826670431
59000	0.480020045981427	-0.00474351280160078	0.480043482882239	0.566173058104002
50312.5	0.47980579160999	-0.00392220942593399	0.479821822543816	0.468358333572843
42906.25	0.479683578635053	-0.00384448908531854	0.479698984477201	0.459194962259536
36593.75	0.47953946941881	-0.00252210163120483	0.479546101774492	0.301340047672397
31203.13	0.479482811772871	-0.00210857330037515	0.479487448080741	0.251962258409125
26609.38	0.479529077923174	-0.00163583491816463	0.47953186810652	0.195454410455907
22703.13	0.479129210864635	-0.0012962029154618	0.479130964190132	0.15500364741545
19359.37	0.47899011369147	-0.00103836645383628	0.478991239188213	0.12420699403983
16500	0.479412758900452	-0.00049037614089114	0.479413009695505	0.0586060193989875
14112.02	0.479598822368447	-0.000368909357359323	0.479598964251712	0.044072137055003
12011.13	0.479641009664678	-0.000221271843403871	0.479641060704127	0.0264321473712112
10236.38	0.479704944148182	-0.000159255283468238	0.479704970583437	0.0190213909278522
8750.684	0.479847305889002	6.75501690396331E-05	0.479847310643666	-0.00806577325390851
7449.463	0.479852275293945	0.000169094478496904	0.479852305087428	-0.0201903795285238
6363.206	0.479912817922348	0.000454728665043973	0.479913033355344	-0.0542890803507302
5414.761	0.479992856651578	0.000359556668260616	0.47999299132127	-0.0429195465064281
4620.567	0.480020091518437	0.000433084180494326	0.480020286887207	-0.0516934382993388
3941.215	0.480154052319663	0.000447126977136342	0.480154260505441	-0.0533547122375868
3361.769	0.480207815394507	0.000593086726457312	0.480208181643993	-0.0707638400369865
2867.244	0.480227926871025	0.000583733180125921	0.480228281644541	-0.0696449107588755
2442.658	0.480362829899588	0.000632621400017599	0.480363246469769	-0.0754565362664465
2083.003	0.48043042245359	0.000544508543626658	0.480430731020081	-0.0649376614014192
1777.843	0.480421929790763	0.000430590328464452	0.480422122754471	-0.0513527805126658
1513.548	0.480546652584589	0.000486274934662349	0.480546898620276	-0.0579787452048783
1292.065	0.480590550466007	0.000419369235925467	0.480590733439353	-0.0499969904820477
1101.762	0.48066393640707	0.000462786168823724	0.480664159193691	-0.0551647088307168
939.101	0.48069117803785	0.000355956785450649	0.480691309832671	-0.0424281091463885
801.2801	0.480637589172185	0.000321070859828397	0.480637696411493	-0.03827416513169
684.3433	0.480617985148871	0.000283658989484123	0.480618068856116	-0.033815757074237
582.9476	0.48048799831484	0.000256161533737187	0.48048806659826	-0.0305459728810947
497.0677	0.48045422303795	0.00015823544203473	0.480454249095016	-0.0188701071516259
423.5089	0.480425171381239	0.000193101142933397	0.480425210188584	-0.0230293510259293
361.5036	0.480393711185625	0.000137441028835194	0.480393730846619	-0.0163923683553165
308.1262	0.480422100010285	0.00014847733726808	0.480422122954191	-0.0177076044331952
262.7298	0.480378751007835	0.000143278587168163	0.480378772375093	-0.0170891366003971
224.2111	0.48040588943241	0.000129220732230104	0.480405906811462	-0.0154115562832997
191.2854	0.4803049423632	8.53040798803945E-05	0.480304949938373	-0.0101759596246415
163.1722	0.480383549831608	7.42293470943148E-05	0.480383555566604	-0.00885340114614099
139.1537	0.48041777449264	0.000126017476523626	0.480417791020343	-0.0150291470620955
118.6706	0.48036544855394	8.29469605438144E-05	0.480365455715361	-0.00989353153868764
101.1982	0.480396206707073	5.45245853784172E-05	0.480396209801321	-0.00650302513811123
86.24196	0.480322011197394	3.25402072296682E-05	0.480322012299639	-0.00388159712114996
73.61024	0.480265732835696	5.74439122063867E-05	0.480265736271089	-0.00685306797346846
62.69291	0.480325639167615	6.52297592420076E-05	0.48032564359682	-0.00778095020437102
53.57697	0.480307742354007	2.27711691405026E-05	0.480307742893793	-0.00271636655065666
45.65746	0.480285321566769	7.60854564801877E-05	0.480285327593392	-0.00907663696227987
38.96512	0.480280629143568	9.68163620496989E-06	0.48028062924115	-0.00115498493920077
33.18414	0.480295556572913	6.24086920630391E-06	0.480295556613459	-0.000744490472794884
28.30617	0.480358301952135	9.55436025216905E-06	0.480358302047153	-0.00113961706521977
24.17237	0.480409923878393	2.93734397868417E-05	0.480409924776375	-0.00350320433408966
20.61345	0.480388684564677	6.42662544878483E-05	0.480388688863437	-0.0076650121945263
17.55618	0.48039556726415	5.70270855040032E-05	0.480395570648952	-0.00680150177190668
14.98558	0.480371390268618	2.30719640806503E-05	0.480371390822685	-0.00275188363141902
12.76553	0.480381160136332	2.67660792682622E-05	0.480381160882014	-0.00319243030713732
10.8809	0.480347117586691	-3.20666286457935E-05	0.48034711865703	0.00382490581211074
9.278505	0.480432231481954	5.48615656590724E-05	0.480432234614333	-0.00654272538373585
7.923394	0.480377126430944	8.58065004424875E-05	0.480377134094459	-0.0102343554831212
6.75822	0.480382168478448	6.91200765455926E-06	0.480382168528175	-0.000824403761270756
5.761429	0.48038792390408	1.09551217056714E-05	0.480387924028995	-0.00130661535489317
4.919708	0.480364419688307	2.63413978203296E-06	0.48036441969553	-0.000314188740819765
4.191257	0.480469002396295	9.96036265560322E-06	0.480469002499536	-0.00118777015719595
3.564097	0.48059211688409	-4.42859772497398E-06	0.480592116904495	0.000527973618127953
3.051758	0.480606225224722	1.87920158004288E-06	0.480606225228396	-0.00022403022212182
2.604164	0.480483294200603	9.94347204441155E-06	0.480483294303492	-0.00118572068716277
2.214424	0.480259519182062	-1.02709021177213E-05	0.48025951929189	0.00122533613503371
1.892567	0.480298431833947	-3.50693214068968E-06	0.48029843184675	0.000418349087523557
1.607507	0.480105695514778	4.83619589116608E-06	0.480105695539136	-0.000577151273233386
1.376413	0.480016068341658	-1.83454941168478E-05	0.480016068692226	0.00218975874932074
1.17375	0.48000638149501	8.6060728152567E-06	0.48000638157216	-0.00102726061455241
1.001604	0.480326390638946	-2.07278897961661E-05	0.480326391086189	0.00247252831812047
