EC-Lab ASCII FILE
freq/Hz	Re(Z)/Ohm	-Im(Z)/Ohm	|Z|/Ohm	Phase(Z)/deg
6999984	-10.9075763667484	33.1226874943964	34.8724482800948	-108.227143837851
5969734	-11.9650569655945	33.7803910545807	35.8368163763233	-109.504209467419
5091109	-12.5707880261614	37.5704046250115	39.6176730170485	-108.499871748334
4341796	-12.6531592578526	42.9783106162945	44.8022055554776	-106.404851570438
3702781	-11.9799060633095	49.9451740520307	51.3618395345548	-103.488209914324
3157797	-11.6031218522969	58.3120688607205	59.4552757250075	-101.253903696432
2693047	-10.6160930343254	66.3725297079392	67.2161746244513	-99.0873210899246
2296687	-10.5942207519027	77.5791307973981	78.299163779825	-97.7762217673267
1958656	-10.1980660541267	89.7064455855885	90.2842562734195	-96.485691629574
1670375	-10.0011822762785	104.356742507623	104.834886148294	-95.4743065296091
1424531	-9.37722397546736	122.150248895156	122.509655271063	-94.389869310765
1214875	-8.91740344561311	142.324421083842	142.603509497707	-93.5852073832833
1036062	-7.17170323371722	166.349144866039	166.503667602052	-92.4686272321323
883578.1	-7.65267325843207	193.934288631336	194.085217662094	-92.2597268200276
753531.2	-6.59527217356054	226.54127660083	226.637259997064	-91.6675749387599
642624.9	-5.03758189285552	264.412541942353	264.460525537827	-91.0914658757559
548046.8	-3.50788624138125	308.679700838371	308.699632289299	-90.6510905144183
467390.6	-1.6023678999373	360.836587886892	360.840145688838	-90.2544318328493
398593.7	1.03894245854273	421.934391882499	421.935670991072	-89.8589190668704
339937.5	1.65459017311716	491.218345608833	491.221132211675	-89.8070090906316
289906.2	-98.7672441897442	502.765813766911	512.375284354682	-101.11410199442
247234.4	-104.774033781927	604.89115460657	613.898124346545	-99.8267804203204
210843.7	-111.476420961585	720.057202336237	728.635277122027	-98.8004411219026
179812.5	-110.958791210887	862.755285611068	869.861216629881	-97.328569841991
153343.8	-110.651705909153	1019.39930353994	1025.38711717981	-96.1949728443247
130781.2	-107.674036702558	1208.6495961124	1213.43625475857	-95.0908258773281
111531.3	-162.895114946298	1428.04535740035	1437.30593864565	-96.5075213215685
95109.37	-99.3434504179964	1681.12842100702	1684.0611298461	-93.3818646617913
81109.37	-76.1333769360861	1973.91255597948	1975.38023421749	-92.2087908720405
69171.88	-53.836757774997	2304.66353309606	2305.29225853698	-91.3381815023392
59000	-49.6480135919679	2692.15109078997	2692.60885033368	-91.0565154502529
50312.5	-38.8393154858525	3136.42536931588	3136.66583966409	-90.7094749137422
42906.25	-19.6607293797708	3711.86681888439	3711.91888723537	-90.3034770201125
36593.75	42.1703742478493	4334.22008689325	4334.42523318758	-89.4425506371489
31203.13	-760.507828076046	4692.14621257505	4753.37861281292	-99.2064963113118
26609.38	-695.762168828663	5637.32232356806	5680.09577167251	-97.0359030002382
22703.13	-657.041807516353	6640.63205202958	6673.05761905792	-95.6506056431709
19359.37	-625.645137638648	7862.5318244443	7887.38477118051	-94.5496099440475
16500	-528.729947208259	9228.32607932892	9243.46026028657	-93.2791333291244
14112.02	-698.908423580287	10744.472095884	10767.179463712	-93.721743225863
12011.13	-389.26481595532	12682.8145304477	12688.7868415652	-91.7579876788316
10236.38	-494.583871414055	14756.114388294	14764.4005989502	-91.9196763686175
8750.684	-294.898493036208	17230.065059585	17232.5885193934	-90.9805412466185
7449.463	-89.9031119092044	20346.0456625285	20346.2442890876	-90.2531713257
6363.206	116.985678828717	23622.1734334451	23622.4631096931	-89.7162525758829
5414.761	74.063409617683	27694.1595885652	27694.2586235046	-89.8467723616137
4620.567	172.291396432373	32796.3247332837	32796.7772858292	-89.6990065462494
3941.215	-7.77900456975823	37457.9111159377	37457.9119236831	-90.0118987981704
3361.769	-6277.63142604136	41259.0178735752	41733.8616978254	-98.65130020783
2867.244	-6231.14293178302	48713.7093097648	49110.6161328951	-97.2893222330245
2442.658	-6080.68628264755	58109.3533223425	58426.635100858	-95.9738111354042
2083.003	-5931.25731028295	68692.2997497954	68947.8923404953	-94.9349813570525
1777.843	-5151.04165084508	79825.2003658926	79991.2235407338	-93.6921213078547
1513.548	-4405.69091966016	94931.9269806896	95034.1037351674	-92.6571303467304
1292.065	-4169.62548644846	110215.104683985	110293.948506701	-92.1665638825394
1101.762	-2839.62441567108	127610.120061186	127641.710302128	-91.2747550744182
939.101	-3006.76235559951	149811.026658091	149841.197032773	-91.1497929793002
801.2801	1357.63266905084	175190.120207689	175195.380603624	-89.5559962805848
684.3433	-3794.04013131433	205174.408748155	205209.485028526	-91.0593802392285
582.9476	3247.74502832454	241609.290978992	241631.118308756	-89.2298687035963
497.0677	-56508.2465921262	249966.014777448	256273.663252071	-102.738380047837
423.5089	-77266.8278001916	302199.64371046	311921.123582603	-104.342203507967
361.5036	-61082.2387171534	349770.509104591	355064.006801568	-99.9059631876075
308.1262	-21333.953572416	413357.17673991	413907.348494103	-92.9544954424033
262.7298	-38180.9821476693	554713.76154235	556026.208592926	-93.9374618357297
224.2111	-13772.5953277833	593983.610941758	594143.260880297	-91.3282693324834
191.2854	-99498.842666419	692836.214297181	699944.311737446	-98.1724220826597
163.1722	86844.8771754973	689701.930748494	695148.031695284	-82.8232838215615
139.1537	251402.079669875	1128780.4743303	1156437.79118968	-77.4440122661963
118.6706	-2262.27428466792	841407.140544921	841410.181804879	-90.1540496271423
101.1982	-17113.4032404135	588699.245365509	588947.93493516	-91.6651112202409
86.24196	759596.925186793	211923.233333332	788605.697151424	-15.5888007772234
73.61024	201858.643810326	154181.912500746	254005.854702863	-37.3729999227744
62.69291	46298.1142812405	9209.78054238633	47205.248051861	-11.2506107243447
53.57697	163753.83364569	-64231.3565877297	175900.498017375	21.4172655143933
45.65746	266770.05032902	57970.724944605	272996.089171898	-12.2601050635857
38.96512	377238.364722089	18707.9653065366	377701.96158361	-2.8390803593866
33.18414	1044684.43488246	616078.22524989	1212814.06164042	-30.528984682469
28.30617	36723.7796792321	-661818.831159636	662836.93414854	86.8239616260625
24.17237	643743.259412879	805778.313163969	1031350.60673124	-51.3783401599066
20.61345	241858.271162526	758069.68613165	795716.703583295	-72.3049819143294
17.55618	-15867.7308405456	903553.256663296	903692.576327191	-91.0060951642814
14.98558	846067.609626146	1055313.67267251	1352596.52069197	-51.2801008163535
12.76553	95305.9323014538	1491085.29731199	1494128.03487246	-86.3427916697116
10.8809	593600.219129185	1393613.35936367	1514767.1159446	-66.9287470352783
9.278505	-7871.16707571759	1578110.97116763	1578130.60061288	-90.2857726242429
7.923394	1488704.80465104	736913.485248333	1661109.11144691	-26.3355524165301
6.75822	-76103.8851115533	1092110.62307103	1094759.06680587	-93.9862205440953
5.761429	653490.52032774	-555340.810588049	857585.725197669	40.358115764984
4.919708	483694.526170956	-1165610.74441563	1261986.05465548	67.4629728834583
4.191257	1383907.67097867	399287.148350748	1440357.82659438	-16.0939891243462
3.564097	366655.250349976	1714664.67961938	1753428.36641348	-77.9299377722467
3.051758	686211.134137978	1749141.00334636	1878930.53895094	-68.5792665557117
2.604164	3442319.88732112	-5612143.78964442	6583746.96675768	58.4763017541699
2.214424	6187456.86489955	-2230858.95362155	6577336.4005459	19.8265341398818
1.892567	1931626.00936912	1264511.45304872	2308715.71549263	-33.2101922509853
1.607507	2466806.20177895	-1791669.31956089	3048804.97700179	35.9913293885503
1.376413	237018.367857185	3453377.13603474	3461501.31451501	-86.0737306891182
1.17375	4064531.82773	8180685.78757597	9134770.87472245	-63.5797514269591
1.001604	-1854240.80046629	-7057068.60054795	7296603.74276647	104.721673455682
