EC-Lab ASCII FILE
freq/Hz	Re(Z)/Ohm	-Im(Z)/Ohm	|Z|/Ohm	Phase(Z)/deg
6999984	-11.1758935319208	32.185365476928	34.0704908552879	-109.148803747099
5969734	-12.0462597960646	33.1033338350793	35.2270221005265	-109.996380213436
5091109	-12.6756917610151	37.0239412483071	39.1336860923983	-108.899395218878
4341796	-12.9394327436525	42.5464619843893	44.4705559569091	-106.915815332136
3702781	-11.9110254888281	49.458654676414	50.8726945482179	-103.540578256799
3157797	-10.6624597492362	57.5002495965979	58.4804818001283	-100.505219745535
2693047	-10.5992680005738	65.8773992689662	66.7246297598629	-99.1402050944152
2296687	-10.8831367670255	77.3004942721932	78.0628533978559	-98.013999252306
1958656	-10.8552242312392	89.5645935975258	90.2200217213477	-96.9105398346636
1670375	-10.1021624362363	104.966057534797	105.451064102201	-95.4973394329734
1424531	-9.98942920976364	122.145126710137	122.552930095417	-94.6754314758582
1214875	-9.77277560904501	142.364414986028	142.699452687874	-93.9269767080788
1036062	-9.7216627240293	166.229969258841	166.514003633072	-93.3470288278474
883578.1	-8.50643682127922	194.048202152435	194.234559813609	-92.5100520807203
753531.2	-6.7309771572909	226.499404029806	226.599395584695	-91.7021815895858
642624.9	-5.44670872565594	264.267470686519	264.323594669474	-91.1807327002373
548046.8	-4.08408817842992	308.875444801097	308.902444434039	-90.7575460727536
467390.6	-2.25024076866482	360.68752132139	360.69454060255	-90.3574496444138
398593.7	-0.606186762155344	422.525732059993	422.52616690002	-90.0822007196329
339937.5	3.5155045792001	491.923310296439	491.935871822185	-89.5905456356312
289906.2	-101.512732078761	501.936232842606	512.09844426079	-101.433411373647
247234.4	-108.524418289886	606.650595467195	616.28118123618	-100.142422869658
210843.7	-109.504430153415	723.866717514955	732.10261913826	-98.6023123163463
179812.5	-113.284644755058	860.063738452805	867.492388980269	-97.5036084484035
153343.8	-109.539485663678	1017.94775003589	1023.82445796269	-96.141859656716
130781.2	-108.854777667995	1206.71982964948	1211.61962260869	-95.1545387841466
111531.3	-79.2511663721135	1448.90923896318	1451.07502567034	-93.130794555965
95109.37	-96.2296506282489	1679.71638156048	1682.47058462924	-93.2788468502268
81109.37	-77.6981331878185	1967.08138364666	1968.61529248102	-92.2619613554286
69171.88	-45.9229162576151	2287.4113458784	2287.87228216324	-91.1501367539773
59000	-58.0337237199954	2703.39615469879	2704.01898705039	-91.2297778875005
50312.5	-53.134660712193	3094.91772077515	3095.37380465382	-90.9835779229327
42906.25	-0.5290672557388	3708.24536930594	3708.24540704781	-90.008174572502
36593.75	52.8649133391598	4314.46767997086	4314.79154311949	-89.2979933854374
31203.13	-694.159664349263	4758.41328281315	4808.77891045763	-98.2997906005173
26609.38	-689.413920088406	5649.68327515144	5691.59139984044	-96.9572358949667
22703.13	-684.226543817364	6695.95041923692	6730.81852230049	-95.8345250954079
19359.37	-677.220900093569	7843.07877008041	7872.26223783288	-94.935038652832
16500	-574.414316704588	9212.54963995518	9230.44000445665	-93.5678467620908
14112.02	-666.191404424733	10801.3461729727	10821.8709166078	-93.529343998258
12011.13	-428.423394753933	12704.77514715	12711.9966230649	-91.9313647076382
10236.38	-470.950534244866	14912.3857499012	14919.8204801385	-91.8088663310392
8750.684	-209.527106801431	17468.9652138506	17470.2217287362	-90.6871868555116
7449.463	-29.8043932443855	20321.0720490649	20321.0939057213	-90.0840341845773
6363.206	77.3496833171336	23415.6069846538	23415.7347404107	-89.8107333162999
5414.761	74.4304986229431	27676.1899390955	27676.290023123	-89.845912924921
4620.567	571.013338446488	32163.9822488373	32169.0505041135	-88.9829238938949
3941.215	-377.827654791245	36991.0519845981	36992.9815054689	-90.5852003679783
3361.769	-6517.46618818143	41141.1305117002	41654.1712832561	-99.0018357868911
2867.244	-6220.04372870385	48837.2444452759	49231.7518375552	-97.2582679205284
2442.658	-6378.02430180041	57847.8297826394	58198.3728686257	-96.2917454159223
2083.003	-5784.76993763503	68489.8905308211	68733.7520302451	-94.827838249363
1777.843	-5360.51339400111	79782.0013955447	79961.8837354771	-93.8438978277848
1513.548	-4427.39375655487	95356.3287329613	95459.0553321379	-92.6583335581002
1292.065	-4769.64331583223	110957.752241899	111060.219160304	-92.4614079639137
1101.762	-2488.0312400213	129261.471935509	129285.41459262	-91.1026958485404
939.101	-1963.10570475998	151528.012632285	151540.728506557	-90.7422480996236
801.2801	-643.491528319237	176652.871643159	176654.043659128	-90.2087098007978
684.3433	-99.6191534787824	201383.750575917	201383.775215381	-90.0283426868906
582.9476	1765.68435103577	241297.52393309	241303.984006621	-89.5807480573344
497.0677	-6231.9566612749	271063.974260907	271135.603390528	-91.3170393596989
423.5089	-63664.2014404879	289708.027933548	296620.754489973	-102.393917821404
361.5036	-63206.1736521899	360674.684366051	366171.064299599	-99.9398249932997
308.1262	-56885.7147677844	434503.849006778	438211.797360987	-97.4588031488242
262.7298	-51582.9065904404	502300.088352166	504941.754077549	-95.8633448725029
224.2111	-75192.60132015	658298.999335099	662579.429064081	-96.5162302800545
191.2854	41969.9040185347	782221.948068989	783347.080727419	-86.9287556067919
163.1722	103115.387106874	718434.485329488	725796.729648768	-81.8322387233237
139.1537	-164076.967017905	1085294.79520415	1097627.46121032	-98.5969838088516
118.6706	850815.583890097	522094.721641279	998233.467759888	-31.53495533127
101.1982	498728.065277978	535161.090834031	731523.804287041	-47.0182000938964
86.24196	-84133.7755164979	802727.012946239	807123.998835527	-95.9833222348033
73.61024	179470.029963974	248453.365520833	306493.990958874	-54.1575750775918
62.69291	44332.6156363558	-26292.9298487142	51543.175777112	30.6714678269622
53.57697	105962.395642138	-51380.3672011225	117762.351470847	25.8683970078482
45.65746	533122.881007902	76613.2094532074	538599.656625296	-8.17778650285658
38.96512	363095.581725389	347593.030961703	502652.282041614	-43.7503811459914
33.18414	686866.51813646	-128915.992321753	698859.747598334	10.6300114885488
28.30617	-168700.264348731	647176.412988156	668802.727805104	-104.610233164529
24.17237	781091.649793122	-186738.680644584	803103.667172191	13.4455547417114
20.61345	-143284.823470331	-1226162.97785994	1234506.45559725	96.665142011009
17.55618	140963.000669299	-1008263.54472568	1018069.71430275	82.0411964312079
14.98558	757210.892857233	-999478.638687288	1253924.19446067	52.8522167921011
12.76553	2007564.69746128	-605212.268378289	2096806.5967772	16.776267266788
10.8809	-605371.888607137	1848862.11791038	1945447.57178389	-108.129970195797
9.278505	-374356.953119577	1601898.38996486	1645059.74971154	-103.153717153527
7.923394	-283150.082277013	1504743.88651307	1531152.55056181	-100.656824378126
6.75822	-7350.77871420683	-1020544.92667593	1020571.39941882	90.4126827758644
5.761429	282924.270161683	-834196.714505536	880869.060154999	71.2652354035055
4.919708	894111.157869295	1019142.94228774	1355760.7087688	-48.7389814287467
4.191257	902242.013425085	-230866.956797729	931311.012782731	14.352959461016
3.564097	2288394.48644196	713810.616017711	2397138.90317552	-17.3240779442905
3.051758	691049.687015677	-1159892.86618634	1350148.55884619	59.2140422111803
2.604164	8620842.82608083	4091403.18767148	9542458.33504541	-25.3887511192324
2.214424	3971943.40271142	-2521363.54800044	4704636.91856535	32.4071116870181
1.892567	2106601.61977594	-1008461.33889962	2335543.76034743	25.5811274285255
1.607507	1815449.98905646	-2647068.81694191	3209802.48370384	55.5563426724226
1.376413	2137451.48854252	-2144882.35843638	3028071.86133425	45.0994217337828
1.17375	6906043.8983283	1429171.69624757	7052373.64743196	-11.6920345984474
1.001604	1842610.2600636	6593735.62596681	6846353.92567719	-74.3870532460553
