EC-Lab ASCII FILE
freq/Hz	Re(Z)/Ohm	-Im(Z)/Ohm	|Z|/Ohm	Phase(Z)/deg
6999984	20.0021293587259	3.00814388248689	20.227063763704	-8.55268424736658
5969734	18.1415770412499	-6.14636914699537	19.1544948049992	18.7163883047702
5091109	10.6694802766049	-5.48456907481118	11.9965956549863	27.2051018143104
4341796	7.04922087792864	-3.57400979426344	7.90348410483098	26.8853627167377
3702781	6.12298053991968	-5.81614828207779	8.44502643757565	43.5278386087846
3157797	4.66389906377376	-5.14635278659065	6.94527907870656	47.8154536770871
2693047	3.18935684862041	-4.77886966600032	5.74539749647141	56.2813577368032
2296687	2.30725683529095	-3.60157264987038	4.27723738601111	57.3553671237759
1958656	1.87325995224825	-3.23927124291038	3.74192210419235	59.9593457110865
1670375	1.36270560097362	-2.76978853658153	3.08685845031859	63.8033195586192
1424531	1.21865683234662	-2.46782874192382	2.75232686548861	63.7190374669554
1214875	0.888938455003451	-1.92122646555771	2.11691348636247	65.1703395620218
1036062	0.795050816521616	-1.8825168740687	2.04352038942729	67.1040148248088
883578.1	0.738947985282321	-1.6128077185764	1.77403293713855	65.3839382280466
753531.2	0.668559004689812	-1.30922471392316	1.47004778639982	62.9487530071816
642624.9	0.61828068097636	-1.15119308169449	1.30671975259037	61.7607250189778
548046.8	0.578656362546616	-1.05171610428846	1.20039574721647	61.1803187725103
467390.6	0.52601889954362	-0.847808646689792	0.997735127215163	58.1826608841653
398593.7	0.462334376561752	-0.760520781733719	0.890025244136148	58.7038232946163
339937.5	0.460017385096107	-0.68752333695398	0.827226893570921	56.2137773648675
289906.2	0.423947376172356	-0.560668829232073	0.702908894406586	52.9054044642231
247234.4	0.424870360473244	-0.466254445418473	0.630799517343785	47.6589216074574
210843.7	0.413614313718778	-0.405525728220954	0.579247716233902	44.4342521111037
179812.5	0.391517807748544	-0.370279372241376	0.538881255279577	43.4030426714272
153343.8	0.403719710355582	-0.32334495970498	0.517244204893791	38.6917425023593
130781.2	0.380739871391021	-0.283795443562363	0.474871249344082	36.7000667219712
111531.3	0.389057623592431	-0.243108096626237	0.458767240679434	31.9997788017257
95109.37	0.381248970251417	-0.211801389083458	0.436131408792635	29.0541913178023
81109.37	0.362767585094177	-0.1808019197367	0.405326602847058	26.491482880475
69171.88	0.367189599936864	-0.160471654358277	0.400723538308241	23.6066117341015
59000	0.346057469435488	-0.136022252383955	0.371830371669258	21.4579340586917
50312.5	0.341028608023651	-0.106931592902367	0.357400163753721	17.4091335289777
42906.25	0.372110428972314	-0.0999248441483142	0.385293583943496	15.0313357608729
36593.75	0.364147508115427	-0.0925908830256315	0.375734586225625	14.2661391663198
31203.13	0.347989073901229	-0.0844071444578415	0.358079546456038	13.6341724478685
26609.38	0.343917638318483	-0.0728947819749505	0.35155794854581	11.9669741260189
22703.13	0.34644774992658	-0.0605095463233569	0.351692264096679	9.90717939336765
19359.37	0.35045891441071	-0.0526552200223701	0.35439247013098	8.54457689456548
16500	0.351683042483321	-0.049202837643694	0.355108267437576	7.96437118332625
14112.02	0.34628136535436	-0.0411493606367346	0.34871772807314	6.77680156135859
12011.13	0.339776586095345	-0.0364408675982933	0.341725131194537	6.12154410853518
10236.38	0.333078473273135	-0.0377162364059893	0.335207076068801	6.4603856189976
8750.684	0.340164923315271	-0.035064606528134	0.341967398570474	5.8853307983366
7449.463	0.33787370544215	-0.0338039136927221	0.339560518037881	5.71337069415737
6363.206	0.336507402193477	-0.0312692116375834	0.337957090955995	5.3088395724832
5414.761	0.33158089131967	-0.0207458555149402	0.332229255197963	3.58012964766392
4620.567	0.333483755364638	-0.0225209494178158	0.334243336889131	3.86345383960935
3941.215	0.324574418249666	-0.0217193750857039	0.325300298549237	3.82832407831649
3361.769	0.328792376551002	-0.0210806642500851	0.329467481374537	3.66852213854994
2867.244	0.325704559292354	-0.0195957789212907	0.326293509735267	3.44300881517542
2442.658	0.323094008706701	-0.0189054628291458	0.323646651437876	3.34877616548364
2083.003	0.32105476643354	-0.0184540825374222	0.32158469523905	3.28971567596155
1777.843	0.317211752202102	-0.0176922812547502	0.31770475689093	3.19232774769199
1513.548	0.316870740326334	-0.0163269536597273	0.317291089523116	2.94959074003804
1292.065	0.316449623948848	-0.0149881203017107	0.316804369047438	2.71169465279516
1101.762	0.314918522992285	-0.0131494894858375	0.315192933292262	2.39100845598705
939.101	0.314762619365106	-0.01375071326499	0.31506283288398	2.50143174705364
801.2801	0.313171909911855	-0.0135056184148823	0.31346299125512	2.46936501813355
684.3433	0.312808167474837	-0.0129052459751878	0.313074264372921	2.36246083384466
582.9476	0.311076527409371	-0.0126827915299577	0.311334962871287	2.33469300726144
497.0677	0.310011260265045	-0.0124245498485741	0.310260134290664	2.29505693290988
423.5089	0.308546672295062	-0.0123405327267534	0.30879335765579	2.29036268969437
361.5036	0.307353578580023	-0.0125497042291418	0.307609683433707	2.33817315290906
308.1262	0.30614207022322	-0.0118295084235076	0.306370534533106	2.21284150001317
262.7298	0.30523978060214	-0.011921558026022	0.305472498283905	2.23662841583582
224.2111	0.304031468945548	-0.0118840487186475	0.304263643446165	2.23845042162434
191.2854	0.301670136503619	-0.0119205188470779	0.301905564751125	2.26286988285282
163.1722	0.300982065250099	-0.010879062553961	0.3011786141217	2.07006729296011
139.1537	0.299662780217904	-0.0111903803486164	0.29987164997757	2.13861653652736
118.6706	0.299514432192593	-0.0115001626768452	0.299735131129544	2.19884987065608
101.1982	0.298440690999111	-0.0126145972110131	0.298707171167388	2.42035764608483
86.24196	0.295916711096242	-0.0101382590287012	0.296090331152758	1.96221543647807
73.61024	0.303599594785948	-0.00108140386363255	0.303601520728253	0.204083326737915
62.69291	0.254833773355233	-0.0357299838660188	0.257326414869387	7.98135365237393
53.57697	0.286719419191212	-0.0236197786594548	0.287690665968271	4.70935898805798
45.65746	0.313081146877224	-0.0117528968072308	0.313301667907018	2.14984307156515
38.96512	0.285766093454687	-0.0134541937457097	0.286082637532759	2.69556016128428
33.18414	0.296548471407749	-0.0139771792318672	0.296877680928614	2.69851719646495
28.30617	0.288468608614477	0.00293260366444185	0.288483514815362	-0.582455143542912
24.17237	0.289708720450171	-0.0151552657826526	0.290104851365534	2.99453183061472
20.61345	0.286217939935445	-0.0215644576894652	0.287029153530317	4.30868329938725
17.55618	0.280944888046872	-0.0176354648870468	0.281497850331849	3.59185637485687
14.98558	0.285352556387454	-0.00711140445512799	0.285441155950188	1.42759940403961
12.76553	0.283476042209579	-0.0121016589647341	0.283734235961235	2.44448604475338
10.8809	0.284424245820272	-0.00445460998681324	0.284459127398938	0.897284565769192
9.278505	0.279903763640021	-0.00948485566165098	0.280064420065761	1.94078967972915
7.923394	0.280722030802896	-0.011714467775382	0.280966345552919	2.38955371614522
6.75822	0.282658971008167	-0.00890245392273003	0.282799129378508	1.80395647205381
5.761429	0.272855145656597	0.000890283114240659	0.272856598079113	-0.18694638826867
4.919708	0.28438265379434	-0.00568836034162799	0.284439538781949	1.14590527702133
4.191257	0.282678428340784	-0.0114974918747428	0.282912152741139	2.32913016002851
3.564097	0.282230347839065	-0.01434300649074	0.282594570146974	2.90928086731941
3.051758	0.277940854792492	-0.00771030241899054	0.278047779214605	1.58902338732418
2.604164	0.280840715603523	0.00334737261259709	0.280860663753589	-0.682882612915647
2.214424	0.283618549938129	-0.00763966608891731	0.28372142387729	1.54296961270936
1.892567	0.267344580767508	0.00395342422924783	0.267373810289809	-0.847213784052709
1.607507	0.285744905744985	-0.0108512855031253	0.285950872627242	2.17478678917617
1.376413	0.29208718659497	0.00906907111231996	0.292227946342928	-1.77841630537806
1.17375	0.253348741452736	-0.00173666011185675	0.253354693629365	0.392746124673459
1.001604	0.284849747835061	-0.0170782677108083	0.285361255375883	3.43108155275418
