EC-Lab ASCII FILE
freq/Hz	Re(Z)/Ohm	-Im(Z)/Ohm	|Z|/Ohm	Phase(Z)/deg
6999984	36.9535977267193	75.9646424826435	84.4760042406365	-64.0590306225861
5969734	35.3182699376684	73.0285260939887	81.1205634524958	-64.1905244365686
5091109	35.8444731960343	74.7947519042264	82.9402264954467	-64.3944974116352
4341796	39.7254600981839	78.6020075452382	88.0703569321374	-63.1879628866487
3702781	47.9637824508041	81.8257175248998	94.8471005115748	-59.6224465275496
3157797	56.4388885514755	84.7169613916291	101.795440410446	-56.3282371436008
2693047	65.9112413148353	87.5662963790837	109.599945224494	-53.0311858889882
2296687	76.9596173233776	90.2325310699479	118.594655705263	-49.5390310459776
1958656	89.1735418531252	90.9441443192863	127.368590918634	-45.5632138802074
1670375	102.064743756319	90.3819637238153	136.330888959972	-41.5260329345786
1424531	114.650507556036	87.7629032164442	144.385131034451	-37.4334068631151
1214875	126.1562258707	83.6815116887622	151.386884255062	-33.5569749564882
1036062	136.958727527032	78.6763705515432	157.948296378871	-29.8753487002058
883578.1	146.061659946571	72.7228613771449	163.164405043585	-26.4683239263958
753531.2	153.901764012451	66.4585649567218	167.63798442552	-23.3558739437964
642624.9	160.451636424011	60.1822354043259	171.366942813965	-20.560074816254
548046.8	165.690014693373	54.1957542167875	174.328313088313	-18.1124678703905
467390.6	169.966900102103	48.4833410992145	176.746659075811	-15.9208871152813
398593.7	173.299460016327	43.4487205163702	178.663074406717	-14.0747769923241
339937.5	175.9404157697	38.9913629720697	180.209201451076	-12.4957511455671
289906.2	178.127293525775	35.3785533496078	181.606648380308	-11.2335480412058
247234.4	179.860122803089	31.718193512971	182.63544993913	-10.0012361450163
210843.7	181.235680833498	29.0098723348958	183.54275986829	-9.09402623136208
179812.5	182.426274446253	26.7715481092484	184.380208798302	-8.34871700187796
153343.8	183.37168167664	25.1579189467547	185.089423054508	-7.81199878728916
130781.2	184.215772398636	24.0338139884441	185.776949633848	-7.43314190441481
111531.3	184.982619958231	23.3419204385102	186.449497012915	-7.19182354026161
95109.37	185.795467959592	22.9531157647979	187.207909655645	-7.04261960083159
81109.37	186.512056694525	23.1016530160398	187.937313124603	-7.06077663335928
69171.88	187.160987770408	23.996204876902	188.69301309717	-7.30612289081225
59000	187.915315415403	25.2182805125466	189.599914134158	-7.64344033353962
50312.5	188.830453023601	26.8090016769703	190.724048195329	-8.08050399882132
42906.25	189.722293882091	28.8414841374818	191.902006250938	-8.64389339877346
36593.75	190.699642400934	31.5198192650425	193.286969603088	-9.38528932651684
31203.13	191.630239120925	34.8328345646568	194.770313213671	-10.3022337931104
26609.38	192.955621311778	38.6158960837443	196.781755318334	-11.3170050736445
22703.13	194.319944667955	43.0867574194276	199.039467344237	-12.5019849263782
19359.37	195.797284415638	48.4463130863533	201.701814161894	-13.8976241716476
16500	197.537471114966	54.6955169219668	204.969880874867	-15.476707314184
14112.02	199.377887530261	61.7629441940792	208.725186097774	-17.2118469713803
12011.13	201.531528938948	69.9787672053035	213.335381538188	-19.1487823640216
10236.38	203.966610407772	79.6445678331765	218.964918072666	-21.3295743238485
8750.684	206.665526276143	90.3766415522093	225.562800765667	-23.6201793746902
7449.463	209.62873325713	103.268244900807	233.684694004297	-26.2259856973673
6363.206	213.060518314169	117.675901620981	243.397621776823	-28.9124014522413
5414.761	217.11683886068	134.865288505128	255.594146569177	-31.8470855493234
4620.567	221.457742619878	153.859744291742	269.659697915377	-34.7899858611877
3941.215	226.599299821707	176.105499987618	286.98499926926	-37.8531729325618
3361.769	231.963416401895	201.98702093878	307.580531205345	-41.0484038574017
2867.244	239.007912609059	231.113288741542	332.472757564692	-44.0379372042117
2442.658	246.186876284498	265.188311776601	361.846402162081	-47.1279902665994
2083.003	254.976376217836	304.221360855645	396.942802970454	-50.0326914822623
1777.843	264.907794254812	348.38656027151	437.663494976179	-52.7511986032416
1513.548	275.873027966063	400.153984538484	486.034092323974	-55.4169535000232
1292.065	289.287178088575	459.24955347819	542.768112342985	-57.7926485130198
1101.762	304.406468001131	526.843995101078	608.463551032425	-59.9810035157424
939.101	322.676982983768	604.770260075133	685.468819727674	-61.9177154548436
801.2801	342.070644009974	693.91407849894	773.646607846523	-63.758628850599
684.3433	365.650840021382	795.436566545092	875.454092574469	-65.3124330952143
582.9476	393.574734806085	912.705323331289	993.947724538345	-66.673437041768
497.0677	424.33301469362	1048.82374902875	1131.41051961068	-67.9727334337862
423.5089	460.917501965141	1204.78350499959	1289.94117599869	-69.064504512408
361.5036	504.551215898696	1377.66599244817	1467.15217895522	-69.8854384412714
308.1262	555.59288234505	1579.81178478398	1674.66077945799	-70.6240956307541
262.7298	612.765677988451	1811.10894872869	1911.96166287031	-71.3074050972271
224.2111	680.443213770008	2073.84669612952	2182.62298306716	-71.8349846349836
191.2854	759.397857824351	2373.16423379901	2491.70495585875	-72.2556502481686
163.1722	848.402929322924	2716.58338146681	2845.98186904719	-72.656147746965
139.1537	957.720404765407	3107.87610150328	3252.09505334627	-72.8728403850835
118.6706	1083.39142480557	3556.26100220069	3717.624146564	-73.0569890204386
101.1982	1226.73644635555	4063.63159702024	4244.7596003918	-73.2018900468272
86.24196	1395.72369366632	4646.02175412695	4851.14035757392	-73.2790674618313
73.61024	1588.20158795053	5302.27789827791	5535.02802111561	-73.3253624516778
62.69291	1817.14460021575	6058.01737223686	6324.6809390211	-73.3030170976677
53.57697	2074.70442630354	6895.39505916865	7200.75492420975	-73.2543729808611
45.65746	2380.76293282337	7867.15282097988	8219.49667868765	-73.1631008040968
38.96512	2721.66916296342	8956.37160024771	9360.77321989748	-73.0969814745387
33.18414	3139.884996717	10210.8961597886	10682.7561134098	-72.9071605570119
28.30617	3590.20817552751	11626.32929219	12168.0371282331	-72.8393223540684
24.17237	4130.5387205172	13200.0354291185	13831.2069412498	-72.6241194062172
20.61345	4759.604438678	15003.3216677111	15740.1872758075	-72.3990615842898
17.55618	5474.33191581088	17063.4605069786	17920.1002898333	-72.2126211177543
14.98558	6281.86351757814	19359.8641798404	20353.5291857542	-72.0228574960069
12.76553	7219.86352019749	21991.9176016548	23146.7248017566	-71.8251870566868
10.8809	8285.54977579488	24972.9046970956	26311.524169029	-71.6451064216772
9.278505	9492.4964008518	28316.1111621065	29864.8562572291	-71.4671457305096
7.923394	10861.8952600825	32035.56580448	33826.8864226989	-71.2703920236616
6.75822	12454.4398341039	36307.2268540768	38383.9522901786	-71.0665336401541
5.761429	14292.7666673855	41105.6813164881	43519.6532097971	-70.8270372817894
4.919708	16311.0798250405	46568.9541511914	49342.8699590388	-70.6968612707357
4.191257	18732.4707530537	52730.7026208124	55959.2035271997	-70.4425253054771
3.564097	21409.4262659564	59763.0482320042	63482.1665274452	-70.2905196024289
3.051758	24478.6879060434	67435.1416394295	71740.5358882368	-70.0493043706788
2.604164	27871.7240320763	76129.7680461688	81071.4165614718	-69.8919128643564
2.214424	32095.5067798053	86221.9373219509	92001.8697147126	-69.5825729507653
1.892567	36529.395400189	97188.2748048253	103826.574092771	-69.4006588508112
1.607507	41957.9507044302	110188.184644788	117906.342758265	-69.1539432242279
1.376413	47618.4892735282	123927.344754108	132761.091056441	-68.9809672658779
1.17375	54466.4321477123	139778.798736966	150015.681871099	-68.7110468485918
1.001604	62364.9828222436	157659.567254787	169546.248054581	-68.4178643448233
