EC-Lab ASCII FILE
freq/Hz	Re(Z)/Ohm	-Im(Z)/Ohm	|Z|/Ohm	Phase(Z)/deg
6999984	20.1756178499686	94.4321668887532	96.5633973042235	-77.9399645336615
5969734	16.9132472610189	94.4786044650982	95.980543000052	-79.8506068930843
5091109	14.1720200938431	99.7095655793301	100.711685625646	-81.9105620539181
4341796	13.4984513471874	109.184734853904	110.015973903291	-82.952313917025
3702781	16.1638314705284	120.766126733683	121.843041713771	-82.3766059244775
3157797	16.3012642452364	134.174675794831	135.161291946478	-83.0729215329
2693047	16.4368197204849	152.240810491569	153.12554790646	-83.8378774851792
2296687	17.546162579472	175.522477391458	176.397301257418	-84.2913735800252
1958656	20.138507726977	201.654582944332	202.65766779454	-84.2969885664175
1670375	21.6310272260264	233.480323644031	234.480197176168	-84.7068825730541
1424531	23.0493223146908	269.092078108368	270.077429193642	-85.1042288039773
1214875	26.0257689120548	311.004815233441	312.091870682097	-85.2164712360434
1036062	32.7000517796986	360.919669004998	362.397986833636	-84.8230211181271
883578.1	43.4247499093702	420.213025875929	422.450820830657	-84.1000056764515
753531.2	52.7711039891778	487.829327647459	490.675292152772	-83.82601725882
642624.9	116.121786308188	642.668079738693	653.074674115008	-79.7579023218321
548046.8	143.751940196806	734.424850056271	748.361196676125	-78.925280053948
467390.6	175.382833248794	838.728912770528	856.869492580758	-78.1893157661024
398593.7	211.827000246854	957.201224511019	980.359557631268	-77.5216480474365
339937.5	252.758780505931	1092.56762692224	1121.42365791048	-76.9741295784095
289906.2	301.476889530348	1247.5285603756	1283.43906122329	-76.4144071083462
247234.4	358.306420406718	1426.78017018916	1471.08298370611	-75.9028703888534
210843.7	430.719439620297	1629.49770637391	1685.46195766758	-75.193835117379
179812.5	510.63825459317	1866.95353300742	1935.52755636876	-74.7029248785109
153343.8	617.314565552305	2134.3673983208	2221.84640870105	-73.8687556245799
130781.2	746.0075241385	2438.35943687217	2549.92626745457	-72.988692451259
111531.3	912.363392310051	2787.69971384973	2933.20245708089	-71.8776699907208
95109.37	1119.16317710551	3161.39261070719	3353.64420534184	-70.5055506629415
81109.37	1352.25929302666	3553.22227317176	3801.8408328257	-69.1645429434378
69171.88	1705.28436082027	4094.42139403401	4435.34455292727	-67.3887748489888
59000	2736.49215948365	4723.94911241917	5459.31172911397	-59.9171187215854
50312.5	3167.39858684093	5155.44658003066	6050.70601231557	-58.4343039477868
42906.25	3927.67570390262	5623.89646643055	6859.65362829327	-55.0699186930904
36593.75	4544.39678020083	5888.62097166843	7438.23897464131	-52.3417285853734
31203.13	5603.6554323307	6043.78551868329	8241.86250796112	-47.164046500647
26609.38	5956.26292920626	6348.64730667595	8705.30819135087	-46.826454038178
22703.13	7160.28555889134	6943.43000300643	9974.01170500204	-44.1191024054699
19359.37	8030.78338790505	7224.95388043001	10802.4738091695	-41.9763663023955
16500	8864.42901120219	7236.72408407687	11443.2633965885	-39.2274408520728
14112.02	9957.7970196111	7431.9101236149	12425.4178830841	-36.7354812432882
12011.13	10753.3276632393	7248.99307023805	12968.4986164686	-33.9845504406825
10236.38	11853.1064815943	7145.45044304114	13840.2888444558	-31.082983304159
8750.684	12627.5877603262	6751.74812991623	14319.290326499	-28.13262881138
7449.463	13646.8966174596	6395.73509028395	15071.2711684423	-25.1105400026507
6363.206	14248.3490982481	6113.80880410111	15504.6480165997	-23.2236352846802
5414.761	15001.3677229162	5620.69376328575	16019.7762761779	-20.5399067018654
4620.567	15548.2121327629	5172.2020734658	16385.926120124	-18.400001010299
3941.215	15992.5574670627	4707.93617094328	16671.1294556482	-16.4035295731656
3361.769	16321.0490526571	4371.90193871027	16896.4543245303	-14.9957092451717
2867.244	16645.6394902685	4048.67977097463	17130.9404857961	-13.6704635946121
2442.658	16865.9901077723	3685.47146980809	17263.9602139904	-12.3262358522997
2083.003	17376.0093433974	3306.82422543882	17687.8711879012	-10.7750958614318
1777.843	17302.4009318363	2927.30238468295	17548.2813191885	-9.60264086609972
1513.548	17522.7076636835	2697.03657283194	17729.0521501322	-8.75010831483481
1292.065	17743.2851162887	2752.00618863603	17955.4366357436	-8.81639953173145
1101.762	17819.4768217747	2448.74259025637	17986.9423325673	-7.82454656300253
939.101	18209.9824782811	2505.63967588371	18381.5584770353	-7.83453321737166
801.2801	18139.5595530437	2260.46858812265	18279.8615699438	-7.10331874964775
684.3433	18319.6938585332	2260.64090524365	18458.6478479015	-7.03470705368083
582.9476	18530.0078454115	2329.33556613559	18675.8398721631	-7.16484868726685
497.0677	18626.4621348551	2370.87482878618	18776.7446357179	-7.25390351736403
423.5089	18776.4599924429	2338.4823764647	18921.5208076108	-7.09925074930232
361.5036	18893.1591966502	2450.08391668304	19051.361516405	-7.38893821052046
308.1262	19076.3040324586	2689.13856405987	19264.9121917415	-8.02397025317576
262.7298	19253.6745657606	2823.88248569692	19459.6581824358	-8.34392134513272
224.2111	19423.1635756076	3078.90070978454	19665.6785508541	-9.00740647189421
191.2854	19659.9889135013	3276.02272470867	19931.0684352797	-9.46050149628366
163.1722	19859.3344779852	3656.74595074592	20193.1908537702	-10.4331431901418
139.1537	20120.4934851551	3962.15109290792	20506.898823791	-11.1402132163789
118.6706	20376.5303864471	4381.80763016598	20842.3422075731	-12.1361742924989
101.1982	20664.0487596139	4880.57660320579	21232.5914367385	-13.2889768354581
86.24196	21015.5075321744	5357.0815082428	21687.5512476821	-14.3007572763016
73.61024	21299.8430066724	5983.04138642075	22124.1970778718	-15.6898418843948
62.69291	21662.3300303583	6701.20264367562	22675.1551089682	-17.1893583779214
53.57697	22054.6104427419	7534.18709916016	23306.0038836831	-18.8609398269038
45.65746	22451.4838024628	8488.35676096217	24002.5274801138	-20.7103788346506
38.96512	22881.5946095266	9563.64167248789	24799.8107636825	-22.683083982442
33.18414	23346.4175695327	10791.6037804778	25719.9130147403	-24.8081787150042
28.30617	23876.087413772	12233.7988691593	26827.8471920712	-27.1300156952585
24.17237	24438.3003299371	13826.6628478844	28078.5884354123	-29.5002446908896
20.61345	25046.5006659088	15675.1426803708	29547.2044981814	-32.0400462755675
17.55618	25772.8490596193	17822.0143781016	31334.7083143146	-34.6639924420384
14.98558	26544.1782424486	20241.8363871289	33381.5119323583	-37.3281144091039
12.76553	27406.0260411171	23051.9333688195	35811.756385395	-40.0680787995108
10.8809	28369.1919920326	26271.8292778459	38665.4893656486	-42.8018151386846
9.278505	29458.6980651548	29906.4346215176	41978.6817737892	-45.4321211366815
7.923394	30861.7198445942	33956.0592445286	45885.2886139354	-47.7331712081284
6.75822	32159.3201667392	38853.5699774854	50436.3140364381	-50.3852496023402
5.761429	33890.001564399	44258.2302758021	55743.3686924364	-52.5575159501756
4.919708	35528.8509817855	50570.5138754169	61803.5284244326	-54.9096337499025
4.191257	37690.1601355324	57700.4643522036	68919.4584823618	-56.8472796102098
3.564097	40225.4390598423	65862.2329327437	77174.6051136258	-58.5854502141423
3.051758	42861.1810649715	75032.8067963942	86411.8217492798	-60.263586300301
2.604164	46219.4154654417	85520.9131028412	97211.4239372658	-61.6111830344487
2.214424	50085.5046030332	97897.8422431001	109966.109721111	-62.9052655105311
1.892567	54492.8589269857	111398.557056446	124012.540447709	-63.9334955696729
1.607507	59556.984766974	127527.198213617	140748.785851775	-64.9667676574118
1.376413	65264.9552806294	144786.938144566	158816.78703796	-65.7357916100364
1.17375	72183.2384058033	164920.693328064	180025.706482597	-66.3617480012169
1.001604	79924.0093436394	187734.799927826	204039.707835272	-66.9391748671497
