EC-Lab ASCII FILE
freq/Hz	Re(Z)/Ohm	-Im(Z)/Ohm	|Z|/Ohm	Phase(Z)/deg
6999984	44.7898170373391	70.5396190364464	83.5581567774524	-57.5860972278751
5969734	42.664688461999	70.7992072665099	82.6607729889193	-58.9261882149066
5091109	48.4617400414663	70.1103049354721	85.2290742997455	-55.3469437870361
4341796	51.0212332115901	71.7226525736033	88.0187771479772	-54.5731528255561
3702781	63.2400427544843	66.9673936595727	92.1082777015464	-46.6397156335889
3157797	65.3715755920997	66.7768468611213	93.4483288887889	-45.609262498202
2693047	75.2575922237766	62.1157434137216	97.5810984113191	-39.5354171261115
2296687	85.3196153646054	62.1832898112436	105.575557292933	-36.0855981345832
1958656	91.3092476389172	60.4003787199545	109.478694063727	-33.4843353672215
1670375	97.1844667568864	54.6398778555831	111.491420436253	-29.3459356975049
1424531	105.12064864294	50.653606552043	116.688211177657	-25.7276327367404
1214875	108.674469402918	45.7392303265123	117.907665106504	-22.8253952395966
1036062	113.129280228189	40.5993603489844	120.193768996961	-19.7418337890276
883578.1	116.378359588922	37.4998675503725	122.270857717217	-17.8601716348826
753531.2	119.179527534584	33.0080270515259	123.666040743613	-15.4806320750807
642624.9	122.10590328201	29.1580600923477	125.539014193455	-13.4303369826727
548046.8	123.77102529437	26.0946188418932	126.49188050987	-11.9053066785289
467390.6	125.132182184509	23.2250056782649	127.269257509473	-10.5146636252331
398593.7	126.243553063914	20.7367211861594	127.935320751361	-9.32808522025098
339937.5	127.213781641695	18.7458269632653	128.587527653803	-8.382601725882
289906.2	127.88362503723	16.8506407584102	128.989013666405	-7.50636018105457
247234.4	128.467524168549	15.5184214050259	129.401414864369	-6.88775483838568
210843.7	128.7757147894	14.4609184541805	129.585118289329	-6.40720940603151
179812.5	129.506015604441	13.4934905433481	130.207074941345	-5.94829886002147
153343.8	129.973161993519	12.8913399220429	130.610908746472	-5.66433467421889
130781.2	130.430305643327	12.5678906017874	131.034409619726	-5.50386523862101
111531.3	130.814767944969	12.5127133824356	131.411839301819	-5.46384127184215
95109.37	131.266555542142	12.6204650681945	131.871849696726	-5.49175405674753
81109.37	132.09277370643	12.9988539458476	132.730821851458	-5.62021062145807
69171.88	132.276761134225	13.5413949407349	132.968082309635	-5.84510343154046
59000	132.830944617137	14.3543813343484	133.604296754906	-6.16773596597863
50312.5	133.471316805097	15.4476582263206	134.362280995687	-6.60190619439491
42906.25	134.144482820994	16.7033098325759	135.180408457272	-7.09778397734678
36593.75	134.90421249833	18.2371891318572	136.13133958507	-7.69892556642009
31203.13	135.827007743016	20.1676684363407	137.316098410127	-8.44560416503458
26609.38	136.699814897914	22.2195421695999	138.493853464154	-9.2322637585933
22703.13	137.713773316845	24.6849833967125	139.90865508059	-10.1622602037599
19359.37	139.020611533513	27.4762499598532	141.709825852015	-11.1799421098933
16500	140.410659101024	30.7572224127095	143.739903714065	-12.3555942097222
14112.02	141.890264662441	34.3491606582456	145.988739442135	-13.6085039386466
12011.13	143.582654822215	38.5808796183419	148.67569753635	-15.0402108771195
10236.38	145.50496253741	43.2964627036365	151.810005617747	-16.5709020042792
8750.684	147.691143023809	48.5700912726355	155.472594028373	-18.2041010105658
7449.463	150.10607320295	54.8386041383004	159.809592065829	-20.0688838280663
6363.206	152.734091536008	61.4961862895109	164.649578333757	-21.9314722172114
5414.761	155.827797935973	69.6869755473394	170.700255332293	-24.0944337304539
4620.567	159.322716264836	78.2053047002884	177.481823298248	-26.1446199608807
3941.215	163.319006836131	88.5122173470331	185.761973002088	-28.4558801402369
3361.769	167.54837176237	99.8101911644066	195.024437290553	-30.7826674758411
2867.244	172.768302667844	112.764677178612	206.31228471888	-33.13220696549
2442.658	178.639354657608	127.32898358148	219.373401059426	-35.4801765507802
2083.003	185.222007845871	143.669754861226	234.410304066056	-37.7993893843328
1777.843	192.776264682297	162.152440825722	251.904946935542	-40.06864029815
1513.548	201.338193303955	183.158773587936	272.184136982921	-42.2930114278746
1292.065	211.363449627104	206.57034821177	295.543256730045	-44.3429283681377
1101.762	222.679865188683	233.096597388464	322.366788107165	-46.3092622252472
939.101	235.689779692968	262.34312719818	352.666398512589	-48.0633897037741
801.2801	250.388516721353	295.692542158297	387.46417743316	-49.7425170069183
684.3433	267.394748685384	332.639440461514	426.789115342775	-51.205673598766
582.9476	286.997658906006	375.112895346164	472.310639804472	-52.5805144760721
497.0677	309.376178617994	421.940404903783	523.208682254644	-53.750293758501
423.5089	334.043504869258	475.065189709506	580.75123557257	-54.8869159733256
361.5036	364.616973269827	532.407817639887	645.293438274803	-55.594891272879
308.1262	398.076167301102	597.559499780951	718.012528269246	-56.3296408901989
262.7298	436.291073629366	670.262588342642	799.751110196443	-56.9388669137615
224.2111	479.638221071353	750.106730092262	890.344275908032	-57.404068536362
191.2854	529.337621930526	838.963031704066	991.996616202466	-57.7504215235186
163.1722	584.85766666884	935.745176178561	1103.48426586099	-57.9938712906697
139.1537	649.134583502539	1044.69075588756	1229.94084529945	-58.1446164865686
118.6706	722.572193067872	1164.22309809543	1370.22844676858	-58.1742957003564
101.1982	803.219452268693	1296.51206752911	1525.15737868307	-58.220819873321
86.24196	895.717625491454	1441.93993125157	1697.49840352026	-58.1518930505668
73.61024	997.953805021897	1598.83836810665	1884.72701585339	-58.0286498288342
62.69291	1115.89747731754	1778.06090966352	2099.22075503199	-57.88793139435
53.57697	1246.10971973836	1966.38025786278	2327.96923350351	-57.6372623589803
45.65746	1391.21415516263	2176.36382187817	2583.02851527137	-57.4117461708168
38.96512	1550.09398887318	2404.39981385768	2860.75686475093	-57.190504247805
33.18414	1728.7929625356	2656.42877571136	3169.43827006301	-56.9440865592751
28.30617	1929.9222703886	2927.02751723285	3506.00770911591	-56.6013202879161
24.17237	2143.11153206844	3223.65487184433	3871.03058262918	-56.3837223764813
20.61345	2379.18905677552	3547.49627364576	4271.44827656978	-56.1515426891604
17.55618	2644.63397902643	3910.46179676161	4720.78386996834	-55.9296246759503
14.98558	2931.48485602524	4297.3398423136	5201.99319313675	-55.6996508761407
12.76553	3240.56413035696	4729.19159647324	5732.93197579644	-55.5800516659851
10.8809	3585.61129050769	5204.62690555665	6320.18587959724	-55.4359699692436
9.278505	3947.30768598052	5717.55566496718	6947.78243397123	-55.3794304940201
7.923394	4358.26096653729	6288.50518113052	7651.12645729686	-55.2760288007328
6.75822	4790.36671746615	6927.63884656652	8422.57640370599	-55.3366763833474
5.761429	5283.8624962	7624.3766777584	9276.33131162827	-55.277180445901
4.919708	5772.08777548092	8392.50652290744	10185.8314842187	-55.4810961251881
4.191257	6333.82381708019	9263.77840880455	11222.0726496154	-55.6388314061876
3.564097	6960.48801270086	10275.5316516984	12411.0815040434	-55.8868877540115
3.051758	7605.21482517615	11310.7545140107	13629.8371308425	-56.0835898946579
2.604164	8328.29727883698	12547.6135893157	15059.9848058178	-56.426356166017
2.214424	9098.07877447096	13904.2498141434	16616.3533990038	-56.8017523838087
1.892567	10003.9215093694	15443.7989888189	18400.7981558591	-57.0663271048663
1.607507	10957.6381554243	17222.9057163066	20413.1897374711	-57.5344737305338
1.376413	11977.5183734692	19089.4052393602	22535.8900152469	-57.8940620427579
1.17375	13154.0172371753	21295.074948311	25030.1495506936	-58.2962784149398
1.001604	14400.8948274911	23765.5826977455	27788.2833725986	-58.7859854424381
