EC-Lab ASCII FILE
freq/Hz	Re(Z)/Ohm	-Im(Z)/Ohm	|Z|/Ohm	Phase(Z)/deg
6999984	-11.1587952671422	32.0360146458618	33.9238109033149	-109.204266061668
5969734	-10.6381568161719	33.6429935711346	35.2848607319466	-107.547329413929
5091109	-11.507356498425	37.1978266298718	38.9370974723058	-107.189746453988
4341796	-11.7534056265486	42.7235368428924	44.3107565291789	-105.381778131452
3702781	-10.910664688842	49.6830953118047	50.8670085980512	-102.385839116493
3157797	-10.0066919324588	57.634119666861	58.4963728209296	-99.8497560279052
2693047	-10.1044579517872	66.12002946126	66.8876548135553	-98.6887143518521
2296687	-10.0549283603986	77.4645667409561	78.1144076639949	-97.3956631998008
1958656	-9.8567130023008	89.4048175701725	89.9465185316561	-96.2913443454657
1670375	-9.41263234155578	104.397119354774	104.820590425604	-95.1519604740685
1424531	-9.24478647801451	121.944521176765	122.294449269191	-94.3353810244481
1214875	-8.48215755221651	142.207709812805	142.460449693744	-93.4134346363031
1036062	-8.16146073315071	165.804589015773	166.00533479376	-92.8180168956031
883578.1	-7.15388098361521	193.922594839544	194.054504720786	-92.1127058497971
753531.2	-6.11345278947841	226.355119465153	226.437661207434	-91.5470819144439
642624.9	-4.68408644474236	264.167059350112	264.208584098828	-91.0158354467986
548046.8	-3.10678809111288	309.071275438128	309.086889778901	-90.5759184516972
467390.6	-1.20801600416961	360.420424886596	360.422449325928	-90.1920367289595
398593.7	0.944171763914151	421.067162744227	421.068221315493	-89.8715241383633
339937.5	5.02566080342104	491.955479155093	491.981148762052	-89.4147048883055
289906.2	-102.152073854391	498.672672285656	509.027975927915	-101.576765413988
247234.4	-106.43295710502	601.561154407126	610.904081546157	-100.033389001245
210843.7	-113.341434877612	720.500328126128	729.360681480689	-98.9398990492374
179812.5	-114.1931812782	860.111220150207	867.658569760429	-97.5626803970815
153343.8	-113.668938410861	1020.70982750232	1027.01956141023	-96.3544269987096
130781.2	-111.894052626412	1205.78504506585	1210.96566999961	-95.3017316417157
111531.3	-128.023178210318	1396.57852124572	1402.43413398418	-95.2376176644406
95109.37	-116.153981977571	1670.69453983464	1674.72743840976	-93.9770532193732
81109.37	-100.25749127735	1962.86879004558	1965.42754928597	-92.9239567919228
69171.88	-58.82842728487	2302.73222446363	2303.48355354233	-91.4634300763548
59000	-65.2208416049734	2690.47116975369	2691.26157655763	-91.3886590840902
50312.5	-51.7210278869152	3145.06165781301	3145.48690923539	-90.9421530743448
42906.25	-16.6030249719666	3718.73010439184	3718.76716799377	-90.2558069315576
36593.75	17.3377802077526	4311.43441832193	4311.46927880896	-89.7695949466096
31203.13	-749.568140924538	4736.01872366882	4794.96879539697	-98.9935851946412
26609.38	-713.942908413906	5641.05239001447	5686.05192935858	-97.2131188462721
22703.13	-669.818953860126	6643.43116587599	6677.1127807371	-95.7573476804037
19359.37	-688.150230592736	7811.23172665413	7841.48530747542	-95.0346187176257
16500	-604.545039153503	9167.13120104751	9187.04354847542	-93.7730229485272
14112.02	-653.132745561157	10881.6291750283	10901.2125878799	-93.4348632578409
12011.13	-475.723198610027	12677.0700917508	12685.99301091	-92.1490886697879
10236.38	-381.475809668342	14802.3063913286	14807.2211537523	-91.4762643309657
8750.684	-222.657938234708	17230.3959549926	17231.8345315664	-90.7403573388997
7449.463	-129.565583943233	20232.7334258488	20233.1482750955	-90.3669034480334
6363.206	60.1217368173345	23921.1273069626	23921.2028597884	-89.8559969821153
5414.761	353.868377229719	27168.2654553914	27170.5699366616	-89.2537610436533
4620.567	828.530718894868	31681.0049020332	31691.8370366062	-88.5019258248826
3941.215	473.626702090946	37296.3503322766	37299.3575060059	-89.2724394677745
3361.769	-6781.57001322673	40745.1992518776	41305.7012277907	-99.4496023037858
2867.244	-6521.08124829646	48552.2207956314	48988.188829907	-97.6496553903823
2442.658	-6067.27444161622	58048.4807422334	58364.6976830287	-95.9669356418626
2083.003	-6701.67816924201	68296.7957196196	68624.811809225	-95.6042533575448
1777.843	-5491.87754067401	79749.3582846863	79938.2315650091	-93.9394098922331
1513.548	-5178.39486668126	93803.5982684608	93946.425272631	-93.1597862203986
1292.065	-4692.90096255056	109858.649312843	109958.838427325	-92.4460526950042
1101.762	-4228.70759865832	129487.458601551	129556.489235558	-91.8704592940157
939.101	-2225.42382173403	150297.87422202	150314.348971894	-90.8483025875024
801.2801	-1311.59301285665	175939.129813639	175944.018584923	-90.4271213123017
684.3433	1082.76114119069	203780.229160537	203783.105699196	-89.6955687994787
582.9476	-1214.26674938747	241178.809465008	241181.866189599	-90.28846552588
497.0677	-10151.4541638644	272325.416684479	272514.558499204	-92.1348220206891
423.5089	-58205.2876600992	299636.280882124	305237.213216977	-100.99297871653
361.5036	-49995.0986870455	345245.33818931	348846.461117464	-98.2397446235875
308.1262	-62795.3808865445	394292.146617288	399261.263766916	-99.0489902134303
262.7298	-36939.4399413774	508823.045642729	510162.144813122	-94.1522637131243
224.2111	-44306.8187129965	548886.230219737	550671.578991781	-94.6149844284719
191.2854	40579.7854046219	722029.525844606	723168.967237168	-86.7832243268287
163.1722	-91204.1149954174	862646.14755108	867454.071681502	-96.0352322110422
139.1537	191410.041364536	964158.684217399	982974.960152596	-78.7713262943963
118.6706	536477.602148526	1105124.36217345	1228457.59938075	-64.1059558660073
101.1982	402191.161533485	809118.786876074	903565.682001847	-63.5692662993082
86.24196	-123688.907630041	824869.77867806	834091.780110022	-98.5279423945384
73.61024	384662.771608347	12776.8691608958	384874.909869389	-1.9024238528094
62.69291	46508.7691079118	51873.6292869338	69670.2161567717	-48.1212870889721
53.57697	55617.2533512036	92881.2590906359	108259.905600337	-59.0868455806613
45.65746	212224.263518332	301107.090179503	368381.076851493	-54.8233119284881
38.96512	631533.866024293	144356.865517196	647822.451415154	-12.8755419496476
33.18414	565669.80912127	528935.984774591	774438.899423809	-43.0779349593141
28.30617	563989.401728654	-1117194.58874595	1251482.23894128	63.2141470578862
24.17237	804111.808921776	25451.7903020055	804514.508804551	-1.8129238345054
20.61345	111277.512588367	713604.919172086	722228.956408184	-81.1368398473734
17.55618	-64732.4516893186	979747.255838488	981883.381886443	-93.7800703294073
14.98558	-1096965.87781778	3384917.85245177	3558230.31926591	-107.956192096534
12.76553	3474837.33621352	-74265.0338475805	3475630.85042066	1.22435236649947
10.8809	1170555.0345161	2152902.68399907	2450548.72540854	-61.4666257827371
9.278505	3169646.96375182	3487986.55563071	4713036.39780998	-47.7375543352611
7.923394	4417926.53011655	-1684216.43008844	4728071.46825082	20.868010983247
6.75822	1084977.98437782	1575516.7573537	1912963.74228235	-55.4467988715715
5.761429	696484.01356868	-468511.539537421	839400.407336369	33.9279708584134
4.919708	1667843.12995435	-69627.3252852053	1669295.86070363	2.39053461989048
4.191257	-382602.614091556	1792061.29683455	1832448.7583346	-102.051632834593
3.564097	2027607.63040345	1346923.81664976	2434213.72741357	-33.5957756583745
3.051758	-31094.2517160497	2524233.15587896	2524424.66271592	-90.7057506880738
2.604164	5688646.98127262	1669514.23982317	5928573.37599143	-16.3560027240595
2.214424	-1448193.89047325	5527521.44521294	5714084.25486473	-104.681337226905
1.892567	4378475.86835334	-2615647.76182149	5100261.18386837	30.8535767325665
1.607507	2384769.44958388	-2907299.01219359	3760254.36293483	50.6390068802257
1.376413	4206212.44373586	2745545.1401019	5022971.35550021	-33.1339201092975
1.17375	5524009.7436812	5725852.08056779	7956133.84105794	-46.0278769224805
1.001604	6593764.98606018	-8609344.54557415	10844286.5231328	52.55204993281
