EC-Lab ASCII FILE
freq/Hz	Re(Z)/Ohm	-Im(Z)/Ohm	|Z|/Ohm	Phase(Z)/deg
6999984	18.0550485276305	90.1408180083519	91.9312343469286	-78.6736369903265
5969734	17.1801619917484	89.1507679294542	90.7910644748376	-79.0922972512286
5091109	15.1796332361982	93.7985308021121	95.0188699460285	-80.8073891151732
4341796	15.4769269460375	102.406356049843	103.569286118522	-81.4057862364078
3702781	19.3894734165147	112.462226710957	114.121444593716	-80.2178728397631
3157797	20.887745841219	124.287979037447	126.030947229402	-80.4600620997649
2693047	22.9806462789037	140.610654358916	142.476195284119	-80.7179504033533
2296687	26.7960291601669	161.139198759792	163.351977507774	-80.5586108405274
1958656	32.4945515475901	183.869198638394	186.718446030927	-79.9778035236033
1670375	39.5309828779351	210.961911891576	214.633703961528	-79.3867402621463
1424531	48.7399197191205	241.764501573429	246.628574977181	-78.6019026743761
1214875	58.997572553964	277.207585530284	283.416229321452	-77.9851136079178
1036062	77.4264118329528	323.518975452732	332.655041638198	-76.540801597952
883578.1	86.1184861664277	357.347492844446	367.578051985981	-76.4504461536599
753531.2	108.767716373195	412.377846843966	426.480837427316	-75.2243164720799
642624.9	136.831961507667	469.754612530374	489.277407697921	-73.7600082350641
548046.8	248.089709337985	589.191839044825	639.292990010393	-67.1656077877854
467390.6	302.985870928954	651.131741220988	718.173365148034	-65.046408790935
398593.7	366.558330164109	718.912766389296	806.969996400244	-62.9839326158026
339937.5	439.419583019641	788.422333701092	902.606972175504	-60.8673119290303
289906.2	535.362971301459	862.872765417324	1015.46192461346	-58.1827754757244
247234.4	632.965610093903	937.241757188164	1130.95869729124	-55.9669013101016
210843.7	736.523859067057	1009.3547642733	1249.50567631213	-53.8818563274189
179812.5	848.473850100486	1059.11491877877	1357.06753165938	-51.3012257702599
153343.8	1002.72026467531	1127.76413158073	1509.07251836039	-48.358990089438
130781.2	1141.42933018766	1186.29914469648	1646.2583565529	-46.104309492351
111531.3	1292.18025750531	1215.04798047217	1773.71683555634	-43.2379105052925
95109.37	1459.47746422193	1238.18466760204	1913.94245986039	-40.310451406007
81109.37	1623.92386678254	1235.33577533177	2040.38800303288	-37.2606257104154
69171.88	1814.19137484298	1239.09584875687	2196.96355612949	-34.3331436928181
59000	1940.33807966535	1215.31208067078	2289.51857752318	-32.0605753533671
50312.5	2127.63360343879	1172.52404344777	2429.32858686202	-28.8588528167083
42906.25	2246.20203239627	1076.71402244275	2490.93088151116	-25.6106691324424
36593.75	2379.36167148704	1007.39745268779	2583.83660308145	-22.9473034696665
31203.13	2473.90666076744	962.949868951267	2654.71026974748	-21.2681074115869
26609.38	2587.36800696737	889.932661222285	2736.13840018893	-18.9808025976451
22703.13	2672.03943746415	822.739518140431	2795.83530810985	-17.1139628616601
19359.37	2744.47649234305	758.006983315039	2847.23125224805	-15.4398145617556
16500	2807.38917580021	698.480713914807	2892.9758540491	-13.9715586455313
14112.02	2859.80638029269	643.786520278913	2931.37401510889	-12.6866778716386
12011.13	2907.21389912241	593.710496741395	2967.21836223616	-11.5422175941766
10236.38	2945.78905100257	551.721178320093	2997.01007532733	-10.6081130416189
8750.684	2977.5704451414	520.754251441398	3022.7654136856	-9.92026001983049
7449.463	3005.10694172955	494.545552950399	3045.52836715965	-9.34530833157261
6363.206	3031.23733628123	475.687518610536	3068.33479337363	-8.91860374322688
5414.761	3056.0431146183	463.863035809355	3091.04649502336	-8.63078985399881
4620.567	3074.23344852582	450.446107438777	3107.05857552472	-8.33583691064342
3941.215	3100.60881465337	454.29170388642	3133.71280970771	-8.33549313596634
3361.769	3127.82559599084	453.707097197791	3160.56056562488	-8.25347995717131
2867.244	3143.8365723329	479.791089837274	3180.23707975131	-8.6771421396249
2442.658	3169.19045462804	504.279277186789	3209.059944455	-9.04106774235814
2083.003	3202.55705818154	537.525799221276	3247.35364500648	-9.52786987383514
1777.843	3230.9854830416	583.237237315637	3283.20466413794	-10.2324819111311
1513.548	3263.52967507986	636.063834544142	3324.93656206278	-11.0287213590244
1292.065	3306.01396813673	688.502172162789	3376.94589808425	-11.7641241482307
1101.762	3338.296672372	751.378602312656	3421.81157821165	-12.6846610601997
939.101	3380.93602304393	841.370998117137	3484.05418275731	-13.9746125105793
801.2801	3414.0606855308	940.14324430636	3541.14101446157	-15.3961666369225
684.3433	3455.6936798295	1049.37745273769	3611.51101993719	-16.8917640991304
582.9476	3504.54610214898	1181.40350729155	3698.31821631514	-18.6292700720206
497.0677	3560.38767777117	1332.53486276296	3801.57987901129	-20.5192057367273
423.5089	3627.77141483653	1501.24645543132	3926.12612612613	-22.4807783145592
361.5036	3685.83493246382	1697.23209939832	4057.82896985551	-24.7248534628584
308.1262	3757.84229444458	1922.0342759404	4220.85233901948	-27.0885106325793
262.7298	3836.39064530035	2180.96657403965	4412.99313169942	-29.617987517789
224.2111	3925.00941671463	2473.25246597817	4639.25389278984	-32.2161162060112
191.2854	4022.9119780597	2815.5261298708	4910.29613884962	-34.9871234497584
163.1722	4126.01692564015	3191.45527387062	5216.26326365777	-37.7217879805603
139.1537	4254.59469822223	3633.16790027633	5594.77301038559	-40.4953334273398
118.6706	4396.41562777869	4142.80760798842	6040.80501663342	-43.2988617555386
101.1982	4550.30865932568	4722.69639892487	6558.13770605285	-46.0650217763389
86.24196	4723.0031241983	5401.49089204245	7175.15591245267	-48.8339148058219
73.61024	4929.92575260957	6152.177491575	7883.74630579175	-51.2937486710335
62.69291	5158.95783070663	7036.55378253896	8725.13237914318	-53.7524194319209
53.57697	5410.57818932633	8032.25527419676	9684.60020510271	-56.0355416539582
45.65746	5722.30447938808	9185.6011798213	10822.2011434624	-58.0785544527901
38.96512	6054.32682205738	10493.8996972368	12115.1477136661	-60.0177301104103
33.18414	6454.35505087974	12013.7866297039	13637.8065797572	-61.7532765676411
28.30617	6943.76250541721	13747.1642929784	15401.3104581973	-63.2014273948343
24.17237	7460.54520748041	15695.8396995596	17378.6972661109	-64.5773282440614
20.61345	8086.63064859316	17949.7378342044	19687.2213266229	-65.7477091321751
17.55618	8805.04943798727	20547.127622766	22354.2691482328	-66.8034411654832
14.98558	9636.88136469178	23457.0525018127	25359.4714950833	-67.6656280555961
12.76553	10613.1001249554	26808.0427243763	28832.430507578	-68.4017642307801
10.8809	11752.8179103941	30635.3411435514	32812.3887551128	-69.0113913247993
9.278505	13063.7921930098	34953.9299793352	37315.4108574783	-69.5071144091465
7.923394	14615.2854721104	39789.0036772928	42388.3401782012	-69.8307209718364
6.75822	16361.9958809131	45419.6663215984	48276.9199304632	-70.1889341853522
5.761429	18432.4282391339	51752.5146543056	54937.0292592796	-70.3958865409535
4.919708	20791.3514767134	58992.5151321984	62549.1577709156	-70.5854782753622
4.191257	23611.6063521368	67129.4605499894	71160.8911429645	-70.6215746164555
3.564097	26817.7761589744	76500.3794906817	81064.7961838625	-70.6815060018262
3.051758	30545.2163533008	86645.3377614267	91871.7845579461	-70.5808373172217
2.604164	34864.0635118224	98364.5635690243	104360.386597027	-70.4837782667265
2.214424	39897.7644405644	112053.813699744	118944.898049524	-70.4012723442277
1.892567	45528.0140780714	126692.957362784	134625.055287719	-70.2337394849314
1.607507	52417.881343775	144107.746960843	153344.960851997	-70.0116037477592
1.376413	59757.6656365172	162556.609492505	173192.464882351	-69.8159959565016
1.17375	68560.0947510537	183681.989635455	196060.0925959	-69.5316942985576
1.001604	78785.854572887	207249.855045984	221719.898289173	-69.1857423818577
