EC-Lab ASCII FILE
freq/Hz	Re(Z)/Ohm	-Im(Z)/Ohm	|Z|/Ohm	Phase(Z)/deg
6999984	-9.91066259124776	32.6015425694512	34.0746505617489	-106.908939838594
5969734	-11.3789755712661	34.1771235341531	36.0216165395201	-108.414730219977
5091109	-12.2820831263372	37.5151923833436	39.4745389521086	-108.127907547735
4341796	-11.970273821645	43.1432011306861	44.7730193215512	-105.506912113909
3702781	-11.2266970514953	49.8203009942014	51.0695713496685	-102.69913243887
3157797	-9.99531719747301	58.0423545274657	58.8967001195323	-99.7709170352952
2693047	-10.0716755348741	65.5267800458718	66.2962861045764	-98.7381606095719
2296687	-10.0900950606957	77.5429210654765	78.1966407571361	-97.4138259619065
1958656	-10.048319642946	90.1126492563731	90.6711546394383	-96.3626775909595
1670375	-9.82047723406294	104.700054217417	105.159607864592	-95.3584544634337
1424531	-9.1624615878186	122.259880339841	122.602728530243	-94.2858774709488
1214875	-8.34605831858414	142.193836159709	142.438561251058	-93.3591182373247
1036062	-7.51191745649133	165.944845295152	166.11478135285	-92.591870453865
883578.1	-7.07885327334336	193.856789070032	193.985991329808	-92.0912772282592
753531.2	-6.02143061482951	226.497861780933	226.577887310267	-91.5228457997099
642624.9	-4.65568549972063	264.640541600991	264.681490978002	-91.0078713334463
548046.8	-3.85006726251317	309.483103253572	309.507050351663	-90.7127407731744
467390.6	-0.358820836219939	360.742318223565	360.742496678316	-90.0569905766472
398593.7	0.98958514273508	422.298474783545	422.299634244766	-89.8657372646325
339937.5	5.13943498510496	492.768972012516	492.795772678945	-89.4024435914897
289906.2	-99.4179133822844	501.776391156172	511.530515436762	-101.206978453011
247234.4	-105.539995324385	605.513850500628	614.642752955868	-99.8872274677067
210843.7	-107.783153862924	722.490294908033	730.485752422959	-98.4849705599035
179812.5	-110.974513982064	864.312130547431	871.407368436253	-97.3165377282932
153343.8	-113.203442857365	1024.50166810309	1030.73696325531	-96.3053818114464
130781.2	-105.995542236296	1209.6229666872	1214.25811774561	-95.0078615885931
111531.3	-106.720642439631	1478.91306781676	1482.7586309585	-94.1273973448156
95109.37	-94.8508209041779	1684.13775448878	1686.80664402317	-93.2234991272172
81109.37	-89.5100888277631	1978.67037347165	1980.69394477198	-92.5901515804796
69171.88	-90.6621444009797	2323.27260294071	2325.0409054471	-92.2347458601599
59000	-58.5772910123476	2700.89886378773	2701.53400338256	-91.2424402547729
50312.5	-38.0991448367668	3144.98175768994	3145.21252080679	-90.6940623490531
42906.25	-12.817601140198	3714.50714240929	3714.52925710764	-90.1977090111313
36593.75	11.3083287681655	4328.82404552899	4328.83881606251	-89.8503246999435
31203.13	-712.765500222764	4764.86777035841	4817.88330362081	-98.5076596885907
26609.38	-662.455661693953	5637.33770806067	5676.12754775939	-96.702212380354
22703.13	-632.998404163074	6685.44217245397	6715.34243511818	-95.4088174536257
19359.37	-623.849269461774	7880.02340506951	7904.679422687	-94.5265770406832
16500	-569.83003895049	9209.00751743903	9226.6204934168	-93.5408031541606
14112.02	-482.335056733886	10920.1269634118	10930.7739892465	-92.5290742795186
12011.13	-309.291996844071	12816.4856316331	12820.2170607665	-91.3824138441233
10236.38	-346.245141291112	15076.6141827252	15080.5895412819	-91.3156069652111
8750.684	-391.046311976199	17337.0735581391	17341.4831193424	-91.2921156956107
7449.463	182.20221473207	20283.977493565	20284.7957989846	-89.4853505844452
6363.206	47.7799018266924	23661.2701835589	23661.3184251933	-89.8843010971948
5414.761	582.113372116268	27717.8185793512	27723.9305073401	-88.796884497816
4620.567	-266.598865137783	32496.7703761434	32497.8639272597	-90.470035851157
3941.215	-6367.10040877159	34659.5029683917	35239.4823121926	-100.409421202189
3361.769	-6587.26554391593	41176.6357544265	41700.2086253627	-99.0889253717509
2867.244	-6684.07750438023	48969.3959877742	49423.4623988647	-97.7725548374379
2442.658	-6261.40291704441	58145.5214517569	58481.6794508015	-96.146214135959
2083.003	-6008.9280748985	68542.4627584924	68805.3516640139	-95.0101534197736
1777.843	-4992.6161252839	80407.6815179146	80562.5313831487	-93.5530071551969
1513.548	-4847.92375413337	94798.6149348099	94922.4934263963	-92.9275091302526
1292.065	-3351.49524011329	111364.766771515	111415.186569957	-91.7237820984623
1101.762	-1403.89155874496	132579.319717683	132586.752461596	-90.6066862852957
939.101	-1425.08825590692	150469.30853462	150476.05685764	-90.5426296038001
801.2801	252.171339932499	177920.273563778	177920.452268407	-89.9187931564616
684.3433	228.745144530897	206015.968975345	206016.095966289	-89.9363829607721
582.9476	2159.8418998843	242854.559137903	242864.163291124	-89.4904499088218
497.0677	-57352.6625663313	250120.389746242	256611.646793866	-102.914679161398
423.5089	-59129.6995785223	307510.278962229	313143.566179595	-100.884288622793
361.5036	-54302.8058326032	352936.899058583	357089.973869866	-98.7469268638373
308.1262	-41371.7722135636	467761.865353803	469587.889766506	-95.0544430573373
262.7298	-62671.0346294055	531636.612618065	535317.799496272	-96.7231826356558
224.2111	-15352.577052793	594222.312547254	594420.607273309	-91.4799885566341
191.2854	-65855.5169650073	673753.835928328	676964.681902139	-95.5825955528888
163.1722	-87861.2524778405	775482.886331371	780444.300818328	-96.4639765291386
139.1537	27498.2778748078	722846.389871875	723369.24087003	-87.8214238516057
118.6706	375140.949063137	674026.166201634	771389.657947567	-60.901116438943
101.1982	14918.2180073889	625191.065370146	625369.028212282	-88.6330758641881
86.24196	464767.216572376	320342.583439464	564471.377808569	-34.5767023219502
73.61024	274052.899236623	225950.509656211	355188.15351008	-39.5048211798515
62.69291	49421.4284719071	38359.4286470023	62561.3567494207	-37.8175406872826
53.57697	109597.637886761	-32979.4737061804	114452.120628209	16.7472813319323
45.65746	210396.52836588	-568706.703696934	606377.781567108	69.6977374675866
38.96512	409766.855608805	192317.293286112	452653.087090349	-25.1422360278773
33.18414	599543.396781395	203249.252178691	633058.088278928	-18.727005212714
28.30617	-235108.929049282	516729.045260967	567701.607127381	-114.465279128118
24.17237	715268.331037123	48540.1480630913	716913.475503578	-3.88230243219576
20.61345	774197.76911384	-521850.665149567	933654.273496293	33.9820752630076
17.55618	816094.986910116	-276936.969199156	861803.407146338	18.7443371860167
14.98558	432916.826988551	988689.723578646	1079316.61184282	-66.3528671553923
12.76553	988693.164524305	939600.049542554	1363951.03529322	-43.5416010550237
10.8809	-5102.00554035297	2249881.85398549	2249887.63882859	-90.1299281039673
9.278505	1294048.53820246	-1179429.56850161	1750889.98120379	42.346858001461
7.923394	785845.06152086	1044668.84747001	1307243.45918847	-53.0479334453399
6.75822	1275381.16175796	470584.714624848	1359428.95415892	-20.252837657771
5.761429	481462.618698275	-249128.464449843	542098.925476649	27.3588951456794
4.919708	766619.832027104	-1172742.9946717	1401082.47380688	56.8274323521865
4.191257	530568.060708447	704849.145291155	882221.505440439	-53.0297649536563
3.564097	1333091.42130497	-1138861.97340331	1753322.3696802	40.507313974836
3.051758	2403539.2530089	1092259.18036197	2640081.63848006	-24.438844390685
2.604164	4623506.28437327	-187806.124569579	4627319.04044501	2.32606712765575
2.214424	7326808.0511265	3684738.82365596	8201183.84238578	-26.6983664811408
1.892567	2321004.12954817	111570.445795911	2323684.17254901	-2.75208416664732
1.607507	-906050.627525524	-3474171.4886384	3590375.36646343	104.616936770732
1.376413	2919650.96698578	-530952.404033997	2967536.38972978	10.3068747512509
1.17375	10434142.4437329	-2546283.63477999	10740339.3281989	13.7140656828215
1.001604	429968.738096698	-7263805.48715319	7276519.99728835	86.6124256081002
