EC-Lab ASCII FILE
freq/Hz	Re(Z)/Ohm	-Im(Z)/Ohm	|Z|/Ohm	Phase(Z)/deg
6999984	22.7484623182841	5.60783518285026	23.4294761632522	-13.848154995616
5969734	11.9338478088729	-3.98286457515208	12.5809353288753	18.4561852516895
5091109	10.7043753370485	-5.40380062347405	11.991026333666	26.7856336829172
4341796	9.62852628620083	-5.62167634698115	11.1495185274642	30.2787912020692
3702781	6.07496856500096	-5.22384095197206	8.01210068316982	40.6921043229216
3157797	3.86280336805803	-5.39461746567472	6.63499415683565	54.3955301794876
2693047	2.39871331314111	-3.83171469875929	4.52060428386829	57.9527902167588
2296687	2.021877676721	-3.78686089633992	4.29282014389738	61.9013861576824
1958656	1.69193510876349	-3.33627810882281	3.74077479029103	63.1089520067001
1670375	1.21532427012659	-2.95943981832444	3.1992650905861	67.673993239405
1424531	1.08788650825293	-2.44847692445453	2.67927906430537	66.0438710164783
1214875	1.29300911321143	-2.29357625884134	2.63293840071667	60.587765820786
1036062	0.769882976775552	-1.80544929245433	1.96274474793658	66.9055422445755
883578.1	0.70248972878842	-1.56184197233209	1.71255428106423	65.7826022618986
753531.2	0.648779642536925	-1.3592034712192	1.5061039475231	64.4837642361166
642624.9	0.597596439442482	-1.18391319291822	1.32618699767421	63.2170118468618
548046.8	0.556132273352522	-1.01904100514083	1.16091673931539	61.3769005920197
467390.6	0.526657479361689	-0.883624969659971	1.02866962022517	59.2042446328836
398593.7	0.496336657668732	-0.766129623389007	0.912855233637815	57.0628377918939
339937.5	0.469584813249786	-0.667275700639576	0.815945315262533	54.864633644673
289906.2	0.450471571260951	-0.577369254635587	0.732311335917152	52.0381468976233
247234.4	0.432523597970498	-0.499906036745953	0.661046676397659	49.1333196312455
210843.7	0.419176082421381	-0.431879313975337	0.601854076927243	45.8551587951383
179812.5	0.408847455715064	-0.371064832453395	0.552128021321457	42.2264910278599
153343.8	0.400717516204282	-0.322833387309206	0.514583252500958	38.8562501444973
130781.2	0.394401405599829	-0.279672897736574	0.483497051146637	35.3407300826013
111531.3	0.387675861967979	-0.24337498012294	0.457737867018293	32.1197618936041
95109.37	0.381617699015936	-0.212438171130413	0.436763144914325	29.1037235191913
81109.37	0.375522182921385	-0.185047793729572	0.418640174649095	26.2329070275324
69171.88	0.369183114264008	-0.160465085564221	0.402548401490808	23.4921290370565
59000	0.360557559503809	-0.135764622076414	0.385271055651595	20.6334019548748
50312.5	0.354328862705373	-0.107199490462061	0.370190050786631	16.8327895532776
42906.25	0.381305944332585	-0.10559106066852	0.395656031517867	15.4784491058812
36593.75	0.367108180771044	-0.0959951161527499	0.379451549890372	14.6541519147604
31203.13	0.361098769678974	-0.0838436907660331	0.370704850177252	13.0719060451948
26609.38	0.357201359090131	-0.072179213961609	0.364420978902083	11.4238559728585
22703.13	0.357323930537526	-0.0637939234829468	0.362973905409376	10.1225083919337
19359.37	0.354739597581926	-0.0571363495211054	0.359311486776007	9.14979794314012
16500	0.352854495470965	-0.050836880912889	0.356497802847396	8.19837287643563
14112.02	0.350887650663471	-0.0454469141764517	0.353818548688861	7.37985682946764
12011.13	0.349384224463209	-0.0404835798626486	0.351721845415171	6.60945777813473
10236.38	0.347723066320499	-0.0361948819668081	0.349601773925593	5.94258074122607
8750.684	0.346330511918745	-0.0328891726042567	0.347888662017739	5.42480794909106
7449.463	0.345182906260976	-0.0288993005054611	0.346390543093311	4.78573941876907
6363.206	0.345245825184603	-0.027629340684421	0.346349621443496	4.57551662007321
5414.761	0.343596892410139	-0.0267852710426937	0.344639340787924	4.4575067948413
4620.567	0.341975338914198	-0.0248377953362567	0.342876141635207	4.15411933978378
3941.215	0.342029480732228	-0.0213786932880009	0.342696971414485	3.57664319948055
3361.769	0.339707463755201	-0.0193987362452112	0.340260887994642	3.2682824707613
2867.244	0.337500629486705	-0.0183424553344002	0.337998699067936	3.11084570077305
2442.658	0.336520688619747	-0.0183866699856369	0.337022615713352	3.12739214893863
2083.003	0.331902111070016	-0.0229627910242097	0.33269550809164	3.95772659634679
1777.843	0.330674593318788	-0.0145492851011439	0.330994514098799	2.51932063533322
1513.548	0.330513803360244	-0.0147779099392484	0.330844012842648	2.56009976048606
1292.065	0.329654148633714	-0.0170457932093389	0.330094557327978	2.96002029078281
1101.762	0.329885045771414	-0.0156258623809418	0.33025491820525	2.71193644098471
939.101	0.332428844416732	-0.0112687444659434	0.332619784742403	1.94148123978788
801.2801	0.330934771126249	-0.0141125386516484	0.331235545326248	2.44186877354523
684.3433	0.328318058373056	-0.0105146262482745	0.328486384526047	1.83431234899763
582.9476	0.325326534164655	-0.0139802581861023	0.325626782452759	2.46065777852095
497.0677	0.326734963708866	-0.011041146813128	0.326921463707697	1.93542335701996
423.5089	0.322259740006374	-0.0112865187909693	0.32245732358778	2.00585304807083
361.5036	0.324502595710646	-0.0122321476269017	0.324733059694441	2.15874626274369
308.1262	0.323001325856193	-0.0106337709233351	0.323176319659886	1.8855966553242
262.7298	0.321831510443629	-0.0109453201277899	0.322017578941162	1.94784851976517
224.2111	0.318534207258801	-0.0124574493454558	0.318777711325913	2.239620401442
191.2854	0.318343078886387	-0.0109839415840187	0.318532514584596	1.97611940329251
163.1722	0.316502443497995	-0.0135961076154568	0.316794335306824	2.45976281844496
139.1537	0.32115564993963	-0.0193027258338006	0.321735212112012	3.43956533882668
118.6706	0.307222299568749	-0.0130091443493759	0.30749760842812	2.42470696870767
101.1982	0.318698465328947	-0.00614726366120716	0.318757746029091	1.10502130059198
86.24196	0.311729133326516	-0.00443700007492146	0.311760708772234	0.81546504670892
73.61024	0.299613521254443	-0.0188196944932356	0.300204002337253	3.59421123139486
62.69291	0.246289561272174	-0.0124769037203837	0.246605395557534	2.90009578090567
53.57697	0.299844312849488	-0.00102643795759128	0.299846069714216	0.196136230232112
45.65746	0.29644179621773	-0.019000256938897	0.297050077105761	3.66732179196914
38.96512	0.312606876346376	-0.0141366295378505	0.312926354648708	2.58925128014452
33.18414	0.305947602383538	-0.0151486969516825	0.30632240927423	2.83462962323402
28.30617	0.320963291664604	-0.0141868604707065	0.32127667454422	2.53087662110321
24.17237	0.316947027892523	-0.0102973090778009	0.317114258689431	1.86083112758747
20.61345	0.295748208364929	-0.00498403311782247	0.295790201557091	0.965473418883301
17.55618	0.285505738707228	0.0066146037687462	0.285582352076905	-1.3271925611475
14.98558	0.298337405119622	-0.00067604833569877	0.298338171099277	0.129835043869841
12.76553	0.294721832714354	-0.00683409672681902	0.294801057590673	1.32835337364043
10.8809	0.298272050224603	-0.014137617181164	0.29860691245306	2.71369714028914
9.278505	0.304291972946951	-0.00325051571273751	0.304309333823901	0.612023203518433
7.923394	0.294882019015738	-0.0116772778205235	0.295113137552525	2.26771825171521
6.75822	0.300982671526331	-0.00394220749637719	0.301008487519989	0.75040511611402
5.761429	0.292654768325235	-0.0109222603780321	0.292858513953859	2.13736175895602
4.919708	0.292635551221136	-0.00227297676123808	0.292644378490098	0.445022335534959
4.191257	0.305143156334251	-0.00254995152260004	0.305153810578201	0.478785306007531
3.564097	0.299322751531516	-0.0100003409878824	0.299489760099192	1.91353407741478
3.051758	0.296841228799917	-0.0105528943311769	0.297028750618875	2.03604391316965
2.604164	0.29241850048413	-0.00204194800723524	0.292425629822441	0.400087891268706
2.214424	0.302357107206556	0.00355438360705828	0.302377998407859	-0.673514180007463
1.892567	0.295991504815407	0.0034206804212215	0.296011270017601	-0.662119768335697
1.607507	0.297805683410821	0.00652740888808953	0.29787720983415	-1.25562784070448
1.376413	0.30733598086644	-0.0139546807507508	0.307652625943599	2.59974614807793
1.17375	0.300374954002119	-0.0286533659528284	0.301738509925733	5.44907041988367
1.001604	0.270756463775881	0.00648408840223543	0.270834093272667	-1.3718597778981
