EC-Lab ASCII FILE
freq/Hz	Re(Z)/Ohm	-Im(Z)/Ohm	|Z|/Ohm	Phase(Z)/deg
6999984	50.5298886633298	68.2400104676147	84.911534416407	-53.4810494314131
5969734	52.0115430332066	52.7143308653206	74.0540430177421	-45.3844911551722
5091109	51.5371331050911	46.862364159275	69.6574279118055	-42.2800339338149
4341796	53.6970812228975	42.9384932377564	68.7538415900326	-38.6473325436587
3702781	57.8715167008793	37.8440776555387	69.1468485099545	-33.181985538731
3157797	59.1384991076304	33.6552446987733	68.0443794331135	-29.6438565622391
2693047	60.2813661940405	31.8610463896326	68.1833512469307	-27.8581934866683
2296687	63.4904521135807	28.9950413480363	69.7979221206564	-24.5453973518454
1958656	65.7996843709025	25.8125501124955	70.6815832209528	-21.4195745343077
1670375	67.9030924709007	23.0624113008531	71.7126542677191	-18.7593945168727
1424531	69.2691875830623	20.2539859297308	72.1695524058394	-16.2986725670787
1214875	70.4547618597181	17.6856192936903	72.6405850644867	-14.0912839064018
1036062	71.144494248245	14.924233196522	72.6929969002705	-11.8473519975515
883578.1	71.9379405965794	13.2928534890108	73.1557738743654	-10.4691535875658
753531.2	72.3523706552546	11.6907671030425	73.2907877900963	-9.17857761318954
642624.9	73.0412078648759	10.1167526308405	73.7385023590364	-7.88572126678864
548046.8	73.73191521628	8.54572409869667	74.2254991349452	-6.61123394729964
467390.6	73.903182265214	8.22901530183679	74.359915557801	-6.35363212260882
398593.7	74.1166130222401	6.44412392677615	74.3962301401902	-4.96912773912998
339937.5	72.5015611523707	5.67134370147487	72.7230397392134	-4.47278242261728
289906.2	72.8220627933759	4.70401989771928	72.9738352608695	-3.69594790932946
247234.4	73.7720176308372	4.20503911992449	73.8917650305137	-3.26235579532847
210843.7	72.6727004286194	5.28894209062123	72.8649044192456	-4.16250858782008
179812.5	73.2033162889949	3.785638236553	73.3011362296975	-2.96035833588194
153343.8	74.5083944760182	4.43002875701196	74.6399758988566	-3.40261643653429
130781.2	74.3083886330793	5.20170133118952	74.4902296813727	-4.00426050959393
111531.3	74.3701398716497	5.27306290688061	74.5568433944776	-4.05565310494378
95109.37	74.109529671336	5.71807985298321	74.3297976945433	-4.41203743717751
81109.37	73.1627037467998	4.66777490793544	73.311454371968	-3.65051865871134
69171.88	73.2655824768398	5.58976894828451	73.4785076914728	-4.36290687920284
59000	74.786452497602	6.17734351095668	75.0411423822188	-4.72189874236221
50312.5	73.9259775430036	7.31186775878678	74.2866984446789	-5.6486367765479
42906.25	76.5538618267886	8.44585672645646	77.0183501279978	-6.29573473741085
36593.75	75.7922242746562	7.22807086846297	76.136103584169	-5.44764661976277
31203.13	75.3551070976498	9.13805318132342	75.9071550095442	-6.91429997303409
26609.38	75.6648674504626	9.65182505143327	76.2779777728772	-7.26940202572232
22703.13	76.3556475975201	10.6391958741018	77.0933032687288	-7.9323714904682
19359.37	76.4603115695929	12.5131057137949	77.4774616254548	-9.29434373569572
16500	77.5146610600246	13.9525879156336	78.7603795622772	-10.2039371537777
14112.02	78.4374523575774	16.9266718548192	80.2430442619667	-12.177593411509
12011.13	78.9110214062671	18.0614619010777	80.9516257118066	-12.8920144862576
10236.38	79.654712171382	21.1429743014505	82.4129755161012	-14.8653957242472
8750.684	80.8437691401517	23.9345089228365	84.3123699474963	-16.491851017285
7449.463	81.7703338167738	27.054142075911	86.1296354106425	-18.3070672559287
6363.206	82.7162895344657	30.6008124005709	88.1952055041797	-20.301905763346
5414.761	84.0522704909828	34.8233127500987	90.9804774969912	-22.5044930376997
4620.567	84.814791359696	38.8437607441264	93.2865830767517	-24.606990314822
3941.215	86.549800843675	44.7120058186782	97.4167926510072	-27.3210742016229
3361.769	88.5831840066115	49.9946423794993	101.717475172181	-29.4395455420734
2867.244	90.298410370107	57.0236199702782	106.796517498854	-32.2724895234742
2442.658	93.1560500612268	65.6564005865006	113.968471960384	-35.1761880629956
2083.003	94.6037792466147	74.3722741355224	120.337484633141	-38.1724765822102
1777.843	98.4070393086392	84.5031968381199	129.710198756127	-40.6530457900275
1513.548	101.21213480857	92.0864337914613	136.834964541002	-42.2970507803303
1292.065	101.135718836784	112.128827717966	151.001018639075	-47.9508034970309
1101.762	109.967943428495	129.735579872438	170.071365216871	-49.7143446721318
939.101	112.433218288381	141.230841888083	180.519747604243	-51.4768659823573
801.2801	116.687768604546	165.735854448387	202.692892800031	-54.8522061900966
684.3433	124.157863193623	186.510484066279	224.056545674176	-56.3487547622444
582.9476	133.337232974534	212.365408001894	250.754629494883	-57.876644125786
497.0677	142.67922828747	244.163678126678	282.79544533294	-59.6997385341127
423.5089	329.522064170309	278.637197468047	431.53618456383	-40.2171853361156
361.5036	337.463972644879	314.392281973187	461.220597759436	-42.9729289842004
308.1262	353.241397473847	357.867393665005	502.840487965975	-45.3727226020602
262.7298	364.446645437505	415.79429987141	552.907096333738	-48.7652057070298
224.2111	379.571797149618	477.170336664152	609.726397151682	-51.4990165307171
191.2854	398.717952861823	546.23879079224	676.278657433821	-53.8730442365298
163.1722	422.343433438595	625.288476179619	754.559244997853	-55.9634234562851
139.1537	444.777738102761	707.272954395712	835.501207857563	-57.8357349392136
118.6706	474.558095802975	803.485105811266	933.163277006059	-59.4328547931408
101.1982	511.119036163203	925.767622198261	1057.49154107209	-61.0967815259802
86.24196	554.702641798082	1058.41369584971	1194.96216357675	-62.3414750401224
73.61024	619.771554388383	1152.90944537277	1308.93734336627	-61.7387807354243
62.69291	716.903543714241	1113.59195722536	1324.40089783534	-57.2275459692602
53.57697	645.755889784316	1527.93849118167	1658.79374909169	-67.089518992592
45.65746	804.178287990684	1603.61621834204	1793.95866580177	-63.3672413807451
38.96512	1929.85019923944	1899.32351982661	2707.72074344292	-44.5432401428934
33.18414	2009.55429266034	2378.32372541386	3113.63649098864	-49.8040068374918
28.30617	1938.06393148575	2480.23799010649	3147.64551531672	-51.9958454236088
24.17237	2431.89015451098	2947.93190892559	3821.56934560516	-50.4791459258062
20.61345	2549.85654718759	3663.97868740564	4463.91176357667	-55.1649552025687
17.55618	2777.06444481534	4239.97902864027	5068.48193189704	-56.7763531647506
14.98558	2664.66905936819	4447.38472752228	5184.56286590804	-59.0718913822084
12.76553	2917.13420754825	5024.13954130669	5809.61703689405	-59.8595364631747
10.8809	3086.49605068688	5725.08180689465	6504.07714949184	-61.6700830957881
9.278505	3405.70736468217	6499.92252306686	7338.10843880916	-62.3472046180737
7.923394	3590.78397415492	7184.1950559302	8031.58690114847	-63.4433301759385
6.75822	3853.39114762801	7984.64066261241	8865.83948916635	-64.2380226377849
5.761429	2868.11179561494	9326.55939347357	9757.60090350777	-72.9062438245397
4.919708	15246.8179641425	10718.270385198	18637.2416972553	-35.1066080683549
4.191257	15804.5278191677	12352.806222664	20059.2851607811	-38.0111545854132
3.564097	16639.6666182989	13723.811851824	21568.9943417025	-39.5146130285703
3.051758	17820.4683918929	16280.4985868273	24137.5998794856	-42.4143295114156
2.604164	17686.8578123506	18103.2927363246	25309.171206726	-45.6666327622285
2.214424	18262.2383009844	21007.8168759646	27835.9069846126	-48.9993449100101
1.892567	18592.7052510334	23975.3940731081	30339.8782053033	-52.2067397288406
1.607507	20745.6680453243	26563.8150289039	33704.8811233122	-52.0110631826475
1.376413	19113.2831198344	31086.634209454	36492.4158982568	-58.4151671574294
1.17375	21983.9002473585	34390.4192123821	40816.5751097418	-57.4114596919192
1.001604	22212.2370180597	43036.6413918961	48430.7337920987	-62.7006622818899
