EC-Lab ASCII FILE
freq/Hz	Re(Z)/Ohm	-Im(Z)/Ohm	|Z|/Ohm	Phase(Z)/deg
6999984	29.3965058236449	82.6690727346062	87.7401284557938	-70.4249927969461
5969734	26.6148800258017	80.6875453622705	84.9637088136828	-71.74480107803
5091109	24.9339808581054	84.3811059210815	87.9879221137603	-73.5379870894509
4341796	26.0759410270145	91.3423245364768	94.9914467316473	-74.0672855005928
3702781	31.7961150434891	100.02184208835	104.954093901122	-72.3649705954796
3157797	38.3867681679728	109.423563946882	115.961460482433	-70.6686717472152
2693047	46.1503007846987	120.322670211533	128.869683127381	-69.0154593251448
2296687	56.5903702831941	133.775955605968	145.253145601322	-67.0704967937937
1958656	70.6912192434381	147.224554945875	163.316619047588	-64.3515828727799
1670375	88.1355426702156	161.222826407621	183.740778371692	-61.3359341096678
1424531	109.148765422121	173.865289423873	205.28660906065	-57.8803110556748
1214875	133.254306700312	184.663295378496	227.721854274522	-54.1855239588383
1036062	160.215319870945	192.811444778483	250.689453226328	-50.2753505676561
883578.1	188.299657797359	197.474651408212	272.860768663063	-46.3624269790574
753531.2	217.938819062636	198.247017799834	294.617054701428	-42.2910748305271
642624.9	246.942407418883	195.312338346064	314.845139857742	-38.3412699486558
548046.8	274.531416445425	188.294210802229	332.899697262051	-34.4452486150134
467390.6	299.48709553858	178.645272020795	348.721455619694	-30.8162485322138
398593.7	322.240215178813	166.773898638225	362.839206185717	-27.3636105883334
339937.5	341.51781178476	153.681156536519	374.502755184328	-24.2274859896392
289906.2	357.333850332004	139.88916263083	383.740092269038	-21.3793643562454
247234.4	370.785094422844	127.1174693251	391.96994432453	-18.9234208744628
210843.7	381.655793118923	114.68063875845	398.51322854741	-16.7245692849333
179812.5	390.350615591102	103.848861771721	403.928445623274	-14.897888160809
153343.8	397.516008790528	92.9239159360191	408.232570231278	-13.1572824862472
130781.2	403.044024994068	84.0815238458282	411.721008372971	-11.7838224372273
111531.3	407.659449976517	76.685043750247	414.809381632255	-10.6534454623696
95109.37	412.328849307678	70.0621531044802	418.238909319816	-9.64348702731459
81109.37	415.325121940904	65.2385218081326	420.417675226597	-8.92697465661374
69171.88	418.103154864489	61.0284182071366	422.533686155914	-8.30453049671747
59000	420.912170335126	57.8346116135132	424.866917324368	-7.82362410095237
50312.5	423.934635690705	56.5712900197144	427.692513603763	-7.60084092147165
42906.25	426.462738866693	55.3043777551196	430.033768256124	-7.38897258798817
36593.75	428.563141321474	55.767334569373	432.176308587481	-7.41402803236924
31203.13	433.118244372557	58.1351546169776	437.002413964392	-7.64481543224794
26609.38	433.495988836593	58.648984992469	437.44539748186	-7.70493589369102
22703.13	435.964518260254	61.2351004278975	440.244021772369	-7.99539684793259
19359.37	439.16832379492	65.1429160074073	443.973440794366	-8.43730200658313
16500	442.986364059067	67.1281965239777	448.043651345306	-8.61679249506377
14112.02	446.133613111895	73.2831691590726	452.112401544429	-9.32826283716747
12011.13	449.948235406275	80.7300915034716	457.133199646864	-10.1718285989386
10236.38	453.91408302017	89.5806567435722	462.669092145403	-11.1639508578312
8750.684	458.268760827115	99.1808644626125	468.878556798635	-12.2119021242814
7449.463	462.882660195562	110.6094176396	475.914698638623	-13.4392579355429
6363.206	468.457664761507	123.780258772517	484.534968950226	-14.8009608906067
5414.761	474.600747932007	138.84924253825	494.494673470874	-16.3073700664088
4620.567	481.137647682442	154.865780917865	505.447174407667	-17.8420260615108
3941.215	487.774425472426	175.743838182659	518.468694140859	-19.8139577162787
3361.769	495.575602860024	197.964771937839	533.652723293414	-21.7749458771596
2867.244	504.33055406669	222.736802043491	551.32657359298	-23.8285755839352
2442.658	514.135301558902	252.437484413253	572.765040698151	-26.1507735276004
2083.003	524.814027089657	285.799030486356	597.587524013851	-28.5714743754046
1777.843	537.138925693052	323.796585754098	627.186140185429	-31.0822957548048
1513.548	550.855674729785	368.135795129982	662.545046044411	-33.7547313394776
1292.065	565.944245895099	417.229950250275	703.117145892218	-36.3986794625765
1101.762	583.644187188002	474.078118850723	751.924597291101	-39.0860062203447
939.101	602.737201848424	539.435908561867	808.877762049393	-41.827809805274
801.2801	625.623856921496	613.732409754985	876.397558835594	-44.4502720110555
684.3433	651.969158043502	697.553711993847	954.801007622189	-46.9346170107428
582.9476	680.220287878475	795.625259647577	1046.76606452003	-49.4711928430341
497.0677	714.167583108375	905.725758815341	1153.41860872126	-51.7441106867402
423.5089	752.181316495185	1032.27549096093	1277.25072797907	-53.9205481673241
361.5036	796.159923177517	1177.0366266162	1421.01577882516	-55.9251670643042
308.1262	846.516029236587	1341.07714373788	1585.89952178901	-57.7390196633955
262.7298	906.00531634505	1529.02951147221	1777.29482084387	-59.3517239693503
224.2111	973.111748650604	1738.08275338505	1991.95334608429	-60.7565591872315
191.2854	1055.9009220736	1982.65916520833	2246.30009629623	-61.9616613177302
163.1722	1140.96393929992	2250.09051038573	2522.83689835683	-63.1115876125577
139.1537	1247.52486278015	2561.78480761639	2849.39637182838	-64.0350809867496
118.6706	1370.9060543441	2912.28527842179	3218.81794339935	-64.792130121456
101.1982	1511.69986742938	3308.74825074606	3637.72614087442	-65.4453020079051
86.24196	1677.0267254123	3758.05039284916	4115.25957783234	-65.9512237410056
73.61024	1863.93795922302	4265.5875051214	4655.05117906133	-66.3960681731452
62.69291	2082.46564518285	4842.59282620126	5271.37253888802	-66.7307901170606
53.57697	2332.35997951014	5477.57580772419	5953.46452104872	-66.9356225288199
45.65746	2623.81389206488	6201.38471949034	6733.61506022738	-67.0667152723458
38.96512	2958.93427176461	7010.25514305855	7609.13721754326	-67.1160469385066
33.18414	3339.89528000135	7928.81744576626	8603.54848708733	-67.1574717870945
28.30617	3805.07413838972	8921.63117659844	9699.17996790943	-66.9017607231277
24.17237	4275.04801640412	10077.30453296	10946.6023127077	-67.0121123944698
20.61345	4838.16456577911	11352.9436763944	12340.8738136707	-66.9182619076274
17.55618	5496.63893194884	12799.0569776715	13929.4256545593	-66.7585785701245
14.98558	6226.1734351166	14372.7214216044	15663.3443653391	-66.5780395688787
12.76553	7067.81760271148	16169.9421037067	17647.1264885371	-66.3900521162963
10.8809	7990.99975477771	18158.828488397	19839.3328807165	-66.2475575126473
9.278505	9038.72033218047	20379.1680644006	22293.6976798479	-66.0813997520593
7.923394	10260.9210638839	22892.4380962974	25086.8535905175	-65.8569721837066
6.75822	11542.3998087316	25647.9679072285	28125.5266815544	-65.7707420355394
5.761429	13059.3841963243	28765.088435481	31590.7870792775	-65.5818951462643
4.919708	14703.7037917789	32161.8599071689	35363.599051634	-65.4311499503654
4.191257	16507.0074995018	36090.2458099608	39686.1076349394	-65.4215242594072
3.564097	18674.0815389676	40543.0021736935	44636.9392608871	-65.2692320774614
3.051758	20842.8038748719	45309.6572103612	49873.7156214254	-65.2971924178638
2.604164	23466.2292972932	50792.2865126728	55951.0525961628	-65.2028835647852
2.214424	26316.7072060824	56944.3023508732	62731.3529935258	-65.1960653670232
1.892567	29574.6032654947	63893.2354378747	70405.9847813458	-65.1617451950949
1.607507	33248.9796000517	71998.0961048003	79304.6057121572	-65.2123373684049
1.376413	37179.0686180182	80566.8129046682	88731.5867373007	-65.2281510035505
1.17375	41827.111903176	90420.5852804942	99626.2492148928	-65.175496182178
1.001604	46974.1835151963	101571.091724473	111907.375051963	-65.1805955065547
