EC-Lab ASCII FILE
freq/Hz	Re(Z)/Ohm	-Im(Z)/Ohm	|Z|/Ohm	Phase(Z)/deg
6999984	24.6658056279227	85.3329474379153	88.8263130255696	-73.8778656535225
5969734	21.28425371827	83.8252517132808	86.4852142342179	-75.7529846296471
5091109	18.4596080341828	88.0429050678227	89.9572690868132	-78.1585479325039
4341796	18.155298919932	95.9636929803122	97.6659881908318	-79.286873718455
3702781	21.9123974219146	106.166023198569	108.403771348487	-78.3380556097184
3157797	25.9325794512161	117.878157597276	120.696970614518	-77.5928667013713
2693047	30.739306067295	131.659324874446	135.200158150402	-76.8582202164545
2296687	37.2310767613875	149.661502786506	154.222950604401	-76.0301816109315
1958656	46.8824675099279	169.56535151015	175.9271843479	-74.5446166397162
1670375	59.65378905328	192.674312859817	201.697707930497	-72.7969807730082
1424531	76.599455082116	217.676804908147	230.761062386826	-70.6132667284261
1214875	97.6704796047884	244.072180541638	262.889238845144	-68.1901709170383
1036062	123.324018162859	271.448415784016	298.149385187166	-65.5668263562523
883578.1	156.331947210786	300.67873527203	338.891397889505	-62.5287176475712
753531.2	195.727020675835	327.644248876211	381.65405859796	-59.146891557591
642624.9	240.996344621335	351.894442576662	426.507839127471	-55.5945474982019
548046.8	293.915933121082	371.557853302156	473.752904046976	-51.6547063523879
467390.6	348.560501460451	383.572216253376	518.287630818919	-47.7378866507823
398593.7	475.606165451082	382.777617291489	610.507926987383	-38.8278257082808
339937.5	530.359411939868	368.671393210966	645.909979800063	-34.8045160708722
289906.2	580.148999490671	348.980155606853	677.022902579677	-31.0283976150169
247234.4	624.823294397837	325.014572163963	704.300093242284	-27.4821154491003
210843.7	661.843777071319	298.348895880107	725.981576158038	-24.2651121280454
179812.5	694.411213187715	270.884398556239	745.375938961012	-21.3103687785557
153343.8	719.478656087304	244.321461112303	759.830581725455	-18.7565239983191
130781.2	740.692344802006	218.740695210308	772.316412741166	-16.4528841576382
111531.3	757.344844649897	194.960709794379	782.036375165059	-14.4360211525761
95109.37	770.13775207477	173.483414668817	789.435654335382	-12.6947164695043
81109.37	780.850036713575	153.72299352815	795.837633298934	-11.1371822696427
69171.88	789.165195099563	138.399683279393	801.209197081741	-9.94708017422056
59000	796.442438538889	124.373768319402	806.095150805251	-8.87571785226134
50312.5	803.985225376094	113.984599920137	812.025080673006	-8.06930267392651
42906.25	806.387322298822	99.9686449167538	812.560301473531	-7.06695884796875
36593.75	809.748568317977	92.7099558040102	815.038575650377	-6.53148395179538
31203.13	813.320712644897	87.2267556700002	817.984772793429	-6.12144097613206
26609.38	816.091071189236	82.8879253546324	820.289610225797	-5.79947307273624
22703.13	818.860815569069	80.1547137845799	822.77446084351	-5.59062365387531
19359.37	821.708838802526	78.9499038742002	825.492884940834	-5.48814041193365
16500	824.703606721409	79.177973229841	828.495739508711	-5.48403287750035
14112.02	827.448732106715	81.0486114492343	831.408612947243	-5.59427683277706
12011.13	830.684264609809	83.7611947342825	834.896571566595	-5.75789925512155
10236.38	833.801791304116	88.4219025309423	838.477107635709	-6.05340223796027
8750.684	837.473192575009	94.733549899393	842.814210700269	-6.45376795646384
7449.463	842.647364215415	103.315902192973	848.957452446902	-6.99007364144014
6363.206	845.604040177514	110.701915713778	852.819504295742	-7.45843799106983
5414.761	851.576308495308	122.010611851961	860.272514145945	-8.15363060221387
4620.567	856.81183441853	137.450412117854	867.766751720193	-9.1137818161382
3941.215	861.919908483209	149.945188684091	874.865411505799	-9.86877976193798
3361.769	868.815983130301	166.945410061177	884.710112117616	-10.8769677574061
2867.244	875.530712000022	188.000717683837	895.487742799924	-12.1189683699112
2442.658	883.887650792811	211.028714224754	908.730156565406	-13.4280279627584
2083.003	892.934210479149	236.979342241646	923.845610961758	-14.8633158874508
1777.843	903.302515137113	267.082992237051	941.960062102068	-16.4715740409153
1513.548	914.581472652301	301.892454072058	963.119060108615	-18.2674414948175
1292.065	926.658114298149	340.97346072363	987.399697038869	-20.2016152308863
1101.762	940.671670085721	386.592941916328	1017.0139102497	-22.3414578970952
939.101	954.627876090702	438.865902048448	1050.67486016857	-24.6894045640736
801.2801	972.183178864535	497.269700682855	1091.97861173393	-27.0896508185916
684.3433	990.682224967351	562.768851411273	1139.36826837727	-29.5992575274661
582.9476	1012.22556694675	641.221864154041	1198.23456695668	-32.3533281387892
497.0677	1036.57726414971	730.116506857284	1267.89689570468	-35.1590738136551
423.5089	1064.83838566806	831.503134171808	1351.02858953084	-37.9853027296969
361.5036	1095.01970988511	949.517857450749	1449.3627312218	-40.9293432275735
308.1262	1130.92448523079	1083.12792907279	1565.93623817576	-43.7633013442716
262.7298	1171.33737386069	1236.44358773512	1703.18055092646	-46.5488960934827
224.2111	1217.09435117865	1411.97133691501	1864.13028405756	-49.2392423388313
191.2854	1270.32889506062	1609.77920388104	2050.64004322402	-51.721885653867
163.1722	1328.27103765227	1837.34124387919	2267.18477322105	-54.135665171506
139.1537	1403.90972063044	2100.92652844046	2526.82701853244	-56.2478225170542
118.6706	1485.60817239547	2400.03863578924	2822.6259219332	-58.2427641568746
101.1982	1580.28660580837	2743.42725339371	3166.02256011556	-60.0569204235973
86.24196	1695.31712650756	3134.61558036543	3563.69400988631	-61.5938224132562
73.61024	1819.0372003828	3578.59952223317	4014.38300077409	-63.0553231570759
62.69291	1968.25407319249	4090.23535156964	4539.16835200776	-64.3027668686347
53.57697	2139.7701903048	4656.6213355088	5124.71840491092	-65.3206836874641
45.65746	2345.08090579854	5319.44527485826	5813.4243339836	-66.2096850023891
38.96512	2573.94506187164	6061.75136242249	6585.59205852932	-66.992918308333
33.18414	2849.88071675156	6919.73781723591	7483.62155369959	-67.6157807274197
28.30617	3167.19854941334	7879.21803367326	8491.95051054632	-68.1014197545726
24.17237	3531.72106489261	8967.38621409402	9637.79379282052	-68.5034642394159
20.61345	3958.33907107051	10195.3623300627	10936.8122066178	-68.7813487700543
17.55618	4461.0494888805	11603.5944848602	12431.5874895896	-68.9705394340065
14.98558	5036.12752113693	13170.4282493265	14100.4524991154	-69.0740729075867
12.76553	5703.83630583547	14958.9274309877	16009.4740228817	-69.128160123447
10.8809	6475.49600265202	16966.7849300609	18160.502177619	-69.1102838402389
9.278505	7365.89062202332	19209.1702150651	20573.0057358412	-69.0203294664034
7.923394	8354.73021095581	21704.4503770704	23256.9276360522	-68.9467043897291
6.75822	9528.99078232342	24550.4899535168	26334.9240038269	-68.7868491648876
5.761429	10884.1650461754	27729.448480913	29789.0476821263	-68.5693543858559
4.919708	12330.4532965178	31199.0138384545	33547.2583528026	-68.4351103744568
4.191257	14019.9176118823	35236.6635613387	37923.3509698041	-68.3034446731357
3.564097	16007.0307674546	39745.4230012488	42847.6800251593	-68.0634326527554
3.051758	18038.0761996954	44644.7909251405	48151.1116147439	-67.9995478585983
2.604164	20445.2916687007	50162.561694086	54169.1106363325	-67.8251395057605
2.214424	23119.0945950836	56619.8493450585	61157.9910948156	-67.7887566857697
1.892567	25998.3241566382	63558.7846011431	68670.459143129	-67.7532905982511
1.607507	29421.5725273121	71775.658696153	77571.7352599936	-67.7107771298524
1.376413	32959.2972647017	80685.3487399537	87157.5629390297	-67.7803915019608
1.17375	37046.3832220542	90810.7386243222	98076.6269777375	-67.8069194478753
1.001604	41645.0383440669	102397.595779061	110542.194839847	-67.8684551150724
