EC-Lab ASCII FILE
freq/Hz	Re(Z)/Ohm	-Im(Z)/Ohm	|Z|/Ohm	Phase(Z)/deg
6999984	-9.70161973868104	33.7904601909946	35.1556058897177	-106.019365565874
5969734	-10.9538477753568	33.8532505028158	35.5813061971043	-107.929950629517
5091109	-11.9002249035267	37.3751065478617	39.2238950413971	-107.661462606719
4341796	-12.0495088499158	42.7318079550966	44.3981764787188	-105.747382500525
3702781	-11.3273920066066	49.9010018429872	51.1704973066038	-102.789258700044
3157797	-10.1242598613041	57.5383978968478	58.4223233899097	-99.9794163769432
2693047	-10.3073038504342	66.803949890761	67.5944393694665	-98.7711056827919
2296687	-10.443412139566	77.5680782721104	78.2679476155155	-97.667932744047
1958656	-9.94202886801975	89.7296831069079	90.2787902470932	-96.3225705453003
1670375	-9.82802163967038	104.827840627162	105.287540477986	-95.3560480406941
1424531	-9.25179501659645	122.161757611318	122.511594282809	-94.3309692494256
1214875	-8.52118150554974	142.199226122216	142.454310022574	-93.4293055672282
1036062	-8.02258172679459	165.733807991762	165.927866643952	-92.7713208352999
883578.1	-7.33771858555447	193.859349003855	193.998168316712	-92.1676525023501
753531.2	-6.58105726492921	226.231888996546	226.327589819866	-91.6662571358311
642624.9	-4.98441400964331	264.552831961725	264.599783223623	-91.0793764662786
548046.8	-3.24762147257358	309.29554335633	309.312592995042	-90.601586960919
467390.6	-1.29041449557825	361.289774921724	361.292079393612	-90.2046418004524
398593.7	-0.177369964306972	421.633590379336	421.633627686733	-90.0241027992067
339937.5	2.90298120073524	491.49793855394	491.506511556688	-89.6615924022274
289906.2	-99.4103551380683	501.772458677343	511.525189013975	-101.206233607877
247234.4	-106.397808891811	604.034489660327	613.333643652613	-99.9899015045942
210843.7	-111.884192032457	723.571665887708	732.170764304523	-98.7898986984722
179812.5	-112.559761873336	861.553239925322	868.874953729708	-97.4433905841352
153343.8	-112.500573521424	1020.78688824849	1026.96750204799	-96.2891671058442
130781.2	-107.29634255723	1209.14323824376	1213.89450765574	-95.0710015376165
111531.3	-108.496154159235	1421.43909636761	1425.57375121378	-94.3648310551178
95109.37	-95.6591686785223	1662.18994099523	1664.94026214096	-93.2937437529002
81109.37	-89.9958776594384	1958.00706974287	1960.07421878835	-92.631633724847
69171.88	-74.789115395891	2314.88579514056	2316.09361993967	-91.8504630669657
59000	-55.005855522159	2688.38890616912	2688.95157170131	-91.1721383333103
50312.5	-34.6585194557971	3147.87900109071	3148.0697925044	-90.6308078084707
42906.25	-10.2425361607176	3727.70326748756	3727.7173390675	-90.1574300781336
36593.75	44.1840686936212	4340.41891716568	4340.64380114471	-89.416767536368
31203.13	-640.704926013126	4627.86053588972	4672.00127802454	-97.8822189594259
26609.38	-664.738629568276	5643.327299864	5682.34286707786	-96.7180260154996
22703.13	-683.252679290822	6650.38083257905	6685.3870076528	-95.865923182581
19359.37	-612.719589926051	7837.86084720376	7861.77384284289	-94.4699688105243
16500	-580.727815930176	9215.72471585699	9234.00383553377	-93.605719272349
14112.02	-684.782784005559	10811.8771451208	10833.5411967859	-93.6240539217931
12011.13	-432.528198330659	12704.6708703018	12712.0314098513	-91.9498712444209
10236.38	-427.383780571235	14733.9146131105	14740.1118286914	-91.6615015861315
8750.684	-160.15880887656	17262.3253777883	17263.0683336623	-90.531571518354
7449.463	-131.504722382377	20316.6267977606	20317.052392793	-90.3708568568198
6363.206	-2.45070380291089	23412.9048741527	23412.9050024142	-90.0059973328805
5414.761	343.694930570617	27712.9469123133	27715.0780762024	-89.2894563142899
4620.567	297.181481660538	32153.4854155089	32154.8587494702	-89.4704536817718
3941.215	1560.00914289921	37631.3419723335	37663.6632201999	-87.6261598350251
3361.769	-6472.5465002288	40956.6910488128	41464.9779918611	-98.9804071653532
2867.244	-6485.82378517211	48733.6471131417	49163.3427577959	-97.5807858634076
2442.658	-6512.20567572096	57639.9607012082	58006.6711025527	-96.4459856543715
2083.003	-6262.65480159909	68275.9532482138	68562.5746097408	-95.2408262280933
1777.843	-5389.23600207938	80435.5642909098	80615.9033161769	-93.8331262212364
1513.548	-4574.04790369921	93741.3572979376	93852.8847840328	-92.7934943019715
1292.065	-3863.14058216628	109504.733691622	109572.855014509	-92.020459644781
1101.762	-3725.32464840927	127794.383472739	127848.670274326	-91.6697521783814
939.101	-1498.63473417334	151392.591262298	151400.008570607	-90.5671521974317
801.2801	-776.259380296917	173904.806451179	173906.538938154	-90.2557496357781
684.3433	-909.79191579079	204369.427845279	204371.45289677	-90.2550620864239
582.9476	2622.41706146282	238580.064577604	238594.476644154	-89.3702433634034
497.0677	-58796.3544288718	242026.738415664	249066.162700295	-103.654539562251
423.5089	-45536.4590194121	286741.160904031	290334.397646262	-99.023608183106
361.5036	-58262.0525610009	348609.161525967	353444.216628959	-99.4879904760596
308.1262	-37876.3695937115	403706.648233883	405479.564468834	-95.3598868579215
262.7298	-54470.5234725891	495966.225329201	498948.42879267	-96.2675093011882
224.2111	-66736.9054772213	610483.900861488	614120.841336405	-96.2386895240931
191.2854	-49973.8280680174	643193.165904655	645131.639402552	-94.4427533152556
163.1722	-95740.1247944315	830316.01527676	835817.47811393	-96.577479468354
139.1537	-98824.075938643	1206375.40490148	1210416.38105915	-94.683109110313
118.6706	-217626.728629782	957663.638950164	982079.955187647	-102.802895095568
101.1982	184986.838359712	1063532.48653201	1079500.56983556	-80.1329031987452
86.24196	591190.001359964	480939.242582149	762107.717296896	-39.1287144943938
73.61024	213549.450311956	194280.202561496	288700.822367853	-42.2948849998647
62.69291	69686.4252046416	-13531.276581238	70987.9799946447	10.9885971246314
53.57697	126832.473874353	-12933.0606242413	127490.158389574	5.8223054408722
45.65746	-19297.288340912	631617.518051404	631912.236348314	-91.7499662696997
38.96512	392276.994570525	-112037.451218946	407962.781323151	15.9397660746308
33.18414	513260.304955228	9654.87198125698	513351.10518602	-1.07765626333874
28.30617	-100263.599356859	740192.373873157	746952.16693974	-97.7141131423345
24.17237	566762.349201646	-424894.667443049	708346.693995326	36.8584379861233
20.61345	74323.4544925076	-848057.149501398	851307.761451836	84.9914134141161
17.55618	605063.101437045	-1063446.84548892	1223527.9113698	60.3616766748274
14.98558	1498926.40733463	107911.914052735	1502805.82771016	-4.11777949162761
12.76553	1648312.66283495	1888885.70968004	2506955.09706407	-48.8908267036123
10.8809	1035365.54759033	-400516.730273091	1110133.0858801	21.1482675591573
9.278505	796177.618745635	-2640435.60830074	2757861.30945231	73.2202246962713
7.923394	1983134.41153488	-1533684.26134588	2506992.12358433	37.7170668083284
6.75822	838986.323452722	1392380.4726679	1625614.17058526	-58.9287092292052
5.761429	138368.08709202	1213190.69557278	1221055.85103626	-83.493357962967
4.919708	1816176.69570858	-192923.471322401	1826394.60572517	6.06350921346638
4.191257	1026568.05102623	277095.467984173	1063307.98067406	-15.1055223361865
3.564097	829054.81944435	2083584.28659023	2242466.35938415	-68.302470644884
3.051758	1425892.88772232	136718.980968501	1432432.40923059	-5.47695169211033
2.604164	-249087.290590624	10138847.3873892	10141906.6660615	-91.4073375082115
2.214424	5232516.48415767	509160.951329194	5257230.60473289	-5.55778801559416
1.892567	2790622.60540212	-1822541.70461602	3333051.57338527	33.1483529161568
1.607507	2384938.23151003	2585414.36209518	3517427.72375584	-47.3097382087929
1.376413	-264212.411653269	2903059.23624815	2915057.65425614	-95.200260816198
1.17375	7070736.3657996	-4010444.88722778	8128897.89258866	29.5614365834095
1.001604	-505209.702014624	8676801.53199784	8691497.09018474	-93.3323038125125
