EC-Lab ASCII FILE
freq/Hz	Re(Z)/Ohm	-Im(Z)/Ohm	|Z|/Ohm	Phase(Z)/deg
6999984	32.375771485832	78.927269835498	85.3094631502762	-67.6966823680922
5969734	28.8103605920702	77.9474041584034	83.1013519293073	-69.7150407929995
5091109	26.8362731360013	81.8755671654423	86.1614418083455	-71.852459847735
4341796	28.2827762078919	88.7441768253137	93.1420654185221	-72.322915493317
3702781	34.2403078205711	96.8504012300681	102.724869910225	-70.5295575945575
3157797	41.0291185002762	105.664182534294	113.350377306608	-68.7789423473148
2693047	49.0945808794932	115.796518639984	125.774049791176	-67.0243736912856
2296687	59.9337737319256	127.979991523347	141.318560224996	-64.906034131128
1958656	74.2294907740642	139.834631626202	158.315323019007	-62.0389533242933
1670375	91.9114955716411	151.819555117064	177.473660958913	-58.8093048246999
1424531	112.467185110141	161.926179650232	197.152112295856	-55.217764722546
1214875	135.615010846943	169.660209333735	217.200409295616	-51.3635005530127
1036062	160.87180257187	174.772859314267	237.540079177404	-47.3716061915111
883578.1	187.037577713096	176.387002826511	257.090315342492	-43.3213618081533
753531.2	213.224240679325	174.292156819519	275.394866949395	-39.2629928832607
642624.9	238.467224732407	168.749341103772	292.135169732323	-35.2848151313745
548046.8	261.654402534853	160.125611523212	306.762510472765	-31.4655357648119
467390.6	282.165343777702	149.652577608856	319.395014385265	-27.9402238541971
398593.7	299.795140296421	137.787934933756	329.943390839489	-24.6838411438829
339937.5	314.710565371575	125.096703174744	338.661962879929	-21.67770348017
289906.2	326.674489539164	112.832980849207	345.611781747948	-19.0548516630878
247234.4	336.717327194916	101.02786257141	351.546849579165	-16.7012212547817
210843.7	344.510636943418	89.8237750566739	356.027933640876	-14.6133114831235
179812.5	350.544496117969	80.1603955397978	359.593009903832	-12.8805839782447
153343.8	355.502933292245	71.6575356121931	362.652916697775	-11.3962164888213
130781.2	359.256721230031	64.0553981740451	364.922575054199	-10.1095881936535
111531.3	362.58317558246	57.7737539993854	367.157140563333	-9.05336341664165
95109.37	365.055308141912	52.4267564894816	368.800681667745	-8.17254966860909
81109.37	366.565714550695	47.8636819965212	369.677366278117	-7.43920952746524
69171.88	368.786328149728	44.7267935734124	371.488683398993	-6.91511930268113
59000	371.316769057087	42.1493973800574	373.701370993599	-6.47611331047394
50312.5	372.059706895566	40.7204778839859	374.281421946528	-6.24593897543603
42906.25	373.337134976048	39.7536960846709	375.44769636331	-6.07806807104065
36593.75	374.640499878389	39.5358311955962	376.720833107828	-6.02412982420704
31203.13	376.713053409586	40.0867687101788	378.839905018989	-6.0740974735204
26609.38	377.195470127092	41.9597066017992	379.522120122802	-6.34755876998044
22703.13	378.90797628323	43.7552426683998	381.425976766166	-6.58718117906005
19359.37	380.407650325194	46.9860607946875	383.298408990876	-7.04122731338942
16500	382.338471673494	50.8263451372337	385.701988952135	-7.57224459791667
14112.02	384.067800839315	55.4578115784776	388.051084918753	-8.21648407233972
12011.13	386.099199070678	61.2797397227039	390.931960862119	-9.01847601649613
10236.38	388.814349398908	68.0696137018271	394.727843720217	-9.93012062348469
8750.684	391.77006789965	75.744179052745	399.025020221127	-10.9424625629675
7449.463	394.171084834301	85.6120176315352	403.361204979349	-12.2540374405353
6363.206	398.369853125876	94.5660015463065	409.44018919494	-13.3538413874448
5414.761	401.931831784659	107.391512759034	416.031410369993	-14.959320695603
4620.567	406.24720184016	121.881247982533	424.136567172343	-16.7001612828607
3941.215	411.261488714096	137.791625792521	433.730958357691	-18.5232327728757
3361.769	416.661429358083	156.685815723262	445.148505067225	-20.6088048767298
2867.244	422.678098699735	178.060673648726	458.652786561535	-22.8441252299194
2442.658	429.855382142274	202.803936457325	475.294736136713	-25.2577385897977
2083.003	437.778643940045	230.541971513605	494.772414064653	-27.772083659638
1777.843	446.257784063888	262.512347258861	517.743896440092	-30.4662859109479
1513.548	456.684759543328	299.479138681576	546.121528695405	-33.2555705083596
1292.065	467.510375849221	341.433554035538	578.915212572634	-36.14151308581
1101.762	480.517346716278	389.43194638673	618.509629158519	-39.0227975163859
939.101	494.547601678773	445.122022043643	665.365271737597	-41.9890802358695
801.2801	511.079538549208	507.936004826322	720.556229396843	-44.8232503469518
684.3433	529.175449482049	580.175395563297	785.258012344705	-47.6321931263145
582.9476	550.330086270963	662.689001154023	861.405779006341	-50.2920637465401
497.0677	574.785405533657	758.676797027107	951.823904281564	-52.8518615582681
423.5089	603.546110168866	868.546297935255	1057.65806324965	-55.2048617129996
361.5036	635.361789748822	993.192131818328	1179.03147310776	-57.3922656057824
308.1262	674.306051715228	1135.18950033014	1320.35747168696	-59.2895580485786
262.7298	717.912898823806	1299.854268934	1484.93099191967	-61.0880152717147
224.2111	770.318683947465	1485.83677253101	1673.64924325377	-62.59592559694
191.2854	831.226192527138	1698.17748934759	1890.69928028496	-63.9191143290151
163.1722	905.476057709001	1943.7073396853	2144.26796679677	-65.0215424226264
139.1537	988.723256612234	2216.13681910669	2426.69241544252	-65.9560938822642
118.6706	1090.46871646927	2530.69120696975	2755.63422947098	-66.6889069022365
101.1982	1204.13294526403	2887.72915422328	3128.7243116039	-67.3647106215933
86.24196	1341.19539214823	3293.98943859679	3556.56737620797	-67.8455940990467
73.61024	1504.11828225332	3748.04100078487	4038.58677640745	-68.1340210531155
62.69291	1694.73261960974	4266.51101341126	4590.77715420046	-68.3361605632377
53.57697	1914.17895976306	4840.52931202047	5205.26705467923	-68.4237658101132
45.65746	2172.59152495997	5501.00910449004	5914.49533789741	-68.4487467699809
38.96512	2472.71975102921	6225.01283114022	6698.14360214756	-68.3358740843401
33.18414	2829.43616978498	7052.31281935138	7598.73839139599	-68.1390057859332
28.30617	3256.33704080209	7958.89915187107	8599.29105409009	-67.748363161213
24.17237	3705.32089872176	8978.14520385897	9712.69757915277	-67.5738402168161
20.61345	4247.81992875551	10115.2640634528	10970.9863376322	-67.2204398487794
17.55618	4868.06561484682	11377.1804597603	12374.905981235	-66.8348965484359
14.98558	5572.08012268017	12778.3052890069	13940.3429998199	-66.4400140360317
12.76553	6380.34857654061	14352.4198283796	15706.7120330204	-66.0325264521347
10.8809	7278.03553782521	16084.1273194559	17654.1483203896	-65.6533429833171
9.278505	8298.54412377468	17982.6104485779	19805.0527169089	-65.2278072288734
7.923394	9448.46237334003	20117.4576479299	22225.7855527465	-64.8422066327504
6.75822	10716.0115634326	22437.223853036	24864.8731760061	-64.4708726857261
5.761429	12169.3814108789	25052.7942126863	27852.0437631901	-64.0918611042471
4.919708	13686.2747182962	27896.8752676865	31073.2966607267	-63.8673189443353
4.191257	15506.6246308688	31191.1699468983	34833.0947533945	-63.5658285525375
3.564097	17494.2055194342	34769.0268099387	38922.1331900815	-63.2905223319771
3.051758	19598.7298257301	38715.4399673638	43393.4960869543	-63.1503195595086
2.604164	22005.7846093209	43077.4999868816	48372.7770692526	-62.9401586402546
2.214424	24740.1016287018	48165.83073257	54148.1290420738	-62.8129620097356
1.892567	27613.6718373318	53634.4787298314	60325.551642406	-62.7583591318596
1.607507	31072.3845041901	60002.3937569797	67570.5581991437	-62.6225108386341
1.376413	34624.9844733377	66825.6602812626	75263.2607704821	-62.6095619924641
1.17375	38681.7288139663	74500.015518206	83943.6028310089	-62.560860579878
1.001604	43261.698772805	82990.0722873393	93589.1376120473	-62.4675257550512
