EC-Lab ASCII FILE
freq/Hz	Re(Z)/Ohm	-Im(Z)/Ohm	|Z|/Ohm	Phase(Z)/deg
6999984	25.6072918091896	87.7490211697912	91.409102993397	-73.7314749368666
5969734	22.5170677441742	89.7460307050811	92.5276627129049	-75.9153608687872
5091109	21.3146554679075	94.0478542201949	96.4329477986576	-77.2304136001715
4341796	22.1973344931648	102.789571141947	105.159010998329	-77.8141430018508
3702781	27.022998973573	112.833798491903	116.024603234129	-76.5316915690095
3157797	29.8923120344279	124.573068037729	128.109326745152	-76.5065387218032
2693047	33.8222888950666	140.833515283528	144.837930989147	-76.4957098194752
2296687	41.1192612458236	160.841260387663	166.014170143679	-75.6594206217023
1958656	50.914528121171	182.486412552933	189.456010567732	-74.4106591072147
1670375	63.6061062243314	207.664113891571	217.186834194415	-72.9705296891533
1424531	80.1988897275738	235.51982603875	248.800020841756	-71.1953345524995
1214875	102.682245625831	265.325777208372	284.502041500567	-68.8433428034875
1036062	126.476160902938	293.551843682614	319.638708867071	-66.6913133249761
883578.1	162.984405839998	325.306772404197	363.852185260791	-63.3883262276059
753531.2	194.720773320463	368.121792620517	416.449077036631	-62.1230635286185
642624.9	250.538174726202	412.54204585347	482.659628094275	-58.7295490996177
548046.8	381.362881988623	456.361477469242	594.729725065578	-50.1158563062256
467390.6	448.384018860546	460.918950992956	643.035386082275	-45.7897843107139
398593.7	517.830015944718	459.621034250495	692.386756472711	-41.5919574584864
339937.5	585.265159468102	450.029299087729	738.282924714242	-37.5578475666395
289906.2	647.471053429693	433.190893480044	779.020612836012	-33.7845251448244
247234.4	706.319584297217	406.976693050087	815.179356858219	-29.9502629319192
210843.7	758.396290579499	377.748054228525	847.26532210293	-26.4773422820912
179812.5	798.081179813501	347.23378719933	870.347558476094	-23.5131737768716
153343.8	834.595325908675	314.717991077003	891.962315311668	-20.6609841431324
130781.2	864.828647427619	281.120850088163	909.372048045121	-18.0072499008927
111531.3	886.467317161721	254.880926342518	922.382020102907	-16.0412311705705
95109.37	906.524488203498	227.594677396449	934.658218223008	-14.0935470896926
81109.37	921.896191725599	202.175194540287	943.804745487945	-12.3693566559613
69171.88	934.375539121341	179.796816257314	951.516969499001	-10.8919849812165
59000	943.267797264224	161.30800862083	956.961028987555	-9.70426639022207
50312.5	951.281478875738	147.730751571463	962.684178228707	-8.82732583688459
42906.25	955.937991002273	127.695089523386	964.429094609784	-7.60858158128386
36593.75	962.174494077829	119.945638498454	969.62194346494	-7.10589133014789
31203.13	966.446242430029	111.431642526954	972.849089254535	-6.57718306553502
26609.38	968.000933970788	109.366963047375	974.159607443525	-6.44607313327523
22703.13	970.756780766533	103.884294936244	976.29947973898	-6.10818846233068
19359.37	977.769686646235	99.7798742952476	982.847690864994	-5.82677451167423
16500	977.621364880304	99.5818007776148	982.680043613658	-5.8161633333084
14112.02	983.648090614634	100.741745091149	988.793439184254	-5.84764163457289
12011.13	986.860957664491	105.056310436097	992.437090260597	-6.07653827372765
10236.38	988.620440931738	111.374514909688	994.874192448188	-6.42764108100587
8750.684	992.518002148291	118.392090766823	999.554236519747	-6.80236120859938
7449.463	997.309561525406	128.018788711263	1005.49250209691	-7.31472298731717
6363.206	1001.80028056497	140.573559002798	1011.61491073964	-7.98764472896447
5414.761	1008.2007929822	156.079200915101	1020.21054490151	-8.80008169372612
4620.567	1015.16506974447	177.490187956411	1030.56435298825	-9.91728063929581
3941.215	1019.40964467621	191.999731243694	1037.33308076843	-10.6663656606498
3361.769	1027.80748699511	215.747719869644	1050.20726951976	-11.8548749334015
2867.244	1036.16429315388	243.800774497239	1064.46007912581	-13.240384284853
2442.658	1044.76400749724	275.61462514543	1080.50694257638	-14.7782660323416
2083.003	1055.45626686125	312.291149291501	1100.68782730732	-16.4825691010039
1777.843	1067.20884310148	354.392040959509	1124.51253149506	-18.3699722922562
1513.548	1078.43482020463	403.347321487892	1151.39512035672	-20.5063886708502
1292.065	1095.69132874313	457.249174891688	1187.27262910504	-22.65154265582
1101.762	1112.95011428939	521.24928072691	1228.96654533599	-25.0960040633882
939.101	1128.97980542846	590.439109612174	1274.05405820354	-27.608876631695
801.2801	1151.57141688194	675.759176101446	1335.20305282185	-30.4050424522263
684.3433	1179.20787318375	770.864716484381	1408.81638949123	-33.1732078253096
582.9476	1202.67262187542	879.251299529733	1489.80008159935	-36.1698343896233
497.0677	1233.92234825562	1006.06201342589	1592.08201308325	-39.1916195307212
423.5089	1267.05115922789	1153.74136237131	1713.63291616003	-42.3201180611622
361.5036	1306.24231892756	1317.88495685556	1855.55645434555	-45.2542062821374
308.1262	1351.33550307865	1506.10266375382	2023.47544478484	-48.1002767266246
262.7298	1402.8147827515	1726.7770458135	2224.78050167978	-50.909970080699
224.2111	1465.8213082799	1977.12156121588	2461.22769682777	-53.4470730341618
191.2854	1538.40177631409	2266.07363630503	2738.9358792281	-55.8280335292957
163.1722	1627.35435217136	2597.2841414705	3064.99055448222	-57.9303875669692
139.1537	1716.86484671013	2975.63092519536	3435.40453292593	-60.016125828584
118.6706	1834.38154475424	3399.18096109228	3862.56221412513	-61.6463053472902
101.1982	1963.46317789332	3902.29403492876	4368.41920904845	-63.2904650361976
86.24196	2119.37821639044	4470.67044605759	4947.59115745866	-64.6361137138418
73.61024	2300.29260716264	5110.39020599074	5604.23359042547	-65.7665021478554
62.69291	2513.34197105202	5850.11872870264	6367.16396862598	-66.7505571609926
53.57697	2765.36004691051	6669.16576392349	7219.76372021537	-67.4787292228244
45.65746	3055.78683514008	7613.75522418209	8204.09055261919	-68.1319011092735
38.96512	3394.26247870069	8679.14670287832	9319.25990969234	-68.6404011524521
33.18414	3793.10462161549	9899.59270781535	10601.3951181508	-69.0352836648563
28.30617	4273.03441417794	11278.225993953	12060.5640280804	-69.2495698802352
24.17237	4780.59579158323	12815.1534889386	13677.8015436531	-69.5423513135471
20.61345	5398.08176309656	14552.8028025757	15521.7059671845	-69.6486349845438
17.55618	6102.46803556949	16541.2518548189	17631.0274530357	-69.7497620353844
14.98558	6915.31038979434	18755.3869183544	19989.6487273883	-69.7605336419329
12.76553	7846.10245059299	21271.9081598167	22672.7898685821	-69.7536008526118
10.8809	8907.8046606693	24114.9744088932	25707.6053846758	-69.7263280615636
9.278505	10087.9578949206	27287.7725302662	29092.7727133947	-69.7112592715516
7.923394	11427.0700635483	30838.2535805888	32887.3199597952	-69.6678863664603
6.75822	13014.5830750973	34879.6879134328	37228.6449062692	-69.5380541300836
5.761429	14786.9928316194	39432.9816142279	42114.3110591923	-69.4444328263592
4.919708	16707.4138135415	44570.7732305872	47599.2804852064	-69.4514229114598
4.191257	19072.5267063552	50389.2036162811	53877.946472074	-69.2681337127975
3.564097	21580.3621355258	57011.9231754073	60959.5883685166	-69.2671596845457
3.051758	24440.01577204	64243.9800066237	68735.7500724989	-69.171934098995
2.604164	27588.7809774562	72455.0969864072	77529.8775642766	-69.1546307735821
2.214424	31276.4270656902	82037.6402900102	87797.4334154965	-69.1309103208636
1.892567	35489.3716069325	92415.9067923978	98995.9359030264	-68.9923118302215
1.607507	40398.9732990534	104749.448582543	112269.871390166	-68.9097486119431
1.376413	45531.305440428	118016.512964898	126495.047758809	-68.9031595972991
1.17375	51609.1403323709	133194.746692395	142843.774496117	-68.8200807170052
1.001604	58399.3639840751	150303.689472071	161250.379170597	-68.7667383462785
