EC-Lab ASCII FILE
freq/Hz	Re(Z)/Ohm	-Im(Z)/Ohm	|Z|/Ohm	Phase(Z)/deg
6999984	-13.3483004079424	30.6162085109306	33.3995411250732	-113.55662536082
5969734	-13.975758916441	32.7301845111857	35.5891390093486	-113.12243794367
5091109	-14.7675151535209	36.493267467214	39.3679828571784	-112.031411710182
4341796	-14.6037031139294	42.0032658693387	44.4695681149496	-109.171550171566
3702781	-13.9658662392751	49.1698532770609	51.1147717504541	-105.85630177738
3157797	-13.0110258751937	56.9259886019469	58.3939634948164	-102.874400228401
2693047	-13.2569718500403	66.5092463622718	67.8176020979076	-101.272754007892
2296687	-13.0960041957924	77.2510690444425	78.353257714057	-99.6216042338841
1958656	-12.5084924742083	89.7990701747881	90.6660652517459	-97.9299463437603
1670375	-12.5256444076093	104.947443431207	105.69227810286	-96.8061469243907
1424531	-11.7083974986968	122.378051799658	122.936870524133	-95.4650819091075
1214875	-10.7907197511902	142.93745226164	143.344183320417	-94.3172182623424
1036062	-10.8245204701461	167.088713472342	167.438969219388	-93.7066171400715
883578.1	-9.50663267440265	194.248026154467	194.480517609638	-92.8018594857804
753531.2	-8.23845182571577	227.32704560148	227.476279533454	-92.0755208888931
642624.9	-7.02718043096791	264.967760736842	265.060927891505	-91.519178869821
548046.8	-5.48873130642259	310.193859179719	310.242415611021	-91.0137155029566
467390.6	-3.15847951117073	362.049255377278	362.063032236189	-90.4998296565038
398593.7	-1.08263509304893	423.288139443515	423.289523957654	-90.1465438800261
339937.5	2.37021318183481	494.787757359099	494.793434417812	-89.725534492164
289906.2	-105.872058437428	503.063346882156	514.083284822658	-101.884730228871
247234.4	-110.552082656249	605.328687820675	615.341030062464	-100.349948183054
210843.7	-114.288911475165	725.884973251832	734.82715632929	-98.9476339794717
179812.5	-113.193880302221	863.750721381371	871.136133577704	-97.4660224170429
153343.8	-116.828236952746	1025.38579773256	1032.01980171948	-96.5000155744523
130781.2	-112.844274161566	1212.09873254842	1217.34020210315	-95.3188057840106
111531.3	-99.5465913773209	1430.95440487464	1434.41278322699	-93.9794596421128
95109.37	-96.5012875326244	1675.71261026861	1678.48897842932	-93.2959209925217
81109.37	-88.0081669435437	1971.58480788709	1973.54809724515	-92.5558887043308
69171.88	-73.1335651203861	2291.40275438442	2292.56954118032	-91.8280604171761
59000	-78.3263316281891	2688.77057352809	2689.91119022486	-91.6686062627912
50312.5	-48.28484911175	3149.72252358511	3150.09260216792	-90.8782682801877
42906.25	-12.1918255803353	3721.91644608257	3721.93641431862	-90.1876822497165
36593.75	25.1426615982776	4313.82415378538	4313.89742381694	-89.6660614730294
31203.13	-719.967426555713	4795.44409774664	4849.18933327152	-98.5383702264097
26609.38	-715.205585404194	5656.75088368034	5701.78477228066	-97.2058995780535
22703.13	-676.39895043192	6693.67045083483	6727.75888721681	-95.7701819350147
19359.37	-623.128996278631	7918.73273659098	7943.21206437048	-94.4993615454145
16500	-601.137835292267	9184.98548609562	9204.63606433232	-93.7445469461092
14112.02	-639.304925400285	10763.7298507348	10782.6986922218	-93.3990533956453
12011.13	-522.720462708131	12648.9598263276	12659.7559759334	-92.366411561481
10236.38	-447.435509615332	14819.2573845978	14826.0105209129	-91.7293970848545
8750.684	-261.230837369135	17277.3714976204	17279.3462670663	-90.86623616649
7449.463	-205.902236658471	20249.9762685937	20251.0230509391	-90.5825647621207
6363.206	-1.42476926910634	23876.1981185045	23876.1981610148	-90.0034190228024
5414.761	356.430090381624	27694.5654250802	27696.8589643912	-89.2626418894778
4620.567	588.360894808061	32615.5362889533	32620.8426616875	-88.9665373009542
3941.215	946.889984956391	37912.726726176	37924.5494166683	-88.56930566159
3361.769	-6783.75233567106	41037.2438201476	41594.1663710906	-99.3865196505419
2867.244	-6554.44638272906	49000.0699009425	49436.500864051	-97.6188875567838
2442.658	-6074.63396499775	58094.7313210155	58411.4627883063	-95.9693993603817
2083.003	-6079.687718222	68428.4606257535	68698.0118079221	-95.0772467775835
1777.843	-5757.62368912959	80128.4131215021	80335.0037027181	-94.1099221320641
1513.548	-4976.04340255645	94624.8502060727	94755.5976418587	-93.0102442358695
1292.065	-4239.28484539347	111220.273528843	111301.036741941	-92.1828358839211
1101.762	-3140.4366759189	129660.768703948	129698.794456287	-91.3874558727205
939.101	-2221.08406868001	150543.762625766	150560.146386629	-90.8452659111882
801.2801	-4301.48045529411	176903.08208694	176955.370605037	-91.3928989717742
684.3433	840.113882375762	206906.810222697	206908.515793494	-89.7673604112085
582.9476	4515.6800000602	239589.65852909	239632.209521067	-88.9202423111076
497.0677	10559.7751719528	269503.296086551	269710.095200749	-87.7561639587403
423.5089	-52500.713408239	268898.897387482	273976.170358989	-101.047638890185
361.5036	-62702.9913467982	355773.290595385	361256.556237952	-99.9954018994274
308.1262	-51374.1105406004	417812.273543293	420958.899605713	-97.0098907163392
262.7298	-62284.3988589032	497338.978270696	501223.907698501	-97.1382905582281
224.2111	-46294.6531568842	598116.835005265	599905.77862497	-94.4259083560787
191.2854	-90487.0604215139	708240.848872101	713997.904839223	-97.2808424576566
163.1722	-143258.923905224	795076.936704779	807880.222903332	-100.214099889829
139.1537	1445.07887551387	947388.952735447	947390.054844426	-89.9126052122742
118.6706	-124209.791250749	1176560.35154581	1183098.61510871	-96.0264086609972
101.1982	-84315.8237708221	816640.169391515	820981.317937232	-95.8947429596761
86.24196	499708.86442305	532740.476515599	730425.468135553	-46.8324643654489
73.61024	297638.041001056	-251263.376733596	389514.682571165	40.1707585659762
62.69291	50964.7881912785	23029.0703033138	55926.2703424505	-24.3164204985994
53.57697	106718.346865043	124699.701110284	164130.49995233	-49.4429975899358
45.65746	630068.514396512	109421.794263618	639499.383810256	-9.85209523094377
38.96512	312238.610563262	-472446.036618281	566302.222706921	56.5393663615286
33.18414	600741.770455184	209457.75397281	636210.048230113	-19.2218860491023
28.30617	40237.6049898523	-746517.270053248	747600.895761283	86.9147181408112
24.17237	1089486.46015118	19004.5866340192	1089652.20192769	-0.999344391900255
20.61345	44822.9969209312	760971.859149282	762290.80505414	-86.629041384159
17.55618	-217846.203993287	755393.204587618	786178.0091884	-106.08691728992
14.98558	4489824.00397372	-2265924.40123733	5029207.98722635	26.7791649894102
12.76553	916605.6951471	1717419.46657176	1946714.05823653	-61.9106680739635
10.8809	4669159.89105145	-1822411.08355351	5012208.71928357	21.3211060076365
9.278505	3986722.27861231	238191.33979507	3993831.4487641	-3.41913824751468
7.923394	2502009.53034473	1508914.53774885	2921793.07483704	-31.0933824881406
6.75822	1339512.8041702	1106501.86935359	1737423.64995384	-39.5583411674947
5.761429	902822.030696126	-32378.4066326045	903402.446491232	2.05394999018308
4.919708	1369320.03068317	708790.834357179	1541889.03404198	-27.3670999013057
4.191257	1731326.21084556	227864.738859398	1746256.79313677	-7.49776581412761
3.564097	2673637.1966182	-972553.195519248	2845029.97827002	19.9891911283415
3.051758	1392192.59464727	1915556.22234727	2368027.84222738	-53.9910047873913
2.604164	8670608.24075496	18245814.288883	20201217.4467049	-64.5824275684381
2.214424	2862514.28670149	-5497526.23247037	6198127.355764	62.4943974756428
1.892567	507309.587754576	2965894.08071966	3008968.38067063	-80.2936178602794
1.607507	2942347.1830984	-837001.221525226	3059081.23310281	15.8793132976666
1.376413	-716749.10137186	3022355.56207329	3106181.32405575	-103.341188944094
1.17375	16031929.0008211	4017640.78011346	16527679.3569272	-14.0687265580075
1.001604	13388744.5557082	-1849436.13276956	13515875.6574333	7.86470517486324
