EC-Lab ASCII FILE
freq/Hz	Re(Z)/Ohm	-Im(Z)/Ohm	|Z|/Ohm	Phase(Z)/deg
6999984	-14.8908522190527	32.6420293883372	35.8781209429749	-114.521830062497
5969734	-11.8221987585936	38.9023425814028	40.6590290317971	-106.903725922658
5091109	-9.96517662783252	43.7600884692214	44.8803975924677	-102.828792787908
4341796	-8.27297751436577	48.9767966419992	49.6706026364182	-99.5876851324123
3702781	-15.2075935715989	48.6318751466486	50.9541969077931	-107.364899651959
3157797	-13.9148268510004	56.4428419497265	58.1327516435884	-103.848944142139
2693047	-14.6988761008471	65.1943093332142	66.8307932622595	-102.705606861955
2296687	-14.1044416116543	76.4355268295697	77.7259611384152	-100.455028642681
1958656	-13.8919852524386	89.08453969983	90.1612026749009	-98.8634091835875
1670375	-13.9045553923451	104.006962641576	104.932287398041	-97.6146476690998
1424531	-14.0957993450765	121.493421545578	122.308393162645	-96.6179302886902
1214875	-13.4437883944771	141.375523476979	142.013288409168	-95.432079540108
1036062	-12.8857697426799	166.04539080207	166.544633262299	-94.4374821035404
883578.1	-12.1931796485712	193.787042824159	194.170264449721	-93.6003334690747
753531.2	-10.6316294084744	226.387186685672	226.636691291	-92.6887576170216
642624.9	-9.26220973355067	264.665193735914	264.827214055537	-92.0043022349583
548046.8	-8.00416847825324	308.761366521825	308.865097039878	-91.4849732894517
467390.6	-5.3792655590718	361.563949207289	361.603962733162	-90.8523705878478
398593.7	-3.41520712477443	422.786705817677	422.800499356219	-90.4628165829383
339937.5	-0.502079071210913	494.331145137254	494.331400111406	-90.058193788017
289906.2	-120.455970769993	490.634987381781	505.205237242511	-103.793882898027
247234.4	-127.082840400131	597.989013358367	611.343527340789	-101.99783209763
210843.7	-133.390209017044	714.709762478192	727.050887107116	-100.571797441329
179812.5	-133.167935956195	855.680155221867	865.980500477552	-98.8458766750564
153343.8	-133.685905414482	1017.74177571395	1026.48440969158	-97.4832684466763
130781.2	-135.371854718879	1205.43518230004	1213.01257939757	-96.4075401863182
111531.3	-123.628523228655	1424.76003451484	1430.11369048283	-94.9592174717865
95109.37	-118.917874992991	1675.14584730681	1679.36150686566	-94.0605904659033
81109.37	-117.561293772936	1968.35889000831	1971.86647054721	-93.4179610028846
69171.88	-81.4301736086262	2297.78853723833	2299.23096600533	-92.0296269695031
59000	-75.2730443113008	2690.82483211297	2691.87746903823	-91.602372341674
50312.5	-63.5313827277845	3154.73913789984	3155.37878309218	-91.1536890923071
42906.25	-45.8850150051589	3708.68783819092	3708.97167901661	-90.7088446601675
36593.75	-13.9281343369839	4323.24610930685	4323.26854527485	-90.1845882776228
31203.13	-885.592804474561	4647.18361402752	4730.81284324618	-100.789234924581
26609.38	-846.977986358443	5609.51047611656	5673.09258615063	-98.5862122023031
22703.13	-810.368479330575	6634.10801351477	6683.41875145299	-96.9642832758468
19359.37	-773.712702363119	7836.68425534704	7874.78580431253	-95.6385162336936
16500	-726.871892925632	9228.36695944061	9256.94871363239	-94.5036014330985
14112.02	-660.961772348831	10859.3529373488	10879.4492821288	-93.4830490084114
12011.13	-559.391755531802	12701.5803867095	12713.8925375433	-92.521740419741
10236.38	-460.015142663832	14902.4267077508	14909.5249995217	-91.7680717360259
8750.684	-376.233147895751	17360.2812717903	17364.3576678566	-91.2415235223006
7449.463	-178.554823057919	20306.7050765844	20307.4900687459	-90.5037830652902
6363.206	144.953181969358	23706.8414020627	23707.2845490055	-89.6496748800887
5414.761	220.981461759381	27791.1863464802	27792.064899018	-89.5444225331231
4620.567	194.415399412773	32378.8277516156	32379.4114201652	-89.6559774158351
3941.215	624.80977447458	37673.5323087439	37678.7131398121	-89.0498453643662
3361.769	-7370.91310158769	41368.7077487143	42020.2372762184	-100.102716894455
2867.244	-6915.6742455467	48967.253763579	49453.1949566179	-98.0387510290556
2442.658	-6350.35586824376	58336.3421177391	58680.9665166759	-96.2126199444147
2083.003	-6584.67336131634	68457.9499655049	68773.8964779137	-95.4941308693206
1777.843	-5854.2454348641	80160.9950125002	80374.4817153162	-94.1769581940944
1513.548	-5421.01801167303	95091.7140055563	95246.1102029757	-93.2628040319632
1292.065	-3619.91962456706	110523.874992136	110583.139589024	-91.8759023930695
1101.762	-4442.82896837642	129049.721641073	129126.17621877	-91.9717582321949
939.101	-3597.85341538211	150763.61797077	150806.541810476	-91.3670585752138
801.2801	-1086.0278290157	176138.765529908	176142.113586857	-90.3532670525093
684.3433	947.381120577058	203897.475343723	203899.676268825	-89.7337850844139
582.9476	-465.118470096656	241034.539711368	241034.988474832	-90.1105621304919
497.0677	-56061.9643355985	243965.124588913	250323.642233109	-102.94160817777
423.5089	-74828.6028681149	263478.35269067	273898.087148821	-105.854697495553
361.5036	-59169.9997954404	352362.009262457	357295.50017775	-99.5323947051822
308.1262	-36075.1820525693	419735.730562183	421283.161627302	-94.9123495241448
262.7298	-52711.7879658924	502529.856201647	505286.838305343	-95.9880204887234
224.2111	-12093.0193550705	608873.991372324	608994.070978353	-91.137818161382
191.2854	-83412.6441465416	704207.190902013	709130.05642239	-96.7551536806241
163.1722	11768.309191855	768742.326750229	768832.399186319	-89.1229547790249
139.1537	-92692.2494090839	967946.02901889	972374.088606825	-95.4700666419251
118.6706	104920.820555752	847815.171918139	854282.707492476	-82.9452665361449
101.1982	80641.8847837106	912597.228039689	916153.270041206	-84.9501604528666
86.24196	145342.440368466	485884.061839473	507156.530591775	-73.3465045943182
73.61024	223324.847506968	-285603.206815823	362550.933328673	51.9766914445176
62.69291	49676.8074510868	22771.2371067286	54647.1814268879	-24.6261385643353
53.57697	132779.657450397	-59768.9009974349	145611.671781784	24.2342239733099
45.65746	386789.538215687	-242527.372992295	456536.606991869	32.0888107135111
38.96512	494209.373484663	108038.650745463	505880.672584952	-12.3313810133
33.18414	579354.630923832	-192919.605818863	610630.6270424	18.4172699582442
28.30617	-310376.25298641	550733.979407042	632171.918461585	-119.404232617925
24.17237	1083786.07336662	-118035.875000371	1090194.80855971	6.21562377849566
20.61345	704573.08968795	-353014.750083449	788062.594270851	26.6124056231373
17.55618	1188415.04078478	-395003.135681324	1252340.92257722	18.3856770654207
14.98558	6191863.69810378	-26553.121955335	6191920.6329039	0.24570510092006
12.76553	2038658.77015071	992132.241362052	2267257.36639281	-25.9503013246621
10.8809	3071141.6175612	3270725.37291283	4486597.29640762	-46.8025502389651
9.278505	3025128.16548329	-2834103.1208928	4145303.47712379	43.1326810766388
7.923394	1307426.49610989	1373420.38719801	1896219.29182817	-46.4101543633918
6.75822	2294041.77838389	154478.612477122	2299237.11754216	-3.85242783979985
5.761429	671322.370726474	-700195.630482805	970024.559681365	46.2060152305647
4.919708	1652451.02019108	222736.765251601	1667394.98641602	-7.67672918143672
4.191257	421123.10579648	1042884.03348555	1124700.75021525	-68.0108351271624
3.564097	2414725.74469946	1017882.30417459	2620493.23740133	-22.8569422957965
3.051758	1312112.85233997	2181462.41703592	2545666.59525868	-58.973801007682
2.604164	-210157.270816691	-4758311.12780225	4762949.80736138	92.5289023921801
2.214424	2300894.86330191	3046408.80440407	3817685.65698117	-52.9369400612671
1.892567	3270.71670843139	2911632.9705287	2911634.80757075	-89.9356381156385
1.607507	2448391.24205243	-2366394.4331911	3405061.27516039	44.0243351861553
1.376413	-1746425.21617073	4405243.91758576	4738794.67893507	-111.625471112331
1.17375	7096254.99659514	-1630560.05662552	7281178.54986156	12.9406586030642
1.001604	17188316.0606293	-13772680.9078793	22025552.169931	38.7045538386584
