EC-Lab ASCII FILE
freq/Hz	Re(Z)/Ohm	-Im(Z)/Ohm	|Z|/Ohm	Phase(Z)/deg
6999984	21.9035951477193	2.35124769031882	22.0294313611683	-6.12697001885507
5969734	16.2526598578062	-1.64200376053451	16.3353949693038	5.76900890676914
5091109	13.6540075166423	-5.06648310094111	14.5636936343994	20.3579754131775
4341796	9.04391247546993	-5.73313477212259	10.7079964129281	32.3715080896287
3702781	4.45942948537663	-5.31567748057863	6.93851125332929	50.0060317560549
3157797	3.98659442206869	-5.01297643251847	6.40490966361391	51.5063503904947
2693047	2.32398366348914	-5.35088335445631	5.833768313977	66.5238377614594
2296687	2.1416175468213	-3.69450779203785	4.27035285922385	59.9001591708495
1958656	1.79191288822865	-3.27208824710964	3.73061835301777	61.2933060497101
1670375	1.47072332869789	-2.81356692931873	3.17477337385399	62.4027815242014
1424531	1.11796758803062	-2.43599813259014	2.68028700513017	65.3478991827329
1214875	1.07998601537164	-1.93567790217826	2.21657815887	60.8412423493519
1036062	0.783156268014141	-1.83480143766131	1.99495114119966	66.8855460175255
883578.1	0.669064231854457	-1.57580207614705	1.71195768917819	66.9945798859388
753531.2	0.632112267176726	-1.35213266934914	1.49259126147668	64.9442504160632
642624.9	0.555509868514122	-1.14887994720788	1.2761333578874	64.1951653947092
548046.8	0.526363059697593	-1.01646685848154	1.14466717652143	62.6232556837677
467390.6	0.488136854260394	-0.87846873845479	1.00498005598598	60.9404786394685
398593.7	0.459311514022533	-0.764318399878162	0.891711659285661	58.9965474321487
339937.5	0.434380909663665	-0.663184203798897	0.792779958657262	56.7754879984799
289906.2	0.41347949303153	-0.575447129938007	0.708593459263844	54.3013932137476
247234.4	0.395094315082396	-0.498218505090605	0.635862561112969	51.5850862507016
210843.7	0.381188747216533	-0.43153181361003	0.575781700961459	48.5445940375927
179812.5	0.370535065167576	-0.369711567543887	0.523433737634954	44.9362605424634
153343.8	0.362481296461789	-0.321502401273649	0.484516753383556	41.5713882736412
130781.2	0.356573725823859	-0.279024200812588	0.452768513246021	38.0437043177546
111531.3	0.34943188690032	-0.243423937771702	0.425861312005445	34.8621384363285
95109.37	0.342682572602869	-0.212502417741232	0.403222795872939	31.8036496188745
81109.37	0.337027995879098	-0.185075684181489	0.384500817790454	28.7729664432182
69171.88	0.330139841702531	-0.160882992014562	0.36725420650951	25.980794138519
59000	0.320756961660634	-0.136021563458732	0.348406220064337	22.9800651963921
50312.5	0.31509947628555	-0.106386559828378	0.332574472964395	18.6561475221902
42906.25	0.344506940276268	-0.106032105567699	0.360455044783168	17.1072821737689
36593.75	0.328906880979558	-0.0969184038496841	0.342889068592849	16.4185697152878
31203.13	0.322735900249188	-0.0849821563133959	0.333737064470412	14.7521391568837
26609.38	0.318338554506839	-0.0729586234206227	0.326592094235203	12.908441186244
22703.13	0.318392640710388	-0.0648839361945369	0.324936607409247	11.5183539020094
19359.37	0.315870581939536	-0.0581343320262022	0.321175691942827	10.4282902376171
16500	0.313302495483709	-0.051892434117097	0.317570902941244	9.40454643801119
14112.02	0.311259553654886	-0.0465061870635137	0.314714688530143	8.49786364552846
12011.13	0.309635951883546	-0.041431521984531	0.312395572492288	7.62131843306962
10236.38	0.30787821019951	-0.0374050876786089	0.310142117262229	6.92709412059936
8750.684	0.306980896168872	-0.0339197352588406	0.308849184963589	6.30529740301159
7449.463	0.304422075772826	-0.0301953219238825	0.305915932379998	5.66458276494418
6363.206	0.305022036343076	-0.0283652514645473	0.306338097770297	5.31288981113698
5414.761	0.301403117156719	-0.0241480229650459	0.30236892374202	4.58067839684955
4620.567	0.30251328673948	-0.0240989455281854	0.303471659021882	4.55470278224949
3941.215	0.298960779683562	-0.0240620410470598	0.299927540596648	4.60156671918663
3361.769	0.298386760068931	-0.0204765077863803	0.299088525282331	3.92571372545944
2867.244	0.296797173490982	-0.0205282493606732	0.297506254075523	3.95661391230864
2442.658	0.29535444085612	-0.0192032411570846	0.29597805696431	3.71999895869567
2083.003	0.294656535086597	-0.0238443518276998	0.295619733413252	4.62643824411546
1777.843	0.29300929163281	-0.0204507665530501	0.293722111588093	3.9925200314139
1513.548	0.288584516671542	-0.0186474188768503	0.289186357723383	3.697132213092
1292.065	0.286632117733593	-0.0145127028694286	0.286999284774406	2.89851384443331
1101.762	0.286274288310873	-0.0152281627996921	0.2866790279915	3.04493951151474
939.101	0.286332891785731	-0.0151712191142621	0.286734530197868	3.03295495331399
801.2801	0.286286137843591	-0.0150399363295649	0.286680924384929	3.00724805591985
684.3433	0.284502637387936	-0.0143698828262676	0.284865308897261	2.89148307932926
582.9476	0.284955985772492	-0.0115530339233622	0.285190088222588	2.32168400052299
497.0677	0.282276262835557	-0.0130307699264295	0.28257687365615	2.64307894612368
423.5089	0.284044644630282	-0.0127693059234207	0.284331523607406	2.57401461349861
361.5036	0.282138831305729	-0.0129318720800443	0.28243504287899	2.62432317270007
308.1262	0.279640753232997	-0.0132428111434052	0.279954144308845	2.71130274966329
262.7298	0.278950248474743	-0.0134466587089767	0.279274155185467	2.75977841687813
224.2111	0.277412212651346	-0.0125557981162097	0.277696207742293	2.59146347019152
191.2854	0.274987424411143	-0.0107719911811147	0.275198327353711	2.24328160175288
163.1722	0.276450517021095	-0.0113114043827892	0.276681832129147	2.34303928346311
139.1537	0.2716347875753	-0.00410201064741288	0.271665758446716	0.865169135436519
118.6706	0.268517927906324	-0.0123248581287265	0.2688006319468	2.62800729132276
101.1982	0.275120505693844	-0.0151974152301546	0.275539931920791	3.1617552927016
86.24196	0.266457846758545	-0.0065376875915031	0.266538037544821	1.40550099483921
73.61024	0.282260125579495	-0.00265517370885595	0.282272613690341	0.538955901257682
62.69291	0.217980627025036	-0.0140042574120538	0.218430018504534	3.6759396501657
53.57697	0.257113515820376	-0.0224631479404085	0.258092915503133	4.99306247806377
45.65746	0.278940284738423	-0.0211097659962043	0.279737921402099	4.32780576579974
38.96512	0.260161552487059	-0.0148329411376808	0.260584054645081	3.26314876891693
33.18414	0.266878652512235	-0.0132114108805728	0.267205457549432	2.83402457980236
28.30617	0.265151058524506	0.00489723922230912	0.265196279741377	-1.05811095407344
24.17237	0.263221365747678	-0.0122369528703651	0.263505655350363	2.66171898207267
20.61345	0.262404594894711	-0.0170216101607581	0.262956092597837	3.71145157430791
17.55618	0.258470204763048	-0.0156760627184857	0.258945140314711	3.47070330316086
14.98558	0.261061539881084	-0.00767826537676627	0.261174430915966	1.68468098305245
12.76553	0.25743733550852	-0.0228548596806085	0.258449852630537	5.07332355192129
10.8809	0.250599770527571	-0.00209674127359642	0.250608541978201	0.479376426564767
9.278505	0.266185823738415	-0.00123525243369074	0.266188689857164	0.265882840999623
7.923394	0.258583910303308	-0.0144933182498475	0.258989758372104	3.20800330000897
6.75822	0.249598881346298	-0.0122223013112633	0.249897951609585	2.80340743410396
5.761429	0.243566191494068	0.00271408758626068	0.243581312728113	-0.638427390549242
4.919708	0.254051718392367	-0.00128039872888136	0.254054944921407	0.288763337590378
4.191257	0.256982512914673	-0.00032754649057989	0.256982721657786	0.0730283984264616
3.564097	0.261034734979664	-0.00971896801559477	0.26121560291298	2.13227847739762
3.051758	0.249966002987081	-0.00660118381716143	0.250053150904213	1.51273405690251
2.604164	0.251919111292884	-0.00762416435923008	0.252034455019096	1.73348953874626
2.214424	0.250252048716078	-0.00757657231605931	0.250366715708488	1.7341438565483
1.892567	0.247522871556386	-0.00956692462306309	0.247707686578884	2.21341846851287
1.607507	0.250238287875319	-0.00417770339410459	0.250273158617579	0.956458500934713
1.376413	0.24217605663428	-0.00130682689521007	0.242179582548703	0.309175646591267
1.17375	0.255354022470425	-0.000900691507544132	0.255355610937019	0.202094361047898
1.001604	0.239658597787864	-0.00443259326532338	0.239699585683207	1.05959033110047
