EC-Lab ASCII FILE
freq/Hz	Re(Z)/Ohm	-Im(Z)/Ohm	|Z|/Ohm	Phase(Z)/deg
6999984	9.74661448228679	-3.51981169849314	10.3627008187621	19.8562591902932
5969734	5.40206249375702	-2.53916995829016	5.96905882560555	25.1752670447666
5091109	3.10991750634473	-1.58974546209926	3.49268915458199	27.0754701131621
4341796	2.04905375277005	0.244791272068901	2.06362400853987	-6.81258277566451
3702781	1.42849717643419	0.0722064663360921	1.43032092792534	-2.89367578881123
3157797	1.16396644340916	0.103912338017428	1.16859559103003	-5.10151880501968
2693047	1.03545799039679	0.150201331004449	1.04629522110734	-8.253634655776
2296687	0.989501256516067	0.184893069954892	1.00662713253926	-10.5839399522423
1958656	0.953939035088792	0.198352242686734	0.974342493605299	-11.7461218143077
1670375	0.942793912071976	0.198949541778605	0.963556578937583	-11.9158089949137
1424531	0.939903094169921	0.185263932143734	0.957987761395494	-11.1506066707826
1214875	0.941058342346007	0.164797168660355	0.955378935552529	-9.93285936174541
1036062	0.943676929145654	0.138266773081469	0.953752508327047	-8.33561918668127
883578.1	0.93989075427213	0.117768150893357	0.947240184605295	-7.14193037546161
753531.2	0.937029005153421	0.102289979801835	0.942595669662592	-6.22997637126369
642624.9	0.931363778482618	0.0882840005900069	0.935538643044527	-5.41488947669955
548046.8	0.927051678693532	0.0750922711108851	0.930087987315762	-4.63091476336882
467390.6	0.923792888958706	0.0638898699928833	0.925999577310044	-3.95629821256352
398593.7	0.921272040752749	0.0539979387973115	0.922853157586348	-3.35440375694742
339937.5	0.919036766783701	0.0464292809451777	0.920208811536449	-2.89209557121226
289906.2	0.917766659593183	0.0399962506922705	0.918637764045366	-2.49536985358116
247234.4	0.918028961708136	0.0350104688339358	0.918696308615034	-2.18400568009983
210843.7	0.917482715469317	0.0306843109395133	0.917995675437953	-1.91548729053838
179812.5	0.917273515089188	0.0273439743245757	0.917680987280404	-1.70748470329865
153343.8	0.916994699669444	0.0238285717342354	0.917304246176124	-1.48852487118484
130781.2	0.917359577605265	0.0221235608143337	0.91762631096063	-1.38150953308369
111531.3	0.918104816848426	0.0197050400970811	0.918316254525373	-1.22953534271422
95109.37	0.918687265716467	0.0172931236320762	0.918850011870573	-1.07839308706327
81109.37	0.918949228001774	0.0153107430444985	0.919076766378974	-0.954524768376146
69171.88	0.919317295674034	0.013196317869635	0.919412003908333	-0.822394398283232
59000	0.920018774769483	0.0116551636792879	0.920092597931715	-0.725806892053463
50312.5	0.920036264709561	0.010151033980516	0.920092262695212	-0.63213574100091
42906.25	0.920424325471026	0.00901676511527653	0.920468489939736	-0.561269456110154
36593.75	0.920609565189491	0.00775687611204141	0.92064224356989	-0.482751606344324
31203.13	0.920851650274574	0.00696123053586355	0.920877961808176	-0.433122460496328
26609.38	0.920996458084824	0.00606684430339072	0.921016439812337	-0.377416810752072
22703.13	0.921159415622732	0.00538283696887643	0.921175142914878	-0.334806684373327
19359.37	0.921192493834892	0.00450762245649312	0.92120352222403	-0.280360166679651
16500	0.92112474392797	0.00403473824935985	0.921133580426373	-0.250967088014762
14112.02	0.921153958157708	0.00335768552894419	0.921160077663879	-0.208847127029751
12011.13	0.921098366689223	0.00312008711700939	0.921103651095343	-0.194080400367403
10236.38	0.921040918341404	0.00258090893283719	0.921044534401077	-0.16055182692882
8750.684	0.920836811477161	0.00204820135996551	0.920839089363736	-0.127441799159579
7449.463	0.920887947161453	0.00178284773936503	0.920889672964844	-0.110925030207784
6363.206	0.920845789906796	0.00154128549707943	0.92084707978581	-0.0958999568756118
5414.761	0.92079407526956	0.001338725033404	0.920795048442507	-0.0833011879184801
4620.567	0.920391991435172	0.0012244791831166	0.920392805951498	-0.0762256175148506
3941.215	0.920332751989705	0.000965099931469409	0.920333258011913	-0.0600827608201577
3361.769	0.919866142014884	0.000807599078533277	0.919866496531762	-0.0503029785925374
2867.244	0.919451667771865	0.000649745984030089	0.9194518973488	-0.0404890194324375
2442.658	0.919177029611428	0.00053694228647843	0.919177186440301	-0.0334696389997764
2083.003	0.91888475725488	0.000469407357098493	0.918884877151989	-0.0292692395670487
1777.843	0.91828016510892	0.00043970921603937	0.918280270384081	-0.0274355053324664
1513.548	0.917887958290739	0.000241141471889346	0.917887989966288	-0.0150523690415322
1292.065	0.917387393506708	0.000222670107299529	0.917387420530175	-0.0139069461949744
1101.762	0.917011649282958	0.00025398554830704	0.917011684456261	-0.01586926361794
939.101	0.917086799703344	0.000129446619220434	0.917086808839026	-0.00808728781911567
801.2801	0.917088880333839	0.000264786402623214	0.917088918559053	-0.0165427182103367
684.3433	0.916778017817001	0.000105252992742964	0.916778023858917	-0.0065779852064482
582.9476	0.916839630119339	0.000143297726208227	0.916839641317719	-0.00895506104773106
497.0677	0.916755061539134	1.69174312055389E-05	0.916755061695228	-0.00105731339682262
423.5089	0.916583317156717	0.000156161875929911	0.916583330459671	-0.00976170540918394
361.5036	0.916581711847922	8.54507409444867E-05	0.916581715831107	-0.00534154973300722
308.1262	0.916442523738141	3.81495685915299E-05	0.916442524532184	-0.00238510240703484
262.7298	0.916505709898951	8.01939107137054E-05	0.91650571340742	-0.00501335950795628
224.2111	0.916371575106139	9.58017917570237E-05	0.916371580113924	-0.00598997008046134
191.2854	0.916308399168828	4.69699685418055E-06	0.916308399180867	-0.00029369816578406
163.1722	0.916104675150088	0.000115586668075924	0.916104682441982	-0.00722911736314667
139.1537	0.91627427703791	6.9654959931517E-05	0.916274279685487	-0.00435561198055523
118.6706	0.916289302935081	1.51065410376034E-05	0.916289303059609	-0.000944615463309359
101.1982	0.916449674227821	1.74006849536351E-05	0.916449674393015	-0.00108787840336166
86.24196	0.91651212518064	1.87429937418008E-05	0.91651212537229	-0.00117171874456536
73.61024	0.916394448172562	1.71511101987775E-05	0.916394448333061	-0.00107233978795772
62.69291	0.916449248257815	-3.82590892696776E-05	0.916449249056418	0.0023919320639528
53.57697	0.916342130290981	5.45090148115393E-06	0.916342130307193	-0.000340826465447869
45.65746	0.916583498700682	-2.21917788906129E-05	0.916583498969329	0.00138721160906084
38.96512	0.916705822326046	-2.52217856489319E-05	0.916705822673016	0.00157640742963319
33.18414	0.916786044798786	8.94752470231985E-05	0.916786049165028	-0.00559187613961547
28.30617	0.916701702191214	-3.21172033374487E-05	0.916701702753836	0.00200739258566634
24.17237	0.916815832918365	9.39591375129236E-05	0.916815837733028	-0.00587191212677463
20.61345	0.916856588513511	5.10994708632062E-05	0.916856589937483	-0.00319328458720986
17.55618	0.917146649643952	5.22171575800437E-05	0.917146651130428	-0.00326209853727845
14.98558	0.917269938644839	-3.23694746693787E-05	0.917269939215981	0.0020219067525326
12.76553	0.917238831587144	-1.5100319438017E-05	0.917238831711441	0.000943248958967972
10.8809	0.917043814295835	3.36924648655332E-05	0.917043814914771	-0.0021050641280445
9.278505	0.91677040526023	5.48145368568977E-05	0.916770406898935	-0.00342576679624655
7.923394	0.916433222455404	-0.000203221911353583	0.916433244987949	0.0127055167239425
6.75822	0.916473900314735	-2.67449354503539E-05	0.916473900704976	0.00167203007493596
5.761429	0.916404441033362	-1.61981449643268E-05	0.916404441176519	0.00101274644768616
4.919708	0.916132832331349	-6.55269231399574E-05	0.916132834674774	0.00409811328826754
4.191257	0.916018385000037	1.75044243256926E-05	0.916018385167285	-0.00109487937466037
3.564097	0.915986227927777	3.30496349851679E-05	0.915986228524008	-0.00206728500990696
3.051758	0.915547892751479	-1.26604526151844E-05	0.915547892839015	0.000792302081925166
2.604164	0.915323672340964	-1.03004668018097E-05	0.915323672398922	0.00064477003334134
2.214424	0.915240380565443	-1.76095727155967E-05	0.91524038073485	0.00110239257022792
1.892567	0.915314782631654	-5.25002134681075E-05	0.915314784137296	0.0032863455382106
1.607507	0.914868985953922	6.94117962492502E-05	0.914868988587084	-0.00434707376349219
1.376413	0.914554068730501	1.43910844405496E-06	0.914554068731633	-9.01585186979444E-05
1.17375	0.914087951275141	-1.73040779775245E-05	0.914087951438928	0.00108463374336784
1.001604	0.913602146750195	-1.42454054265072E-05	0.913602146861256	0.000893388452762302
