EC-Lab ASCII FILE
freq/Hz	Re(Z)/Ohm	-Im(Z)/Ohm	|Z|/Ohm	Phase(Z)/deg
6999984	-11.6227013198818	31.2163316777565	33.3098566401431	-110.421686784762
5969734	-11.7679269593243	33.3800995577833	35.3937162700884	-109.419755488416
5091109	-13.1108853891462	36.7134077728288	38.9842227828301	-109.652376353239
4341796	-12.9737888421016	42.2755243722877	44.2214784677235	-107.060544471186
3702781	-12.2445166689549	49.4990420403115	50.991012456754	-103.894265103734
3157797	-11.5212251812407	57.6393606328825	58.7795417117583	-101.30357913727
2693047	-11.0313613938918	65.2335973208499	66.1597547880994	-99.5982275558427
2296687	-11.1218757247569	77.0518337213713	77.8503770027017	-98.2135031565706
1958656	-10.7694767662617	89.4335824668428	90.0796719724967	-96.8664220844385
1670375	-10.6365517451936	104.631043988188	105.170298084043	-95.804616698502
1424531	-10.2658132386721	122.000841598394	122.431990395352	-94.8098473745959
1214875	-9.60320962116893	142.185321599222	142.509253430443	-93.8638940548349
1036062	-8.91722581312731	165.962735989949	166.202125899376	-93.0755614245144
883578.1	-8.1193024172426	194.064987824496	194.234761489967	-92.3957470005917
753531.2	-6.75390600949845	226.401689570443	226.502406801201	-91.7087133084503
642624.9	-5.5681917151397	264.47463971506	264.533248971443	-91.2061147305616
548046.8	-4.05117889634467	308.392712396858	308.419320260488	-90.7526186357155
467390.6	-2.53527330607817	361.006635756222	361.015537990766	-90.402369535552
398593.7	-0.100007408457118	420.776950984059	420.7769628686	-90.0136176715558
339937.5	3.31431069184844	492.656413793873	492.667562061479	-89.6145525672471
289906.2	-100.644345418449	501.120795058819	511.127513938636	-101.356119367084
247234.4	-106.327911887419	604.012426072295	613.299792675718	-99.9838281519658
210843.7	-110.873697429597	722.085073735213	730.547623699439	-98.7293943553063
179812.5	-108.812573172537	860.212786416149	867.067594824224	-97.2093373248243
153343.8	-112.515302860136	1020.61122269371	1026.79450780868	-96.2910578665681
130781.2	-109.472560368611	1208.88013006044	1213.82676289848	-95.1744204196376
111531.3	-86.3587452544778	1448.26277774566	1450.83524436288	-93.4124606080513
95109.37	-101.64394468517	1662.214352509	1665.3192021886	-93.4992637140137
81109.37	-92.3461351434491	1966.8146214672	1968.98135183985	-92.6881846592265
69171.88	-99.6672658099328	2320.32227850892	2322.46184899103	-92.4595744989693
59000	-57.5345604593404	2708.41777595557	2709.02880655768	-91.2169436328895
50312.5	-67.6779057782338	3125.41462783717	3126.14729256781	-91.2404921982694
42906.25	-5.62965040206932	3719.19518924153	3719.19944996783	-90.0867270862145
36593.75	45.0788390627332	4320.5014336975	4320.73659696046	-89.4022144083717
31203.13	-701.739870667592	4603.15927668897	4656.34128610138	-98.6678586881093
26609.38	-712.87916654507	5656.44018442748	5701.18516328842	-97.1830958578073
22703.13	-648.015247852632	6648.10844594853	6679.61598226587	-95.5672402839793
19359.37	-630.325692766282	7801.17467696837	7826.59803615427	-94.6193962034944
16500	-624.841492833257	9250.31547105907	9271.39488994406	-93.864352421071
14112.02	-436.618155226685	10916.0043584729	10924.7327915915	-92.2904946536262
12011.13	-416.491693027995	12669.9099279773	12676.7536425309	-91.8827778866111
10236.38	-382.831747020881	14988.1906190961	14993.0790093592	-91.4631435974572
8750.684	-172.149765307971	17315.4045740642	17316.2603094669	-90.5696159159507
7449.463	-138.527688839314	20333.5080845179	20333.9799582799	-90.3903374218543
6363.206	284.674682251696	23439.8078930875	23441.5365055187	-89.3041813296248
5414.761	522.425099516697	27630.459048672	27635.3975043773	-88.9168045643368
4620.567	435.093066696104	32024.7209249754	32027.6764111799	-89.2216181113464
3941.215	-6393.78168593505	34179.2795131891	34772.1669196515	-100.595632485606
3361.769	-6570.44313366823	41064.6349464473	41586.9566842508	-99.0904150620183
2867.244	-6366.76928355866	48766.5970709058	49180.4508009651	-97.438233963979
2442.658	-6407.36220057091	57504.6466106688	57860.5104729228	-96.3578647454804
2083.003	-5913.9494347479	68663.2923413958	68917.5051280641	-94.9227200602367
1777.843	-5370.82954923587	80346.3457875566	80525.6548651457	-93.8243026711914
1513.548	-4392.73776198334	94475.3286746385	94577.3962066335	-92.662115079548
1292.065	-4851.72456929459	110356.846323285	110463.445364144	-92.5173286447184
1101.762	-4401.58714205499	127503.232994003	127579.184796314	-91.9771440354691
939.101	-2664.39120401392	151106.829573669	151130.317687398	-91.0101631646268
801.2801	-1944.54755748299	177113.335488676	177124.009871975	-90.6290316393058
684.3433	2766.88641061608	205454.627670018	205473.25784986	-89.2284363091085
582.9476	-1039.12297116794	239280.367155146	239282.623444434	-90.248816846457
497.0677	-52648.8092411479	242759.851979758	248403.387351591	-102.236583610861
423.5089	-28543.1948764923	296011.791376191	297384.75853261	-95.5077672648447
361.5036	-64884.8713214155	347055.164754386	353068.454990092	-100.589673724537
308.1262	-64499.285093187	439748.579921847	444453.564864557	-98.3442521254194
262.7298	-47889.0886932398	515426.078399004	517646.024914367	-95.3082060648007
224.2111	-29351.0085535107	590223.854877208	590953.196597852	-92.8468939684777
191.2854	-144866.789247388	623495.102978276	640103.530739159	-103.08037855575
163.1722	-68896.3453616596	751485.128379381	754636.736834067	-95.2382479180152
139.1537	-13391.7107870202	989596.275770098	989686.883279682	-90.7753077644027
118.6706	-240681.149834866	1178510.12934796	1202835.62503842	-101.54250253784
101.1982	370330.526738778	747731.102514802	834413.866557012	-63.6520587007047
86.24196	313927.06302357	469267.134212704	564589.978790634	-56.218544373723
73.61024	289034.799021517	-182615.637461025	341891.190425705	32.2851862682143
62.69291	27757.4879197121	41521.7347461681	49945.2959941585	-56.2370738288175
53.57697	167880.408091564	48951.856244522	174871.711979881	-16.2560330479651
45.65746	364377.166606776	260497.462549964	447917.009656199	-35.5614162365518
38.96512	621077.931385733	1059.79971565084	621078.835599651	-0.0977687160202105
33.18414	316045.065570957	820065.865523591	878858.638956634	-68.9238433737033
28.30617	657426.188221979	336985.685732528	738761.494224423	-27.1389194593949
24.17237	267.540660043499	755067.504632626	755067.552031039	-89.979698570084
20.61345	11901.9900897244	1034970.62735986	1035039.06055074	-89.3411371074107
17.55618	1026605.99527034	-218278.355712271	1049554.81519426	12.00355175166
14.98558	1054479.87496261	3594645.98202832	3746118.99741766	-73.6510889582097
12.76553	2395275.52187337	448554.936289888	2436913.28457863	-10.6067322133326
10.8809	2568884.02905194	-780483.434233495	2684831.38126607	16.899934477289
9.278505	2369073.30304639	597753.997859267	2443321.13263154	-14.161041517959
7.923394	2772795.63887975	1085144.4083697	2977571.83658205	-21.3730847388108
6.75822	657226.533610467	1205756.70377122	1373242.85731653	-61.4063506226894
5.761429	-236208.845954102	-861071.251224691	892882.029493608	105.340009508187
4.919708	1363762.24568761	429333.837687007	1429746.48345292	-17.4748231401894
4.191257	119838.801131482	1578306.23692878	1582849.30292966	-85.6579352171917
3.564097	2312248.11002061	-337191.046427592	2336704.75757739	8.29685859184067
3.051758	-1120432.85415294	727467.875376491	1335881.46568851	-147.005385778542
2.604164	2648102.94543243	11484050.1784859	11785408.6781744	-77.0151533565408
2.214424	6695797.90505722	-131084.710306691	6697080.91534251	1.12154540340355
1.892567	2840922.86337602	-1808839.57146809	3367898.94607327	32.485251671118
1.607507	1428365.60465354	-2996663.63598217	3319671.85844853	64.5151050275102
1.376413	2088257.52438945	-516158.456231424	2151101.82002349	13.8836325422905
1.17375	17101254.6017566	9532431.30365677	19578563.6733913	-29.1357862374069
1.001604	14441645.5822477	-3705371.97218499	14909423.4823318	14.3902762022129
