EC-Lab ASCII FILE
freq/Hz	Re(Z)/Ohm	-Im(Z)/Ohm	|Z|/Ohm	Phase(Z)/deg
6999984	-9.08062488322259	31.6621672402035	32.9385880483122	-106.002749789815
5969734	-11.0933070532233	34.1517506363278	35.9082655234559	-107.995038635044
5091109	-12.0877708321149	37.5374016660889	39.4356529999317	-107.84956465086
4341796	-12.0771857514278	42.9176846997242	44.5845946001467	-105.716786554265
3702781	-11.3435094658112	50.0215897073812	51.2916625179427	-102.776997403229
3157797	-10.682698869004	58.0526050256183	59.0273242268889	-100.426781823381
2693047	-9.43103979220068	67.2378686208503	67.8960638640915	-97.9844346300772
2296687	-10.3026734963531	77.5802568216716	78.2613654984947	-97.5646284535849
1958656	-9.97175808713509	89.9388358059548	90.489944996551	-96.3266958414252
1670375	-9.77493490473462	104.858433238714	105.313058894278	-95.3257385733317
1424531	-9.0549569222471	122.171213094259	122.506316383224	-94.2388376359685
1214875	-8.36755356432081	142.821312379243	143.066219710948	-93.3529875889167
1036062	-7.43046909641972	166.957991804187	167.123256605057	-92.5482683656555
883578.1	-6.65225293264093	193.699468159685	193.813664209788	-91.9669453867158
753531.2	-5.96693213774803	226.442423254783	226.521026239585	-91.5094385873038
642624.9	-4.67311565106595	263.995136592651	264.036493982291	-91.0141165734132
548046.8	-2.12576765026176	309.167420887132	309.17472895776	-90.3939470559636
467390.6	-0.677049987164734	361.348602853996	361.349237139392	-90.1073535668392
398593.7	0.667213514523758	421.133416677202	421.133945219437	-89.9092247612829
339937.5	3.11584195598235	492.591213420002	492.601067812164	-89.6375854706114
289906.2	-98.5700161251086	502.106927012535	511.690740812138	-101.106653543084
247234.4	-106.573273758346	604.167717663721	613.495308658966	-100.003881674795
210843.7	-110.25822408886	721.655459323908	730.029778811268	-98.6867662953486
179812.5	-114.477219884633	863.514758948833	871.06990121056	-97.5517369031945
153343.8	-113.751483158712	1024.24439154812	1030.54159233802	-96.3372382648556
130781.2	-107.681908216704	1209.12099898942	1213.90649703936	-95.0892215955017
111531.3	-100.463359541981	1405.21740794282	1408.80404960945	-94.0892956514394
95109.37	-100.06957205749	1679.72412584586	1682.70230825313	-93.4093666359576
81109.37	-83.4712543935515	1976.97354644019	1978.73491242115	-92.4176912841452
69171.88	-85.2568077938242	2318.32101749225	2319.8881575243	-92.1061168351531
59000	-51.7472238122952	2698.25630148794	2698.75246061799	-91.0986851439745
50312.5	-12.5836516687201	3140.65652164888	3140.68173097259	-90.2295654645406
42906.25	-19.5913611381193	3724.79044120964	3724.84196340703	-90.3013570762705
36593.75	13.6740712483336	4330.88707598382	4330.90866275753	-89.8190985001089
31203.13	-888.691528172869	4831.63734900511	4912.68685187112	-100.422026273682
26609.38	-687.443592637231	5604.91244245743	5646.91262378586	-96.9924155035877
22703.13	-683.55923987677	6613.61512001844	6648.84638039995	-95.9009309038635
19359.37	-586.939979004743	7854.10740803332	7876.00798094301	-94.2737880614715
16500	-609.759041652344	9206.23478630832	9226.40585653537	-93.7893522456884
14112.02	-619.643651672033	10874.1405723696	10891.7809123537	-93.2613716374753
12011.13	-485.428472067561	12644.4890784053	12653.8035726577	-92.1985349275077
10236.38	-332.685061567595	14859.6984238721	14863.4221025515	-91.282547300432
8750.684	-290.522326718855	17314.383401996	17316.8206034952	-90.9612898647022
7449.463	-53.4061320950495	20239.7204940942	20239.7909547999	-90.1511848381667
6363.206	408.408946595682	23542.0436763701	23545.5859627187	-89.0061286845977
5414.761	310.983900614206	27560.196445225	27561.9509303285	-89.3535129957856
4620.567	393.84054954556	31631.3142617131	31633.7660151573	-89.2866488210938
3941.215	1202.19163503439	36966.8710201608	36986.4139617313	-88.1373527798409
3361.769	-6501.58458604647	40686.1721354229	41202.3689265894	-99.0790132018952
2867.244	-6742.49259934649	48312.7479154417	48780.9677804086	-97.9448432464337
2442.658	-6366.09021925188	57923.0327467068	58271.8184653244	-96.2719783719902
2083.003	-6239.12519591466	68413.5261832853	68697.4326160837	-95.2108032396284
1777.843	-6080.22357695209	80104.1865714905	80334.6116255371	-94.3406522361633
1513.548	-4099.4609054963	93894.2939434633	93983.7433541417	-92.499968023526
1292.065	-3879.91159810922	110114.508737219	110182.84235056	-92.0179959262619
1101.762	-3985.60842972064	129157.712360241	129219.192601895	-91.7674987782307
939.101	-2355.71155202443	151327.942110364	151346.276598647	-90.8918473799323
801.2801	-2000.64771594572	178038.773242158	178050.013672721	-90.6438139504202
684.3433	1514.49126198911	204344.454723516	204350.066944041	-89.5753622540602
582.9476	-3754.32507775202	244694.986977278	244723.786356373	-90.8790131253214
497.0677	-55458.4773730637	244018.348209871	250241.077714296	-102.804212898497
423.5089	-73693.9015883521	284751.198403638	294132.684555154	-104.509850958822
361.5036	-51503.4715592624	345578.226935046	349395.075114441	-98.4767199676537
308.1262	-52380.6900967367	432876.269361186	436033.945090366	-96.8995963407765
262.7298	-45517.5121649513	531904.167675008	533848.187693589	-94.891150085725
224.2111	-31353.1493576486	553168.023240341	554055.847284612	-93.2440110162829
191.2854	-132190.540769263	673876.674932763	686719.820660003	-101.098460246613
163.1722	-160127.416164266	727188.699195231	744610.09504619	-102.418383119256
139.1537	-19905.857393424	792558.335759036	792808.27363222	-91.4387355953847
118.6706	465482.544929901	889542.033922087	1003971.62796	-62.3776859727747
101.1982	95652.2498116298	914923.24714057	919909.72440358	-84.0315945157129
86.24196	740478.845576583	-105274.489448097	747924.888524902	8.09156208426734
73.61024	411394.715765209	189244.140880348	452834.359360107	-24.7027258328104
62.69291	62987.4885520505	14471.0879930353	64628.4465370851	-12.938911081789
53.57697	123984.20552083	44944.8934222883	131879.212400485	-19.925833455356
45.65746	300710.722243076	309028.097891681	431190.565479467	-45.7815165297302
38.96512	531254.181972523	-126923.682732623	546205.663740048	13.4368457832254
33.18414	441326.333911238	12196.049556675	441494.820613246	-1.58296550455626
28.30617	1008740.27597388	175564.232657187	1023904.16746899	-9.87303683835581
24.17237	584494.980536842	-288395.287136753	651771.60410335	26.2621622525518
20.61345	690578.586733991	-363546.964503625	780426.280858939	27.7640336026165
17.55618	862393.386815284	-458980.746758223	976926.650019065	28.0226839400724
14.98558	1712314.40937616	626212.943909111	1823228.80837171	-20.0880435367354
12.76553	1712932.07924874	1335250.24376997	2171872.35389357	-37.9368247706508
10.8809	-1787320.81474855	4073560.12690251	4448416.32520197	-113.690009935526
9.278505	1375371.02796199	2376695.57446919	2745965.64404194	-59.9424434561301
7.923394	-553375.721979706	1955889.55821495	2032665.40621196	-105.797688194938
6.75822	1668313.10128954	-351372.904451545	1704913.9338738	11.8935610437288
5.761429	353959.722527907	-876732.508891649	945487.904375026	68.0147885359488
4.919708	851991.050288381	1188518.60708343	1462349.21586981	-54.3651061205661
4.191257	1250145.57141208	312247.556700964	1288550.53699378	-14.0237837485574
3.564097	1274639.74201858	1933108.38218712	2315516.03086985	-56.6002144793715
3.051758	2353630.22810779	-219944.63981196	2363884.7043045	5.33873479135974
2.604164	8450258.62760061	-845528.968638413	8492454.89302977	5.71397058096887
2.214424	6173303.61021458	-6567473.98460942	9013400.69021731	46.7720345067964
1.892567	1028275.80362223	2491561.70452458	2695409.21861011	-67.5738975125956
1.607507	2997809.74480586	310061.867776812	3013801.85611168	-5.9050749239568
1.376413	-2724824.62283226	-3975851.04892706	4819964.81195115	124.424546114641
1.17375	-1205083.15661779	9023167.26102722	9103283.62926463	-97.6070846262041
1.001604	17672539.7164341	-7288070.23801593	19116344.5204148	22.4110149734241
