EC-Lab ASCII FILE
freq/Hz	Re(Z)/Ohm	-Im(Z)/Ohm	|Z|/Ohm	Phase(Z)/deg
6999984	-11.1773707912787	32.460269737604	34.3307839881897	-109.000636861278
5969734	-12.5040559938863	32.9982289511627	35.2878807837988	-110.753257460804
5091109	-13.3031066504502	36.3882427070824	38.7437330914664	-110.08180822069
4341796	-13.6450807225905	42.076774054456	44.2339591575947	-107.967364773539
3702781	-12.9042089369698	49.2538774820276	50.9162356749157	-104.681165339566
3157797	-11.9906473251011	57.4026381306774	58.641610547771	-101.798671968043
2693047	-12.4830224196623	66.4745582769903	67.636474973573	-100.635510348148
2296687	-11.6604416816407	77.0014169509775	77.8792919373901	-98.6109639790528
1958656	-11.6082350235452	89.5099923756926	90.2595693290103	-97.3892460724953
1670375	-11.3982488214621	104.454437473064	105.074495402121	-96.2275741428676
1424531	-10.8498950731621	122.011802877389	122.493266200594	-95.081658552606
1214875	-9.91515855580681	142.184649455168	142.529943906099	-93.9890280372915
1036062	-8.94275112770409	165.784872091053	166.025891390406	-93.0876508339917
883578.1	-8.79660497958173	193.728627437481	193.928237624069	-92.5998345672173
753531.2	-7.79218843238745	226.5023867834	226.636381499403	-91.9703258377071
642624.9	-6.55386076223541	264.303176565762	264.384421314198	-91.42045824172
548046.8	-4.90194023758695	308.666818036139	308.705739458546	-90.9098382546994
467390.6	-3.27655315571469	361.853325456375	361.868159616758	-90.5187945595226
398593.7	-1.02567488631768	421.970696928244	421.971943469089	-90.139267316028
339937.5	1.58654845802289	493.738451974391	493.74100102592	-89.8158899364561
289906.2	-100.534169668197	502.576469101986	512.533146797251	-101.312001616859
247234.4	-107.656246977306	604.531318944125	614.042330053525	-100.09750297852
210843.7	-112.723418682772	725.975018157965	734.674278921611	-98.8259377437859
179812.5	-116.646359762862	861.941013362142	869.798070681744	-97.7070084656749
153343.8	-111.537398545862	1026.41080632955	1032.45326026143	-96.2018483378662
130781.2	-109.669647182145	1209.85769762171	1214.81812630844	-95.1795197440143
111531.3	-54.6388690538771	1451.44592050404	1452.47398123316	-92.1558495717704
95109.37	-89.538011702443	1682.00607547177	1684.38757222427	-93.0471427178759
81109.37	-85.9715881307178	1968.42075434884	1970.29728216758	-92.5008274602187
69171.88	-67.137941591329	2293.97901159347	2294.96126521396	-91.6763984888049
59000	-66.0702372408897	2708.51704303999	2709.3227656902	-91.3973680425762
50312.5	-19.2384692274809	3175.84545326082	3175.90372361878	-90.3470791083219
42906.25	-8.48548986876185	3722.23314741732	3722.24281949346	-90.1306156533215
36593.75	37.1691048781663	4303.70244853499	4303.8629518008	-89.5051749241567
31203.13	-664.220003768072	4761.32398253914	4807.43115188434	-97.9416919785605
26609.38	-692.143708667123	5631.30270071139	5673.67896699195	-97.0070832231431
22703.13	-663.936966332737	6651.59501135062	6684.64871854068	-95.7001664924497
19359.37	-614.066980948879	7903.20599546109	7927.02612987896	-94.4428679068146
16500	-637.359311572293	9213.49638941757	9235.51528664527	-93.9572288796617
14112.02	-491.473340383329	10748.8134548623	10760.0435283383	-92.6179400335434
12011.13	-349.863574877396	12670.8510663565	12675.6803078499	-91.5816312694903
10236.38	-325.917879133142	14802.8558250262	14806.4432947433	-91.2612905662327
8750.684	-175.475335348361	17301.8116115797	17302.7014259597	-90.5810750718533
7449.463	-36.0430392162851	20298.2177301925	20298.2497305304	-90.1017385804469
6363.206	118.988004480348	23715.2194568669	23715.5179583447	-89.7125283502145
5414.761	563.490253158083	27631.3451670251	27637.0902412806	-88.8317203317599
4620.567	664.925160405717	32745.0667733058	32751.8171016082	-88.8367050645775
3941.215	675.524421967129	37767.8403111325	37773.8811219059	-88.9753035552197
3361.769	-6626.06329704991	41211.7312458921	41741.0051040958	-99.1339025586687
2867.244	-6529.3318707653	48573.8864694769	49010.7602616836	-97.6558433345697
2442.658	-5942.34314617779	57871.7290404208	58176.0127904518	-95.8626573231488
2083.003	-6367.41086895373	68549.0025264108	68844.0968314637	-95.3068882618719
1777.843	-5861.19293602225	80515.4780730202	80728.5314616851	-94.1635509816883
1513.548	-4904.09133353258	94637.0697640208	94764.0495405709	-92.966412964542
1292.065	-4512.55531618188	109856.671022682	109949.312520213	-92.3522022081617
1101.762	-3221.74595495437	128469.381598081	128509.772605789	-91.4365583557632
939.101	-2840.77073546333	151105.729882521	151132.430608725	-91.0770273393186
801.2801	-1079.98844266035	174423.714841484	174427.058319916	-90.3547567427767
684.3433	-472.818709760292	206680.693676481	206681.234504064	-90.1310740195576
582.9476	-1023.53869060288	242389.727387959	242391.888425871	-90.2419413529154
497.0677	-8147.28264328808	277864.423410501	277983.841278086	-91.6794924608986
423.5089	20405.9834042101	309785.403123006	310456.760510665	-86.2312940827792
361.5036	-52077.8770638465	355375.196191309	359170.760707895	-98.3369755614212
308.1262	-58598.0832151506	415817.554298863	419926.15281687	-98.0214477036427
262.7298	-79031.6799293704	476856.829282874	483361.605908222	-99.4103546948193
224.2111	-38221.2795395048	589121.131719123	590359.69886812	-93.7120602391252
191.2854	10659.0255469026	727858.076533485	727936.119725237	-89.1609991766216
163.1722	-84454.9529161816	835093.280790624	839352.980988167	-95.7748228931552
139.1537	-57929.6496242193	940839.361170564	942621.105128365	-93.5233852371886
118.6706	45383.3120761976	1038921.96955704	1039912.7385715	-87.4987340213881
101.1982	336997.456791367	1064738.87074071	1116797.27289694	-72.437048686107
86.24196	106336.158182143	561140.666002024	571127.153599032	-79.2696849846011
73.61024	282648.0138052	214373.134739137	354747.432134341	-37.1783375118787
62.69291	47904.0415304883	-28786.8098503058	55888.0811650606	31.0027749424186
53.57697	84102.192827764	100001.676235672	130665.657647228	-49.9359017219309
45.65746	114139.308798403	323917.148852891	343438.642458829	-70.5889733179126
38.96512	142171.216998367	375491.923828462	401505.715778986	-69.2620030643896
33.18414	583500.893285267	189712.435624005	613566.704356663	-18.0107907800666
28.30617	901192.740923257	280257.760413132	943765.208388483	-17.2749296246242
24.17237	705696.800750174	-448440.724083588	836126.221096817	32.4342469681955
20.61345	765002.111106364	629586.161281052	990760.800836309	-39.4539081501762
17.55618	1054276.10283401	-264857.743761393	1087036.21164948	14.1021414566195
14.98558	68907.3970382658	4050048.53429641	4050634.68601195	-89.0252654749551
12.76553	2201371.56738168	178054.625216131	2208560.66867934	-4.62421631378595
10.8809	5252109.90175661	1649016.92163094	5504899.20234286	-17.4308428998352
9.278505	4837214.7880267	3853878.56528845	6184741.45793452	-38.5448361236878
7.923394	1462641.20032151	3160375.58314923	3482426.32476895	-65.1650110545271
6.75822	1863521.98736445	685799.989356332	1985707.889593	-20.2042622958998
5.761429	875916.383628856	-194875.642474657	897332.729336986	12.5429915157757
4.919708	797411.534407848	-1362117.4555501	1578362.79667286	59.6544175725179
4.191257	1210970.05167868	-478320.970711053	1302013.60095992	21.5535206076534
3.564097	2546291.16578405	-662103.776727942	2630965.62351303	14.5756509672495
3.051758	1441356.55356759	-1016418.5750934	1763693.69061273	35.1907984867714
2.604164	3971681.75451657	2583663.5736779	4738098.08057092	-33.0448595496223
2.214424	6546553.90626535	2909406.81028647	7163938.58400387	-23.9612267726639
1.892567	858740.306658037	-3368391.99633151	3476132.84487652	75.6976369066375
1.607507	837470.365784894	3148797.47110981	3258263.6676051	-75.1061152789444
1.376413	2423107.2632999	-3721925.5128037	4441191.09387513	56.9344264908492
1.17375	6390320.40537976	-5099885.30131098	8175880.68466882	38.592110871364
1.001604	14853269.395427	7862412.96271267	16805866.5152785	-27.8940090784419
