EC-Lab ASCII FILE
freq/Hz	Re(Z)/Ohm	-Im(Z)/Ohm	|Z|/Ohm	Phase(Z)/deg
6999984	33.997169522254	83.9091275620249	90.534795651976	-67.9438563609116
5969734	32.6513839220295	84.0502530866268	90.1696063867963	-68.7701187972697
5091109	31.5652706249881	86.8999074068125	92.4551795030507	-70.0371003696425
4341796	35.2012483269421	96.8684787690649	103.066144115358	-70.0292508478492
3702781	44.2217023565222	101.250214559504	110.486039424239	-66.4063814134576
3157797	52.0537089266359	109.11816416137	120.898148716043	-64.4969995611841
2693047	61.7627356823965	121.209473128402	136.03812662279	-62.998714926917
2296687	74.1872517576379	131.199228672743	150.721550972891	-60.5137969694346
1958656	91.0690603833073	140.542841080615	167.468993960403	-57.057537932289
1670375	111.884100202486	148.356928584368	185.816657318732	-52.9780497830678
1424531	132.742539960181	154.086222206222	203.379315046701	-49.2556862275516
1214875	155.588355577767	156.897534310909	220.962830956332	-45.2400427654418
1036062	178.79706070013	156.455068057001	237.584884274498	-41.1873117452532
883578.1	201.625671339946	153.057156833069	253.139101288416	-37.2026939477497
753531.2	223.235290645259	146.467675940107	266.995833459568	-33.2694188982679
642624.9	243.540782564848	136.350841499711	279.112279826556	-29.2430955028569
548046.8	258.729309547588	128.333608781886	288.808536511568	-26.3820995078066
467390.6	274.865847348617	117.273631548605	298.838315306574	-23.1058924577808
398593.7	284.762265764356	104.299199445964	303.262050062844	-20.1161471165866
339937.5	294.989517863138	92.856323509805	309.258973135598	-17.472875083686
289906.2	302.595968285488	82.3396096994651	313.598678804762	-15.2222338390546
247234.4	308.620979218652	73.6142602342951	317.279006749142	-13.4158755279236
210843.7	313.379326184956	65.2910253507926	320.108606681381	-11.7689312641319
179812.5	316.965816749888	57.718202573576	322.178087237863	-10.3202533157672
153343.8	319.872904499201	51.5658129634709	324.002635945047	-9.15770476071293
130781.2	322.062030548896	46.0579097727217	325.338719758209	-8.13865348544915
111531.3	323.988582285602	41.4415469518728	326.628234029452	-7.28915188092048
95109.37	325.599616301623	37.6306528326113	327.766954051766	-6.59261854853584
81109.37	324.604379618702	32.9984464837563	326.277337150442	-5.80460104500266
69171.88	328.378214077252	32.8687085509428	330.019095632923	-5.71592895071263
59000	329.515174914318	30.9531953777247	330.965784942953	-5.36636453511434
50312.5	330.230752861866	30.0293657448527	331.593294477969	-5.19587234880623
42906.25	331.436311419194	29.3795539523193	332.735911373566	-5.06563732309961
36593.75	332.434403132008	29.4777175023531	333.738772417714	-5.06729431704313
31203.13	332.07974390435	31.554637096629	333.575555809892	-5.42801995049057
26609.38	334.7813107286	31.2596492362734	336.237552458874	-5.33443130536051
22703.13	336.112769709484	33.2692531784923	337.75529184431	-5.6528611943714
19359.37	337.2636134168	35.1832973717167	339.093806119934	-5.95554677612988
16500	338.80024467927	38.1068406319657	340.936558757906	-6.41741951394074
14112.02	340.714669082813	41.6865371381574	343.25537593282	-6.97548613597611
12011.13	342.364385965785	45.8870402606937	345.425814382214	-7.63384902004913
10236.38	344.315181939552	50.9762448951646	348.068272121546	-8.42152847848318
8750.684	346.927544827165	56.4920647446841	351.496905731647	-9.24860451491043
7449.463	349.461168377886	63.0818529708195	355.10903730864	-10.2323730491501
6363.206	352.776369779798	70.8183113486735	359.814397012252	-11.3510043892076
5414.761	356.050090363929	79.7703174472357	364.876650929866	-12.628150232866
4620.567	359.6556764727	90.1935155276039	370.79249704149	-14.0781574433154
3941.215	363.948628304195	100.75215344146	377.636863226562	-15.4737222040714
3361.769	368.459502546752	113.112117724785	385.43061138574	-17.0657828406676
2867.244	374.377533185279	127.609243561054	395.528325655849	-18.8220417221923
2442.658	380.238517883378	144.566222136744	406.793219049971	-20.8167427197387
2083.003	387.397088852179	163.644809551871	420.542659125577	-22.9002349867966
1777.843	395.228637529915	185.061928838116	436.409891534366	-25.0908818206997
1513.548	404.732424153548	210.276979521002	456.097295845616	-27.4539373847357
1292.065	414.285327263045	237.332815752143	477.45072815767	-29.8072240183648
1101.762	426.496997277128	268.814039646404	504.143507939381	-32.2225562516285
939.101	439.986968833291	304.191966304031	534.903061411149	-34.6586582049658
801.2801	455.609323688275	343.987874672864	570.883099901934	-37.0530316420836
684.3433	472.705950166291	389.364376919749	612.417776796788	-39.4780296733512
582.9476	493.89765623608	440.296489368016	661.661464334513	-41.716146060581
497.0677	517.637785141834	497.811798438199	718.168130224962	-43.8814796190953
423.5089	545.124693896681	560.978490734945	782.213397330426	-45.8211652091532
361.5036	576.626883504035	633.930615032246	856.951916652701	-47.7101669526539
308.1262	612.702539086602	715.59747198099	942.063768175357	-49.4294929747045
262.7298	654.907920865269	806.195066722828	1038.67938769396	-50.9115170667458
224.2111	702.077265627902	908.082642998803	1147.83560383325	-52.2908671218997
191.2854	755.473793741453	1020.87637679617	1270.01150771581	-53.4976422891601
163.1722	816.308325385038	1149.93213266786	1410.21388159207	-54.6300016979889
139.1537	889.418126753963	1288.68603303381	1565.81489836281	-55.387555035555
118.6706	970.068220168233	1444.72856898911	1740.19337713764	-56.1204711879305
101.1982	1062.31917994883	1618.91475939019	1936.33856498768	-56.7274282986243
86.24196	1167.82172254412	1815.36875576834	2158.55768861196	-57.2469348610474
73.61024	1286.39198064887	2029.12939680213	2402.53416975582	-57.6268345271089
62.69291	1418.31056852614	2268.42358445267	2675.32249033534	-57.9847039659476
53.57697	1568.23357338256	2530.76162808025	2977.26568496122	-58.2148038164722
45.65746	1735.1642778819	2822.40230065357	3313.11783943342	-58.4175162843895
38.96512	1924.31868457501	3139.24701715664	3682.10187726133	-58.4922299808745
33.18414	2133.35494350906	3504.63575350965	4102.88618898607	-58.6701333762626
28.30617	2370.42264603584	3900.60841370355	4564.38928202826	-58.7127041404408
24.17237	2626.84147701129	4331.76265997427	5066.01064820182	-58.7667913563012
20.61345	2921.17125019929	4811.58739081626	5628.90883675094	-58.7375705087495
17.55618	3245.47225018996	5354.17865314708	6261.01582625128	-58.7775629628497
14.98558	3602.9243237031	5938.78875431309	6946.24182926906	-58.7557905666347
12.76553	4003.22333397472	6604.71633141726	7723.21661486777	-58.7792818362351
10.8809	4444.85457585339	7335.12849485372	8576.76175700946	-58.7854697804225
9.278505	4919.20273129451	8139.66909053092	9510.66603424386	-58.8533652791455
7.923394	5455.84825691821	9033.5790491048	10553.285300746	-58.8700383509838
6.75822	6062.71479957897	10021.7523999652	11712.9002346661	-58.8279259530417
5.761429	6723.72150911484	11139.9713494677	13011.8174210636	-58.8861957608065
4.919708	7488.69741776557	12363.3671076063	14454.529921526	-58.7960122038529
4.191257	8247.49772047723	13706.4108645605	15996.4657795845	-58.9636023589286
3.564097	9149.90196191011	15299.4252868063	17826.752929772	-59.1182436678344
3.051758	10102.0794915961	16938.0797432026	19721.8294141699	-59.1876288568248
2.604164	11185.7950337882	18877.5246862381	21942.7197224376	-59.3513228988937
2.214424	12375.2793000246	21010.9335721967	24384.5620696555	-59.5022399821311
1.892567	13724.2083602935	23419.7454169399	27144.7669083937	-59.6292647253116
1.607507	15192.7745112906	26201.1677487792	30287.3172920711	-59.8926534237333
1.376413	16808.9109487341	29135.0414727158	33636.1431929902	-60.0180165893079
1.17375	18674.9426774026	32588.395370789	37560.0452189176	-60.1849191950295
1.001604	20694.2403593443	36454.0064763729	41918.3274025783	-60.4172535809551
