EC-Lab ASCII FILE
freq/Hz	Re(Z)/Ohm	-Im(Z)/Ohm	|Z|/Ohm	Phase(Z)/deg
6999984	-12.0726395130056	31.868664181355	34.0787379683427	-110.747928953309
5969734	-12.5178115910724	33.7784860695771	36.0233497634826	-110.333966946327
5091109	-13.3761826714036	37.0082750594659	39.3514254600242	-109.871761892995
4341796	-13.3346699129925	42.8713191857997	44.8972541523331	-107.27775277132
3702781	-12.4825459020485	49.9356993282609	51.4722062826068	-104.0347543551
3157797	-11.5313856785279	57.8321979824074	58.9706365841791	-101.27653552934
2693047	-11.6013662020176	66.1427588009372	67.1524849841931	-99.9484193602267
2296687	-11.1351396063025	77.5556013179514	78.3508942504224	-98.1704740261562
1958656	-10.8650990000615	89.9812805641603	90.6348786519146	-96.8850432127802
1670375	-10.7446580881116	104.812095857537	105.361392907838	-95.8531462237496
1424531	-9.96661171749039	122.252862364901	122.658451423204	-94.6607064605233
1214875	-9.48848872014844	143.011414967274	143.325839363089	-93.7958839645529
1036062	-9.37813844763184	165.841409849439	166.106359606105	-93.2365625649462
883578.1	-8.04648488460682	193.940481851161	194.107332215089	-92.3758080693211
753531.2	-7.09034372670592	226.471419361359	226.582384049845	-91.7932245832321
642624.9	-5.27913894712883	264.720450982567	264.773084879179	-91.1424591195225
548046.8	-4.66382729995232	309.440337551617	309.475481725358	-90.8634859690733
467390.6	-2.577575819701	361.420391297653	361.429582550813	-90.408614775519
398593.7	0.27603597459708	422.508211019823	422.508301190676	-89.9625671320096
339937.5	4.4352405917228	491.844254835078	491.864251977494	-89.4833452321622
289906.2	-101.833184081108	502.744422760344	512.954142196676	-101.450600107501
247234.4	-107.071090977242	604.062229309637	613.478113221315	-100.051379876012
210843.7	-108.222033915462	719.641884226316	727.733776980018	-98.5522358050519
179812.5	-114.042511654245	864.662109594689	872.150364463117	-97.5135206182592
153343.8	-113.075676470402	1023.18602936667	1029.41525115008	-96.3063558396981
130781.2	-108.391043446893	1208.94213785727	1213.79146107823	-95.123312584312
111531.3	-118.673157564076	1382.43437986296	1387.51869643379	-94.906448058855
95109.37	-86.8451422880967	1677.58856920403	1679.83495804292	-92.9634335840073
81109.37	-77.0018831190729	1967.01070730327	1968.51731327149	-92.24179324104
69171.88	-80.9568893873771	2316.30379776011	2317.71812381428	-92.0017239248802
59000	-60.248984978789	2693.84771442302	2694.52137655152	-91.2812294975032
50312.5	-43.350433038668	3107.42914635908	3107.73151344941	-90.7992574002392
42906.25	10.2826669024874	3717.0737354152	3717.08795803276	-89.8415011498985
36593.75	6.28235407012003	4322.73709469194	4322.74165984949	-89.9167305083992
31203.13	-690.712481596445	4710.80450519741	4761.17242057262	-98.3414446322233
26609.38	-693.095189484421	5638.85769411304	5681.29360587395	-97.0073124062612
22703.13	-711.323087755349	6669.61452763941	6707.43904053346	-96.0876578492967
19359.37	-634.570418864128	7785.62032078617	7811.43798515587	-94.6596178407126
16500	-579.2155148691	9230.99284499416	9249.14696158508	-93.590421299219
14112.02	-595.369147163755	10978.8495053804	10994.9807131794	-93.1040374269324
12011.13	-477.076665849953	12632.903046035	12641.908143774	-92.162725065312
10236.38	-335.287703971119	14953.8951929602	14957.6535354471	-91.2844380611559
8750.684	-282.847273210245	17234.0206889442	17236.3415981152	-90.9402623136209
7449.463	-184.205773425301	20178.2507130731	20179.0914960659	-90.5230344472066
6363.206	-176.314897602139	23477.9301757607	23478.5922125031	-90.4302725801749
5414.761	490.131043188738	27598.7219975403	27603.0738204463	-88.9825801192179
4620.567	533.929068816527	33079.6145275532	33083.9232489443	-89.07528469047
3941.215	112.383161813434	36927.6198150858	36927.7908245616	-89.8256302189733
3361.769	-6482.7107043862	41107.1189665051	41615.1507002338	-98.9619006285704
2867.244	-6549.07387010754	48844.3065069566	49281.4026454366	-97.6367065442124
2442.658	-6311.67945309342	57673.3175349427	58017.6598373713	-96.2455077218552
2083.003	-5747.97734420233	68163.1899820517	68405.1146631503	-94.8201606149082
1777.843	-5727.52307289153	80202.0161433406	80406.2678776175	-94.0847692848578
1513.548	-4673.01348197121	94513.3303631279	94628.7835245304	-92.8305646713165
1292.065	-5029.42250898976	111104.354515643	111218.131089817	-92.591870453865
1101.762	-1234.67387258418	129002.019826365	129007.92820154	-90.5483591817514
939.101	-2677.46529852085	152081.255371512	152104.822592184	-91.00861617858
801.2801	44.0080288077463	175102.809468729	175102.814998927	-89.9856000353739
684.3433	-1744.54766317127	205849.34147074	205856.733750651	-90.485563007405
582.9476	954.545992701068	246185.390024821	246187.240570517	-89.7778455388594
497.0677	6994.45443794508	279996.339256184	280083.68818935	-88.5690191826924
423.5089	-28600.8554536959	306500.859147776	307832.398540193	-95.3310670808264
361.5036	-62601.3153786615	348803.81944231	354376.959105248	-100.174794985083
308.1262	-87342.9079617769	415386.818573653	424470.249388529	-101.874531580118
262.7298	-65446.8523805599	528163.012357164	532202.459698108	-97.0637487490815
224.2111	-88404.1026027546	583229.848390559	589891.804834304	-98.6190999797437
191.2854	-17337.6768798632	658532.325668524	658760.517175996	-91.508120784375
163.1722	-121574.445702165	738999.743781659	748933.219424233	-99.3421727171988
139.1537	174785.599835769	901402.187752597	918191.652104896	-79.0262925132295
118.6706	65487.0909330645	871904.687047304	874360.533403659	-85.7046885732744
101.1982	453104.238143467	1114228.84992391	1202833.89569231	-67.8707469462529
86.24196	237551.635463935	539137.506837885	589151.958997813	-66.2210295667327
73.61024	197739.972566801	222677.701777941	297802.712579696	-48.3946108755613
62.69291	68702.727378714	10340.975301335	69476.6185090834	-8.55977173529235
53.57697	151884.794953322	23900.1704184965	153753.728683391	-8.94257629737515
45.65746	237793.781066032	355201.859259147	427450.866340021	-56.1992356960271
38.96512	428972.944467681	-131775.118150244	448756.580841756	17.0763023457862
33.18414	185914.113266239	505137.927683787	538264.232042445	-69.7940516729481
28.30617	614797.571752539	-726616.677656332	951812.928301115	49.7651087327803
24.17237	583159.17850686	336572.915902916	673317.12825101	-29.991584648104
20.61345	-64298.1850037346	808551.637269552	811104.189809205	-94.5467451550718
17.55618	-428149.156494189	1269051.56893521	1339329.52809367	-108.643225788675
14.98558	1471293.47477609	101368.126242652	1474781.33495669	-3.94129531269802
12.76553	1461145.96207713	-1885041.42837965	2385021.74187195	52.2197802482578
10.8809	3288006.86257575	2273957.81530558	3997733.51714875	-34.6674072704974
9.278505	916111.943015087	1433002.07179311	1700810.40386582	-57.4093970438568
7.923394	1702501.67388938	488153.029134174	1771102.85682368	-15.9990213698032
6.75822	1296431.48788843	-220965.160640302	1315127.44819862	9.67260474246314
5.761429	146685.158301395	-654372.285556735	670611.380585395	77.3653451609248
4.919708	1337220.33391586	-486648.050919133	1423019.51740004	19.9977167403331
4.191257	84135.7936653153	1044387.66481177	1047771.17071748	-85.394202744093
3.564097	2052236.65204671	-434361.297079266	2097699.93383331	11.9504385640514
3.051758	66025.9891753165	2603264.83401881	2604102.00016926	-88.5471321949184
2.604164	7084916.55360849	-5400586.05965473	8908556.13213121	37.3170162166122
2.214424	6155546.20506008	8665011.03524589	10628883.5407846	-54.6103549751939
1.892567	1931367.04636829	1516404.26406989	2455536.715239	-38.1370735200491
1.607507	3144221.10672572	-1475393.87635028	3473170.51961913	25.1378414415887
1.376413	-2833376.82092278	816328.778207762	2948629.66197396	-163.927694257731
1.17375	3494223.5321426	9944775.35364669	10540785.308841	-70.6404249279153
1.001604	20194057.9819917	2134351.14738261	20306536.6963541	-6.03330860808503
