EC-Lab ASCII FILE
freq/Hz	Re(Z)/Ohm	-Im(Z)/Ohm	|Z|/Ohm	Phase(Z)/deg
6999984	11.5857937672701	-1.39225649939354	11.6691471572613	6.85233458749069
5969734	8.00364386317894	-1.45402647787157	8.13464861484216	10.2966589137637
5091109	5.82218408348304	-1.01510612386483	5.91001420849994	9.89018546516407
4341796	4.78506772947398	-0.798795049616257	4.85128299596557	9.47727770052509
3702781	4.18314313121444	-0.510343182067734	4.21415906435787	6.95570763288819
3157797	3.99051571025256	-0.309794662749275	4.0025227503214	4.43912458990011
2693047	3.80101232131088	-0.222681305654494	3.80752959681801	3.35282583117962
2296687	3.69115256796653	-0.127249670290056	3.69334533432698	1.97444636653073
1958656	3.62489460785022	-0.0655164455449503	3.62548663253066	1.03545276510719
1670375	3.57977182671939	-0.0177060323396233	3.57981561465882	0.283390311274979
1424531	3.53877227123654	0.00844810585956672	3.53878235529754	-0.136781870656904
1214875	3.51385797968235	0.0248980330780725	3.51394618818053	-0.40597211052892
1036062	3.49391667380137	0.0355661206647826	3.49409769073596	-0.583218896283821
883578.1	3.48328860760521	0.0379228072891239	3.48349503561939	-0.623758525078303
753531.2	3.47501287178397	0.0392517658434123	3.47523454750699	-0.647152964811289
642624.9	3.47099916030677	0.0378135193752778	3.47120512691167	-0.624163033281665
548046.8	3.47009794254581	0.0348509836199744	3.47027294631416	-0.575415211114139
467390.6	3.4735417709361	0.0325941612073266	3.47369469207971	-0.537622170102177
398593.7	3.4794888787828	0.0293307678483049	3.47961250019536	-0.482970189743166
339937.5	3.48131476083743	0.0263331148396301	3.48141435295509	-0.433384416800262
289906.2	3.48117377279797	0.0220588120231578	3.48124366105051	-0.363055680912898
247234.4	3.48026595291591	0.0185024757735033	3.48031513582254	-0.304604245527037
210843.7	3.47866696792556	0.0148662920637078	3.4786987337762	-0.244855461805661
179812.5	3.47707987284695	0.0121959737329954	3.47710126167368	-0.200966035261947
153343.8	3.47560532776557	0.010176761360889	3.47562022678891	-0.167764678020163
130781.2	3.47431251071959	0.00840701190064623	3.47432268219171	-0.138641920843017
111531.3	3.47418416392874	0.00708533396498323	3.47419138892068	-0.11685021595035
95109.37	3.47271553477447	0.00559167415048493	3.47272003655402	-0.0922560598901388
81109.37	3.47213522351527	0.00480778538545653	3.47213855212832	-0.0793360907930568
69171.88	3.47143841574883	0.00377547542366472	3.47144046881859	-0.0623138584743971
59000	3.4712714528839	0.00324363370472769	3.47127296834552	-0.0535384426137514
50312.5	3.47026316523931	0.00302314446598334	3.47026448205597	-0.0499136136637003
42906.25	3.47032851748043	0.00251390329449416	3.47032942801511	-0.0415050111130753
36593.75	3.46970377786462	0.00238231217311655	3.46970459571695	-0.0393394999376445
31203.13	3.469358289413	0.00271746772085554	3.46935935367749	-0.0448784433713568
26609.38	3.46925491932025	0.0026191953326142	3.46925590803157	-0.0432567837350642
22703.13	3.46974329208026	0.0025324647620762	3.46974421626634	-0.041818516429837
19359.37	3.46993516894826	0.00199593711774362	3.46993574298847	-0.0329570308492067
16500	3.4699003170784	0.0017122915014668	3.46990073956056	-0.0282737425867428
14112.02	3.47000053905282	0.00181646876110401	3.47000101449345	-0.0299930743383714
12011.13	3.46996310918771	0.000938421010082673	3.46996323608156	-0.0154951393664534
10236.38	3.4696601700539	0.00121320732292691	3.46966038215997	-0.0200341396673695
8750.684	3.46976062668284	0.000907747345652439	3.46976074542378	-0.0149895327601402
7449.463	3.4695026520356	0.000766571010679209	3.46950273672081	-0.0126592446524077
6363.206	3.4689248072106	0.000600248878931268	3.46892485914293	-0.00991423250382571
5414.761	3.46860791183996	0.000466603035748724	3.46860794322407	-0.00770752566292501
4620.567	3.46920802122022	0.000428377808637477	3.46920804766827	-0.00707488285427541
3941.215	3.46809242535574	0.000226703722582376	3.46809243276537	-0.00374533457943856
3361.769	3.46840470522744	0.000439534975984708	3.46840473307756	-0.00726083057710716
2867.244	3.46877279993819	0.000151510064396162	3.46877280324704	-0.00250258167334847
2442.658	3.46837315244282	-0.000122074734445288	3.46837315459112	0.00201661319546338
2083.003	3.46828817413396	0.000272072224813983	3.4682881848054	-0.00449460638503381
1777.843	3.4682141529654	1.24033014428058E-05	3.46821415298758	-0.000204905693061267
1513.548	3.46895848916714	0.000293814575299349	3.46895850160992	-0.00485284996531274
1292.065	3.46899505925295	0.000402660481215608	3.46899508262218	-0.00665055604077947
1101.762	3.46911599287614	0.000146066157613888	3.46911599595118	-0.00241242275358007
939.101	3.46901526330362	-5.35119193710817E-05	3.46901526371634	0.000883826360119364
801.2801	3.46865641978005	0.000112915449965499	3.46865642161792	-0.00186515409415173
684.3433	3.46872581750206	0.000355034841711171	3.46872583567152	-0.00586440065008047
582.9476	3.46945146715143	0.000172364014366594	3.46945147143299	-0.0028464818281841
497.0677	3.4696950238637	-3.42477253553145E-05	3.46969502403272	0.000565539653261485
423.5089	3.46966415390672	-0.000127662649453246	3.46966415625533	0.00210813804661538
361.5036	3.4701362698839	-4.5483284300149E-05	3.47013627018197	0.000750979219824741
308.1262	3.46973148808666	-1.4435484762045E-05	3.46973148811669	0.000238373590269346
262.7298	3.46992186043194	0.000149988378787924	3.46992186367358	-0.00247662668522904
224.2111	3.47006512797528	0.000130614431300818	3.47006513043346	-0.00215663262143745
191.2854	3.47061743615205	0.000104567621012441	3.47061743772733	-0.00172628745926146
163.1722	3.47103647423691	-6.45910252108462E-05	3.47103647483788	0.00106619252377376
139.1537	3.47156501645597	5.47514057894232E-05	3.47156501688773	-0.000903634084054831
118.6706	3.47143098239937	0.000424627869886589	3.47143100836976	-0.00700845985708589
101.1982	3.47171128705561	-9.44635977226776E-05	3.47171128834076	0.0015589906585768
86.24196	3.47161537034913	4.50681288627135E-05	3.47161537064167	-0.000743807507103088
73.61024	3.47205526806266	-0.00014840428766499	3.47205527123424	0.00244896428288013
62.69291	3.47249854918609	2.59342234601336E-05	3.47249854928293	-0.000427911352053834
53.57697	3.47288746967384	9.14940886315926E-05	3.47288747087906	-0.00150947163521703
45.65746	3.4730468086441	0.000248204694188182	3.4730468175132	-0.00409469903276635
38.96512	3.47326516299072	6.2872802858764E-05	3.47326516355978	-0.00103716419004125
33.18414	3.47327648275561	-0.00017168450820838	3.4732764869988	0.002832137829783
28.30617	3.47433154426614	-0.000319244235827315	3.47433155893326	0.00526470979014443
24.17237	3.47369937642513	0.000134250317772137	3.47369937901935	-0.00221434723309878
20.61345	3.47415239415448	-0.000143503408357608	3.47415239711826	0.00236666061448297
17.55618	3.47439920470343	0.000242497603805608	3.47439921316606	-0.00399899044379431
14.98558	3.47453004270822	-7.65641881087041E-05	3.4745300435518	0.00126256063002556
12.76553	3.47448358095782	0.000172883215184634	3.47448358525898	-0.00285092110518077
10.8809	3.47464984092992	-6.01951465687776E-05	3.47464984145133	0.000992597240904794
9.278505	3.47512734265919	4.22552896560454E-05	3.47512734291608	-0.000696679436622398
7.923394	3.47511271798647	-6.76599581119655E-05	3.47511271864514	0.00111554080571058
6.75822	3.47560007998288	0.000174347465370443	3.4756000843558	-0.00287414365757522
5.761429	3.47591059488944	7.94536852378471E-05	3.47591059579753	-0.00130968870050625
4.919708	3.47574172263638	0.000227597372812208	3.47574173008811	-0.00375182332646842
4.191257	3.47665560184404	-9.51576283412543E-05	3.47665560314629	0.00156821126837384
3.564097	3.47684071866735	0.000109088971972225	3.47684072037873	-0.00179770607546672
3.051758	3.47738943747167	3.81827444679103E-05	3.4773894376813	-0.000629124274829703
2.604164	3.47780977468266	-2.0314773735645E-05	3.47780977474199	0.00033467925855969
2.214424	3.47825779927222	0.000108138269797499	3.47825780095322	-0.00178131317999024
1.892567	3.4782844559006	9.6694951368008E-05	3.47828445724464	-0.00159280032510968
1.607507	3.47828484721051	-8.77386222383428E-05	3.47828484831709	0.00144526770356806
1.376413	3.47849912615002	0.000143611680109236	3.47849912911456	-0.00236548662396075
1.17375	3.47846037378587	-1.61719257883122E-06	3.47846037378625	2.66377360872601E-05
1.001604	3.47884452337765	2.84491486324419E-05	3.47884452349397	-0.000468551019279345
