EC-Lab ASCII FILE
freq/Hz	Re(Z)/Ohm	-Im(Z)/Ohm	|Z|/Ohm	Phase(Z)/deg
6999984	6.97651641115555	-5.36650082342981	8.80176756810787	37.5683326942904
5969734	3.59962554772716	-3.49375491828394	5.01633606458771	44.1449084245626
5091109	2.65597896470014	-0.448949817302566	2.69365554579379	9.59422411608925
4341796	1.88768242418673	-0.698584960855648	2.01280050728262	20.3082770540278
3702781	1.32581010734345	-0.573426995758153	1.44450370722898	23.3889966339329
3157797	1.12819335770878	-0.424714962903053	1.205488719189	20.629139148879
2693047	1.02757764175593	-0.321726329535385	1.07676536021223	17.3849203325554
2296687	0.949339677226276	-0.209636259571473	0.972210462854216	12.4524011587876
1958656	0.945743435354904	-0.133276921617795	0.955088154754738	8.02146642761104
1670375	0.928134810484681	-0.0880573402704651	0.932302698488503	5.41974815880226
1424531	0.939091070442522	-0.075286210602924	0.94210405587272	4.58355579089669
1214875	0.939666141477782	-0.0552007876793922	0.941286133117963	3.36198284266141
1036062	0.926843429983549	-0.0403913054127647	0.927723127477491	2.49533834090242
883578.1	0.939825308837212	-0.0296040479475143	0.940291449916376	1.8041931036232
753531.2	0.924716650553284	-0.0247692598298997	0.925048323085343	1.53434545197705
642624.9	0.92529158794117	-0.0125163776319754	0.925376238307273	0.774990162145288
548046.8	0.926840017887928	-0.0145509616194466	0.9269542325501	0.899443470741245
467390.6	0.933032476584171	-0.010859234210167	0.933095667832845	0.666815157466794
398593.7	0.929792497341599	-0.00327930247519316	0.929798280240102	0.202076713947808
339937.5	0.92834123948992	-0.00506475420427534	0.928355055284793	0.312585662204768
289906.2	0.934777279775404	-0.00276166916086004	0.934781359249776	0.169271900796034
247234.4	0.935895721684736	-0.00360192477616214	0.935902652913157	0.220509682949639
210843.7	0.936764735561568	-0.00291346575383105	0.936769266188016	0.178197093553905
179812.5	0.934915217143652	-0.00216012077848936	0.934917712618891	0.132381612086079
153343.8	0.932168718201921	-0.00557831614026521	0.932185409028254	0.342867283818345
130781.2	0.931195553679318	-0.0049512339036237	0.931208716620125	0.304642920178208
111531.3	0.929650248467095	-0.00170065757912938	0.9296518040165	0.104814034252257
95109.37	0.9299422183228	-0.0035745397326397	0.929949088258831	0.22023414754596
81109.37	0.931280891908775	-0.000839313405951753	0.931281270122725	0.0516375921030474
69171.88	0.928351729965802	-0.00110992486027472	0.928352393471193	0.068502031844928
59000	0.928553100136384	-0.00127963519460383	0.928553981865955	0.0789590272680812
50312.5	0.928621663615914	-0.000333318731355599	0.928621723436494	0.0205657012618022
42906.25	0.928854985815517	0.000417441670210913	0.928855079617855	-0.0257495999386057
36593.75	0.9293658241838	0.00184229172132952	0.929367650179207	-0.113577882095019
31203.13	0.930381119228315	0.00175109470133419	0.930382767117484	-0.107837761720281
26609.38	0.929561303483151	0.00172828698582819	0.929562910140675	-0.106527063468139
22703.13	0.930185222514653	0.00260676533312943	0.930188875127056	-0.160566150873698
19359.37	0.931155091171785	0.00290503545894465	0.931159622753346	-0.17875188858693
16500	0.931721673369297	0.00329339174463995	0.931727493989131	-0.202524709647821
14112.02	0.931879726403486	0.00400600601850713	0.931888336962137	-0.24630412829487
12011.13	0.931916958722772	0.00360641268837617	0.931923936900206	-0.221727046376953
10236.38	0.932272760188972	0.00398037392265345	0.932281257328994	-0.244625018180459
8750.684	0.932975056404761	0.00410102649814686	0.932984069688119	-0.251850245160177
7449.463	0.933503552725008	0.00407669754194453	0.933512454342769	-0.250214450655078
6363.206	0.934023539873092	0.00446823550969676	0.934034227512906	-0.274092753246053
5414.761	0.934179902196265	0.00432417495879644	0.934189910112766	-0.265211449055289
4620.567	0.934627804045426	0.00418118164093352	0.93463715653439	-0.256318571117064
3941.215	0.935106483085655	0.00386449261299406	0.935114468400516	-0.236783575092078
3361.769	0.935274240034848	0.0037025549452171	0.93528156882614	-0.226820813063005
2867.244	0.935534424989699	0.00362197143084172	0.935541436291227	-0.221822558441402
2442.658	0.936265168256491	0.00335809795352463	0.936271190474331	-0.205501626463982
2083.003	0.936638420238417	0.003159418883679	0.936643748815098	-0.193266341932081
1777.843	0.937266287405935	0.00278726851004749	0.937270431825016	-0.170387277735815
1513.548	0.937751628843513	0.00263144488113178	0.937755320913097	-0.160778489032573
1292.065	0.93798467365014	0.00236533784904623	0.937987656009235	-0.144483798522171
1101.762	0.938441987599065	0.00247167234529838	0.938445242543787	-0.150905509489997
939.101	0.938587392533163	0.00206612702756161	0.938589666629191	-0.126125886991502
801.2801	0.938693972093835	0.00189985911724611	0.938695894691123	-0.11596299080459
684.3433	0.939051534286406	0.00163177083438692	0.939052952032903	-0.0995616155527339
582.9476	0.938793535098755	0.00144109802556768	0.938794641179175	-0.087952000933116
497.0677	0.938948553935448	0.00139921653711997	0.938949596487685	-0.0853818268557182
423.5089	0.939265358771933	0.00116903656860873	0.93926608627985	-0.0713119314638086
361.5036	0.939463277588149	0.000849431642943129	0.939463661602078	-0.0518049358862712
308.1262	0.939380983430886	0.000891709263302891	0.939381406659184	-0.0543881161056186
262.7298	0.939330557614532	0.000722993197863582	0.939330835854754	-0.0440999713446905
224.2111	0.939817341281281	0.000664132184792823	0.939817575939381	-0.0404886813873384
191.2854	0.939931678215078	0.000610788180986922	0.939931876666823	-0.0372320465755943
163.1722	0.939604046993292	0.000606218051372736	0.939604242554544	-0.0369663488572583
139.1537	0.939514359631364	0.00053970013729478	0.939514514645607	-0.0329133198990162
118.6706	0.939235752946406	0.000402130900564677	0.939235839031957	-0.0245310103816097
101.1982	0.939006572651357	0.000350674743978236	0.939006638131607	-0.0213972750169212
86.24196	0.938971573679809	0.00025976001358126	0.938971609610217	-0.0158504820614156
73.61024	0.938713760174723	0.000381218531574657	0.938713837582538	-0.0232682343194532
62.69291	0.938799515544629	0.000282246233774366	0.938799557972716	-0.0172257411979122
53.57697	0.938239277049325	0.00021258034812404	0.938239301131883	-0.0129817167586633
45.65746	0.93727591033772	0.000236494774901587	0.937275940174067	-0.0144569513008322
38.96512	0.936104719774668	0.00013290655762862	0.936104729209592	-0.00813475737244226
33.18414	0.934894924455433	0.000177001975351172	0.934894941211166	-0.0108477068028088
28.30617	0.933877067635283	0.000135008834242163	0.933877077394268	-0.00828314198222524
24.17237	0.93297678343832	0.000286924050414777	0.932976827558072	-0.0176205205779132
20.61345	0.931694362782237	0.000129331569919902	0.931694371758708	-0.00795341623028335
17.55618	0.931486474268615	0.000157679423708152	0.931486487614381	-0.00969886912779194
14.98558	0.931476001187531	0.000130470260830373	0.931476010324905	-0.00802532243357227
12.76553	0.930162136761669	0.000141110992169678	0.930162147465347	-0.00869210206765576
10.8809	0.928936503840352	-7.50332020432727E-05	0.928936506870689	0.00462796517663949
9.278505	0.928661422524478	2.789767635048E-05	0.928661422943511	-0.00172120761544983
7.923394	0.92807507783558	4.28434723086207E-05	0.928075078824489	-0.00264499090628603
6.75822	0.926809407379134	-3.20404407117154E-06	0.926809407384672	0.000198075463185512
5.761429	0.926063156769664	2.24102561059905E-05	0.926063157040823	-0.00138652864336904
4.919708	0.924817587450632	1.89624598157451E-05	0.924817587645035	-0.00117479266313624
4.191257	0.924077888581805	8.19580575671887E-05	0.924077892216305	-0.00508166123375603
3.564097	0.921810404875014	7.65702183294656E-05	0.921810408055168	-0.00475927621708536
3.051758	0.920864854533959	3.50849878093146E-05	0.920864855202328	-0.00218297149127962
2.604164	0.919310798797655	2.15893062444167E-05	0.919310799051159	-0.00134554726411451
2.214424	0.915291492380159	2.22586992201333E-05	0.91529149265081	-0.0013933588732448
1.892567	0.910642150999776	1.88454934442499E-05	0.910642151194777	-0.00118572068716277
1.607507	0.904237707359069	-0.000194696668358954	0.904237728319703	0.0123366866024829
1.376413	0.893753555279983	7.28332911987173E-05	0.893753558247629	-0.00466911729731696
1.17375	0.879587263332248	-1.47845513129851E-05	0.879587263456501	0.000963056682903439
1.001604	0.865170700903296	-0.000157221070942612	0.865170715188607	0.0104119380221441
