EC-Lab ASCII FILE
freq/Hz	Re(Z)/Ohm	-Im(Z)/Ohm	|Z|/Ohm	Phase(Z)/deg
6999984	46.1672118076456	60.1512654611967	75.8260257607859	-52.4930925756911
5969734	44.4819546437239	54.7291185170444	70.5260285467643	-50.8969696683274
5091109	45.1835957246372	52.2279824115674	69.0602596968072	-49.1361844202211
4341796	48.6284587844502	50.3728882400169	70.0153902609434	-46.009462058945
3702781	53.719359973191	47.0647970931137	71.4203385692426	-41.2223653031593
3157797	57.9390196840945	43.7488052232529	72.600881264734	-37.0558563240136
2693047	61.9519511837468	40.5619188041577	74.0493991369844	-33.2140482569465
2296687	65.534482045694	37.5946807193556	75.5521565237398	-29.8412806297073
1958656	68.8257410866017	34.2698482828049	76.8856627561108	-26.4697219434159
1670375	71.8660647941301	31.030821952999	78.2792640491262	-23.3540519380079
1424531	74.3517737871094	27.7215670157724	79.3515692541707	-20.4476375785375
1214875	76.2692930753508	24.6246470431467	80.145981235576	-17.893426105312
1036062	77.8535160364245	21.9434687953424	80.8868702695683	-15.7408007506937
883578.1	79.1002418677499	19.4450511694058	81.4552532284895	-13.8110445192254
753531.2	80.1324684964424	17.2456378003243	81.9672161932642	-12.1456051778068
642624.9	80.9910411735743	15.3648997076532	82.4356045250221	-10.7419903600292
548046.8	81.6188235289132	13.7225541299801	82.7643694236481	-9.5438668554752
467390.6	82.1935574163787	12.3315677186344	83.1134672791287	-8.53249321466617
398593.7	82.6541064590896	11.1928013099769	83.4085134486591	-7.71193170836956
339937.5	83.0402517560331	10.2642475570969	83.6722067930488	-7.04634382649994
289906.2	83.3870344734526	9.5710968304933	83.9345186012016	-6.54771011655349
247234.4	83.7144193176137	8.97130958739518	84.1937550973832	-6.11679428841355
210843.7	83.9475204658733	8.54097116935453	84.3808887182634	-5.809385242592
179812.5	84.2984366754999	8.3935977391857	84.7152814369434	-5.68620046255447
153343.8	84.5820933183668	8.31730607660156	84.9900470083926	-5.61607501209282
130781.2	84.9078412181678	8.39920269168178	85.3222603204202	-5.64939938337321
111531.3	85.2315815016131	8.61957843539072	85.666327210112	-5.77476140303225
95109.37	85.6430598237685	9.01200754753464	86.1159101212686	-6.00698692697672
81109.37	85.9902518980879	9.55814419559364	86.5198332289214	-6.34260841463051
69171.88	86.3699794126809	10.227463078593	86.9734117116887	-6.75320715935511
59000	86.81779459391	11.0587810959275	87.5192898593103	-7.25919764739104
50312.5	87.3598437787403	12.0840090851092	88.1916412173791	-7.87543667436605
42906.25	87.8881766253659	13.2354746724951	88.8791841790741	-8.56407464833378
36593.75	88.513406172978	14.6365170738103	89.7153872220062	-9.38942608179768
31203.13	89.1995093043815	16.2813603027888	90.6732328388685	-10.3441800332919
26609.38	89.9900457122439	18.0949731795352	91.7912652797632	-11.3692817428722
22703.13	90.8358329650567	20.2407438804491	93.0636140674196	-12.5618647455473
19359.37	91.7937607795708	22.6552028467693	94.5481503472454	-13.8638483096246
16500	92.8308582762013	25.4786859895413	96.2638649133195	-15.3476714891426
14112.02	93.9928400341786	28.5566390996932	98.2351037784397	-16.8996823758592
12011.13	95.3177939598795	32.2464585719523	100.624628872909	-18.6909203307766
10236.38	96.7162186977228	36.3958910050626	103.337736772382	-20.6221376046225
8750.684	98.3148806842466	41.0368610403485	106.535626566903	-22.6557710843481
7449.463	100.114232461619	46.467344209668	110.372431427775	-24.8980528747485
6363.206	102.149710729949	52.5335742612353	114.866617547802	-27.215861961703
5414.761	104.446946982669	59.5838359349779	120.247237967144	-29.7034556320886
4620.567	107.049937475368	67.3811756116625	126.490758319689	-32.1878235500877
3941.215	109.966128129514	76.6476489829463	134.042573201239	-34.8769379361767
3361.769	113.249196918963	87.0658316091854	142.849009925127	-37.5530347211604
2867.244	117.040405439114	98.8846122830518	153.220830998013	-40.1936596890476
2442.658	121.398799491079	112.466000676935	165.487974868688	-42.8125695564992
2083.003	126.389033526862	127.829562502227	179.762579101895	-45.3246629022047
1777.843	132.175071456437	145.077079091231	196.259033912219	-47.6643532473552
1513.548	138.705964499578	165.155286774553	215.674786049142	-49.974719612551
1292.065	146.444602734892	187.641656709377	238.023975689047	-52.0298046321262
1101.762	155.312889418112	213.07387626007	263.671330189488	-53.9111058228604
939.101	165.216718331216	241.904895750771	292.941193082037	-55.6676225353929
801.2801	177.154972881555	274.972447723995	327.098962737563	-57.2077560070164
684.3433	190.542371924571	311.330466670459	365.011034046763	-58.5322797307542
582.9476	206.419446947769	353.817294949236	409.628693188621	-59.740418537567
497.0677	224.342848963527	401.289696565938	459.742465355393	-60.7924263452067
423.5089	245.516099844121	455.041328274926	517.050061136132	-61.6510608969898
361.5036	269.388155129719	515.080665276642	581.272801588051	-62.3903483400471
308.1262	297.106432804461	582.803876389462	654.165568299322	-62.9880579119275
262.7298	329.506091504942	659.001115388213	736.788120440179	-63.434563921673
224.2111	366.585000652222	743.768804831365	829.202386479602	-63.7624676678264
191.2854	408.980881591895	838.993438173527	933.367746821112	-64.0123345622829
163.1722	457.994328507098	945.773706570971	1050.83143699913	-64.1612462932374
139.1537	513.675848396366	1064.52754795699	1181.98213928344	-64.2408874267606
118.6706	578.244275305983	1197.67634137021	1329.96054851341	-64.2285115383858
101.1982	651.753584429209	1344.93637605522	1494.53557684415	-64.1452607707533
86.24196	735.212037587839	1509.95296663235	1679.43285118991	-64.0380603672843
73.61024	829.067299942047	1691.11513381237	1883.40728034125	-63.8836482414965
62.69291	939.006924485727	1894.63514620092	2114.56291971933	-63.6363596571181
53.57697	1055.71624949153	2115.36711072755	2364.17317736842	-63.4775930520873
45.65746	1192.21412691244	2364.08150824304	2647.6887849644	-63.2380393979431
38.96512	1341.46481711115	2636.28198230925	2957.95715753211	-63.0308578592238
33.18414	1512.1567021164	2943.52768510959	3309.22545692526	-62.8094096714057
28.30617	1697.92006529292	3277.76067172512	3691.4289332496	-62.6152915704154
24.17237	1906.56211838013	3650.68216395687	4118.55063990659	-62.4242674415188
20.61345	2138.62159108773	4064.23497903093	4592.57098743669	-62.2464213419102
17.55618	2396.35385984591	4530.37752982858	5125.11779224381	-62.1232927117366
14.98558	2673.78369766212	5041.8922178853	5706.99539150472	-62.0623872981142
12.76553	2988.34696667192	5617.90297034974	6363.25792165316	-61.9900227285892
10.8809	3326.62646898314	6263.43645051651	7092.04341736556	-62.02640554858
9.278505	3702.32266834727	6981.772376988	7902.67920800476	-62.063705101043
7.923394	4136.67841372834	7773.29959009677	8805.46959656352	-61.9796521924973
6.75822	4586.28049928395	8680.19868284174	9817.32234327262	-62.1497633618716
5.761429	5096.91769219447	9696.41175318925	10954.4041758734	-62.2713450059984
4.919708	5666.8559459133	10817.6738135628	12212.0974057848	-62.3521320551118
4.191257	6307.68693601177	12124.0637755918	13666.7420008337	-62.5137634491182
3.564097	7031.64737371209	13565.884078239	15279.9632071694	-62.6007957381986
3.051758	7782.90794289037	15158.1868700248	17039.4919300459	-62.8219574471191
2.604164	8670.78569650144	16944.4057146062	19034.0591996513	-62.9002807777135
2.214424	9668.76681800889	19045.8700727077	21359.5463109002	-63.0850596666432
1.892567	10729.0473658788	21282.1875451272	23833.6729037981	-63.2458316239569
1.607507	12012.1795593418	23939.5698556342	26784.2390714886	-63.3538341683391
1.376413	13326.9828578513	26792.156621393	29923.7051268507	-63.5532807768241
1.17375	14862.4304856538	30041.3775215806	33516.8047900605	-63.6769250690133
1.001604	16610.2462010144	33718.5869635637	37587.8090034218	-63.7744997815241
