EC-Lab ASCII FILE
freq/Hz	Re(Z)/Ohm	-Im(Z)/Ohm	|Z|/Ohm	Phase(Z)/deg
6999984	27.055987067611	-9.18627256327662	28.5729599413421	18.7538024487922
5969734	17.0771983325816	-10.8821025503377	20.2497125610808	32.5065084053174
5091109	11.2631996708427	-4.7275908192226	12.2151455897696	22.7696349869744
4341796	9.3134783256828	-5.8581278215073	11.002660591697	32.1696722471379
3702781	6.3851368276376	-5.3499038721056	8.33015268458055	39.9585751057054
3157797	4.06613414866297	-5.18583582777603	6.58986647418358	51.9005510831227
2693047	2.44333154217406	-4.06190208235724	4.74013898020308	58.9720821342966
2296687	2.49910868879934	-3.82605301042706	4.5699262441565	56.8481562356364
1958656	1.71376385302392	-3.27231188524532	3.6939154860729	62.3582054077402
1670375	1.30610012328588	-2.95650402428162	3.23215308697481	66.1655099563845
1424531	1.17398974948134	-2.425391745526	2.69458290856913	64.1711011673137
1214875	0.810652625980923	-2.05307995730298	2.20732756769107	68.45355961546
1036062	0.819703807754028	-1.84909462213587	2.022638191585	66.0922859501668
883578.1	0.733895384666921	-1.57387654733427	1.73657416250624	65.0004575757655
753531.2	0.664141107174073	-1.36206536008627	1.51535654398077	64.006203913875
642624.9	0.58662833963443	-1.16392820421959	1.30340387963213	63.2515612019082
548046.8	0.568527057840189	-1.02223878706814	1.16969874467016	60.9189927221511
467390.6	0.532206997821148	-0.88916110295067	1.03626818706851	59.0973880040917
398593.7	0.49965640690776	-0.769507210319934	0.917495434156672	57.0035309305199
339937.5	0.474868960627786	-0.670450870094251	0.821586817675315	54.6907065763831
289906.2	0.453502303939157	-0.580603054340367	0.73672535343063	52.0070181006139
247234.4	0.434874448377472	-0.50257914192416	0.66460633441823	49.1308387239926
210843.7	0.421415509642292	-0.434982273519469	0.605640660823923	45.9075844333928
179812.5	0.40948602879121	-0.374402238241812	0.55484758607718	42.4373738739358
153343.8	0.402336521303785	-0.324980464355769	0.517191433211845	38.9289527591214
130781.2	0.395047037967954	-0.281601616460033	0.485140837901901	35.482434004493
111531.3	0.388527949766703	-0.245994384469304	0.459855634890288	32.3397261207328
95109.37	0.381573405073671	-0.214584229852894	0.437772378252757	29.3519574839318
81109.37	0.375303733761395	-0.186669594862736	0.419163965795561	26.4449587075104
69171.88	0.368383872220504	-0.161851443812665	0.402371180847258	23.7185447689583
59000	0.359051729497238	-0.136727441079628	0.384203770933005	20.8469089476524
50312.5	0.353166222114077	-0.106851597366901	0.368976482044842	16.8333625110728
42906.25	0.382538189175623	-0.107652005346457	0.397397056396847	15.7174011543405
36593.75	0.367170590949423	-0.097122521585699	0.379798666476481	14.8163161595163
31203.13	0.361470802836638	-0.0851326156488318	0.371360611199647	13.2526341225129
26609.38	0.356626817411827	-0.0731610093158566	0.364053869889338	11.5932222970991
22703.13	0.356694756026508	-0.065238770463609	0.362611701615397	10.3647262998253
19359.37	0.35398110368875	-0.0580096574312276	0.358702860490398	9.30678264942801
16500	0.351655797799817	-0.051633810949901	0.355426294130634	8.35308294027686
14112.02	0.349768924752003	-0.0460767773317203	0.352790830566001	7.50464130766918
12011.13	0.347705568291958	-0.0410935442766412	0.350125465515506	6.74022966529539
10236.38	0.346089158588709	-0.0369456274305809	0.348055577571858	6.09334885543679
8750.684	0.344377112198277	-0.0333545126719476	0.345988610970951	5.53210518242742
7449.463	0.343053024825734	-0.0304606540297015	0.344402713819161	5.07414803818848
6363.206	0.341613757678608	-0.0276784418051453	0.342733213412502	4.63213573643024
5414.761	0.340289470945219	-0.025279741465545	0.341227181456492	4.24863789541533
4620.567	0.340136938690223	-0.0228693630017932	0.340904891172984	3.84653554183472
3941.215	0.337659480470251	-0.0195929929611873	0.338227453239114	3.32091494677981
3361.769	0.338071526757289	-0.0235376455979092	0.338889920127904	3.98269265931182
2867.244	0.339707170903017	-0.0176120456179893	0.340163410898029	2.96783027848824
2442.658	0.329120100552013	-0.0209183563001938	0.329784199466362	3.63673787782285
2083.003	0.327259287082171	-0.0164825259204642	0.327674098216886	2.88328519919653
1777.843	0.334760804955079	-0.0155315715569613	0.335120912879518	2.65639162049354
1513.548	0.324516894415665	-0.01697411673207	0.324960513601302	2.99417315903497
1292.065	0.330569058323385	-0.0135453150423884	0.330846456653849	2.34642489107454
1101.762	0.324225727465844	-0.0147222989316113	0.324559807179798	2.59987563653963
939.101	0.323649779374572	-0.0135724271540427	0.323934237875623	2.4013222692572
801.2801	0.326886595720696	-0.0109621101246562	0.327070350720224	1.92068860140258
684.3433	0.323959008567735	-0.0103735230177194	0.32412505181178	1.83404706953849
582.9476	0.324395796100117	-0.0145623991549875	0.32472249074645	2.57032992191812
497.0677	0.320512951738624	-0.0132996339711121	0.320788766162363	2.37611613697601
423.5089	0.320072285971615	-0.0138204604651937	0.320370525133891	2.47244924994474
361.5036	0.318499119412009	-0.0107194698318573	0.318679456664061	1.92763055804839
308.1262	0.319489061910799	-0.0136468345919241	0.319780388352728	2.44587718627996
262.7298	0.318141701645551	-0.00981468464588839	0.318293057355364	1.76701673708613
224.2111	0.315893262350933	-0.0100486477604125	0.316053047004024	1.82197943245744
191.2854	0.318827904748389	-0.0113929702228986	0.319031397540661	2.04653190560952
163.1722	0.314202902546607	-0.0118740151847745	0.314427187446189	2.16423004180089
139.1537	0.311788331056018	-0.0117092921571327	0.312008126345321	2.15074719896587
118.6706	0.309578515871491	-0.00885034347008909	0.309704998456166	1.63754661003601
101.1982	0.30982394807714	-0.0114096399126978	0.310033963760495	2.10903300669137
86.24196	0.311084095158965	-0.0102975563180029	0.311254484187769	1.89592192775026
73.61024	0.309122912859042	-0.0240732871838106	0.310058862815262	4.45298443896433
62.69291	0.279651247169179	0.00520979780084151	0.279699771248392	-1.06727541400656
53.57697	0.302716021253567	-0.00839624638968231	0.302832439604852	1.58877013997873
45.65746	0.290653044917242	0.00166597929809916	0.290657819448722	-0.328407146872172
38.96512	0.31060054722916	-0.0196472101383097	0.311221324470661	3.61945403297493
33.18414	0.294024194247985	-7.57509543635103E-05	0.294024204006038	0.0147614038844309
28.30617	0.303387732884912	-0.0183881097996313	0.30394446704464	3.46841261789593
24.17237	0.318081451467845	-0.0143693465204198	0.318405854040586	2.58658129681921
20.61345	0.291586247237049	0.00560783938275912	0.291640167741565	-1.10178695383847
17.55618	0.291863561302723	0.000100105994953198	0.291863578470351	-0.0196518221194126
14.98558	0.295288995282318	-0.00960405637655525	0.295445136419141	1.86284622015294
12.76553	0.295121640695244	-0.00919373016165195	0.295264809079813	1.78432063545688
10.8809	0.29518301005238	-0.00340457335819648	0.295202643184872	0.660807122027052
9.278505	0.300011298239636	-0.00858364518896515	0.300134066770438	1.63884665127316
7.923394	0.290998213764123	-0.00753616040399181	0.291095781706889	1.48349258287021
6.75822	0.297566883768616	-0.00782999065282444	0.29766988270463	1.50729783334231
5.761429	0.291696854963927	0.00206759943571991	0.291704182629034	-0.406115922935498
4.919708	0.294828005574237	-0.00877950844992149	0.294958696497501	1.70567301075045
4.191257	0.301767373738762	-0.026866247383378	0.302960959698861	5.08761025454288
3.564097	0.307601269407395	-0.00391917526567805	0.307626235675379	0.729971149308474
3.051758	0.309283197538312	-0.00344708849443758	0.3093024065516	0.638558597884327
2.604164	0.30438485480586	0.00194186687509207	0.304391048952076	-0.365521691263141
2.214424	0.303078511158768	0.0130993966976922	0.303361464461225	-2.47484822423296
1.892567	0.279544154408869	0.0132120827059256	0.279856201277724	-2.70595418864574
1.607507	0.300306760040621	0.00848121997226268	0.300426498861723	-1.6177090922952
1.376413	0.278491946754375	-0.00036935712324874	0.27849219168897	0.0759899599737133
1.17375	0.280641936195313	0.0196790848107183	0.281331055396381	-4.01111079299251
1.001604	0.31348862341952	0.000272911226530324	0.313488742212545	-0.0498795054861562
