EC-Lab ASCII FILE
freq/Hz	Re(Z)/Ohm	-Im(Z)/Ohm	|Z|/Ohm	Phase(Z)/deg
6999984	19.8891530111453	9.66079573320535	22.111295341962	-25.9073237604494
5969734	13.7422456006426	2.97964123796218	14.0615637841367	-12.2337031683861
5091109	12.9635144061438	-3.95671283631818	13.5539028411518	16.9731928609744
4341796	7.93860805628573	-5.62321244934591	9.72841282644828	35.3113659956008
3702781	6.21319767905989	-4.56737988630329	7.71134128572216	36.3199550615255
3157797	4.31006547540217	-4.96851233873004	6.57744473654978	49.0591445150879
2693047	3.15959248510772	-4.693003692851	5.65750018409742	56.0493556663988
2296687	2.62724624171647	-3.70339209468528	4.54065367778591	54.6474940994743
1958656	1.80293772965184	-3.25231850316279	3.71862341505794	60.9980036020997
1670375	1.30289547270925	-2.78208151976273	3.07205374227267	64.9055184691124
1424531	1.13567900581481	-2.5015821265731	2.74730412226941	65.5826972871775
1214875	0.68908316782169	-2.19229635049298	2.29804240617096	72.5510099915585
1036062	0.8003890296494	-1.8241831204022	1.99205086670583	66.3097807291985
883578.1	0.697389866318753	-1.58033854462255	1.72737446469022	66.1885428597488
753531.2	0.622940848516972	-1.37725391643679	1.51158316049483	65.6624530122597
642624.9	0.56293713298568	-1.16821165479379	1.2967716399159	64.2715406688001
548046.8	0.535939887641326	-1.02590181685803	1.15745673828338	62.4170481733002
467390.6	0.498331194163165	-0.887620833415547	1.01794141432078	60.6891220547446
398593.7	0.465894642279192	-0.770316461528151	0.900247337461048	58.8340566014496
339937.5	0.439737298004488	-0.668744058995032	0.800367108080684	56.6728025024366
289906.2	0.418507194113132	-0.579070038391572	0.714472099446342	54.1434975045654
247234.4	0.399995617731181	-0.501640174961989	0.641591271246768	51.4319976574206
210843.7	0.387501059617206	-0.433602948949902	0.581522646629096	48.2135676714558
179812.5	0.374729113907675	-0.373650725205744	0.529185008533698	44.9174388788934
153343.8	0.3669241947726	-0.324614454910759	0.489906020626946	41.4988919238233
130781.2	0.360219314027612	-0.281886859042551	0.457403711724554	38.0446840755842
111531.3	0.353497705463667	-0.246083284014369	0.430717552973378	34.843253747401
95109.37	0.346443881783374	-0.214552056288866	0.407499629549418	31.7698565681177
81109.37	0.33802426606996	-0.187820320620748	0.38669998356635	29.0583681801288
69171.88	0.33319050809727	-0.162539296649675	0.370722183907961	26.0043656222107
59000	0.323886769115206	-0.137433949881297	0.351839068023808	22.9928306960676
50312.5	0.318243722570065	-0.107325000695281	0.335853722220693	18.6362429683873
42906.25	0.347046353819047	-0.108307068082248	0.363554112472501	17.3322254041373
36593.75	0.331336504045068	-0.0982606306529233	0.345599523218881	16.5181669688154
31203.13	0.325050992859596	-0.0871550252099391	0.336532533907725	15.0095175280344
26609.38	0.320584285287459	-0.0742169315865402	0.329062967997604	13.0346465997774
22703.13	0.320773247939701	-0.0660720403972788	0.327507238265118	11.6388583854813
19359.37	0.317699116936641	-0.0591918315489714	0.323166213927823	10.5540029074467
16500	0.315170609733744	-0.0527961711180783	0.319562120603599	9.50967273426179
14112.02	0.313114749799056	-0.047139361068702	0.316643278633372	8.56157082276906
12011.13	0.311524127910804	-0.0423542414395852	0.314390146217259	7.74235576729101
10236.38	0.310854557446265	-0.0367450568418071	0.313018777531669	6.74145579497697
8750.684	0.307534236950659	-0.0319307898918966	0.309187454855375	5.92768956813062
7449.463	0.305670705662343	-0.0286839736482179	0.307013600096749	5.36090596620012
6363.206	0.302775969022703	-0.0290188229177151	0.304163409208219	5.47465183952067
5414.761	0.303728718261489	-0.0245912901562085	0.304722604754412	4.62883607248808
4620.567	0.301840099661894	-0.0249367871784358	0.30286843532908	4.72281604779221
3941.215	0.300320533581976	-0.0226331900282422	0.301172183612328	4.30986015469844
3361.769	0.299581592434409	-0.0212235774150036	0.300332433752712	4.05229557226431
2867.244	0.298200492003275	-0.0202364569069967	0.298886345655241	3.88224914712082
2442.658	0.296982970507422	-0.0192986173551481	0.297609343608753	3.71798042838343
2083.003	0.295304920589695	-0.0186023840179455	0.295890258061392	3.60451702325587
1777.843	0.293636630429112	-0.017909618641924	0.294182299212006	3.49028642764064
1513.548	0.291810622110781	-0.0161533688356256	0.292257370311547	3.16841191636543
1292.065	0.290396209758241	-0.014799596609098	0.290773084555198	2.91746728829624
1101.762	0.289780283140217	-0.0138583128567426	0.290111470528243	2.73799971812741
939.101	0.288299888209003	-0.013249959454305	0.288604204693668	2.63140206625891
801.2801	0.288045666691261	-0.0130743186707138	0.288342234000356	2.59885691757989
684.3433	0.28712477495137	-0.0130263826485544	0.287420115920548	2.59763479860288
582.9476	0.286134777878573	-0.0131443571935257	0.28643652916074	2.63018395798646
497.0677	0.284621985215935	-0.0124510487717659	0.284894196297111	2.50485918058411
423.5089	0.283951923336744	-0.0122987598270219	0.284218145550066	2.48009193397399
361.5036	0.282669387441218	-0.0120094365481657	0.282924387712685	2.43279426798594
308.1262	0.281267551569061	-0.0122045961951001	0.281532214380414	2.484586214919
262.7298	0.280281164544477	-0.0118292195580625	0.280530678596408	2.41672452070591
224.2111	0.27984230055997	-0.0113905264705881	0.280074021065814	2.33084502270934
191.2854	0.280396745172164	-0.0115584065203856	0.280634872146057	2.36048814015602
163.1722	0.277303214838054	-0.0114932388064893	0.277541289717013	2.37334932378333
139.1537	0.274892766403277	-0.0114635227554196	0.275131687333194	2.38795344502342
118.6706	0.273263170448419	-0.010135247208779	0.273451062458175	2.12410924515465
101.1982	0.275202548513493	-0.0107720943057211	0.275413290754191	2.24155126921159
86.24196	0.273313468202826	-0.00971182623762503	0.273485962107614	2.03507217674911
73.61024	0.273928292057673	-0.0223405266165974	0.274837785464701	4.66250192661438
62.69291	0.24873993693452	-0.00709924071960176	0.248841225372693	1.63482448755134
53.57697	0.256035205186359	-0.0269206471014399	0.257446591616943	6.0022714843228
45.65746	0.28917939041263	-0.014376668652872	0.289536540769856	2.84613919942261
38.96512	0.265718598287272	-0.0141663100238169	0.266095956029857	3.05173249913381
33.18414	0.270652834070179	-0.00988120146411528	0.270833149249855	2.09086967162793
28.30617	0.257194184859355	-0.0015159167359296	0.257198652269055	0.337700579604974
24.17237	0.269988594973747	-0.0148215903929527	0.270395120070008	3.14221800484544
20.61345	0.273089683841644	-0.0144281077973156	0.273470557309814	3.02428782074704
17.55618	0.27053542475928	-0.0152174449831612	0.270963072542181	3.21945844520702
14.98558	0.260284120755794	-0.00963386182394532	0.260462348164297	2.1197135129504
12.76553	0.259638499775447	-0.00625195806579731	0.259713760793111	1.37938557853714
10.8809	0.261995448784025	-0.0111194497911363	0.262231305048044	2.43025377312233
9.278505	0.258902015566033	-0.00579327266109972	0.258966823497297	1.2818544108188
7.923394	0.25607897854782	-0.0126260523393909	0.256390055290318	2.8227000689816
6.75822	0.253545088685962	-0.00274138814454244	0.253559908514203	0.619471081897339
5.761429	0.247972307768554	0.00303039724359026	0.247990823877652	-0.700160155227817
4.919708	0.254402393336313	-0.0030885280898765	0.254421140515104	0.695555293428351
4.191257	0.252863503262895	-0.0101483118058596	0.253067065251275	2.29825002670214
3.564097	0.253651814747497	-0.00510003215526908	0.253703081283384	1.15185830851274
3.051758	0.255616535772018	-0.0145332429187819	0.256029350875683	3.25408514955575
2.604164	0.246998191092415	0.00196365253475754	0.24700599655515	-0.455495774846833
2.214424	0.257921893508015	-0.00905711899142669	0.258080868247115	2.01115749133815
1.892567	0.249995411402534	-0.0042263124893901	0.250031132940641	0.968524992100168
1.607507	0.254519443049465	0.0101882325200032	0.254723275285341	-2.29228553605483
1.376413	0.256331066456449	-0.00694014898186607	0.256425001313426	1.55090106746735
1.17375	0.245812808600068	-0.0124033845794807	0.246125538741676	2.88861829035361
1.001604	0.257199181287776	0.000194642307655811	0.257199254938132	-0.0433600937551042
