EC-Lab ASCII FILE
freq/Hz	Re(Z)/Ohm	-Im(Z)/Ohm	|Z|/Ohm	Phase(Z)/deg
6999984	29.199095511072	82.0707541345377	87.1102511928214	-70.4154816975469
5969734	24.2632536021472	81.2385064514647	84.784434926623	-73.3708553006112
5091109	20.9883757882187	85.7042708979368	88.236806199989	-76.2394830934927
4341796	20.2795833501402	93.9723145744518	96.1356198676381	-77.8221071152031
3702781	23.8091179973059	104.231030387518	106.91576962943	-77.1328961834402
3157797	27.7123363805307	115.882463070254	119.149984619791	-76.5507710635873
2693047	32.5552426964656	129.733089614474	133.755442386256	-75.9130690376067
2296687	38.8735392527688	147.376509453745	152.417149930073	-75.2236289227258
1958656	48.5410055309872	167.102945532465	174.010412399906	-73.8021779287857
1670375	61.4328913554871	189.840636193154	199.533123291639	-72.0682930491608
1424531	78.2736492941639	214.258434895588	228.108397692265	-69.9315615437795
1214875	99.6241272186104	240.510351002404	260.327093602202	-67.4996994781262
1036062	126.171188575985	267.355775164455	295.631999858715	-64.7363240322102
883578.1	158.426566712536	294.835703997013	334.704450809569	-61.7491512715162
753531.2	197.280854819656	320.622084427604	376.454853469942	-58.3957438881745
642624.9	242.083737326459	343.128782308115	419.930824215365	-54.7963198867595
548046.8	292.834961487305	360.29926195405	464.292873985704	-50.8973478204722
467390.6	347.567324669985	371.750274640512	508.921714877197	-46.9255184409561
398593.7	471.398262415824	367.781717347939	597.896072427356	-37.9611124515864
339937.5	523.541227103532	352.908543871272	631.379328782954	-33.9831123166168
289906.2	570.372975114035	333.207732851692	660.569999298031	-30.2931609835711
247234.4	612.306951181943	309.072932367842	685.890574354382	-26.783181423554
210843.7	646.002401558141	284.129278484226	705.725548432853	-23.7411880610219
179812.5	677.207030694122	257.129359089074	724.378954503171	-20.7913148527908
153343.8	700.719101919774	231.276574927084	737.899799366593	-18.2657856467896
130781.2	720.401605438324	207.1609156854	749.595969910276	-16.0432823594771
111531.3	735.842488048556	184.736421483081	758.677607841344	-14.0930829938785
95109.37	748.320698637019	164.4714522982	766.181914841166	-12.3957986582066
81109.37	758.617161616497	147.259477854779	772.777685830235	-10.9853885609787
69171.88	766.214753993582	131.850600662185	777.476449889271	-9.76385973049363
59000	773.39022739915	119.503998573818	782.568622877023	-8.78385552896802
50312.5	780.867522100366	109.713004703623	788.537272722262	-7.99778608193828
42906.25	783.122714965605	96.6681107710209	789.066480301336	-7.03695304823774
36593.75	786.43849696678	90.3245473471522	791.608510164485	-6.55186406056818
31203.13	789.944894626875	85.4845048177392	794.556818050791	-6.17627303712608
26609.38	793.004178496163	81.7687423095108	797.208726953771	-5.88711269707945
22703.13	795.777232650373	80.5566696433307	799.844222976394	-5.78037065984658
19359.37	798.659742488914	79.7641747555021	802.632984524611	-5.70336226739202
16500	801.144123308463	80.9617256763337	805.224631600509	-5.77058454070575
14112.02	804.411688419919	83.6203881042396	808.746272803337	-5.93470830112097
12011.13	807.006978460741	88.0540975352685	811.796641639447	-6.22701990904081
10236.38	810.343429824031	93.6855915671691	815.741052250201	-6.59481297689119
8750.684	814.285504818329	100.852709866468	820.507253133482	-7.06036983332474
7449.463	818.288701086264	110.271572110113	825.685302001362	-7.6748727981805
6363.206	822.840645206128	121.275533292074	831.72981332793	-8.38425757390992
5414.761	827.814287427378	134.879339558076	838.730547141643	-9.25412782805549
4620.567	833.203655265259	150.364864634006	846.662815803193	-10.2298291165397
3941.215	839.394314923491	168.068340771376	856.054778092804	-11.3223679586069
3361.769	845.812828222083	189.23200787632	866.72261606003	-12.6109958764798
2867.244	853.375007042371	213.010146239691	879.557971395645	-14.0151607337407
2442.658	861.712803444495	241.737032405326	894.978071494662	-15.6704472630296
2083.003	871.440550538717	273.457880793165	913.33884494809	-17.4218474624516
1777.843	881.891952950269	310.587194816976	934.985466337695	-19.4013879967389
1513.548	894.299759614675	352.558798245368	961.285475947225	-21.515791336844
1292.065	907.655036897924	399.889566876731	991.841384346828	-23.777060948575
1101.762	923.351135251419	455.70857587864	1029.68326445535	-26.2680751769976
939.101	940.146924980995	519.776704107119	1074.26442865976	-28.9367808064241
801.2801	958.663141159357	591.962216014912	1126.70061835734	-31.6947990969556
684.3433	980.366530610743	676.674080704508	1191.22052779451	-34.6144315927596
582.9476	1005.39260185451	770.328546341611	1266.57820649676	-37.4592186117857
497.0677	1031.97075440213	878.76004223976	1355.42718350287	-40.4155834318356
423.5089	1064.91174202712	1004.35101135182	1463.81623584064	-43.3236135322882
361.5036	1099.85342168541	1148.77196942901	1590.39447526044	-46.2462655156726
308.1262	1141.52656370016	1313.98307642869	1740.58450549639	-49.0174274580244
262.7298	1185.85203551001	1503.96774696296	1915.24516290423	-51.7448440727179
224.2111	1242.09125503536	1720.77200531599	2122.22689176122	-54.1774166060372
191.2854	1304.97485883743	1969.77812660441	2362.8341563146	-56.4755904293526
163.1722	1373.85609443035	2256.02571249456	2641.42624043148	-58.6597628401708
139.1537	1459.64013447897	2581.28306222451	2965.39568515045	-60.5131094200804
118.6706	1558.13215005253	2947.52011652599	3334.01419228423	-62.1379604312919
101.1982	1673.53127737197	3384.44825183563	3775.60550186265	-63.6886707038135
86.24196	1809.19158196092	3875.83607435141	4277.29814900505	-64.9774246724013
73.61024	1971.57795445734	4431.91801647042	4850.67180246379	-66.0176868452408
62.69291	2158.0397970768	5071.7140615795	5511.75283264684	-66.9500037694777
53.57697	2378.60370742309	5789.32767381742	6258.91927666391	-67.6641956611082
45.65746	2639.48944240784	6615.67853368606	7122.78786555215	-68.2492428657163
38.96512	2945.43171315924	7549.23872073165	8103.49142280525	-68.6861231845036
33.18414	3310.2606758691	8605.58633428287	9220.30053192419	-68.9600543063556
28.30617	3706.75542530931	9820.44777326736	10496.7247391999	-69.3208458299495
24.17237	4232.15228020714	11138.6410775188	11915.5544552762	-69.1955972559339
20.61345	4810.25531306051	12651.0102677812	13534.6450626654	-69.1818462688508
17.55618	5501.43445581452	14355.0981256803	15373.1786976388	-69.0312156645109
14.98558	6281.30893251113	16253.1819612826	17424.7170930321	-68.8701572282996
12.76553	7209.89340934734	18402.0909473619	19764.0965948137	-68.604877769154
10.8809	8281.73695340867	20797.5315153214	22385.809882518	-68.287172671754
9.278505	9501.27253865556	23452.7834126767	25304.2927120229	-67.9459763047536
7.923394	10853.1093309456	26344.7335739122	28492.7178280675	-67.6100511494684
6.75822	12437.8994831717	29644.8192730319	32148.3538191959	-67.2388317940031
5.761429	14242.3710922121	33317.1412293145	36233.6450556988	-66.8543198176908
4.919708	16285.716355431	37407.4201477762	40798.7700711897	-66.4735893628264
4.191257	18620.421920759	41882.1812856291	45834.8908774678	-66.0305210998517
3.564097	21177.8437016905	46990.2322297666	51542.0506854415	-65.7395731314843
3.051758	24054.2987164184	52444.4335275494	57697.7286794223	-65.3608480289028
2.604164	27178.7122475254	58627.5973163868	64621.0303734488	-65.1283990514182
2.214424	30901.4608547193	65610.8034583265	72523.6362395247	-64.7804417824353
1.892567	34756.2219366991	73266.4410654837	81092.3322498193	-64.6212168111684
1.607507	39233.7611980152	82019.3130356447	90920.0513010302	-64.4359795560026
1.376413	44096.1099180371	91303.0603512781	101393.864407136	-64.2211203828286
1.17375	49446.7396024954	102002.286986406	113355.399552796	-64.1376977278575
1.001604	55480.2593011496	113719.718801771	126531.551861489	-63.9937134339412
