EC-Lab ASCII FILE
freq/Hz	Re(Z)/Ohm	-Im(Z)/Ohm	|Z|/Ohm	Phase(Z)/deg
6999984	18.7549017238232	93.154426597601	95.0236472326657	-78.61674228127
5969734	16.6154415001274	93.3179734414105	94.785637432345	-79.904178446929
5091109	13.8064003522707	99.2085445681203	100.16462452389	-82.0772927723012
4341796	13.4833124978098	109.266867841577	110.095631719984	-82.965377354754
3702781	16.6297585431855	120.563832182206	121.705326504898	-82.1465633697325
3157797	16.7313501908243	133.679911855743	134.722889343152	-82.8659691772988
2693047	16.3569429636331	151.667249265947	152.546727539514	-83.8445810913822
2296687	17.935421944299	175.131584880562	176.04758272438	-84.152660497824
1958656	20.5437364479295	201.098670521369	202.14529525246	-84.1670417384818
1670375	23.4153520580651	232.309923983124	233.487000693931	-84.2443910408245
1424531	27.3716440158199	268.877152547303	270.266775719981	-84.1873244444295
1214875	31.9266844063919	311.209717276943	312.843093746338	-84.1425764406297
1036062	38.0320934351778	360.641894472253	362.641718752266	-83.9800283141511
883578.1	45.2994806219003	419.458038041929	421.89701186735	-83.8362159075733
753531.2	55.4044202879071	484.821684541387	487.977167077505	-83.4806382999151
642624.9	102.017603369558	628.752061899217	636.974682966117	-80.7838405497934
548046.8	149.989570261748	709.559857296848	725.239313795403	-78.0642963752049
467390.6	189.380323439406	864.038923871489	884.54969836127	-77.6373855220529
398593.7	241.055350776124	934.896817279574	965.473842782536	-75.5416777948029
339937.5	240.088380779033	1067.47873891615	1094.14500347217	-77.3244359743525
289906.2	365.439452421187	1222.81937378063	1276.25750312355	-73.361229609653
247234.4	457.405382825466	1373.65938138328	1447.81206663711	-71.583112388244
210843.7	425.876642301007	1718.88583815848	1770.85839046474	-76.0844407141303
179812.5	558.045279803652	1770.901778176	1856.74652073407	-72.5093559598525
153343.8	709.438934365233	2039.42339006986	2159.29418226357	-70.8191304642166
130781.2	767.918236484966	2358.95326408584	2480.79804096734	-71.9681973223515
111531.3	984.250233093304	2853.04010776673	3018.04346851893	-70.9664379133447
95109.37	1296.1908607085	3234.16380582406	3484.23969759353	-68.1600333370145
81109.37	1563.69107733264	3619.68919459047	3943.00388672959	-66.6358510104074
69171.88	2010.90172365182	3963.1070261009	4444.09080043559	-63.0965188225458
59000	2437.45400609965	4303.61333756908	4945.93467315873	-60.4739191068935
50312.5	3738.31224802389	4724.50825227191	6024.61257588493	-51.6468568305947
42906.25	4466.89197661777	4985.43701140297	6693.85584886908	-48.1400399976067
36593.75	5138.31204564404	5088.88603232236	7231.80556489016	-44.7231030539409
31203.13	5910.79549640387	5165.30291800019	7849.70430239315	-41.1494335054171
26609.38	6635.56226826391	5184.71808052722	8420.92561364566	-38.0024055198815
22703.13	7375.93641134267	5089.93640503761	8961.69016154306	-34.6085186683138
19359.37	8079.32213542475	4898.6247099734	9448.38452949108	-31.2291161898071
16500	8727.1272448713	4637.86930331312	9882.94397549582	-27.9875788159647
14112.02	9286.96995423488	4333.00825778235	10248.0618408005	-25.0122777407857
12011.13	9786.10232376737	3975.44822247112	10562.7641865562	-22.1086651449336
10236.38	10191.7376674529	3641.18492279174	10822.6495981412	-19.6601987623774
8750.684	10537.9655484206	3277.75643465845	11035.9596385925	-17.2779204643148
7449.463	10830.0145165905	2931.86676131282	11219.8510300116	-15.1478467285128
6363.206	11026.5486022162	2624.45779671059	11334.5733401725	-13.3880183199244
5414.761	11212.675178855	2338.9693120153	11454.0325697573	-11.7829572709567
4620.567	11318.7311499829	2056.20541740082	11503.984334314	-10.2962922207748
3941.215	11398.6440510362	1911.30634029208	11557.7756566159	-9.51871400826895
3361.769	11486.4617639939	1686.71006867569	11609.6423162588	-8.35379913752077
2867.244	11533.9675493371	1648.73766167532	11651.2120960091	-8.13510687669729
2442.658	11528.6853962824	1459.29182426638	11620.6763828456	-7.21408868018039
2083.003	11578.2254905159	1358.12690671755	11657.6075677637	-6.69022763851433
1777.843	11670.3277037411	1223.44872735096	11734.2820615989	-5.98469313916818
1513.548	11739.5273408587	1347.59862688543	11816.6206779245	-6.54840912506355
1292.065	11810.7246184945	1221.80257786386	11873.7533052184	-5.9061578141896
1101.762	11772.9853367814	1237.2721245496	11837.8218456884	-5.99942961365895
939.101	11757.0907701144	1308.36301511465	11829.6659782104	-6.34991362651842
801.2801	11818.9608901024	1377.22406061498	11898.9319955577	-6.64651095874584
684.3433	11840.9458368785	1397.21296176469	11923.0953352061	-6.72969297144294
582.9476	11925.6585247933	1554.50143925716	12026.5458871044	-7.42659299681646
497.0677	11960.5792837388	1693.03072357364	12079.8100081734	-8.05674343905724
423.5089	11997.6139322529	1926.62812132435	12151.3223965652	-9.12291476339258
361.5036	12079.8911503205	2078.5952791712	12257.4193261953	-9.76331542058825
308.1262	12134.7501316644	2293.46762422855	12349.5811467966	-10.7026568073934
262.7298	12229.0941118859	2584.73501392464	12499.2638939087	-11.93436136832
224.2111	12325.8056137816	2884.91606203366	12658.9187813853	-13.1732279016857
191.2854	12447.5794342511	3228.00446637963	12859.3252780602	-14.5381394204023
163.1722	12480.8441562769	3681.38843789261	13012.4590944187	-16.4341140602697
139.1537	12672.8532824465	4121.57508678741	13326.236960014	-18.0160104255802
118.6706	12815.4346989567	4663.74522416923	13637.6642442607	-19.9972698332529
101.1982	13006.8593986628	5298.51279118539	14044.6655074066	-22.1641618369699
86.24196	13175.4278173777	6014.63115267337	14483.3589361598	-24.5368717398539
73.61024	13421.619047513	6817.55591355723	15053.8674928087	-26.9284434133536
62.69291	13690.0203674552	7765.78267631586	15739.2515145132	-29.5644503414119
53.57697	13967.8684382948	8808.68934770374	16513.4598656327	-32.2371494866705
45.65746	14325.7022958503	10006.0054916344	17474.149254483	-34.9329617493846
38.96512	14707.719216538	11394.4157041383	18605.0991341416	-37.7657854096484
33.18414	15147.1578976739	13006.1347883391	19964.8675054334	-40.6510977335241
28.30617	15666.9157709051	14774.2539064208	21534.4103300746	-43.3203304841221
24.17237	16228.4993786042	16884.6033551171	23419.0952545351	-46.1351117034172
20.61345	16914.9696456919	19243.7256226274	25621.029915943	-48.6849744269777
17.55618	17726.6950719778	21962.342955369	28223.7528734952	-51.0915977017554
14.98558	18623.7223494389	25006.0817736158	31179.2745235958	-53.3224489841429
12.76553	19706.4659478842	28515.6358233551	34662.462211524	-55.3525874213182
10.8809	20941.8729187878	32540.0627901623	38696.482110579	-57.235802291088
9.278505	22377.9159649428	37008.4708952102	43248.0986973493	-58.8399007709599
7.923394	23983.1051326286	41975.5776107089	48343.9597835692	-60.2581432012472
6.75822	25993.0347497275	47961.6480505738	54552.3376146949	-61.5443188597569
5.761429	28277.8315401033	54506.2177944493	61404.9145823557	-62.5797108913378
4.919708	30950.9306366249	61687.5458421896	69016.7618720656	-63.3553811543859
4.191257	33872.3335560779	70522.6417576225	78235.4010727124	-64.3448219707973
3.564097	37406.739832972	80142.4157448577	88442.4727512368	-64.9790289542276
3.051758	41402.9839069542	90634.6240996947	99643.5756187646	-65.4485105715578
2.604164	46138.9269104132	102750.967242034	112634.638746782	-65.8181829409762
2.214424	51422.9021016811	116664.951168195	127495.198700329	-66.213351932278
1.892567	57829.9408026383	131698.308964319	143835.832243909	-66.2932795446987
1.607507	65166.1260871706	149451.110981798	163040.665365738	-66.441045360063
1.376413	73146.2301186421	168062.113418214	183290.05686934	-66.4797200112343
1.17375	82739.5482469529	189416.580787229	206698.99351771	-66.4036885118204
1.001604	93504.1200364764	213237.552667045	232837.441858535	-66.3226722795889
