EC-Lab ASCII FILE
freq/Hz	Re(Z)/Ohm	-Im(Z)/Ohm	|Z|/Ohm	Phase(Z)/deg
6999984	-9.07857238062881	34.4719672072406	35.6473982165233	-104.754446641564
5969734	-7.35660230432763	40.0921342247201	40.7614870209247	-100.397675567389
5091109	-6.11106617648857	44.6613637591813	45.0775170416843	-97.7914624446772
4341796	-4.39385744077862	49.5760415820705	49.7703715292248	-95.0648135934291
3702781	-11.9634131149865	49.9118416700322	51.3255802914511	-103.478985293823
3157797	-10.9791845946437	57.5451736900998	58.5831845275333	-100.801782700295
2693047	-11.9922381907578	67.1267363507962	68.1895337272017	-100.129072953031
2296687	-10.4354345333529	77.6821127858549	78.3799013827791	-97.6510304890906
1958656	-10.1166676141175	90.3122934718768	90.8771550818187	-96.391554663834
1670375	-10.1013293805868	105.28309366711	105.766566869558	-95.480437178017
1424531	-9.37346800826942	122.515488325121	122.873539796186	-94.3750869996506
1214875	-8.52262271484217	142.335314149427	142.59024073181	-93.4266126655911
1036062	-8.16927386626301	166.601156761542	166.801326343006	-92.8072452890546
883578.1	-7.24532422528225	194.385744714918	194.520725043639	-92.1345928375711
753531.2	-6.04103492182321	226.731740824381	226.812205139364	-91.5262262507011
642624.9	-4.92594836737453	265.095165049993	265.140927621899	-91.0645368593847
548046.8	-3.04073475860175	309.931554970952	309.946470918099	-90.5621101688345
467390.6	-0.137218994317016	361.41340995142	361.413436000608	-90.0217536722466
398593.7	0.595434007752284	421.597617496348	421.59803797012	-89.9190796353592
339937.5	4.60018689112132	492.810396206112	492.831866185881	-89.4651824700565
289906.2	-100.826210987961	503.591288852488	513.585544023874	-101.321741899376
247234.4	-106.355429043686	605.665547770669	614.93270610971	-99.9596493330113
210843.7	-110.426381787962	723.900310304466	732.274296321865	-98.6732444913835
179812.5	-110.921202291547	864.026884222428	871.117655530479	-97.3154491084825
153343.8	-110.707878061875	1023.36023582604	1029.3310480768	-96.1742890679204
130781.2	-109.189378325712	1211.10582739005	1216.0179461987	-95.1516739951709
111531.3	-100.075219049095	1420.37471297133	1423.89584405466	-94.0302237027614
95109.37	-98.8819265370988	1689.23841705875	1692.13003787027	-93.3500655041616
81109.37	-64.6251515695856	1982.23181721708	1983.28499903648	-91.8673080261425
69171.88	-67.1249122903454	2316.66704144617	2317.63930212899	-91.6596681211871
59000	-66.6953744328448	2698.72042121302	2699.54444024226	-91.4157026920204
50312.5	-3.71357963448469	3132.04167749697	3132.04387904316	-90.0679340705342
42906.25	-4.56871549133461	3724.47460396984	3724.47740613063	-90.0702831974942
36593.75	29.09927216154	4322.25490721752	4322.35286049233	-89.6142660883496
31203.13	-688.491276437995	4769.36306668653	4818.80112679542	-98.2143052974837
26609.38	-685.103878073181	5645.11269751009	5686.53362702979	-96.9197071593856
22703.13	-686.776235183788	6651.04902420053	6686.41269437746	-95.8953732132508
19359.37	-588.163596095103	7844.82928398622	7866.84707558621	-94.2877109358932
16500	-550.150966958529	9204.04989675911	9220.47724298894	-93.4206539045217
14112.02	-596.492762975477	10947.3322400216	10963.5708959124	-93.1188197380468
12011.13	-405.014651873524	12686.237806649	12692.7013104021	-91.8285760791917
10236.38	-187.959139742219	14812.3487226189	14813.5412146685	-90.7270074222732
8750.684	-263.90783463935	17226.5043948992	17228.5257933657	-90.8776953223926
7449.463	-89.6451816249902	20287.6732521756	20287.8713088789	-90.2531713257
6363.206	300.426895437432	23609.1611144672	23611.0725052542	-89.2709497775072
5414.761	323.544237424624	27285.1613056477	27287.079513	-89.320625218345
4620.567	-196.316903478536	31922.7416030909	31923.3452473938	-90.3523503200371
3941.215	1600.14110752241	38644.2480743073	38677.3623815351	-87.6289100324418
3361.769	-6654.47853218248	41158.9092977151	41693.3795597432	-99.1839790699631
2867.244	-6551.40833941269	48843.9171685633	49281.3270478708	-97.639456741629
2442.658	-6041.93198107839	57816.6422707376	58131.4808475272	-95.9658470220518
2083.003	-5890.40565326572	68330.7961145713	68584.2152132044	-94.9269599479206
1777.843	-5906.81072492136	80377.3047235199	80594.0539218473	-94.2030277737728
1513.548	-4462.16193065837	94054.6632981328	94160.4512373456	-92.7162022954084
1292.065	-4278.22902042436	110511.44363121	110594.224157527	-92.2169841685109
1101.762	-3071.03619933382	127846.421188588	127883.300997697	-91.3760540125974
939.101	-2442.14415319415	151798.538965267	151818.182376337	-90.9216984810586
801.2801	-2264.4035818542	172441.534890102	172456.401675425	-90.7523321568179
684.3433	144.959517766632	207284.341445653	207284.392132693	-89.959931526152
582.9476	5778.13067166924	241400.220628604	241469.363095192	-88.6288359765041
497.0677	-55134.5735153811	249647.443929348	255663.191439792	-102.453849206775
423.5089	-53815.139395113	309508.81676949	314152.473945639	-99.8635643107678
361.5036	-65233.77441548	356747.922943829	362663.102409421	-100.362438662988
308.1262	-62872.7617873546	402792.531635709	407669.974018535	-98.8718316631759
262.7298	-75182.3907868681	500486.757963842	506102.15054037	-98.5430111845503
224.2111	-91870.7724249007	613681.875122153	620520.493359719	-98.5141914074552
191.2854	-30289.1428017791	740684.540631536	741303.595635564	-92.3417170805108
163.1722	12142.2135723661	927164.298758839	927243.80302238	-89.2496930433078
139.1537	-63078.1908654765	849829.414623838	852167.173812014	-94.2449682843764
118.6706	-437220.695131155	838091.358818333	945282.530239997	-117.550427671779
101.1982	764149.729551228	557513.848946145	945910.408516557	-36.1140111116437
86.24196	741872.821626714	208525.768253971	770622.008181891	-15.6996222739576
73.61024	260310.003078014	90321.2370837769	275534.432641039	-19.1355298502202
62.69291	47687.18465797	6666.58183695062	48150.9178935573	-7.95826918280811
53.57697	52942.928104311	127291.280804901	137862.33642736	-67.4166205978322
45.65746	298670.902335578	-41202.2944751756	301499.480881754	7.85450079653197
38.96512	416734.121776262	197959.00668774	461362.218415671	-25.4088733969973
33.18414	399903.519575374	-386022.649143744	555820.394210869	43.9881586309707
28.30617	870951.358808827	-454775.916812899	982536.209981065	27.5717604257264
24.17237	431525.511200726	755607.731595118	870147.867240602	-60.2694304698113
20.61345	560269.747785612	156193.908664598	581634.530773129	-15.5775879931727
17.55618	901181.8907945	472264.970123563	1017429.60557562	-27.6568160104136
14.98558	2867503.15427835	3511523.06656835	4533582.31278951	-50.7649888402191
12.76553	2472224.31482678	-385572.052711345	2502110.88296517	8.86452798652243
10.8809	2526546.21230439	2280489.44941991	3403537.55551855	-42.0697698821578
9.278505	817265.336562632	1675724.25173307	1864396.5238632	-64.0011045894983
7.923394	1141506.42442717	1136310.79770681	1610664.19404964	-44.8693104241024
6.75822	1093578.29608838	374838.895981396	1156035.33147396	-18.9198513473991
5.761429	592501.559835813	-492361.338055398	770375.094106483	39.7261547761106
4.919708	1153967.79243201	396795.172393267	1220281.96528712	-18.9756803549567
4.191257	1403354.30749619	496930.443554907	1488738.78773268	-19.499151785322
3.564097	1650559.35720139	843880.636714849	1853774.7221999	-27.0792745529217
3.051758	-1397852.17678853	2303457.78301234	2694421.73133171	-121.251448549427
2.604164	6476676.74247006	-3189277.01175538	7219337.19147152	26.2167839951775
2.214424	2145225.01270545	7050507.72627473	7369643.78741583	-73.0768133601501
1.892567	2015646.59042632	2518852.36991773	3226057.72405539	-51.3323602968473
1.607507	3144239.14078684	2524264.3205213	4032139.64717405	-38.758262902374
1.376413	-4752475.51386201	959410.252606119	4848349.36268661	-168.586757864616
1.17375	7403038.39618085	1071537.19535856	7480185.12179778	-8.23595890779621
1.001604	21169653.8683578	3423070.30521133	21444618.3276946	-9.18505776585247
