EC-Lab ASCII FILE
freq/Hz	Re(Z)/Ohm	-Im(Z)/Ohm	|Z|/Ohm	Phase(Z)/deg
6999984	20.9591963766573	3.90977853305648	21.3207476635514	-10.5666423564073
5969734	15.6271609744397	0.94505384949949	15.6557109994885	-3.46075217217503
5091109	10.8194284222981	-5.0291069318856	11.9311335554327	24.9300353788727
4341796	8.61057548196086	-5.54207405575134	10.2399509261508	32.7667802133335
3702781	6.27316519014312	-5.79336496131748	8.53906781082364	42.7229532277628
3157797	4.26603633777098	-4.61898502994507	6.28761391483599	47.2748221607576
2693047	3.58895318028887	-3.89157326666526	5.29385751792862	47.3166022431785
2296687	2.36468634872231	-3.62469816538163	4.3278376030016	56.8803106270991
1958656	1.72787535521353	-3.1696441062012	3.6100134353116	61.4037723126113
1670375	1.43896441879655	-2.78261193659024	3.13265826227773	62.6552840245156
1424531	1.1068177580093	-2.38193106707897	2.62652644337739	65.077004737195
1214875	0.569496157859718	-2.3500912785663	2.41810977654249	76.3781388799144
1036062	0.792565929229428	-1.82815890049663	1.99256761933951	66.5617102717175
883578.1	0.680952445952743	-1.563927629697	1.70574495883139	66.4711256443073
753531.2	0.621612251620648	-1.35363499332734	1.48954002515045	65.3346065618858
642624.9	0.568671271242739	-1.14929705024763	1.28229120111023	63.6738310969196
548046.8	0.527516381770423	-1.01659938760048	1.1453156106095	62.5750699331972
467390.6	0.491256563443291	-0.882924408827753	1.01039028243048	60.9085648902797
398593.7	0.460369967192164	-0.763785682161915	0.891801028799618	58.9206305242938
339937.5	0.434302245526985	-0.663308936751876	0.792841211116505	56.7851824443735
289906.2	0.412382756230275	-0.575768504752006	0.708215298267723	54.3886203084783
247234.4	0.395564307438377	-0.498900420826577	0.636688896730686	51.5900767130972
210843.7	0.38085010398227	-0.430752327330828	0.574973363908478	48.5184614325568
179812.5	0.370902036701121	-0.371571403865561	0.525008218030598	45.0516542424028
153343.8	0.362335498145868	-0.321637311065632	0.484497237439125	41.5947649516825
130781.2	0.355285883102882	-0.279212765389536	0.451871471868569	38.1631660180393
111531.3	0.349296667551277	-0.243230972488891	0.425640068532462	34.8512293199092
95109.37	0.342941438221991	-0.212297651842489	0.403335000994958	31.7595490573833
81109.37	0.336351187400765	-0.184176889167949	0.383475224453273	28.7039307584829
69171.88	0.330330124824926	-0.160859112639654	0.36741481391755	25.9644476526239
59000	0.320672042870244	-0.13593285297278	0.348293410210264	22.972083894306
50312.5	0.315056525796075	-0.106440291715239	0.332550973757585	18.6672858217275
42906.25	0.344052912959643	-0.105833310366109	0.359962632087089	17.0982981955412
36593.75	0.328810802321955	-0.0966189159446089	0.342712355543128	16.3750822186374
31203.13	0.323006022902901	-0.0846225711532137	0.333906978633466	14.680668401519
26609.38	0.318396099160392	-0.0727240658977984	0.326595875236142	12.866076686872
22703.13	0.318327839963474	-0.0645777285089273	0.32481209447184	11.4677101624978
19359.37	0.315774367631126	-0.0579476919124594	0.321047327119879	10.3986396717191
16500	0.313371371240096	-0.051725842089066	0.317611679654135	9.3728676015184
14112.02	0.311261558894423	-0.0461632248592491	0.31466617450052	8.4360472290118
12011.13	0.309589489525074	-0.0413313992445905	0.312336255641114	7.60424429077472
10236.38	0.308047211130399	-0.0371294399079277	0.31027677901044	6.87280063993276
8750.684	0.306337704955422	-0.0337746524745531	0.308193959426741	6.29162090044181
7449.463	0.306137351902701	-0.0328761508522537	0.307897579602143	6.12951395146545
6363.206	0.303085045373213	-0.0318667511654558	0.304755696515625	6.00209959698426
5414.761	0.305889556987289	-0.0307026984944485	0.307426538816545	5.73168643599431
4620.567	0.299796104107383	-0.0182421076161132	0.300350592688349	3.48206219144933
3941.215	0.292187015737128	-0.0237995331376958	0.293154686032717	4.65663770358122
3361.769	0.301239204115931	-0.0143618329982713	0.301581366041521	2.72955775797395
2867.244	0.301245936040947	-0.0163882133874281	0.301691377933176	3.11390357652566
2442.658	0.291033548426139	-0.0221414665306076	0.2918745806843	4.35061005900374
2083.003	0.293680292849305	-0.0152556542960658	0.29407626459144	2.97364064348866
1777.843	0.292424275579072	-0.021627098103109	0.293222932800807	4.22977727071521
1513.548	0.288927471318184	-0.0150560223226049	0.289319490339829	2.98298730400063
1292.065	0.290653628020743	-0.0153341925944047	0.291057844670338	3.01998891841018
1101.762	0.288126051037033	-0.0135686384757952	0.288445366120313	2.69622192753765
939.101	0.286700584106194	-0.012377501291439	0.286967641843209	2.47205104427713
801.2801	0.28568524148938	-0.0145517786894259	0.286055609048086	2.91592087520718
684.3433	0.287161059811833	-0.0138420164296332	0.287494479409768	2.75969075433547
582.9476	0.285309747346253	-0.0128914732229538	0.285600843858419	2.5871003965816
497.0677	0.284352008815854	-0.0132252384439346	0.284659396208013	2.66291302611772
423.5089	0.282949081453734	-0.0124256345806824	0.283221784279113	2.51451351943207
361.5036	0.280156860350364	-0.0135532597873351	0.280484504477942	2.76966136588634
308.1262	0.280069132881759	-0.0117367495546403	0.280314948733115	2.39966814010266
262.7298	0.279032335609763	-0.0129019444881213	0.279330457500456	2.64736638930464
224.2111	0.276908511333307	-0.0128985883755167	0.277208761100563	2.66694894082662
191.2854	0.27569798431032	-0.0105042752633022	0.275898021652168	2.18195162640428
163.1722	0.271177573014526	-0.0153387875021954	0.27161103532089	3.23740749405509
139.1537	0.273572183089918	-0.016589267564839	0.274074703610022	3.47013550198589
118.6706	0.272712021426508	-0.0166653468789848	0.273220754001465	3.49697857468777
101.1982	0.273590976738275	-0.011912439526751	0.273850194026007	2.49314391254707
86.24196	0.268087205282991	-0.00801948231644253	0.268207124687373	1.71341825422503
73.61024	0.284596877085151	-0.0021820518508865	0.284605242040445	0.439287715555054
62.69291	0.223755615042802	-0.00861897551922497	0.223921553232786	2.2059195968902
53.57697	0.264661667693038	-0.0224253921496984	0.265610046043307	4.84323458759486
45.65746	0.28197764121098	-0.0110786215595878	0.282195191310144	2.24993707950112
38.96512	0.263395252975757	-0.00567371304348571	0.263456353709419	1.23399925689608
33.18414	0.271227757307885	-0.00667884664600576	0.271309976460111	1.41059458963792
28.30617	0.255867193372609	-0.00249088772978716	0.255879317581665	0.557761407417907
24.17237	0.259188177568098	-0.00264239578458452	0.259201646689511	0.584104116077298
20.61345	0.26860720290002	-0.0213732439062099	0.269456202387043	4.54947568828451
17.55618	0.269219836102866	-0.0118930752158734	0.269482402745234	2.52945797760247
14.98558	0.255661451518053	-0.0100092440628619	0.255857309371899	2.24200677065872
12.76553	0.262480201959905	-0.00459989301873357	0.262520504792857	1.00398993370318
10.8809	0.262674921725928	-0.00978762753523381	0.262857208682758	2.13393203359437
9.278505	0.259691392693405	-0.00930578813899146	0.259858071131008	2.05226033764524
7.923394	0.258986381675656	-0.00494042250021576	0.259033499123046	1.09284136378309
6.75822	0.25492421101243	-0.00716569771541064	0.255024901890107	1.61011052601617
5.761429	0.259866216037849	-0.010063584746998	0.260061004335118	2.21772940296343
4.919708	0.253577150704183	-0.00292441684351642	0.253594013283293	0.660742950753997
4.191257	0.253733746425896	-0.00576058816671007	0.253799130123307	1.30057867156367
3.564097	0.25020137254661	-0.00428280987265082	0.25023802525718	0.980661957074424
3.051758	0.252369584556185	0.00383370050870271	0.252398701400486	-0.870302837280891
2.604164	0.251885171712117	-0.00794263338991435	0.252010367155023	1.80609532350303
2.214424	0.24719401649026	-0.00352866974075282	0.247219200910298	0.817835946065171
1.892567	0.247743437922906	-0.000709923894926296	0.247744455085875	0.164184092871052
1.607507	0.251583562060258	-0.000179202825454426	0.251583625883284	0.0408117436401229
1.376413	0.268943982749574	-0.00409363544746505	0.268975135855305	0.872040045315728
1.17375	0.246343053644835	-0.0114865180712897	0.246610705721516	2.66966189598657
1.001604	0.237790270093414	-0.00171559501552973	0.237796458799024	0.413366990311776
