EC-Lab ASCII FILE
freq/Hz	Re(Z)/Ohm	-Im(Z)/Ohm	|Z|/Ohm	Phase(Z)/deg
6999984	-10.4652797171914	30.0599851937587	31.829621257691	-109.195385215843
5969734	-12.5578325766445	32.8823719116216	35.1987150554851	-110.90194000864
5091109	-13.5047700577166	36.7631715581893	39.165157951024	-110.170559383156
4341796	-13.4969148649656	42.0243856841525	44.1385965228	-107.805389604856
3702781	-12.7305231447804	49.3013528505894	50.9184604287886	-104.478567463208
3157797	-11.9503719269577	56.9828876051052	58.2225117030232	-101.844336704315
2693047	-11.7893433262929	66.0051356511093	67.0497319039125	-100.126953009189
2296687	-11.635597297561	76.7352349924279	77.6123921407796	-98.6222512476169
1958656	-11.4565922107458	89.5537410428086	90.2835867688349	-97.2902389654967
1670375	-11.2980647560383	104.404702719158	105.014228641205	-96.1761798286444
1424531	-10.7807101798034	121.915000285647	122.390730885268	-95.053411733306
1214875	-9.76935736036878	142.485624383889	142.820143884892	-93.9222784541587
1036062	-10.126370082703	166.52622690004	166.833832350083	-93.4798404447587
883578.1	-8.57740580572058	193.802287731286	193.992006588509	-92.5341736038953
753531.2	-7.45719317407041	226.486424535373	226.609157424965	-91.8858145629252
642624.9	-6.47774099535791	264.44539878244	264.524724866328	-91.4032122120866
548046.8	-4.85441398289353	308.727015139169	308.765178107665	-90.9008428173158
467390.6	-3.38461421284396	360.373985200449	360.389878912579	-90.5381032372185
398593.7	-0.928982610777291	421.17803404829	421.179058564732	-90.1263757656375
339937.5	1.51459185122192	493.941841693826	493.944163812434	-89.8243124160445
289906.2	-99.1764954892084	501.344150684943	511.059619500042	-101.189847014937
247234.4	-105.507174736718	603.381379865728	612.536409929723	-99.9184536675413
210843.7	-114.844935052909	720.225561931699	729.324495109782	-99.0599337073173
179812.5	-112.27735140697	861.4167456179	868.703063923397	-97.4260872587223
153343.8	-112.506966801322	1019.70238136416	1025.89023006293	-96.2961571909448
130781.2	-108.49606859673	1207.49331208559	1212.3578249149	-95.134370669758
111531.3	-100.441987062502	1401.74560962661	1405.33958418332	-94.098520271941
95109.37	-97.9591041659867	1673.12931536946	1675.9945381885	-93.3507530535157
81109.37	-81.5469530802869	1966.67332932505	1968.36325149479	-92.3743756748333
69171.88	-74.3384899562469	2308.16116931657	2309.357961562	-91.8446761932349
59000	-43.0113883384192	2702.22666700279	2702.56895182858	-90.9119009027619
50312.5	-37.8724100928375	3152.55295064489	3152.78042782336	-90.6882754753223
42906.25	6.6708027953797	3711.50957702045	3711.51557182837	-89.8970207602466
36593.75	20.8890574087022	4322.74051382201	4322.79098529614	-89.7231280694244
31203.13	-687.607983258472	4849.42657734211	4897.9325095057	-98.0702637077878
26609.38	-687.790116488793	5656.84096528744	5698.50023698287	-96.9323122308785
22703.13	-642.903114440523	6645.48795221642	6676.513651421	-95.5257581396119
19359.37	-602.038461964478	7852.70764421471	7875.75187872198	-94.3840824370342
16500	-632.712878766418	9160.16595648145	9181.99139278831	-93.9512701185924
14112.02	-696.226728389567	10754.3817230851	10776.894631718	-93.7040961257729
12011.13	-350.374619595629	12634.4083376592	12639.2656597118	-91.5885067630319
10236.38	-556.01534562888	14817.8812063549	14828.30929372	-92.1489167824493
8750.684	-158.852663939087	17355.3916526055	17356.1186209409	-90.5244095459149
7449.463	-38.5294232798532	20207.6456976085	20207.6824291291	-90.1092443275631
6363.206	70.962773541667	23580.8751139265	23580.981889095	-89.8275782754768
5414.761	384.599677562079	27700.4908702165	27703.1606746041	-89.2045439690515
4620.567	936.143850600674	32108.5613317289	32122.2053430709	-88.3299811905639
3941.215	612.738200273835	36531.4418403576	36536.5801770979	-89.0390737578178
3361.769	-6363.90641814749	41039.4647191127	41529.9526767156	-98.8145358836628
2867.244	-6413.24290285337	48654.395065379	49075.2467513814	-97.5089942516777
2442.658	-6263.41161451778	57906.8599264621	58244.6113524314	-96.1733150396687
2083.003	-5763.99474719577	68191.0655528346	68434.2389208552	-94.8315624750313
1777.843	-5096.12782504113	80126.2542336687	80288.1506595317	-93.6391800075846
1513.548	-5633.58739045929	93759.0065572499	93928.1034487994	-93.4385301877298
1292.065	-4971.6996426898	110378.957207213	110490.868362453	-92.5789789034745
1101.762	-4456.64074998118	127690.73030496	127768.479104153	-91.9989164316841
939.101	-2974.89401705305	152120.516169894	152149.602149357	-91.1203429486305
801.2801	-1243.46743979427	175710.626498961	175715.026323679	-90.4054635076457
684.3433	-2147.84804281645	206166.031462015	206177.219352701	-90.5968887069989
582.9476	4129.27446711101	235338.22861611	235374.452215599	-88.9947841202542
497.0677	-140.082298183552	271649.339892724	271649.376011068	-90.0295458982604
423.5089	-69807.0357999642	272332.347569806	281136.852404766	-104.37709663769
361.5036	-63335.32344384	353774.528164016	359399.19306171	-100.149985912554
308.1262	-78499.9665346487	412337.558515534	419743.382209288	-100.778864388489
262.7298	-68589.1139567851	535249.212878408	539625.96901959	-97.302328374974
224.2111	-81115.2043904794	584562.931114203	590163.957571231	-97.9000379468545
191.2854	-123018.724159866	650115.815186181	661652.612515898	-100.715151481671
163.1722	40475.6404574776	810537.756839212	811547.739034732	-87.1412083572264
139.1537	-36557.7586899687	715765.973116138	716698.959111373	-92.9238422003638
118.6706	-36557.3866033404	912951.987903	913683.629453492	-92.2930729637042
101.1982	-153015.359224268	641342.260213194	659343.305792893	-103.419111204232
86.24196	466635.411909467	162482.106787623	494114.402415131	-19.1980796527146
73.61024	161088.702644041	272138.505489784	316241.895215915	-59.3771632954541
62.69291	55844.8048427573	-13534.7981792859	57461.5783779009	13.623761804731
53.57697	106628.196403247	4707.01976875759	106732.039722442	-2.52763711772954
45.65746	160644.224900751	230003.395239555	280549.690457298	-55.0679018816515
38.96512	290971.623539687	-370119.189268154	470800.063689287	51.8271093529428
33.18414	262660.091395841	329198.362048882	421143.544635007	-51.4144078531101
28.30617	-649160.797481419	-801259.671173152	1031225.87323788	129.013536983182
24.17237	700539.509092164	166055.724607434	719951.461887529	-13.3352546365708
20.61345	270537.903970016	347479.989481669	440378.360702102	-52.0967031842857
17.55618	-318713.046341567	845962.28918106	904007.854293745	-110.643707930375
14.98558	1080920.78610682	1490261.44031312	1840996.71545658	-54.045762363872
12.76553	1524019.77085209	500819.369600257	1604199.58325479	-18.1914214545595
10.8809	3140856.93935142	-698771.656371089	3217648.85300114	12.5427737918135
9.278505	2089162.53572376	914719.962798003	2280638.66296546	-23.6457504810869
7.923394	1433179.61333102	-262254.004243477	1456976.65280175	10.3696881143311
6.75822	1243077.89336793	-659566.48255465	1407220.87601399	27.9500386212277
5.761429	685489.875529254	485081.394407469	839762.066691159	-35.2848265905304
4.919708	817019.211742944	1224173.99094581	1471775.23843325	-56.280675917027
4.191257	1220635.2623728	236068.293539697	1243253.26581621	-10.9457513407115
3.564097	990720.060901135	2293103.01201668	2497968.7073284	-66.6335591792269
3.051758	1215651.04761649	580147.771591761	1346988.82937237	-25.5119771522311
2.604164	15509667.4857397	10006495.3380604	18457511.6001274	-32.8292154242689
2.214424	4659623.0159275	891737.75447133	4744184.11039358	-10.8340131115051
1.892567	3990547.20194537	703983.377055177	4052167.26778696	-10.0047655650343
1.607507	3664530.90269187	-732305.721198594	3736985.20281843	11.3009049596013
1.376413	1862042.69256862	1173542.80310011	2201001.06761816	-32.220969158536
1.17375	6841471.53381567	15339713.8834343	16796206.5590311	-65.9632558547034
1.001604	11748840.0935497	326797.160920258	11753384.1904444	-1.59328676627774
