EC-Lab ASCII FILE
freq/Hz	Re(Z)/Ohm	-Im(Z)/Ohm	|Z|/Ohm	Phase(Z)/deg
6999984	-14.0285014739856	31.9926135005007	34.9331672225414	-113.677061089356
5969734	-11.477062464286	37.941676868719	39.6395485143236	-106.830158141763
5091109	-9.84900818942984	43.0623491926177	44.1743011297564	-102.882822707989
4341796	-8.51275251072187	48.4101961360636	49.1529657827577	-99.9732857285354
3702781	-14.5063209733096	48.9244840083646	51.0297803607404	-106.515317833339
3157797	-13.7140494526206	56.5465608288864	58.1858117926001	-103.632537982918
2693047	-13.9778939501814	66.3573232271972	67.8135374771236	-101.895215356522
2296687	-13.3289985291052	76.6772351340953	77.8271198850261	-99.8613297753668
1958656	-12.9574813163804	89.763109733544	90.6935068850059	-98.2140188185862
1670375	-13.0136930672124	104.130121722317	104.940166081211	-97.1236228386727
1424531	-12.4961615160749	122.016750524993	122.654969166823	-95.8474739415778
1214875	-11.8830036059872	142.707366419212	143.201250710345	-94.75994275064
1036062	-11.0422333419451	165.88215438127	166.249270853587	-93.8083744444867
883578.1	-9.92593267426224	193.57648086087	193.830797557903	-92.9353586520459
753531.2	-9.40645850508743	226.757583379981	226.95260095874	-92.3754069988645
642624.9	-7.81898534946415	264.223584403375	264.339249993001	-91.6950196171467
548046.8	-5.99008487762362	308.352157915387	308.410334470031	-91.1128944972938
467390.6	-4.56441619924477	360.642411863905	360.671295129311	-90.7251166615492
398593.7	-1.34107805146055	421.499456337054	421.501589774905	-90.1822964464423
339937.5	-0.407348455829773	492.756219171761	492.756387543798	-90.047364885689
289906.2	-101.699631570866	501.286360414863	511.498612118968	-101.46836179915
247234.4	-108.700789078203	604.10901237787	613.810687738809	-100.200406198525
210843.7	-107.672496784622	724.045521639676	732.007707589411	-98.458442613989
179812.5	-113.78453499007	861.463470788756	868.945471192707	-97.5242349290282
153343.8	-110.716319544147	1022.9694924252	1028.94348039436	-96.1770965611166
130781.2	-108.549622109618	1208.56389797197	1213.42890848263	-95.132365317475
111531.3	-101.898270931024	1409.43508803973	1413.11376931098	-94.1351322750498
95109.37	-94.3083773820004	1688.40001965448	1691.03184370185	-93.1970284770821
81109.37	-86.7044799248592	1959.75516682753	1961.67224090729	-92.5332568714231
69171.88	-102.133847997899	2285.82613927673	2288.10674180809	-92.5583524228498
59000	-54.1133330249021	2692.02080137417	2692.56462277924	-91.1515691484651
50312.5	-24.6204474884987	3140.02921929117	3140.12574022711	-90.4492374831937
42906.25	-16.5092512328714	3709.35844177613	3709.39518047782	-90.2550047906444
36593.75	35.9114735744849	4321.72761471211	4321.87681565538	-89.5239106440575
31203.13	-3.32359273002745	4948.22810403484	4948.22922021897	-90.0384840398645
26609.38	-670.990501752513	5607.85877880443	5647.85873906705	-96.8231064751266
22703.13	-665.208998490183	6698.76909189419	6731.71674672882	-95.671060236457
19359.37	-596.48921295882	7826.01638733322	7848.71530098935	-94.3585858151509
16500	-510.451317267014	9281.09703522182	9295.12359920528	-93.1480405855985
14112.02	-482.364007242791	10585.3133109133	10596.2980764832	-92.6091164834984
12011.13	-372.596110773153	12664.223242005	12669.7031608914	-91.6852220388499
10236.38	-401.677219090147	14689.5146056838	14695.0054079246	-91.5663332963603
8750.684	-184.726928701939	17239.896725556	17240.8863793607	-90.6139055535143
7449.463	12.5004730861099	20216.609721899	20216.6135865879	-89.9645724842926
6363.206	-121.324363487022	23823.1101303631	23823.4190636983	-90.2917886810918
5414.761	117.396213793835	27764.058894944	27764.307090092	-89.7577347202503
4620.567	1157.61300697126	32344.0539116483	32364.7631122726	-87.9502247639511
3941.215	-6296.48071628964	34327.2351566404	34899.9246834416	-100.39395134172
3361.769	-6420.97284742866	41098.2864899307	41596.8513798321	-98.8797957765282
2867.244	-6553.80405881811	48706.1424321061	49145.0980084279	-97.663578264804
2442.658	-5795.46667422044	57865.234120683	58154.7311386912	-95.7193605785866
2083.003	-5821.91288137725	68321.0539951527	68568.6596675691	-94.8706381966593
1777.843	-5707.55226342492	80023.7311771968	80227.0135575292	-94.0796126647017
1513.548	-4499.40680391472	94052.8800743302	94160.4423941575	-92.7388914240955
1292.065	-3792.93439599127	110933.749033193	110998.572179519	-91.9582364282298
1101.762	-3492.75811562674	128328.175121088	128375.698203215	-91.5590567323621
939.101	-2262.41953799063	151122.239505872	151139.173662674	-90.8576990953425
801.2801	-2116.66020978218	176017.938681489	176030.664908487	-90.6889630246765
684.3433	-3446.12717617324	206265.652795505	206294.438402178	-90.9571645685772
582.9476	-389.531088592059	243506.458122338	243506.769683627	-90.0916545232526
497.0677	-60343.1916834183	244860.204905428	252186.083535293	-103.84407400088
423.5089	-60179.3520710882	288754.906385332	294959.235111053	-101.772487796805
361.5036	-45171.112552572	364496.822978819	367285.125441924	-97.0644935942152
308.1262	-61356.1639975961	420494.831271701	424947.62263921	-98.3016813612412
262.7298	-27229.7099188169	493743.701055581	494493.983213472	-93.1566349525254
224.2111	-76320.896059345	593092.301169756	597982.739618911	-97.3326951381159
191.2854	-123042.61596605	631904.700301757	643772.502990942	-101.018589929972
163.1722	-12289.8381388814	837940.191823988	838030.312814221	-90.8402811783705
139.1537	-810102.958266662	830161.92111247	1159929.1436366	-134.299359122162
118.6706	-117341.559023926	989819.967251158	996751.026607572	-96.7607686670163
101.1982	-114161.310458555	732447.807708998	741291.168046221	-98.8589974085649
86.24196	503734.321220222	84630.8913822588	510794.140678369	-9.53702573940133
73.61024	104607.031920473	-258758.088934959	279102.812089887	67.9882032942547
62.69291	45739.8297906162	4339.72684039854	45945.2419552212	-5.41991374360506
53.57697	91066.7100991703	-79248.7731828995	120720.809056604	41.0306937319542
45.65746	308611.335798287	-76922.9303578899	318053.60208312	13.996064050429
38.96512	372532.184706793	-240111.194833024	443208.319559278	32.803323461507
33.18414	140614.489438434	740911.034095384	754136.323939063	-79.2538713494555
28.30617	387094.895842186	480319.958292462	616887.121539383	-51.1342945166486
24.17237	365037.919126848	542569.869538299	653937.876048839	-56.0675585355501
20.61345	-340503.00791995	-557642.4962384	653381.551632373	121.40872546419
17.55618	409657.973607971	-804638.599702609	902919.116793949	63.0184246750695
14.98558	3393112.85358568	2398439.11879222	4155204.57302901	-35.2547749541758
12.76553	343936.085227457	-1701992.37789742	1736395.71674849	78.5756039115796
10.8809	57133.6351057399	1064023.41587625	1065556.23117382	-86.9264064798319
9.278505	954951.635468528	1322834.86004528	1631509.94267121	-54.1745632762174
7.923394	2450707.81028531	-645063.787518045	2534181.53678077	14.7466387620504
6.75822	955039.597641727	-449876.349326756	1055693.78266012	25.2230230769908
5.761429	893520.540111555	341124.391645023	956422.922234945	-20.8956390081282
4.919708	355466.0573955	-1386336.98389318	1431183.54897978	75.6187979140275
4.191257	428728.113576161	1104211.65473171	1184521.49571711	-68.7804893333616
3.564097	1495561.99941448	-846492.756991623	1718503.90797691	29.5099964325627
3.051758	954721.334468863	1697131.97258925	1947241.57691713	-60.6400768674814
2.604164	2586572.49817957	1786147.37830757	3143354.85514663	-34.6268647769139
2.214424	1088381.69298516	4741471.54750419	4864784.3883791	-77.0719907698178
1.892567	2836486.15447208	-669383.440013523	2914400.09166143	13.2783140908907
1.607507	5406490.93332274	-1531028.93731678	5619091.90341308	15.811245911605
1.376413	5549741.31132153	-1016367.45510909	5642041.42366872	10.3780189206723
1.17375	5978096.32527444	10989663.1442445	12510408.9340927	-61.4549374437165
1.001604	-1906266.9154711	-7260362.56910554	7506445.10989646	104.711417511149
