EC-Lab ASCII FILE
freq/Hz	Re(Z)/Ohm	-Im(Z)/Ohm	|Z|/Ohm	Phase(Z)/deg
6999984	-8.70359282651966	32.7420472939409	33.8791113975633	-104.886284230223
5969734	-8.00440256081206	38.8389103020722	39.6551562070803	-101.645176574727
5091109	-6.70125070628246	43.8629711209014	44.3719167557756	-98.6863079291125
4341796	-5.32535545907251	48.9636063068381	49.2523517543732	-96.2071768453609
3702781	-11.5009815319576	49.4607142642127	50.7802602565655	-103.090233429827
3157797	-10.4724140685798	57.1577377739603	58.1091941422404	-100.382549481597
2693047	-10.6522979764328	66.7830046428098	67.6272220433478	-99.0626839047339
2296687	-10.5788484969361	77.3010682309088	78.0215815346033	-97.792665656047
1958656	-10.3646093653226	89.7981708853738	90.3943395443239	-96.5840111872185
1670375	-10.1910374918642	104.614581281874	105.10978956283	-95.5639171287676
1424531	-9.47942009630143	122.107015498437	122.474416264368	-94.4390863853668
1214875	-9.41278569500739	142.366100417386	142.67693255251	-93.7827059352649
1036062	-8.37698159936099	165.232840780494	165.445052791276	-92.9022989872668
883578.1	-7.53713470158085	193.710411014509	193.856987841346	-92.2282141412954
753531.2	-6.61208886399043	226.325285587457	226.421851011313	-91.6734191082703
642624.9	-5.27501168141498	264.341103492636	264.393730530706	-91.1432039646562
548046.8	-3.39363770883931	309.014958226735	309.033592324151	-90.6292035266443
467390.6	-1.53243723655043	361.279139624718	361.282389678573	-90.2430299727261
398593.7	0.732906460468557	421.373213786985	421.373851169069	-89.9003439154584
339937.5	3.11388955187441	493.609216401502	493.619038150521	-89.6385594988631
289906.2	-98.286348852245	502.45326726202	511.976065996238	-101.068036187692
247234.4	-104.893133300889	604.23843568353	613.275351347955	-99.8481517460788
210843.7	-110.988568578261	722.568266431545	731.042654028436	-98.7325456231796
179812.5	-111.817562335869	862.897870906934	870.112580567857	-97.3834591987645
153343.8	-112.219426846074	1026.29374727495	1032.41079782096	-96.2401792143605
130781.2	-107.72901961712	1207.69540003466	1212.49070962732	-95.0974148919721
111531.3	-111.057730174936	1422.14260307362	1426.47236317729	-94.4652705566042
95109.37	-94.8063687908641	1676.65872550323	1679.33699100849	-93.2363333818281
81109.37	-90.9248576448537	1964.68243253026	1966.78529342446	-92.6497391911732
69171.88	-58.4039027713317	2302.4381360556	2303.17875689711	-91.4530595402629
59000	-70.3534480894111	2707.09695522519	2708.01099197318	-91.4886975151201
50312.5	-59.81314957565	3146.4106851212	3146.97915663689	-91.0890594530163
42906.25	-0.251240276247236	3712.55174747163	3712.55175597275	-90.0038773890386
36593.75	29.8994460231405	4329.21457886179	4329.31782694479	-89.6042966227143
31203.13	-670.707455406496	4869.80646401146	4915.77699734901	-97.8418827306487
26609.38	-712.00111629211	5627.83318835707	5672.69353883801	-97.210425944635
22703.13	-648.883890197872	6698.01476262411	6729.3723379888	-95.5333784782871
19359.37	-642.240898478499	7888.40126419348	7914.50237706754	-94.6545185163359
16500	-563.101641786339	9195.13934407711	9212.36511521212	-93.5043630383903
14112.02	-272.918253284715	10839.5561534691	10842.9913758698	-91.4422879337145
12011.13	-406.732905825319	12758.0597053439	12764.5414763634	-91.8259977691136
10236.38	-358.009283592464	14845.0876431157	14849.4039536584	-91.3814971116511
8750.684	-207.090378028138	17403.6719212209	17404.9039861231	-90.6817437564578
7449.463	-48.9227438823551	20285.7704481547	20285.8294410186	-90.1381786962172
6363.206	-157.185729367567	23563.3485632462	23563.8728325068	-90.3822014211634
5414.761	393.806020097164	27631.0665452019	27633.8727218398	-89.1834591221907
4620.567	389.255890870533	31389.1678332761	31391.5813143294	-89.2895136100694
3941.215	-6403.37893806339	34235.887319707	34829.5742493662	-100.59402820378
3361.769	-6609.25461934405	41202.6108270119	41729.334832771	-99.1131041907055
2867.244	-6403.45885614417	48936.3025301778	49353.4800257025	-97.4549643315969
2442.658	-6218.57532140976	57529.4652449136	57864.5837312753	-96.1693616308823
2083.003	-5965.6591071788	68284.364503945	68544.4638485902	-94.9929646859197
1777.843	-5412.46859395535	79847.3400304187	80030.5724471209	-93.8778742250361
1513.548	-5467.20550902824	94871.7342502986	95029.1339313225	-93.2981555279227
1292.065	-3338.61972031893	109707.31028868	109758.099074344	-91.7430907761582
1101.762	-5339.01347764598	128783.12411089	128893.747407216	-92.3739746043767
939.101	-3629.262437164	151110.408444011	151153.984684339	-91.3758248294793
801.2801	422.992410728088	174477.955251437	174478.467987605	-89.861096306492
684.3433	-520.892317794449	205182.454252305	205183.115440345	-90.1454552602154
582.9476	2557.47246201783	241824.878836612	241838.402016173	-89.3940784076808
497.0677	5669.86685398809	290959.466788953	291014.705305855	-88.8836303079988
423.5089	-63840.6883145003	313638.010179335	320069.422022351	-101.505317576936
361.5036	-57543.164965719	354329.391211981	358971.493730248	-99.2243152987404
308.1262	-67222.6436460639	414710.41199897	420123.326701959	-99.207298452225
262.7298	-29617.8583589074	481630.23177138	482540.047757616	-93.5189734621662
224.2111	-68494.8486559169	593491.366199362	597430.787661284	-96.5833809336438
191.2854	-87351.9799096043	659959.596881721	665715.433132214	-97.5398193810557
163.1722	73766.349168634	643048.148244015	647265.320583241	-83.4560011147245
139.1537	240250.681630774	1145781.80153463	1170699.07608744	-78.1576312000317
118.6706	-125939.869778668	926299.172323119	934821.377294274	-97.7424745531935
101.1982	-157871.353347586	723388.524907202	740414.966201532	-102.311125420008
86.24196	620647.616234828	-322661.708056914	699509.857960686	27.4689775268579
73.61024	89850.3179799376	287956.4289515	301648.776917123	-72.6706435791819
62.69291	57981.6617020755	-13497.2520031597	59531.9150151473	13.1042151352622
53.57697	145477.272097967	-38164.2216431728	150399.948506291	14.699621845382
45.65746	295485.388231078	-152428.211045371	332484.547280867	27.2872639621322
38.96512	433912.73504559	-56960.8306925178	437635.46230616	7.47860037588049
33.18414	557544.781185609	-10279.340818253	557639.53220245	1.05623107954761
28.30617	-2361.42730541382	759867.446679559	759871.115954694	-90.1780565587583
24.17237	529487.124434585	506576.680097616	732786.836508905	-43.7332267896052
20.61345	-392629.844196273	-1130731.51569604	1196959.46261428	109.148803747099
17.55618	798884.334687316	-793367.695285823	1125898.96533034	44.8014894098928
14.98558	1533812.7921847	231508.312603857	1551185.92704876	-8.58323435700296
12.76553	198345.010537333	-1897960.48483743	1908296.29387299	84.0340009384525
10.8809	5527248.40873245	-52078.0429270407	5527493.74440085	0.53982805761343
9.278505	1716058.60405258	968711.575166509	1970598.70303531	-29.4446391368721
7.923394	1375202.70593556	-123707.738004883	1380755.6216995	5.14026392999981
6.75822	1340218.99259027	108719.611849023	1344621.47167903	-4.63772322084836
5.761429	693897.988286082	356834.661119027	780272.640506768	-27.2143378939679
4.919708	448450.413085689	1148077.50147723	1232554.14582684	-68.6638924220525
4.191257	1020332.63072796	-600303.938167233	1183825.78765092	30.4700617028178
3.564097	1991981.24040356	-1060379.97453513	2256633.5441349	28.0274566785058
3.051758	901935.490838528	1353075.24999639	1626130.45657073	-56.3132944043038
2.604164	6627179.15901303	5630139.93080409	8695859.89112585	-40.3496646375058
2.214424	6824639.9920494	-2075891.91714045	7133374.95668979	16.9185040394292
1.892567	2827722.0992729	542094.842162537	2879215.01257123	-10.8523477609493
1.607507	3677060.87115615	-444475.494654883	3703827.09039398	6.89235568948058
1.376413	2082683.80932696	1863043.8833859	2794370.11883793	-41.8139041195862
1.17375	6757622.71716295	11526479.3633742	13361331.9434033	-59.6182066398656
1.001604	12597004.7479129	1625764.11530933	12701481.7079571	-7.35391903008207
