EC-Lab ASCII FILE
freq/Hz	Re(Z)/Ohm	-Im(Z)/Ohm	|Z|/Ohm	Phase(Z)/deg
6999984	-9.63432911213249	30.1343995715715	31.6370405534401	-107.729701880119
5969734	-11.9852576887664	33.3353565906898	35.4244604884052	-109.775333096074
5091109	-13.2131334335748	36.8366989000039	39.1347579650494	-109.732647740337
4341796	-13.0616553549416	42.4818535098339	44.4445128023951	-107.090796642768
3702781	-12.4270368936175	49.6522209273304	51.1837307058772	-104.051427426938
3157797	-11.7028342436029	57.5714190507611	58.74882654872	-101.490248786924
2693047	-11.1425363571217	66.5090138404852	67.4359328437268	-99.5106796047467
2296687	-11.1904044421271	77.0925513183152	77.9004917850038	-98.259110597063
1958656	-10.9490055139902	89.5726193421142	90.2393199085226	-96.9690388255464
1670375	-10.7439810431386	104.316007821268	104.867834040864	-95.8804190147978
1424531	-10.1792659387467	121.917776689949	122.341986775073	-94.7727197094714
1214875	-9.48514747243139	141.593441487043	141.910784279132	-93.8324386718822
1036062	-9.35530533617126	165.077420537911	165.342301028452	-93.2436099458263
883578.1	-7.81798434024271	193.847851298957	194.005438924703	-92.3095168524245
753531.2	-7.16422836879995	226.463679181999	226.576971814807	-91.8119603031329
642624.9	-5.89517574351389	264.507555974269	264.573241777259	-91.2767604267012
548046.8	-4.39860325460315	308.941984787287	308.973296054691	-90.8157012889594
467390.6	-1.26083229310011	360.269965727136	360.272171979884	-90.2005165043274
398593.7	-0.103683700964592	422.039102046093	422.039114782247	-90.0140760377919
339937.5	2.00251453884539	492.581189185902	492.585259629514	-89.767073932311
289906.2	-99.8617511862363	501.286638736888	511.136638802296	-101.266451472146
247234.4	-105.382973885873	605.192535599412	614.299256332185	-99.8779455514256
210843.7	-108.437741023955	719.383597878522	727.510484168459	-98.5720601447634
179812.5	-112.729228672555	862.380421759958	869.717121156064	-97.4474012887011
153343.8	-111.868520207598	1020.75113348223	1026.86291310899	-96.2543312719002
130781.2	-109.375860604465	1206.80460898454	1211.75098231827	-95.1787176031011
111531.3	-118.831552155763	1421.76195011168	1426.71930686212	-94.7777044422891
95109.37	-95.5260498544691	1678.22071999644	1680.93724190588	-93.2578192991455
81109.37	-85.3620156000084	1964.15111022	1966.00515194792	-92.4885088676234
69171.88	-70.3341109616905	2317.81685219455	2318.88375031648	-91.7381060433405
59000	-60.3178015608913	2709.16505670953	2709.83644186898	-91.2754426237724
50312.5	-80.42666712893	3156.1917495095	3157.21630688448	-91.4597058506865
42906.25	-5.16148586517753	3719.5231075628	3719.52668879119	-90.0795078179958
36593.75	9.4331297802167	4304.75030157873	4304.76063711788	-89.8744462231185
31203.13	-739.559886911123	4740.61340920256	4797.95418088159	-98.8669615219173
26609.38	-693.384993010727	5656.95911637364	5699.29549969602	-96.9880037285652
22703.13	-679.440515362722	6681.15378758658	6715.61280504608	-95.806736642344
19359.37	-663.440529515806	7853.99456837022	7881.96574568762	-94.8284112071581
16500	-598.432271069416	9244.5003814107	9263.84954999593	-93.7038096468754
14112.02	-489.040668766475	10921.8003012137	10932.7435987175	-92.5637955219036
12011.13	-509.886376989188	12721.0439074213	12731.2584692944	-92.2953074991052
10236.38	-528.541724790821	14871.4804136942	14880.8698015182	-92.0354711390134
8750.684	-146.886850341601	17295.2985883493	17295.9223231073	-90.4865943314363
7449.463	-106.339322932981	20290.9712636446	20291.2499091025	-90.3002684564597
6363.206	131.475037025907	23572.8833206226	23573.2499611965	-89.6804427136872
5414.761	240.893115477358	27437.9724095894	27439.0298560731	-89.4969816276863
4620.567	524.839346802034	32104.6193706451	32108.9090639024	-89.0634244641108
3941.215	200.596727075525	36844.728960348	36845.2750187649	-89.6880630523624
3361.769	-6472.75383734791	41075.7474311119	41582.6113810016	-98.9550824308084
2867.244	-6354.0590178954	49041.6838316201	49451.6007733166	-97.3823705789538
2442.658	-6213.38700356507	57984.4955027836	58316.4461946063	-96.1162484432737
2083.003	-6021.52576259556	68555.3509206081	68819.2917164753	-95.0196645191728
1777.843	-5354.54212685832	79954.9100574347	80134.0050395634	-93.8313500520715
1513.548	-5193.05556717536	94515.663468448	94658.2192258268	-93.1448893177252
1292.065	-3857.61096603801	109671.703040681	109739.526198214	-92.0145008837116
1101.762	-3904.49555103609	127944.341129152	128003.904286083	-91.7479609174168
939.101	-2186.25309786411	151542.421040172	151558.190400007	-90.8265301912874
801.2801	-1550.48074057478	176373.386418885	176380.201347521	-90.5036684737312
684.3433	-44.8003521401581	202100.887138996	202100.892104515	-90.0127009390836
582.9476	-1404.79095101235	238433.913048258	238438.051344831	-90.3375680089227
497.0677	11763.0843359614	293418.505496355	293654.200584309	-87.7042539825015
423.5089	-18817.8768140265	290146.885157825	290756.474484363	-93.710799731976
361.5036	-53522.7295771521	346446.833450504	350556.829899619	-98.7822210640174
308.1262	-50269.0263280417	444384.728340442	447218.919311536	-96.4538924719443
262.7298	-68807.5651533987	525847.084770071	530329.744200268	-97.4548497400378
224.2111	-62415.0904562628	567252.57127748	570676.022921566	-96.2790257528704
191.2854	-102461.252544428	798108.676277856	804658.789439949	-97.315620995821
163.1722	-49029.0587437878	814242.917302793	815717.706672514	-93.4458640475075
139.1537	-88291.1758469579	1009344.6867891	1013198.90864619	-94.9991526301071
118.6706	-212420.155041064	997454.289240309	1019822.23028896	-102.022240099703
101.1982	705830.901288702	1258486.8690204	1442909.02717767	-60.7138165357148
86.24196	618115.786307134	318819.297760389	695494.694376969	-27.2843304182211
73.61024	288268.524337107	-196412.468702593	348821.73095342	34.2686572929761
62.69291	53625.2288141581	12366.8041395909	55032.7448888188	-12.9862488548227
53.57697	107109.85307864	-71464.4921637538	128762.161626586	33.7115131329909
45.65746	322808.964418229	-226768.501990228	394499.152094984	35.0874712779976
38.96512	372053.856796792	333154.624028939	499415.73450306	-41.8427697333049
33.18414	514922.958841687	198695.681230671	551929.005653806	-21.1003339100167
28.30617	644035.755086067	654707.818762267	918381.392329857	-45.4708015174307
24.17237	930408.002316491	-230526.854144809	958541.434292992	13.9159072548902
20.61345	488355.043777974	381743.224522058	619853.642605966	-38.0144548223131
17.55618	1183567.91244933	438723.063186344	1262264.20750621	-20.3386552763257
14.98558	-1274025.15740255	5305709.75145618	5456527.83997221	-103.502419267644
12.76553	2069735.08700007	1508748.16661941	2561273.97219365	-36.09044535753
10.8809	1043711.0865503	3806117.20265488	3946626.53319686	-74.6653388471503
9.278505	1674811.75003209	705139.441176527	1817200.05215395	-22.8323624063854
7.923394	1228892.5729165	1177525.40438911	1701982.08972688	-43.7771554637579
6.75822	1455827.20411778	1748576.18047151	2275291.52135759	-50.2199570080229
5.761429	160816.236272937	697795.550325307	716086.930409145	-77.0220288500824
4.919708	1196168.18208044	-1020898.96827677	1572594.36068244	40.4799094034949
4.191257	787866.478726872	1354656.25376167	1567107.89486783	-59.8177678399097
3.564097	1245552.85191169	-2205502.90401266	2532912.34876251	60.5445075072536
3.051758	-401264.566192524	1873744.62368737	1916228.63116044	-102.087385401009
2.604164	5578897.41712013	8130239.96120426	9860268.66862725	-55.5424369867348
2.214424	809365.347552081	6534788.05907003	6584719.22277498	-82.9395942539731
1.892567	3096308.31412536	-687956.26822877	3171814.7807079	12.526828376375
1.607507	961963.122522751	-3638429.82648059	3763448.50520335	75.1904546663877
1.376413	2059841.14747819	-1022078.56969469	2299476.06107857	26.390281345121
1.17375	15351095.1463589	8774043.72354876	17681627.9073877	-29.750478278335
1.001604	12748875.7904367	1787629.08791658	12873595.1340699	-7.98189223270135
