EC-Lab ASCII FILE
freq/Hz	Re(Z)/Ohm	-Im(Z)/Ohm	|Z|/Ohm	Phase(Z)/deg
6999984	21.5540861243417	2.56157204638771	21.7057660543086	-6.77746619240095
5969734	14.2752406317622	-2.7329570474724	14.5344951518119	10.8379837090254
5091109	12.2545995989218	-4.89007234063674	13.1942418814631	21.7539641627019
4341796	9.72067875300183	-7.65082914049937	12.3703994258947	38.2051294469547
3702781	5.15165265256729	-5.10859564339523	7.25515502938568	44.7595603584451
3157797	4.1229775780009	-5.12938375751923	6.58099702481321	51.2078221904977
2693047	3.19525352176289	-3.89409359734498	5.03722245024193	50.6298051780359
2296687	2.43739887434159	-3.78237822444987	4.49969980170168	57.2019003783501
1958656	1.85755773681102	-3.2672156333229	3.75835319524603	60.379839436933
1670375	1.31560796883262	-2.84377283624489	3.13334777383875	65.1734335341155
1424531	1.19502062531654	-2.45653210395419	2.73178042175603	64.0586295521295
1214875	0.915183141918653	-2.13014483612282	2.31842127451264	66.7499842031975
1036062	0.831834969961713	-1.84539776763738	2.02421400500348	65.735963497375
883578.1	0.741423641374692	-1.55301044857001	1.72091559042184	64.4796962357711
753531.2	0.665627750647667	-1.34938058925447	1.50462230379887	63.7436173563666
642624.9	0.578203319091886	-1.15654912790345	1.29302937455539	63.4377724853257
548046.8	0.562945665665966	-1.01553573339467	1.16112904032823	60.9989203345719
467390.6	0.527975816728379	-0.880816326156469	1.02693517978195	59.0608332967623
398593.7	0.497204340197104	-0.763992097122404	0.911535013247613	56.9440120747618
339937.5	0.469025671351405	-0.663454146046569	0.812500144180306	54.741785763819
289906.2	0.446984200554035	-0.574775498931701	0.728122070615302	52.1289549785736
247234.4	0.429872866450676	-0.497614600411924	0.657579631568405	49.1773457082233
210843.7	0.41529094614459	-0.430777191442816	0.59836072616527	46.0486122650863
179812.5	0.403579237687324	-0.36959391722166	0.547243880495281	42.4831474721888
153343.8	0.396068948674439	-0.320996381579957	0.509812994235633	39.0232386938882
130781.2	0.389941144803947	-0.278530692961883	0.479200838201312	35.5378046458145
111531.3	0.382598062079275	-0.242711932747836	0.453089791768703	32.3901578658602
95109.37	0.375818677036909	-0.211815875120493	0.431399632548328	29.4061249138834
81109.37	0.369591947184193	-0.184903810470442	0.413264596293818	26.5784234963081
69171.88	0.362876475996885	-0.159504605980353	0.396384984782302	23.7281876486503
59000	0.353750393453775	-0.134526606035884	0.378466311050581	20.8211487651833
50312.5	0.348207334646064	-0.104588565976388	0.363575461265351	16.7183183153884
42906.25	0.377593360537906	-0.105104127400763	0.391948496002963	15.5546868701013
36593.75	0.362131294153867	-0.0955125197553584	0.374515307611815	14.7753439475864
31203.13	0.35633475473702	-0.0833904567898592	0.365962328275894	13.1714803804106
26609.38	0.352105780220624	-0.0713986529780978	0.359271830390111	11.4627941846155
22703.13	0.352431131801071	-0.0635488976290993	0.358114737273486	10.2214983101985
19359.37	0.349549232230441	-0.0567414752956428	0.354124640164472	9.22026029278531
16500	0.347440971507063	-0.050366729968748	0.351072693568606	8.24841501026236
14112.02	0.345584416488514	-0.0450435645759443	0.348507548884402	7.42608306437879
12011.13	0.343825100924565	-0.0400232514419209	0.346146732877505	6.63968130182789
10236.38	0.342041547450484	-0.035951137418924	0.343925725214088	6.00018591794852
8750.684	0.340781128855345	-0.0325942352823171	0.342336328714267	5.46347285997988
7449.463	0.339298790201011	-0.0295572840528547	0.340583766601479	4.97863024416222
6363.206	0.338362105984487	-0.0266084218291796	0.339406721911185	4.49642323420217
5414.761	0.336832544555223	-0.0244731032297493	0.337720440384115	4.15561361371348
4620.567	0.335453759690304	-0.0227464484011705	0.3362240708296	3.87917408263435
3941.215	0.334383772888069	-0.021294075135301	0.335061106675674	3.64376348630674
3361.769	0.333531609974076	-0.0202716425758839	0.334147084896192	3.4780887291401
2867.244	0.332360889602275	-0.0189302231013792	0.332899555848132	3.25986400187744
2442.658	0.331558028421793	-0.0169759668566161	0.331992333739295	2.93101831310888
2083.003	0.331775523798989	-0.0171389089764779	0.332217911005709	2.95716524208967
1777.843	0.32972624439516	-0.0136548045274375	0.330008863410696	2.37140928868901
1513.548	0.328971522751383	-0.0137992421431857	0.329260811310867	2.40195596057862
1292.065	0.327896078219991	-0.0103133796487936	0.328058232501229	1.80154145494733
1101.762	0.328463110885196	-0.0127520474970859	0.328710556459248	2.2232991256899
939.101	0.32613004015084	-0.0158899195905111	0.326516910179827	2.78939632418183
801.2801	0.327293620928808	-0.00954847806996583	0.32743287515786	1.67107552724927
684.3433	0.325488439192366	-0.00844266065811708	0.325597915482994	1.48582967771655
582.9476	0.318457669845731	-0.00785940115599752	0.31855463843759	1.41374872230012
497.0677	0.315550079843375	-0.015489026782747	0.315929996739526	2.81015343918383
423.5089	0.322474444664196	-0.0115171696072176	0.322680046884283	2.04544844241893
361.5036	0.31261678151393	-0.0120840030818349	0.312850244069922	2.21362988993927
308.1262	0.319176225850299	-0.0100112144584001	0.319333192078389	1.79653838748025
262.7298	0.313430521554211	-0.014955435306713	0.31378712033313	2.73181406577118
224.2111	0.310295250441857	-0.0098260541100994	0.310450791247421	1.81376722837983
191.2854	0.315370720944771	-0.00822986112078634	0.315478085202906	1.49484173087616
163.1722	0.313241418457875	-0.0126277002961207	0.313495845350892	2.30851456560191
139.1537	0.30665384052166	-0.0147279022721151	0.307007311007443	2.74967602503438
118.6706	0.298996169282364	-0.0114614768128323	0.299215766122474	2.19525513344943
101.1982	0.309934402342845	-0.0167544603975814	0.310386929007699	3.09428836640936
86.24196	0.30215655631143	-0.00622973717190543	0.302220770542352	1.18113301409716
73.61024	0.318910736905284	-0.0222716010168051	0.319687476022009	3.99484910485111
62.69291	0.248829566834088	0.0687662037816545	0.258156820776403	-15.4485980047549
53.57697	0.289522388577023	0.00971583535551458	0.28968536542946	-1.92201900940287
45.65746	0.281590345374621	-0.0125236288898032	0.281868699732283	2.54653097398177
38.96512	0.313189664163374	-0.00919548421135136	0.313324628251034	1.68176405491744
33.18414	0.299223922206666	-0.0115792294526906	0.299447882235722	2.21609991099408
28.30617	0.315484855829431	-0.0200688804876832	0.316122530392482	3.63984159019907
24.17237	0.312716943045565	-0.00337987312105336	0.312735207500016	0.619233877370154
20.61345	0.283724222257722	-0.00194052121905621	0.283730858241311	0.391866233387477
17.55618	0.284667314933506	-0.0070056189150996	0.28475350548823	1.40975577942585
14.98558	0.294238848774024	-0.00580655979884526	0.294296137019433	1.13053797599813
12.76553	0.29094825023704	-0.0104868154823916	0.291137180062865	2.06425119838174
10.8809	0.291518056637447	-0.00581894831857043	0.291576126432203	1.143520626678
9.278505	0.302032607093332	-0.0145012321300267	0.302380524308171	2.74878221087398
7.923394	0.284851026549576	0.00127560703011793	0.284853882718215	-0.256577662632022
6.75822	0.296183790215655	-0.0116758467354599	0.296413837368468	2.25748522549418
5.761429	0.283342189258334	0.00268380652147139	0.283354899430291	-0.542687231602692
4.919708	0.297930622201865	-0.00582188812244342	0.297987499782962	1.11947931759431
4.191257	0.279414078713049	-0.0107304429893196	0.279620045400556	2.1992704216777
3.564097	0.279775220595203	-0.00106890377717316	0.279777262504263	0.218902077968061
3.051758	0.290083551865913	0.00263611111082457	0.290095529343236	-0.520656488717896
2.604164	0.292730491490745	-0.0105015154779802	0.292918798433537	2.05456763868623
2.214424	0.284000190329054	-0.0112706111635783	0.284223740709568	2.2726032898765
1.892567	0.283000604181068	-0.00437026438755653	0.283034346286218	0.884725330899924
1.607507	0.279823029816541	-0.000540979459480581	0.279823552751523	0.110769300279067
1.376413	0.28306614834038	-0.00316245882515254	0.283083813528925	0.640090687028507
1.17375	0.281658399598397	0.00355636004840502	0.281680850895343	-0.72340677184966
1.001604	0.295982288182558	0.00200746612626551	0.295989095809341	-0.388596134067547
