EC-Lab ASCII FILE
freq/Hz	Re(Z)/Ohm	-Im(Z)/Ohm	|Z|/Ohm	Phase(Z)/deg
6999984	40.0520222796395	77.0355342393657	86.8253305449119	-62.5293479011458
5969734	47.6016482192047	64.2265088993146	79.9434885314536	-53.4559080433628
5091109	46.0904341681382	57.0289384888542	73.3254931587439	-51.0550716423158
4341796	51.501041295019	56.139890363068	76.1842801662426	-47.4676682954427
3702781	56.7506420346479	54.2675544353144	78.5213527375488	-43.7187080390766
3157797	61.2059514278125	51.5729547654738	80.0371048540947	-40.1179375868431
2693047	66.4124612692662	51.3980723045848	83.978430852625	-37.7370802241123
2296687	70.9243445182505	49.7565319980619	86.6370308922094	-35.0513405594366
1958656	77.5854008268883	46.8411596988204	90.6288511645123	-31.1209245693525
1670375	82.6003845654482	44.6050543909927	93.8745674162248	-28.369501023043
1424531	88.0882480631833	40.1537696810683	96.8083915083873	-24.5051929033611
1214875	91.7703636500673	36.8565845072067	98.8949314474835	-21.8812581960461
1036062	95.4899819036979	32.6060159631015	100.903364269754	-18.8529871727073
883578.1	97.6699489536199	29.5054856829778	102.029371329981	-16.8092409878977
753531.2	100.26169153642	25.5011586100731	103.453931197419	-14.2703618652699
642624.9	102.340870291984	22.6963856898179	104.827380275869	-12.5042481096689
548046.8	101.329834811239	18.9657228486475	103.0894469189	-10.6012891142789
467390.6	104.179333298396	18.6600296444503	105.837281677252	-10.1548232115791
398593.7	103.67713616622	14.753773505366	104.721642444514	-8.09909647927331
339937.5	104.070036965784	13.7129283913172	104.96960035708	-7.50641174725614
289906.2	105.559205763513	11.0781502168413	106.138924686707	-5.9911045368957
247234.4	104.056127256365	10.9034689672922	104.625824991316	-5.98187991639409
210843.7	108.057248162458	11.4169447088873	108.658711141486	-6.03129179664617
179812.5	104.272551223107	9.23566956173809	104.680764855962	-5.06161573233559
153343.8	106.389603900722	6.48388324444064	106.586999958157	-3.4875608674092
130781.2	105.583623586774	8.56360191298528	105.930339598426	-4.63695545740288
111531.3	108.070730128701	7.91327012946308	108.360059776157	-4.18789863955351
95109.37	106.001603831305	7.45419106046034	106.263375530683	-4.0225029128331
81109.37	106.545212065562	6.03442926770917	106.715962023882	-3.24161300427135
69171.88	106.69310337174	8.91136379044421	107.06460998714	-4.77445272316279
59000	107.659797225922	8.96217482329893	108.032182780364	-4.75863393139702
50312.5	106.063964881845	10.2111615970939	106.554363906971	-5.4991240128663
42906.25	109.148815361553	8.60125682352924	109.487193377923	-4.50576932175635
36593.75	110.188023713187	8.86080508500378	110.54372183246	-4.59756518194544
31203.13	110.990246323759	10.177582039127	111.455901392308	-5.23925556713795
26609.38	110.088704863092	12.1949094848283	110.762081759852	-6.32108239026744
22703.13	110.431023583245	12.7551332006333	111.165212151145	-6.58864795101558
19359.37	110.989812973516	14.5755833814712	111.942780985673	-7.48147662401204
16500	111.320021364262	16.4611224887285	112.530510130047	-8.41149025791249
14112.02	112.321108298481	17.8862845310243	113.73632024874	-9.04794896547766
12011.13	112.564413791505	20.112629571615	114.347125545464	-10.1305126123317
10236.38	113.138450447794	22.925547830955	115.437817516953	-11.4548988261986
8750.684	115.527650822697	25.8577120505644	118.386060738166	-12.6161639557918
7449.463	116.409453024929	28.9962564163199	119.966427135778	-13.9870800722014
6363.206	116.799776423072	33.393378429056	121.479650540269	-15.9553791745481
5414.761	118.3952653002	37.5572362612479	124.209439420231	-17.6000201480035
4620.567	120.10361714627	43.9140604069646	127.88011398589	-20.0841703420404
3941.215	122.651602265159	48.8883461471579	132.035926653374	-21.7319912312587
3361.769	123.499774915127	55.5779244315632	135.42931768346	-24.228912654549
2867.244	126.299974404019	63.6351551980139	141.425303646594	-26.7408570312277
2442.658	128.866744907042	72.3115830234792	147.768748327575	-29.2982885272619
2083.003	131.674679079062	84.1996495759186	156.29396053361	-32.5969669820127
1777.843	136.403985795637	92.6113048729048	164.872378314861	-34.1744916793464
1513.548	136.750720146849	105.462280978551	172.69352092618	-37.6394424862441
1292.065	144.940857805248	121.519304015596	189.142257334939	-39.9766748424536
1101.762	147.186434039963	141.247274545814	203.996664021794	-43.8203851294005
939.101	153.951561943607	155.667437413086	218.937056012986	-45.3175238480773
801.2801	154.682748243112	178.262528405362	236.017545190002	-49.0510257031308
684.3433	162.66271133966	209.754360221203	265.435584073002	-52.2067282696847
582.9476	173.538502274494	238.360617528082	294.841306061486	-53.943500856597
497.0677	361.926903642723	266.953282611622	449.727849568525	-36.4120752158267
423.5089	367.611245481375	300.679866779081	474.917266574562	-39.28072592702
361.5036	382.691870289072	350.967426637924	519.260245104702	-42.5239936334036
308.1262	389.038578474964	402.824353949413	560.016495896847	-45.9973783790457
262.7298	400.836204193388	457.386149519641	608.170824986341	-48.7698810426381
224.2111	422.475817020897	533.442756520172	680.475561979498	-51.6214919890042
191.2854	436.928146251754	609.291296856414	749.761354973677	-54.3553601084709
163.1722	460.520299590618	699.152150807606	837.19333269797	-56.6277451014275
139.1537	494.546427433903	823.945523501948	960.969507625781	-59.0270860826291
118.6706	509.832143752727	889.53174341313	1025.27827312545	-60.1809657862431
101.1982	544.980530372404	1034.23460637464	1169.03592738115	-62.2134189729107
86.24196	620.686480317606	1178.24807218867	1331.73579454237	-62.2202944664522
73.61024	636.46490681828	1397.23284750731	1535.36549647456	-65.5098743514163
62.69291	563.088247053969	1196.64407505897	1322.50724623499	-64.8003807137058
53.57697	1656.89844563462	1743.01398103058	2404.87217897635	-46.4509203105154
45.65746	1812.13930624663	1843.05213100115	2584.70308214152	-45.4845525045139
38.96512	2142.1887319811	2369.85229268672	3194.55356076233	-47.8885172551222
33.18414	2087.46632844111	2517.11385163234	3270.07305949803	-50.3307613160232
28.30617	2495.184083985	3113.82743167665	3990.22115768463	-51.2939721245736
24.17237	2155.83061674746	3686.46390394916	4270.55286388376	-59.6810601099914
20.61345	2129.16886496027	3806.89897806021	4361.86197450951	-60.7820558091149
17.55618	2226.54568336203	4505.84722492206	5025.94915358641	-63.703911381164
14.98558	2865.02192707769	5107.94781500572	5856.57592142864	-60.7121549581089
12.76553	3292.10204136065	5878.86389860355	6737.87626697278	-60.7516317501934
10.8809	3358.23528737017	6748.78796123842	7538.16179125222	-63.5448010014562
9.278505	3373.03386218454	7594.70752309242	8310.05052913399	-66.0525799749643
7.923394	4088.13091973553	8393.11846440375	9335.80483806366	-64.0301535497115
6.75822	3985.74959971515	9669.91803039663	10459.1354607453	-67.599508726038
5.761429	16215.5510734388	10659.3403508319	19405.2991043729	-33.3190370433263
4.919708	15906.0084525432	12303.1639793686	20108.9270921054	-37.7216504706895
4.191257	16188.877978829	15006.0288683689	22073.9818023785	-42.8284977832039
3.564097	17496.7630676624	16643.9900064169	24148.687773451	-43.5691545953915
3.051758	17722.1282556262	18175.2612543232	25385.3097592242	-45.7232066149197
2.604164	18872.0137231936	21240.2879914572	28413.0733277562	-48.3788831840849
2.214424	19685.7292214984	23893.3110536119	30958.3308349596	-50.5148469260208
1.892567	21083.1194335885	27313.3114554236	34503.8390286057	-52.3354833454065
1.607507	21243.8644345047	31483.9827417678	37980.8233901735	-55.9904326867476
1.376413	21821.0297906009	33319.3981512961	39828.8794003408	-56.7790231480759
1.17375	23213.0208353176	41358.2497927765	47427.3039737933	-60.6959402525067
1.001604	25384.5786839961	45272.1350957574	51903.208485531	-60.7201763672407
