EC-Lab ASCII FILE
freq/Hz	Re(Z)/Ohm	-Im(Z)/Ohm	|Z|/Ohm	Phase(Z)/deg
6999984	7.08041760864015	-5.40180609106967	8.90571853127298	37.340805424266
5969734	3.64492564128025	-3.49271058533266	5.04821851382812	43.778312838504
5091109	2.69356797752741	-0.443067777061613	2.72976510063255	9.34099395937528
4341796	1.88301703487449	-0.661553853145177	1.99584735243924	19.3577286127499
3702781	1.33131076484052	-0.558108550118293	1.44356278224932	22.7442758749619
3157797	1.12099622608796	-0.430380691997172	1.20077478277461	21.0031430792286
2693047	1.00551523031056	-0.332786396408249	1.05915422107495	18.3125332732943
2296687	0.966469550675937	-0.212558955841603	0.989567937077703	12.4037799602928
1958656	0.931124915463495	-0.139040955595009	0.941448880996559	8.49298204511395
1670375	0.937606100935393	-0.0909079457469406	0.942002895489817	5.53794534123319
1424531	0.940021621501926	-0.0547179068441021	0.941612817574458	3.33138231273906
1214875	0.944668978566282	-0.0571527797851439	0.946396280266692	3.46219316102979
1036062	0.938422240911014	-0.0357309936931012	0.939102234129355	2.18051808600087
883578.1	0.942628078239763	-0.037891839716414	0.943389360446196	2.30194102081838
753531.2	0.950415372797066	-0.0232726524171755	0.950700266750523	1.40271126333472
642624.9	0.950738543061316	-0.0135222867420986	0.950834701460295	0.814858857361671
548046.8	0.944543755449442	-0.00790525828046917	0.944576835978427	0.47951972330933
467390.6	0.947554355454932	-0.0108921242922168	0.947616955796596	0.658585191697534
398593.7	0.949068700077472	-0.00816884171441048	0.949103854929321	0.493145118043777
339937.5	0.949025901879687	-0.00518594197173598	0.949040071036354	0.31308906292357
289906.2	0.954540897071943	-0.0048246525495977	0.954553089909165	0.289594584759554
247234.4	0.95493758960078	-0.00498849801381881	0.954950619218073	0.299304672400974
210843.7	0.950433709624043	-0.00350681976692119	0.950440179166788	0.211403550120066
179812.5	0.957199542536843	-0.000453624171884311	0.957199650024816	0.027152905359174
153343.8	0.954491823394243	-0.000272831950229544	0.954491862387386	0.0163774256160195
130781.2	0.954246377524924	-0.00226357016922483	0.954249062231319	0.135911203991424
111531.3	0.956186209282659	-0.00317588759780435	0.956191483482453	0.190302144778972
95109.37	0.957276326822132	0.000225744716120558	0.957276353439669	-0.0135114792656192
81109.37	0.958324315418606	-0.00200199894839784	0.958326406566327	0.11969426385382
69171.88	0.960824734627857	-0.000676171006454078	0.960824972552193	0.0403213376041145
59000	0.959205954130483	-0.000311524973658595	0.959206004718058	0.0186081680364259
50312.5	0.962020687683019	0.00101067429377093	0.962021218577136	-0.060193456266177
42906.25	0.961003497879746	0.00156808137019128	0.96100477720784	-0.0934901536850711
36593.75	0.961510002996783	0.00305765249996415	0.961514864732565	-0.182202985274341
31203.13	0.964202020425294	0.00377712260654302	0.964209418563936	-0.22444681973466
26609.38	0.969709488552642	0.00424976449521435	0.969718800832124	-0.251097894279391
22703.13	0.972985412769013	0.00466443731321696	0.972996593229768	-0.274670638478222
19359.37	0.973900724851527	0.00567373419613951	0.973917251683149	-0.333788996737615
16500	0.976730000268899	0.0057455134742634	0.97674689881789	-0.33703262540741
14112.02	0.976137499185911	0.00619682762461784	0.976157168692385	-0.363726729082555
12011.13	0.976915574041547	0.00690038792908622	0.976939943987601	-0.404698769125022
10236.38	0.977468658437077	0.00631242590693703	0.977489040832484	-0.370007091362323
8750.684	0.978410258616464	0.00624207209491037	0.978430170032575	-0.36553125965832
7449.463	0.980641916701481	0.00640421132445194	0.98066282825171	-0.374172322645585
6363.206	0.981595818160701	0.00639042727728676	0.981616619557433	-0.373004176292872
5414.761	0.98730334417809	0.00621527315428536	0.987322907181649	-0.360683692936836
4620.567	0.988969668896135	0.00600379807668776	0.988987892538567	-0.347824686549156
3941.215	0.989749185370868	0.00563073990239909	0.989765202042457	-0.325955460466807
3361.769	0.991164317253798	0.00527608191914737	0.991178359750456	-0.304989158573806
2867.244	0.992948224012706	0.00490742739358757	0.992960350876917	-0.283169436044956
2442.658	0.991784937877571	0.00464620326491709	0.99179582082483	-0.268410902679079
2083.003	0.991628930209532	0.00423093544946904	0.991637956132821	-0.244459662560784
1777.843	0.991251271352809	0.00390806605335724	0.991258975212249	-0.225890787969949
1513.548	0.991591183228141	0.00350457349590651	0.99159737630309	-0.202499213025938
1292.065	0.992208321461121	0.00308385292565127	0.992213113864941	-0.178078720473431
1101.762	0.991307322243489	0.00266964168148543	0.991310916978253	-0.154300112538809
939.101	0.991034880267509	0.00247300086907777	0.99103796579149	-0.142973997436222
801.2801	0.990633533731422	0.00219868898194103	0.990635973698939	-0.127166492939019
684.3433	0.990683301438201	0.00199014277126999	0.990685300393996	-0.115098970449532
582.9476	0.991548595430655	0.00183894201517059	0.991550300694947	-0.106261554825876
497.0677	0.991230714485614	0.00156541925820295	0.991231950593359	-0.090485333824287
423.5089	0.991355991195308	0.00149068528306211	0.991357111953833	-0.0861546323297906
361.5036	0.992653098271667	0.00127623890919894	0.992653918691753	-0.0736642669874977
308.1262	0.996754463971099	0.00115546819484745	0.996755133697871	-0.0664189864849504
262.7298	1.00007696553155	0.00096381007281395	1.00007742996063	-0.0552179824465081
224.2111	1.00181062111611	0.000822827420754912	1.0018109590267	-0.047059321274853
191.2854	1.00297772587487	0.00099563585476783	1.00297822004861	-0.0568763514887348
163.1722	1.00445144154853	0.000668538168262777	1.00445166402978	-0.0381346556381536
139.1537	1.00395075270205	0.000777347376544	1.00395105364752	-0.0443634459867814
118.6706	1.00274919978728	0.000615922127791539	1.00274938894726	-0.0351929814559709
101.1982	1.002870116272	0.000544246032236226	1.00287026395001	-0.0310937549107074
86.24196	1.0026707916403	0.000425706771064533	1.00267088201206	-0.024326229536052
73.61024	1.00239415771459	0.000333318523354372	1.00239421313253	-0.019052130113561
62.69291	1.00383771251069	0.000321807895690233	1.00383776409289	-0.0183677434864331
53.57697	1.00412191412807	0.000280704095826215	1.00412195336374	-0.0160171382952853
45.65746	1.00353460754601	0.000272847619151195	1.00353464463781	-0.0155779546861616
38.96512	1.00468472447999	0.000287502497505899	1.00468476561612	-0.0163958691274447
33.18414	1.00422882358417	0.000132019938824226	1.0042288322621	-0.00753233235790785
28.30617	1.0034332519675	0.000351234565144055	1.00343331343931	-0.0200554021311468
24.17237	1.00300068249115	0.000142978249757925	1.00300069268196	-0.00816754201747964
20.61345	1.00635378912402	0.00020126069697012	1.00635380924908	-0.0114585829448213
17.55618	1.00852887593733	0.000147108561267476	1.00852888666628	-0.008357420230786
14.98558	1.00884491619693	0.000118580035533844	1.0088449231659	-0.0067345688422795
12.76553	1.00831842556487	0.000114314068714474	1.00831843204482	-0.00649567981917766
10.8809	1.00775159975154	5.8889375650753E-05	1.00775160147218	-0.00334815908993828
9.278505	1.00773881410141	0.000160584692994518	1.00773882689611	-0.00913016840907894
7.923394	1.00778122220842	-0.000132366823835894	1.00778123090127	0.0075255027009899
6.75822	1.00766843358316	6.26563899835238E-05	1.00766843553113	-0.00356262693293827
5.761429	1.0078517759143	-1.07169616240354E-05	1.00785177597128	0.000609252952578975
4.919708	1.00796193858546	9.13444342142918E-05	1.00796194272441	-0.00519230969723611
4.191257	1.00825555303366	0.000168514188472036	1.00825556711592	-0.00957609573145131
3.564097	1.01157623308881	0.000159189932278066	1.01157624561453	-0.00901653368957064
3.051758	1.01251301557353	2.96441535758288E-05	1.01251301600748	-0.00167749437342812
2.604164	1.01661473281186	2.15475660772146E-05	1.01661473304022	-0.00121440753804938
2.214424	1.01997318748512	3.46532320675244E-05	1.01997318807378	-0.00194660405543414
1.892567	1.02079770507915	5.18697530009204E-05	1.02079770639698	-0.00291136815256707
1.607507	1.0215451627524	5.69675999750719E-05	1.02154516434083	-0.0031951627428623
1.376413	1.02216619409215	7.45732488524677E-06	1.02216619411936	-0.000418007604677659
1.17375	1.02613750114355	4.34988101322815E-05	1.02613750206552	-0.00242881507609876
1.001604	1.0296467861997	3.01703497614831E-05	1.02964678664172	-0.00167886087776951
