EC-Lab ASCII FILE
freq/Hz	Re(Z)/Ohm	-Im(Z)/Ohm	|Z|/Ohm	Phase(Z)/deg
6999984	22.0720472853607	-1.60206675551968	22.1301127257938	4.15144878350067
5969734	15.7938606632899	-4.86511451676788	16.5262026464849	17.1208383552017
5091109	14.0269558069728	-6.12537503664603	15.3060677037028	23.5902194115828
4341796	8.81146641003014	-9.990424378682	13.3210554972665	48.5879898609959
3702781	6.6038945489499	-5.29901226802167	8.46705109411148	38.7438071772029
3157797	4.38238633804577	-5.00063091969266	6.6491818753044	48.7697549919232
2693047	2.53988684136356	-4.44783491600518	5.12193914518384	60.2719514841099
2296687	2.32341239277074	-4.00470654897937	4.62989413381331	59.8789597324296
1958656	1.78189908331188	-3.16850374365466	3.63518642117035	60.6475253188181
1670375	1.48336767602836	-2.81313123496791	3.18026524167998	62.197261563088
1424531	1.15990825086236	-2.46221786036979	2.72174648752277	64.7756862327357
1214875	1.4132977002042	-2.18707774756058	2.60398146369692	57.1293066257071
1036062	0.863642351921826	-1.770752955662	1.9701381022707	64.0003024485852
883578.1	0.808590951755636	-1.5864336142933	1.78061532617823	62.99246968695
753531.2	0.736461259777698	-1.3568766492015	1.54385537803955	61.5085662933407
642624.9	0.663477260991066	-1.17211989346369	1.3468730899775	60.4880138686537
548046.8	0.641353075009679	-1.0180578126082	1.20323542028855	57.7900129071622
467390.6	0.607611271058564	-0.879828931143361	1.06924758816388	55.3709793665419
398593.7	0.57602442281739	-0.761733630278865	0.955009036177107	52.9033590048945
339937.5	0.549320675720964	-0.662461013663749	0.860585730417917	50.3340672825012
289906.2	0.526445667154315	-0.571126974136178	0.77674388381982	47.3311782894867
247234.4	0.509986698610354	-0.495067816641687	0.710759154590256	44.149572301015
210843.7	0.495357553009718	-0.426670593551943	0.653778938729096	40.7395910649821
179812.5	0.48401402315814	-0.367001853883632	0.607420723525095	37.1710895957703
153343.8	0.476305518258706	-0.318350863712032	0.572899833435036	33.7577909341036
130781.2	0.468632371956613	-0.275110432408783	0.543417013044153	30.4150462953293
111531.3	0.462819099729546	-0.239354413105037	0.521048993998956	27.346479150259
95109.37	0.455794485710257	-0.208677577120886	0.501293271844856	24.5998512606947
81109.37	0.448567103387886	-0.181165704452364	0.483770047348448	21.9926240026857
69171.88	0.44234817149334	-0.156903211972831	0.4693511720992	19.529862323141
59000	0.433413482244924	-0.131639356162856	0.452963758685662	16.8949497444714
50312.5	0.426454620767725	-0.102887021108097	0.438690417819494	13.5640481433224
42906.25	0.454893227201658	-0.102434977926382	0.466284004504463	12.6904536635085
36593.75	0.439806894885849	-0.0926101579253222	0.449451606004568	11.891057218164
31203.13	0.434426234167024	-0.0803833358597602	0.441800445468862	10.4830650028316
26609.38	0.429459245469377	-0.0688405285582636	0.434941676424906	9.1068031901935
22703.13	0.429585571189399	-0.0609796096345966	0.433892009335629	8.07915181842481
19359.37	0.426297234610746	-0.054476297628932	0.429763887780401	7.28232795358047
16500	0.424583775959954	-0.0479461956101906	0.427282366219228	6.44284165131069
14112.02	0.422754451143359	-0.0429754896686984	0.424933193188985	5.80451510133339
12011.13	0.420441231330399	-0.0380593016165318	0.422160324334441	5.1724475423101
10236.38	0.418032868175264	-0.03444783424422	0.41944979694709	4.71079252846139
8750.684	0.416424452194511	-0.0308722796053241	0.417567266477543	4.23995586594571
7449.463	0.414838669633037	-0.028164908150045	0.415793679454135	3.88405854783784
6363.206	0.414774035547673	-0.0255145363439354	0.415558049048924	3.52007450340949
5414.761	0.413425689678268	-0.0250326748234306	0.414182852970481	3.46499435169018
4620.567	0.410437628021618	-0.0236232836396708	0.411116900681463	3.29410052196769
3941.215	0.406718573374934	-0.0210387806752665	0.407262357971423	2.9611627686263
3361.769	0.405435515652377	-0.0190331380946224	0.405882024359343	2.68777251893286
2867.244	0.403807300159314	-0.0170989136514839	0.404169158286496	2.42469780138295
2442.658	0.4059762727318	-0.0154014097070425	0.406268307208634	2.17257230729799
2083.003	0.405117741366382	-0.0167910525418093	0.405465564277979	2.3733991711115
1777.843	0.40107402653597	-0.0146191923092068	0.401340373679935	2.08751328486405
1513.548	0.3988450597731	-0.0181245530799408	0.399256660720588	2.60187869699141
1292.065	0.399703113290443	-0.0122712293921953	0.399891437573836	1.7584773741075
1101.762	0.392561196584705	-0.011899145490571	0.392741496059967	1.73619332658148
939.101	0.38889642447622	-0.00510785709816435	0.388929966927882	0.752492974319476
801.2801	0.395244939716433	-0.00562517372924101	0.395284966765663	0.815385405575397
684.3433	0.392065978063975	-0.0176562626848321	0.392463341940693	2.578510613317
582.9476	0.392780537808919	-0.0073387719554676	0.392849091198234	1.07039860694781
497.0677	0.393864199519462	-0.0128513524287901	0.394073806440311	1.86883477502765
423.5089	0.392497529990057	-0.0139401945134094	0.392745006424483	2.03409872145519
361.5036	0.386723545735865	-0.0126533424538038	0.386930494923537	1.87401202166445
308.1262	0.39015787916585	-0.0114328677320847	0.390325352929801	1.67846840167984
262.7298	0.387860652212022	-0.0141806655035954	0.388119796980855	2.09387197047441
224.2111	0.389514997921067	-0.0112329154533221	0.389676932849547	1.65184992843366
191.2854	0.391063394699959	-0.0107510143086046	0.391211148847933	1.57476418667676
163.1722	0.386993747180596	-0.00963884881096434	0.387113765918082	1.42677033411005
139.1537	0.386216609699036	-0.0117636960283995	0.386395722222265	1.74462153574785
118.6706	0.385051053691962	-0.0107020988513222	0.38519975190687	1.59206751208971
101.1982	0.378542283092139	-0.0146667611170994	0.378826311085008	2.21883635742363
86.24196	0.378820662281483	-0.00952807527421889	0.37894046813426	1.44079634093486
73.61024	0.398837626966804	-0.0218641134173321	0.399436468214956	3.13779018700467
62.69291	0.31347824016144	0.063338332468003	0.31981299444291	-11.4228361079831
53.57697	0.367827631633415	-0.0289811185955197	0.368967575578255	4.50502447662268
45.65746	0.405006418373974	-0.0281550995137497	0.405983877207881	3.97667087288499
38.96512	0.385300414339196	-0.0119160913060265	0.385484633314961	1.77140788562801
33.18414	0.384185554196149	-0.0114110600410025	0.384354982202991	1.70129618615345
28.30617	0.363777639248678	-0.00133249216701829	0.363780079653514	0.209869512919382
24.17237	0.381444820357376	-0.0168525879654962	0.381816920393276	2.5297358621331
20.61345	0.391443951914525	-0.017272332576134	0.391824834540999	2.52651813115565
17.55618	0.386131081582083	-0.0144965709180471	0.38640310911292	2.15005334707597
14.98558	0.374182925595804	-0.0101989531456135	0.374321894166907	1.56130139736457
12.76553	0.373313706984382	-0.0122229375036384	0.373513753459814	1.87529315529437
10.8809	0.372437377967218	-0.00940307636685435	0.372556060683835	1.4462623583004
9.278505	0.367784155753403	-0.0108100110838247	0.367942986837466	1.6835682990143
7.923394	0.37237566048782	-0.00653920511534948	0.372433072816151	1.00605487359683
6.75822	0.360456123880184	-0.00429994447466854	0.360481770364622	0.683459008457549
5.761429	0.383098056215784	-0.0108689318481794	0.383252207241958	1.62511113405049
4.919708	0.367403582263299	-0.0113214891864384	0.367577975914367	1.76500279043625
4.191257	0.366372978370565	-0.0043978263675359	0.366399372484285	0.687727544031274
3.564097	0.371864583480536	-0.00988001770188865	0.37199581072499	1.521925445852
3.051758	0.367159083371301	0.00108031291221242	0.367160672700716	-0.168584122258759
2.604164	0.356674070026367	-0.00248792937298601	0.356682747020007	0.39965209956973
2.214424	0.363539136948053	-0.00617219693492088	0.363591529202674	0.972678936114866
1.892567	0.350595937207926	-0.00904520405202976	0.35071259872301	1.47787530464675
1.607507	0.354804167591355	0.0106693903933261	0.354964552077471	-1.72243431808921
1.376413	0.368924828018324	-0.0167234326715476	0.369303671696708	2.59545182940343
1.17375	0.339996414711133	-0.0102645894527741	0.340151324873296	1.72925079697788
1.001604	0.35639462045417	0.00857243361714009	0.356497702807174	-1.37788156432493
