EC-Lab ASCII FILE
freq/Hz	Re(Z)/Ohm	-Im(Z)/Ohm	|Z|/Ohm	Phase(Z)/deg
6999984	20.5467063895156	3.11877410548333	20.7820570535738	-8.63101330753892
5969734	18.3458564251825	-0.997396676456593	18.3729488135035	3.11189707832711
5091109	12.0179082323125	-5.05133923462857	13.0363394533735	22.7978760766964
4341796	10.7704104549006	-5.716199002456	12.193304408679	27.9563125090844
3702781	5.40967484925894	-5.65872868290567	7.82852427226511	46.2890138967673
3157797	4.34561846515389	-5.13178956184003	6.72455678477747	49.7419497787012
2693047	3.28572458241739	-4.26246143622462	5.38187360747203	52.3731152133907
2296687	2.42958936176738	-3.62392648909001	4.36299755502355	56.1609105491108
1958656	1.83830072878803	-3.17010095967179	3.66454494637119	59.8911064376864
1670375	1.47564216565415	-2.82275001102532	3.18519032803378	62.4008907634775
1424531	1.19256508297312	-2.40061385867592	2.68051457291199	63.5829599906119
1214875	1.22582848792354	-1.99415379002888	2.34079149436499	58.4204956649241
1036062	0.83055859433444	-1.83219319053427	2.01165590150576	65.6145537405867
883578.1	0.742820193318479	-1.56447785803569	1.73186974333685	64.6014497672364
753531.2	0.668795631570961	-1.35863691136584	1.51432554417276	63.7910582618034
642624.9	0.610380862385327	-1.16656634810454	1.31660238557289	62.3801496912937
548046.8	0.565863895657841	-1.0179463035999	1.16465300644517	60.9308529485103
467390.6	0.530316606476616	-0.883074529827496	1.03007588474584	59.0137361660026
398593.7	0.496986010064359	-0.767554401101649	0.914404097131133	57.0772304917076
339937.5	0.471896966787577	-0.665403767446476	0.815750526199818	54.6561572213367
289906.2	0.45001810565152	-0.577807434491002	0.732378131000138	52.0872035440425
247234.4	0.43116913504874	-0.50014911619441	0.660345334994295	49.2359936681329
210843.7	0.417098918746672	-0.432128792062652	0.600588711972819	46.013931129747
179812.5	0.405896073886095	-0.37211684275532	0.550656487711108	42.5139324945211
153343.8	0.397447857476984	-0.323641238128053	0.512550924718806	39.1558784234609
130781.2	0.390484610415445	-0.281228464539893	0.481214796363088	35.7615733127028
111531.3	0.383508393854273	-0.245192184750496	0.455189955534396	32.5924005083855
95109.37	0.376592329056626	-0.214011554454552	0.433154392502659	29.6088946775802
81109.37	0.36989128062386	-0.187298867145026	0.414608761503383	26.8559184156459
69171.88	0.362852313023195	-0.161512468634843	0.397175123328241	23.994756262835
59000	0.353261172667346	-0.136425562578806	0.378689041614953	21.1160100352915
50312.5	0.347795442211256	-0.106203066210355	0.363649227821817	16.9806126644214
42906.25	0.376766703772785	-0.107553596206303	0.391817464042528	15.9321743838453
36593.75	0.361287344350665	-0.0973533568964032	0.374174052129426	15.0808622326841
31203.13	0.355239293680335	-0.0856317255961706	0.365414488222732	13.552800981804
26609.38	0.350725438455171	-0.0732218080199183	0.358287267913999	11.7923996154205
22703.13	0.350464852377873	-0.0653859432604621	0.356512179775537	10.5681263170967
19359.37	0.347668779929724	-0.0581763414363593	0.352502577637019	9.4994454376187
16500	0.345482207936573	-0.0517423400296261	0.349335405810048	8.51779111764311
14112.02	0.343308859978917	-0.0462457706498596	0.34640964859978	7.67190487680172
12011.13	0.341518802594832	-0.0413608484426494	0.344014261782421	6.9053790201639
10236.38	0.339481284011279	-0.0372461803724737	0.34151840381784	6.26116246405266
8750.684	0.338216377012269	-0.0336899522669069	0.339890174266706	5.68850489880648
7449.463	0.336542284131914	-0.0303693685185511	0.337909762441012	5.15636977362094
6363.206	0.335291906561117	-0.0272843783873941	0.33640020795085	4.65219326996439
5414.761	0.333801195737126	-0.0253967331811675	0.334765936636048	4.35087591142068
4620.567	0.332694099087012	-0.0236647845076545	0.333534684243052	4.06863976632821
3941.215	0.331542122391725	-0.0224863406613754	0.332303798407947	3.88005701059665
3361.769	0.329799974482057	-0.0200977852313707	0.330411779662245	3.48725318907322
2867.244	0.330540779356969	-0.020352462403279	0.331166769987252	3.52343776566691
2442.658	0.32537686444248	-0.0168230504155477	0.325811477605845	2.95974412512556
2083.003	0.329671948620611	-0.018441260614823	0.330187331374743	3.20168701327545
1777.843	0.319379352847471	-0.0156641325421793	0.319763250035973	2.80785244067858
1513.548	0.31981775502074	-0.0198966866273707	0.320436069388659	3.55993002059659
1292.065	0.317294837306368	-0.012443836687183	0.31753875803242	2.24590517549679
1101.762	0.32476522117633	-0.0137331968343437	0.325055456162485	2.421397564483
939.101	0.319260721442823	-0.0173218078477678	0.319730282086803	3.10559454258067
801.2801	0.322292617787286	-0.0149707710603139	0.322640133068287	2.6595268455485
684.3433	0.320757562259773	-0.0142033525384302	0.321071875084323	2.53543793811025
582.9476	0.313981833530438	-0.011716507170439	0.314200363347038	2.13705064287327
497.0677	0.317458672469397	-0.0104108917670552	0.31762933648109	1.87831206991691
423.5089	0.317105840643485	-0.0123724584978067	0.317347115788834	2.23436523254506
361.5036	0.312335540212054	-0.00959747328857878	0.312482961412427	1.76003581931026
308.1262	0.313874994947781	-0.0133588874254367	0.314159151270045	2.43710462947871
262.7298	0.313497987032306	-0.0115546693100448	0.31371085135228	2.11080860289848
224.2111	0.31095058065876	-0.0117850273254477	0.311173826793131	2.17047127106325
191.2854	0.310171813374898	-0.0102496804210576	0.310341118385892	1.89266007902258
163.1722	0.309482168476866	-0.0126219827398588	0.309739450269785	2.33546821915825
139.1537	0.30033849296716	-0.00369618812125943	0.300361236121462	0.705088738181533
118.6706	0.311534742528119	-0.00631830778546699	0.311598807467765	1.16186960006706
101.1982	0.308909121842698	-0.00662437270410233	0.30898014154853	1.22848568403354
86.24196	0.299902414887244	-0.00935689766729352	0.300048346086355	1.78703760132139
73.61024	0.292808840287136	-0.0138805215604838	0.293137656791291	2.71405867665787
62.69291	0.266847153303163	0.05495797438414	0.272447760450347	-11.6375176642407
53.57697	0.302392215712249	-0.00499315180720177	0.302433436789541	0.945991707933263
45.65746	0.283744520066868	-0.0072701743899392	0.283837643915738	1.4677259302638
38.96512	0.295903757627104	-0.00712624852327544	0.295989555889825	1.37958725968103
33.18414	0.286605967822204	-0.00919069531717505	0.286753290603117	1.83669470750979
28.30617	0.305331003683865	-0.0194456697724229	0.305949596965733	3.64408491562981
24.17237	0.291027229452734	-0.0156277007586729	0.291446518788503	3.07374038100258
20.61345	0.284335659669956	0.00416124234658734	0.284366107857136	-0.838461853732086
17.55618	0.293016857413945	0.0045623539490299	0.293052373821302	-0.892039137154769
14.98558	0.292132926947386	-0.00996541739807476	0.292302850740058	1.9537511309706
12.76553	0.282049582271247	-0.00255842515790256	0.282061185558513	0.519706295510451
10.8809	0.29115654997158	-0.00235048189589115	0.291166037436539	0.462533873810661
9.278505	0.288246498188358	-0.00240310389137381	0.288256515323008	0.477662423320633
7.923394	0.282500861245426	-0.00593494193424332	0.282563196719194	1.20352592360426
6.75822	0.28920339951444	-0.00803433176115973	0.289314978488078	1.59131922920927
5.761429	0.293248178643459	7.79980937452833E-05	0.293248189016418	-0.0152395199757337
4.919708	0.285592532656756	-0.0108682479280181	0.285799253886929	2.17934409547864
4.191257	0.286065017358022	-0.00045510350858896	0.286065379372004	0.0911523139935988
3.564097	0.287604249117962	-0.00987981655781714	0.287773895421254	1.96745800030352
3.051758	0.278452996780225	-0.00514733873591179	0.278500568243496	1.05901966513652
2.604164	0.282270304731787	0.00132943098605241	0.282273435378044	-0.269848511082842
2.214424	0.286913675599255	-0.00317573901857058	0.286931250588339	0.634159427933312
1.892567	0.285569879860264	-0.00486240268512783	0.285611272962532	0.975481845648646
1.607507	0.277853571047508	-0.00555929125496179	0.277909180602423	1.14622040380866
1.376413	0.279190294068069	0.000785419090466551	0.27919139883772	-0.161184257743085
1.17375	0.280118975811239	0.00255725055705629	0.280130648341	-0.523047728075875
1.001604	0.276182467922105	-0.0063223904836482	0.276254824770487	1.31139038515779
