EC-Lab ASCII FILE
freq/Hz	Re(Z)/Ohm	-Im(Z)/Ohm	|Z|/Ohm	Phase(Z)/deg
6999984	20.5054722116837	3.70859802791466	20.8381402710699	-10.2516358902224
5969734	16.0186858940584	-5.78188978612226	17.0302245220482	19.846874141609
5091109	12.5777119633479	-6.27608992805948	14.0566049605882	26.5185092996713
4341796	7.76141413158213	-7.15396793359691	10.5555107179547	42.6678518766051
3702781	6.16624400127067	-5.91076906627759	8.541648320908	43.7881562534244
3157797	4.44829395486081	-4.86367664225465	6.59110533895983	47.55412189715
2693047	2.2197012494137	-4.89409791266751	5.37394343247352	65.6034956551407
2296687	2.52016844901413	-3.54140453240645	4.34658429960299	54.5632177373885
1958656	1.78683679769652	-3.17912143292056	3.64686150365725	60.6616773763579
1670375	1.35409422592529	-2.69828038826707	3.01898794737424	63.3508547878044
1424531	1.15694960800529	-2.42066351045245	2.68293574770243	64.4546579801239
1214875	0.643592473451932	-1.95764012160212	2.06071980569662	71.8012374208504
1036062	0.795658933914988	-1.83387104712514	1.99903880817821	66.5454955661153
883578.1	0.719911379168982	-1.57638883378583	1.73299571526926	65.4545839241862
753531.2	0.638328769104607	-1.35431868320321	1.49721164607409	64.7641697810536
642624.9	0.592506017478636	-1.19069002962542	1.32996470907982	63.5443426352201
548046.8	0.548388659545327	-1.01809958274504	1.15639823689918	61.6913398299875
467390.6	0.5121534309159	-0.87865574493239	1.01702362553759	59.7628211873566
398593.7	0.479888329907576	-0.764115020168879	0.902310685534184	57.8698832238034
339937.5	0.453510836809916	-0.664882018218626	0.804823072019251	55.7024068031353
289906.2	0.433213027682602	-0.574487200248831	0.719520027937838	52.9805478790545
247234.4	0.414549058099084	-0.498348865719624	0.648230293595473	50.2447889988639
210843.7	0.399048823120403	-0.43071281224565	0.587157125364527	47.1853662602038
179812.5	0.388972949657115	-0.37048013464842	0.537173608560648	43.6051134266139
153343.8	0.38135377571851	-0.321951062614523	0.499082346886146	40.1721279351065
130781.2	0.375563088069499	-0.279636720421608	0.468235334557795	36.6706281504574
111531.3	0.367874050651326	-0.243424081259485	0.441119712186656	33.4928036834336
95109.37	0.361048473609072	-0.212458603006049	0.418920825797337	30.4746396356009
81109.37	0.354734601518995	-0.184939728583579	0.400049172881794	27.5351369634617
69171.88	0.347830217431945	-0.160782955156419	0.383193187344955	24.8085282192593
59000	0.338729889246342	-0.135468782564726	0.364814650087422	21.7980303467254
50312.5	0.332994041321036	-0.106027286025599	0.349466474697173	17.6617849983186
42906.25	0.362449369973498	-0.106314852471944	0.377719993712693	16.3476432698286
36593.75	0.346927819563889	-0.0966853036587284	0.360148524821267	15.5726204490889
31203.13	0.341103315329379	-0.0848324090265285	0.351493967729089	13.9661212760555
26609.38	0.336330358824366	-0.0728020575457167	0.344119528434259	12.2138100737392
22703.13	0.336424598506332	-0.0648685264166399	0.342621418185748	10.913688622496
19359.37	0.333572574087549	-0.0580116199709684	0.338579400192997	9.86563995322067
16500	0.331348984652018	-0.0516333909913797	0.335347814507851	8.85704515771802
14112.02	0.329285614753165	-0.0461519793319313	0.332504167311667	7.97848313382032
12011.13	0.327653934531599	-0.0415513769600697	0.330278091524877	7.22737557144947
10236.38	0.325776999942275	-0.0371994440101102	0.327893965065005	6.51420927427219
8750.684	0.324186452133877	-0.0336859775869776	0.325931896004581	5.93227323049166
7449.463	0.32250138105735	-0.0304871523469496	0.323939203002854	5.4003162951804
6363.206	0.321286216809081	-0.028005742268388	0.322504503397232	4.98174255090537
5414.761	0.319742101671042	-0.0253973806160635	0.32074918319954	4.54151615859456
4620.567	0.318162543083107	-0.0239181678374311	0.319060311812375	4.29917735660823
3941.215	0.317278396038273	-0.0223205841072028	0.318062555274125	4.02413698846481
3361.769	0.315748354316519	-0.0208234249895184	0.316434255860336	3.77316027475909
2867.244	0.313547784003528	-0.0196277890080723	0.314161523670339	3.58198660387794
2442.658	0.312051967948698	-0.0181607041423618	0.312579976766909	3.33072513014804
2083.003	0.312034824820498	-0.0200386438810382	0.312677596174319	3.67444652215159
1777.843	0.310667930369196	-0.0155246556131739	0.311055586498278	2.86079717869544
1513.548	0.309275458290126	-0.0146974085464389	0.309624486949189	2.72076686652326
1292.065	0.304535866468878	-0.0137057093740772	0.304844124816925	2.57687138106513
1101.762	0.306311252714787	-0.0113927742046337	0.306523047818235	2.13004623382779
939.101	0.304405226021136	-0.0154160055884906	0.3047953327354	2.89915555716386
801.2801	0.305548972960867	-0.0115413176022792	0.305766866892797	2.16317064283769
684.3433	0.30396701790944	-0.0110624099130195	0.304168250956344	2.0842714896592
582.9476	0.301528536221067	-0.0143250460119202	0.301868622249586	2.71996816335685
497.0677	0.299806203548112	-0.0136871328265732	0.300118472092179	2.61392456167624
423.5089	0.301562109860311	-0.012373740070434	0.30181586364327	2.34965064346112
361.5036	0.300848503225938	-0.0108186261047886	0.301042961326258	2.059490492062
308.1262	0.295194727818064	-0.0119077947828231	0.295434803143046	2.30998935896658
262.7298	0.296751552157306	-0.00945794235534343	0.296902233708956	1.82548937191041
224.2111	0.293936702932204	-0.0101328935075345	0.294111306925609	1.97437818455311
191.2854	0.295291670374944	-0.0110472627272372	0.295498244675986	2.14251379544984
163.1722	0.291629400590233	-0.00989820056457423	0.291797329773655	1.94393120731986
139.1537	0.290530345378188	-0.00996270438920489	0.290701112939589	1.96398530310723
118.6706	0.288769784920838	-0.0105661489271771	0.288963029099535	2.09553011033352
101.1982	0.288334642620087	-0.0122692170750238	0.288595564453938	2.43658037309617
86.24196	0.293428911534513	-0.0175064494847286	0.293950679362866	3.41431279696409
73.61024	0.298720564644837	-0.00711509750189448	0.29880528836383	1.36444570402911
62.69291	0.247576946537017	-0.0244207306931647	0.248778448713269	5.63337260792782
53.57697	0.268572057824779	-0.0175941751437036	0.269147738692384	3.7480950900955
45.65746	0.286716508230768	-0.0338901814102582	0.288712487585945	6.74114066818965
38.96512	0.283810760750957	-0.0124372544471881	0.284083144899906	2.50923027560317
33.18414	0.28722346990458	-0.00881011300438505	0.287358556084862	1.75690403200207
28.30617	0.280622272965815	-0.000122892134113649	0.28062229987472	0.0250913802939815
24.17237	0.282240187065049	-0.0131985596946201	0.282548624439275	2.67740484762997
20.61345	0.267665311783886	-0.0228080404081015	0.268635302668176	4.87046784455522
17.55618	0.275082510097575	-0.0103833776538374	0.275278407967433	2.16168381735933
14.98558	0.281117518077819	-0.0117560598365388	0.281363224166047	2.39465819714204
12.76553	0.271237275493922	-0.0120102849729543	0.271503050742524	2.53537949641514
10.8809	0.271859705620863	-0.00506227286642622	0.271906833578776	1.0667757948092
9.278505	0.279620811195256	-0.00346001155571209	0.279642217366153	0.708938441607017
7.923394	0.279980276542699	-0.00819248237705722	0.280100110711196	1.6760493738688
6.75822	0.276997155135686	-0.00959529383351536	0.277163297745237	1.98395574705652
5.761429	0.275122463002752	-0.00489152691657445	0.27516594390345	1.01858030395618
4.919708	0.27098070590694	-0.0109516072511048	0.271201918642192	2.31433295201147
4.191257	0.264537794961763	-0.0055514075579087	0.264596037553675	1.20219322377278
3.564097	0.267519550447008	-0.00392883645060148	0.267548398663167	0.84139482468536
3.051758	0.265687043424401	-0.00207692589341434	0.265695161161746	0.44788282732715
2.604164	0.269057060515611	0.0121986104767247	0.269333451154631	-2.59591993592205
2.214424	0.291166545156392	0.0108714793098599	0.291369432303209	-2.13829739903547
1.892567	0.278019229372406	-0.0268343559690006	0.27931125033034	5.51309845348954
1.607507	0.280687354114417	-0.0173048028632905	0.281220281917734	3.52790683646893
1.376413	0.2455143197407	-0.00925496188324165	0.24568869635618	2.15881215289013
1.17375	0.275774218237344	0.00582518452857709	0.275835734123065	-1.21007998782276
1.001604	0.255893982109676	-0.00269943362160174	0.25590821991844	0.604392551602881
