EC-Lab ASCII FILE
freq/Hz	Re(Z)/Ohm	-Im(Z)/Ohm	|Z|/Ohm	Phase(Z)/deg
6999984	-14.7976763160804	29.735194797209	33.2137476654389	-116.45716690289
5969734	-16.4409786387263	31.5043167547823	35.5362878306769	-117.558449080911
5091109	-17.292301346122	34.9634799463267	39.0060074322185	-116.316161989508
4341796	-17.5602444300279	41.2722360047916	44.8526437267363	-113.048469092318
3702781	-16.5499440744763	48.5957428606228	51.3366036376002	-108.806977126524
3157797	-15.1270683650565	56.5243293582954	58.5134856825856	-104.982426548246
2693047	-15.1141223582874	64.6822195368233	66.4245904682226	-103.15217016748
2296687	-15.3974921424061	76.7837641102986	78.312382132211	-101.339159816348
1958656	-15.2636902598486	89.1407477576918	90.4381177996813	-99.7166006363168
1670375	-14.223826658623	104.223234409085	105.189352291502	-97.7714089218476
1424531	-14.12571250919	122.049751271943	122.864468173006	-96.6018874704266
1214875	-12.5435703480638	142.496870399196	143.047891388312	-95.0306080130598
1036062	-12.1287609427307	165.770875439809	166.213988539132	-94.1846358285491
883578.1	-11.3765092917623	193.695225358325	194.029032080969	-93.3613527727257
753531.2	-10.5805662182867	226.440292963546	226.687350019616	-92.6752358130565
642624.9	-9.19998754173137	264.042997366476	264.203225243449	-91.9955359806928
548046.8	-8.23973260542777	308.731324709269	308.841260278074	-91.5288045607792
467390.6	-5.93228227734681	361.434790187567	361.483470619265	-90.9403196094004
398593.7	-4.38040034581	422.327544376315	422.350260620397	-90.5942531011413
339937.5	-0.952097744804684	491.614461309321	491.615383260705	-90.1109632009485
289906.2	-91.5672070170021	507.987788615386	516.174531319829	-100.218110594395
247234.4	-99.1162572355974	611.101153173053	619.08695015953	-99.2127415512787
210843.7	-107.874214541876	728.848186633983	736.787978541094	-98.419023117684
179812.5	-99.0994301274732	866.538798843614	872.187013749301	-96.5241370976273
153343.8	-98.9984999300956	1022.14335589844	1026.92635714336	-95.5320606753583
130781.2	-95.257421312325	1210.90435770244	1214.64535557414	-94.4979864467062
111531.3	-97.2660611021344	1441.04496238753	1444.32381073802	-93.8614303363158
95109.37	-89.5247594683915	1675.16148848394	1677.55199474044	-93.0591175357941
81109.37	-80.8686038374734	1964.83844036953	1966.50192673193	-92.3568431663023
69171.88	-59.1965948948754	2315.60159181028	2316.35812620619	-91.4644041046065
59000	-25.4693377533966	2702.61746715269	2702.73747539868	-90.5399367021629
50312.5	-33.2597059885656	3145.99839553523	3146.17420254389	-90.605712257044
42906.25	-0.272311639591246	3696.21002257865	3696.21003260969	-90.0042211637156
36593.75	54.509553809392	4309.0551289107	4309.39988808745	-89.2752469609707
31203.13	-543.020572922831	4856.14706035703	4886.4133691729	-96.380381986829
26609.38	-589.902922352806	5677.04245963474	5707.60865391944	-95.9323289910367
22703.13	-577.283412800338	6704.99837979857	6729.80381673908	-94.9208865952922
19359.37	-525.273546719312	7833.9538582135	7851.54413803433	-93.835991010212
16500	-596.424158653998	9176.89285981987	9196.25382085766	-93.7185346622102
14112.02	-498.244697938793	11040.8785175976	11052.1150111358	-92.5838490447331
12011.13	-390.77082430231	12621.1603102057	12627.2082984734	-91.7734002435206
10236.38	-224.461516546622	15081.9698259334	15083.6400382261	-90.8526570667454
8750.684	-39.4906526361775	17468.5068468958	17468.5514846449	-90.1295270335107
7449.463	99.9316714716242	20367.7565304313	20368.0016796418	-89.7188881817405
6363.206	279.260856420395	23785.3707580264	23787.0100837139	-89.3273288245481
5414.761	195.430107368601	28012.8701869029	28013.551881815	-89.6002859181484
4620.567	-26.8023711748441	32227.0392154258	32227.0503608334	-90.0476513645865
3941.215	-5548.07722947164	34343.7757349221	34789.0225886673	-99.176587914406
3361.769	-5749.81841917719	41491.9738922774	41888.4746598744	-97.8896101149831
2867.244	-5587.95528212477	49231.1887235261	49547.3025236134	-96.4756075723797
2442.658	-4999.76188522876	57819.9434259286	58035.7086343104	-94.9421433294916
2083.003	-5470.86927557241	68633.9301324086	68851.6287102255	-94.5574594658408
1777.843	-5297.91286227787	80378.7323285098	80553.140791868	-93.7710175962442
1513.548	-4883.86204961233	95059.6664588812	95185.0423952912	-92.9410882299972
1292.065	-3498.60675913536	110844.669862776	110899.869640333	-91.807835007008
1101.762	-710.210988930887	128342.190321233	128344.155364008	-90.3170561198571
939.101	-1071.20517862968	153340.661997319	153344.403557191	-90.4002495917101
801.2801	868.048558485587	174855.819016639	174857.973659423	-89.7155650265287
684.3433	-3999.99561406175	203446.096033372	203485.414602945	-91.1263590054793
582.9476	2018.20431794355	238882.366980731	238890.892256247	-89.5159465307052
497.0677	2900.24177753541	286622.764765706	286637.437687936	-89.4202625789183
423.5089	19179.9105357428	315995.937047428	316577.480561459	-86.5265965303896
361.5036	-54714.6660584632	383988.313686683	387866.884033468	-98.1095113167543
308.1262	-3484.30963665476	403468.605111986	403483.649885166	-90.4947876279066
262.7298	15355.9884494256	510073.931817366	510305.028684694	-88.2756074958059
224.2111	-40783.4863167348	572829.078748229	574279.066496152	-94.072393396483
191.2854	-34954.6737644417	646263.694786824	647208.306820528	-93.0959587220211
163.1722	22615.5889406556	605769.443106212	606191.457432669	-87.8619319677215
139.1537	169596.976364635	1049383.67304441	1063000.10707629	-80.8194785246505
118.6706	201472.93967338	1137994.97972824	1155691.9655805	-79.9602710150723
101.1982	315258.726877309	660492.33843288	731873.072329373	-64.4844517854707
86.24196	406226.302181697	172134.030348126	441191.492424894	-22.9642802091363
73.61024	198159.824944733	-106179.447860278	224814.126268882	28.1836220551467
62.69291	21865.8915164749	55771.5591242609	59904.7912855155	-68.5917570356455
53.57697	37806.3878550154	-94677.1144833288	101946.45148083	68.2322260192009
45.65746	382669.026871861	201274.426391627	432373.656512901	-27.743258152965
38.96512	182028.156097089	-423545.047128789	461003.965882545	66.7432805969945
33.18414	309792.64411348	132684.499853151	337011.363084543	-23.1854992138363
28.30617	571939.197672948	353508.011118947	672370.701146361	-31.7196597356863
24.17237	436092.970796165	-301982.605856381	530443.751417279	34.7015555550872
20.61345	560856.630509874	-532438.27154242	773337.360399696	43.5110280270755
17.55618	78995.1991545014	793762.497397478	797683.611317256	-84.3166410187905
14.98558	1007425.03423134	512627.192279332	1130350.31643301	-26.969220819633
12.76553	374098.413811666	-1046129.85466623	1111007.33392736	70.3228344220743
10.8809	1104751.88013664	-926177.699387834	1441624.72492281	39.9750591014713
9.278505	2257619.87176418	25565.5674074953	2257764.62095174	-0.64879678072552
7.923394	2022580.8001477	837135.035321068	2188978.79397862	-22.4843936782465
6.75822	1312111.46278293	-14123.457148518	1312187.47243227	0.616703122789062
5.761429	302493.89971759	-613201.544543057	683753.386533731	63.7427579196739
4.919708	702867.190088147	893802.211227769	1137059.66408894	-51.8192369128377
4.191257	810738.739498289	-530456.132877091	968855.516901355	33.196217810362
3.564097	1862586.83632386	253407.80304808	1879746.05665036	-7.74760979027236
3.051758	1096062.17728429	-116697.069768579	1102257.00386333	6.07735187379674
2.604164	7118857.20117062	-1428883.89764372	7260842.72268752	11.3494917806284
2.214424	2670100.32690015	-3448304.02322402	4361219.59918269	52.2485656478851
1.892567	3687550.42250888	610212.581580195	3737698.15705659	-9.39610676968891
1.607507	3532303.14417895	-166779.13707715	3536238.22485713	2.70323607686564
1.376413	2162308.24873157	403776.10480153	2199684.54677967	-10.5772420756172
1.17375	6243908.0992643	8791730.82536474	10783363.0773394	-54.6175398659449
1.001604	8047149.89148462	2890701.73511147	8550601.02550677	-19.7593319200909
