EC-Lab ASCII FILE
freq/Hz	Re(Z)/Ohm	-Im(Z)/Ohm	|Z|/Ohm	Phase(Z)/deg
1101.762	0.315885438203545	-0.0138897402825919	0.31619066234499	2.51772036421142
939.101	0.320185420162257	-0.00958660827403848	0.320328903383196	1.71496925097645
801.2801	0.316576830652482	-0.0101820427156122	0.316740530560635	1.84216588149549
684.3433	0.318875390671708	-0.0092771036437783	0.319010312416467	1.6664471741802
582.9476	0.316673593991868	-0.0195086185725283	0.31727393736381	3.52524086384819
497.0677	0.314242232366286	-0.00554372314056836	0.314291128523868	1.0106820807503
423.5089	0.321150829962785	-0.00966265582866458	0.321296160113141	1.72337224999984
361.5036	0.315103255098664	-0.0163573894796369	0.315527535350502	2.97162555092318
308.1262	0.314010120435287	-0.0101294931230865	0.314173459042476	1.84763476365001
262.7298	0.304389127174634	-0.00681554674681078	0.304465420728847	1.2826897832841
224.2111	0.315019242663441	-0.0134692768173514	0.315307064091863	2.44830423550014
191.2854	0.316226627047446	-0.0235773216561688	0.317104351515842	4.26398686178909
163.1722	0.30615412532277	-0.0130605811187693	0.306432581869668	2.44276545249461
139.1537	0.304202712666884	-0.00473583924651476	0.304239574295093	0.89191079460866
118.6706	0.300468364838279	-0.00733027678323279	0.30055776687071	1.39752026571083
101.1982	0.309612533214473	-0.0068469771617312	0.309688233260059	1.26687041856053
86.24196	0.299177090502984	-0.0194637263147528	0.299809553089768	3.72227703888911
73.61024	0.288228987775614	-8.69984324157374E-06	0.288228987906912	0.00172940377670918
62.69291	0.279861638377606	-0.0118842986219431	0.280113857545701	2.4315990780253
53.57697	0.303872068692351	-0.0125820412266405	0.304132441368555	2.37101853147273
45.65746	0.278440587693676	0.00273979121549489	0.278454066824502	-0.563759072321557
38.96512	0.293676915483897	-0.0162499388232915	0.294126148446371	3.16710098893017
33.18414	0.288364554171385	0.0014878774125475	0.288368392653661	-0.295626970905588
28.30617	0.285373391602108	-0.0246059782644516	0.286432237712239	4.92807130240429
24.17237	0.285011226691595	-0.0113115964576701	0.285235607094677	2.27277632313063
20.61345	0.28612800792726	-0.00265051788882169	0.286140284066227	0.530738483264136
17.55618	0.290399141253641	0.0101897545073644	0.290577859338547	-2.00961508895365
14.98558	0.287760423645152	-0.00479635140016588	0.287800393333976	0.954909796014474
12.76553	0.286016390215366	-0.0147459259022721	0.286396260105721	2.95134112610217
10.8809	0.285630836143461	-0.00299750003193796	0.28564656406555	0.60125789950572
9.278505	0.297002612586238	-0.00525440549997462	0.297049087963941	1.01353942127462
7.923394	0.295942089228862	-0.00759129453752419	0.296039436443693	1.46938808082747
6.75822	0.282973311299715	-0.00707658846509617	0.283061783030189	1.43255262417851
5.761429	0.286769922680435	-0.00556351816403211	0.286823885491609	1.11143499015067
4.919708	0.289487519951883	-0.0103434682368259	0.289672248486213	2.0463233489721
4.191257	0.281602384776821	0.00222012598124478	0.281611136270151	-0.451705028778468
3.564097	0.28336286993156	-0.0180795537058175	0.283939053879616	3.65072492351758
3.051758	0.268936942079787	0.00323766502769473	0.268956430096137	-0.689736334061002
2.604164	0.297028113802464	-0.00120325856014546	0.297030550987962	0.232103483934111
2.214424	0.276080452689955	-0.0180205338696684	0.276667952604631	3.73455609739656
1.892567	0.269995034287513	0.011656236894782	0.270246528929536	-2.47204073103682
1.607507	0.28984488513769	0.00449505161855105	0.289879738735798	-0.888498830938656
1.376413	0.283243816942833	0.00393785824013516	0.283271189081884	-0.796515613550558
1.17375	0.299998993811931	0.0079658306117979	0.300104732960856	-1.52100928633758
1.001604	0.291131387805113	-0.0246515746095635	0.292173210777549	4.83997961436072
