EC-Lab ASCII FILE
freq/Hz	Re(Z)/Ohm	-Im(Z)/Ohm	|Z|/Ohm	Phase(Z)/deg
6999984	42.7070915472424	68.5549082748374	80.7692461088744	-58.0786690443491
5969734	41.5803026419336	64.238719670035	76.5214654370924	-57.0859108023039
5091109	42.4952938260524	63.5829396714275	76.4764029921839	-56.2434393899214
4341796	46.8370743836191	64.274154535236	79.5291045972232	-53.9188865897182
3702781	54.0937176332858	63.1711950643767	83.1668814688347	-49.4264391096565
3157797	60.9644223514994	61.8678375587178	86.857873084965	-45.4213953667566
2693047	67.5390752939647	60.0496739628359	90.3741668542882	-41.6406187640268
2296687	74.836921353516	58.292014784229	94.8605491512521	-37.9157571125239
1958656	81.671478327362	55.2462985867494	98.6021494680163	-34.0762064991696
1670375	88.2569847629574	51.7579193410844	102.314112291351	-30.3893033015941
1424531	93.8644284366168	47.6010632956164	105.24444000804	-26.890737060856
1214875	98.5808109168392	43.2980520874531	107.670319009416	-23.7117437599301
1036062	102.539546720623	39.1893210020074	109.773227711812	-20.9162253817073
883578.1	105.76234558467	35.2593029851864	111.484941541772	-18.4374781796785
753531.2	108.391438149632	31.5353365360923	112.885700221906	-16.2217930901281
642624.9	110.485230524816	28.2339436083378	114.035703776495	-14.3348654538458
548046.8	112.161819757483	25.2467981503093	114.968146145585	-12.6854345532232
467390.6	113.507192329427	22.7233772429677	115.759382271312	-11.3205803302861
398593.7	114.615850210571	20.545402112643	116.442718396052	-10.1625925192811
339937.5	115.462241432722	18.7636565948162	116.97693792144	-9.23039018660322
289906.2	116.24717501692	17.2638659018513	117.522111814295	-8.44725428348456
247234.4	116.859664346436	16.204230397156	117.97778703606	-7.89452189852185
210843.7	117.54234603115	15.4664573636661	118.55553303785	-7.49602975200837
179812.5	117.874880544821	14.9215625081932	118.81557343691	-7.21459288304011
153343.8	118.368424062178	14.7010547975199	119.277847176764	-7.07973580680016
130781.2	118.825175488921	14.8029344981383	119.743681251785	-7.10117588749396
111531.3	119.331812737525	15.1905680601484	120.294783300082	-7.25455668925048
95109.37	119.857620107115	15.8150280479392	120.89650205816	-7.51666769178898
81109.37	120.03941929934	16.8326977760458	121.213868431555	-7.9823334102036
69171.88	120.954200596343	18.0947451162749	122.300198048586	-8.50834877317936
59000	121.54939690445	19.7160845220524	123.138052107041	-9.21349366122481
50312.5	122.349928421356	21.6340231325817	124.247881034697	-10.0274432345656
42906.25	123.089689005365	23.9243573054151	125.393167325475	-10.9991681959516
36593.75	123.917021610733	26.7519812767052	126.771829469737	-12.1824062569881
31203.13	124.839036107607	30.0283976915615	128.399725872756	-13.5248177230898
26609.38	125.972073000657	33.7532797760436	130.415670345717	-14.9996454652243
22703.13	127.17755924951	38.1920586639095	132.788421640029	-16.7152759094963
19359.37	128.509374397343	43.2061201387252	135.578125541839	-18.5831526990905
16500	130.025954312744	49.1177430414333	138.993890068679	-20.6942271544059
14112.02	131.768812764984	55.6996222470142	143.057568607724	-22.9141292133285
12011.13	133.719283394134	63.5519099187016	148.053004041645	-25.4200403444244
10236.38	135.84644091215	72.4862968308673	153.975708268385	-28.0839331283718
8750.684	138.336266849711	82.5838432658715	161.1118055714	-30.8363135141992
7449.463	141.13212840677	94.4399808549865	169.81515731087	-33.7888567057556
6363.206	144.245955075091	107.914358718611	180.145508889826	-36.8011708545
5414.761	147.92458720812	123.739138332378	192.85501771002	-39.9125322172887
4620.567	151.858902393422	141.504945957107	207.568725887255	-42.9786471029959
3941.215	156.627407406348	162.128707584405	225.428176086805	-45.988749634651
3361.769	161.697464983488	185.850630768944	246.346356050381	-48.9754296516413
2867.244	168.096473008585	212.911075948127	271.270253620472	-51.7083810386358
2442.658	175.349452020241	244.103189867831	300.555814496158	-54.3087442622591
2083.003	183.213251841926	279.921082467454	334.548812671999	-56.7945503043239
1777.843	193.141900440764	320.475664631332	374.177024049799	-58.923781792167
1513.548	204.077541642015	367.96701569396	420.769969985225	-60.9868882208741
1292.065	216.89095101952	421.257324550362	473.813695582431	-62.7576142867259
1101.762	231.436881447175	483.365984242691	535.915762799434	-64.4147801175828
939.101	248.623799341426	553.902281375713	607.142101086875	-65.8266627163442
801.2801	268.282719606034	634.485810829225	688.874343971983	-67.0796641185158
684.3433	290.895302694219	725.541933663657	781.684830755951	-68.1524129983392
582.9476	318.406977952293	832.135822604325	890.973080889703	-69.0612386529757
497.0677	350.075582474678	954.844548903243	1016.99607964595	-69.8654995100009
423.5089	385.544672730875	1092.39497730113	1158.43492743611	-70.5602681323765
361.5036	427.473436090817	1248.28663731343	1319.45180565967	-71.0963274455009
308.1262	477.473539076325	1429.2337992832	1506.88096196467	-71.5267333412032
262.7298	534.857910961518	1633.60721058885	1718.93731805613	-71.8710809760768
224.2111	601.466579153536	1867.12646585579	1961.61241975518	-72.1444391401337
191.2854	678.736633923454	2131.36818502427	2236.83118682733	-72.3358643394869
163.1722	768.95058060401	2432.14320507367	2550.80488579532	-72.4550395608741
139.1537	874.35640912768	2778.21144731798	2912.55179802718	-72.5302116235953
118.6706	995.278374252679	3166.93385027789	3319.64592303019	-72.5535310058571
101.1982	1135.87861897754	3609.55965729952	3784.06410578026	-72.5319304969807
86.24196	1301.04759422773	4114.63216496205	4315.42844864633	-72.4530342085912
73.61024	1487.9076413287	4680.54864374076	4911.35467621183	-72.3649705954796
62.69291	1709.35096015846	5329.02620187165	5596.46325505932	-72.215715089848
53.57697	1957.21580691202	6047.86008787996	6356.67407984692	-72.0673190209091
45.65746	2253.63078012486	6877.45696371505	7237.28305242229	-71.8568716227576
38.96512	2586.00756342175	7800.23104392954	8217.72714664807	-71.6581125636267
33.18414	2973.1386424051	8865.04653205049	9350.32637945772	-71.4596972791729
28.30617	3415.88714887044	10043.5690835666	10608.5609273922	-71.2164766951398
24.17237	3924.58222662586	11375.0923776754	12033.0824086846	-70.9647763357389
20.61345	4507.8612563733	12873.3480220911	13639.7911422642	-70.7012730457582
17.55618	5184.19914615825	14580.7524376179	15474.9559751919	-70.4271127407881
14.98558	5936.68283172452	16478.8017843902	17515.5676840266	-70.1878455655415
12.76553	6814.59342350507	18641.842264692	19848.3492147165	-69.9199305005383
10.8809	7815.45017251392	21062.0211915866	22465.3065430652	-69.6417021952228
9.278505	8955.40491491995	23797.2483465843	25426.5276052233	-69.377625947447
7.923394	10231.2909803991	26771.3699448666	28659.8249096275	-69.084500739458
6.75822	11712.7919178376	30256.8172585709	32444.7913405082	-68.8379570002132
5.761429	13395.3435867569	34137.0822527015	36671.1823443828	-68.5750266680277
4.919708	15310.07916444	38391.2772208622	41331.449172156	-68.2583528946589
4.191257	17491.2657408695	43264.2616785097	46666.2695724039	-67.9870573786645
3.564097	20049.724905896	48817.033296998	52773.9917830963	-67.6714722251064
3.051758	22763.6286651596	54677.3337838384	59226.6293124516	-67.3967389623412
2.604164	26000.2728623094	61512.663942051	66781.8988511277	-67.0871125698525
2.214424	29651.885944595	69210.5677413301	75295.0000142674	-66.8082540109623
1.892567	33827.234567878	77573.2048346583	84627.914465796	-66.4394983740161
1.607507	38605.0610771976	87294.5262728579	95449.908632627	-66.1431073065949
1.376413	43888.6525427222	97597.5136840885	107011.62786974	-65.7870140369211
1.17375	50037.6141171416	109515.694035001	120405.357299847	-65.4443852754329
1.001604	56797.3286141386	122623.094326381	135138.298790088	-65.1470774755395
