EC-Lab ASCII FILE
freq/Hz	Re(Z)/Ohm	-Im(Z)/Ohm	|Z|/Ohm	Phase(Z)/deg
6999984	39.764850260116	74.972973273726	84.8657176821847	-62.0590068471229
5969734	41.5868588380413	70.3014740768988	81.6808673154249	-59.3935498883948
5091109	44.6903122776776	69.9684385990144	83.0229270229639	-57.4327737218981
4341796	50.1974076320287	70.5746818308397	86.6058049353524	-54.5770317498291
3702781	58.6512934885616	70.9126040970934	92.0248425573904	-50.406099536505
3157797	65.7967846918682	70.2615818963327	96.2595801277105	-46.8795042004291
2693047	73.0974888892481	70.8249995151423	101.78125288202	-44.0953934119074
2296687	83.3205392155825	69.6820086174563	108.618113499263	-39.9061609266068
1958656	91.75541766608	66.7598516248376	113.472174827343	-36.0390682320406
1670375	100.476392340842	63.443684872244	118.830158495221	-32.2694929542056
1424531	108.222557588522	59.2268289006626	123.369117823827	-28.6905120869209
1214875	114.69690726639	54.4544875774218	126.967207395431	-25.3968985790791
1036062	120.267727199402	50.1498055227449	130.304755092356	-22.6353909755753
883578.1	124.815923570776	45.0688945929911	132.70350423655	-19.8537840126183
753531.2	128.566415640214	40.3524636720555	134.750304470813	-17.4252336430208
642624.9	131.651542508571	36.0408940534696	136.495694763825	-15.3101656718734
548046.8	134.195433377427	32.1612955390143	137.995519021827	-13.4773195218735
467390.6	136.144133834655	28.6914508623473	139.134555485598	-11.9005568584073
398593.7	137.718896170913	25.6544293055587	140.087987013622	-10.5521751720803
339937.5	139.028793723941	23.0749713129768	140.930691424646	-9.42362593258904
289906.2	140.084795704705	20.8306217013756	141.625085306575	-8.45791129847399
247234.4	140.973371476068	19.0192145089571	142.250560581909	-7.68358175666649
210843.7	141.717547476568	17.4616165894865	142.789254906283	-7.02425057391969
179812.5	142.51282593548	16.3727987992546	143.45024955237	-6.55377773960392
153343.8	143.137560522935	15.5524359343148	143.979996860494	-6.20107638007729
130781.2	143.718018842253	15.0252620804148	144.501306016684	-5.96840967863056
111531.3	144.345477240041	14.7509712127217	145.097236194814	-5.83492197152099
95109.37	144.95617840537	14.7127329388817	145.700920273073	-5.7955483118396
81109.37	145.500937128012	14.90035144782	146.26189927113	-5.84712024297932
69171.88	146.267467890768	15.3701427225462	147.072816830603	-5.9987649826166
59000	146.919532139471	16.2106774274026	147.811146354855	-6.29638217971935
50312.5	147.753222424878	17.0234151703415	148.730667318469	-6.57236449047797
42906.25	148.523004112409	18.0890928869964	149.620513406582	-6.94403648260138
36593.75	149.458899795209	19.6023670215204	150.738898499494	-7.47201136123648
31203.13	150.283449972625	21.2329479618913	151.775997492446	-8.0418637251177
26609.38	151.447693261781	23.3562306675045	153.238106570488	-8.76707359514863
22703.13	152.677896089584	25.7385936839841	154.832216154039	-9.56900824352554
19359.37	153.882633608962	28.4477309971849	156.490058231564	-10.4738174640182
16500	155.231424638443	31.6357566503613	158.422272089885	-11.518984155584
14112.02	156.717326219509	35.2436095359341	160.631355440067	-12.6741931212827
12011.13	158.430282882422	39.3707325692891	163.248917660261	-13.9556017709369
10236.38	160.187773630189	44.1653930681366	166.16469169309	-15.4140715680203
8750.684	162.189236089174	49.5786932457529	169.597745053248	-16.9975664855793
7449.463	164.359511789543	55.9135157056731	173.609822171055	-18.7878074939333
6363.206	166.730740093218	63.0751581187789	178.262770268335	-20.7219067454887
5414.761	169.530263529565	71.339784016887	183.928994549473	-22.8217741463313
4620.567	172.568368297645	80.6812957546334	190.497541248065	-25.0576101615365
3941.215	176.021587017533	91.5792655151866	198.419658724815	-27.486739218507
3361.769	179.832400687413	103.711229934934	207.595066298828	-29.9724994239482
2867.244	184.152834629932	117.648027119639	218.525341293366	-32.5729142137731
2442.658	188.98404380082	133.899336051829	231.611746261779	-35.318407646903
2083.003	194.515188133145	152.163307987786	246.961192725211	-38.0349896296906
1777.843	200.698759920201	173.047582357783	265.000864137044	-40.7687488871763
1513.548	207.724407103362	197.189861499556	286.414508683931	-43.5096873058349
1292.065	215.69442876764	223.633659955995	310.702591663977	-46.0352967259275
1101.762	225.241681352966	254.899068936932	340.157831548277	-48.5345615465999
939.101	235.389298022197	290.521320668759	373.912769755865	-50.9845462673132
801.2801	248.096933104839	330.693785344728	413.413192679736	-53.1216100882157
684.3433	263.734094405198	374.652903615316	458.1707877409	-54.8566580721647
582.9476	278.217581654476	428.321221596028	510.748560067651	-56.994117233946
497.0677	296.708357305258	487.645424082169	570.818630497518	-58.6815352363857
423.5089	318.839061066077	555.822850628142	640.778735712954	-60.1599382351618
361.5036	342.858274751318	632.700823191859	719.626381001354	-61.546897169835
308.1262	371.486161524167	719.970105910104	810.159812387757	-62.7074231838725
262.7298	404.537441799068	819.204471314301	913.644628747238	-63.7190374669554
224.2111	442.474630659647	931.424619882994	1031.18166260925	-64.5898760197748
191.2854	486.699575900678	1057.74002090218	1164.3411995631	-65.2913482483534
163.1722	537.653219021149	1199.58876030569	1314.56615572421	-65.8581753950764
139.1537	596.913516686585	1364.3147334025	1489.18113007863	-66.3697121145692
118.6706	665.476244656971	1547.19166930008	1684.23890637709	-66.7265502293766
101.1982	743.862317047562	1754.16776222338	1905.37022248883	-67.0204202824992
86.24196	837.741703800433	1991.14578749586	2160.20200660702	-67.1818797891671
73.61024	942.262806330504	2252.92771679459	2442.03654626525	-67.3034041375144
62.69291	1064.45440861692	2550.46397813877	2763.68046123416	-67.3464332679287
53.57697	1200.53131496617	2877.56871662385	3117.96041621869	-67.3539390150449
45.65746	1359.1088611474	3248.11831673353	3521.00120646802	-67.2941222212332
38.96512	1539.72009255998	3661.79089019538	3972.33564631072	-67.1940837902034
33.18414	1746.19152114266	4130.17363233832	4484.14083875308	-67.0818986539168
28.30617	1982.51069566362	4649.77018213374	5054.77115259244	-66.9081778504331
24.17237	2237.04503643398	5219.47564335548	5678.67030973052	-66.8002326018305
20.61345	2529.56214155505	5867.26795737995	6389.32843980383	-66.6776196336725
17.55618	2866.21207491292	6595.94951017342	7191.78153166054	-66.5130661549109
14.98558	3232.16239009343	7400.59592301027	8075.62342680803	-66.4070116670322
12.76553	3643.96788160888	8307.16447933226	9071.24487646965	-66.3151665324727
10.8809	4107.23613306249	9337.60495083306	10200.9928374917	-66.257240499385
9.278505	4609.73866562034	10475.1314249107	11444.5650391121	-66.2473856253087
7.923394	5151.70995888222	11747.0827861973	12827.0834364722	-66.3200366737313
6.75822	5788.34252738627	13193.5139696561	14407.418925049	-66.3116714899224
5.761429	6496.12614385645	14837.8668652908	16197.5908081724	-66.355846535927
4.919708	7263.31169666142	16642.1344193441	18158.0928193017	-66.4215647950285
4.191257	8096.24146857392	18775.2973802644	20446.538035443	-66.673437041768
3.564097	9109.07327490533	21160.3730233545	23037.7212938933	-66.7091896081842
3.051758	10135.2020303011	23748.5341230815	25820.8286697035	-66.8885826938397
2.604164	11378.7425317264	26766.0255615269	29084.2896761058	-66.9687394893785
2.214424	12699.5274636769	30249.0568630925	32806.7590430279	-67.2257683562741
1.892567	14299.286510586	34049.22619926	36929.9255276829	-67.2195804120867
1.607507	16119.2180260047	38595.4047302048	41826.2412375077	-67.3323385061685
1.376413	18007.2117200572	43397.4706431417	46985.1054287772	-67.4646344610642
1.17375	20293.1664912361	48990.3410088184	53027.0319591936	-67.4992984076696
1.001604	22851.3175383427	55337.5119528758	59870.050462421	-67.5620945820159
