EC-Lab ASCII FILE
freq/Hz	Re(Z)/Ohm	-Im(Z)/Ohm	|Z|/Ohm	Phase(Z)/deg
6999984	32.551648417861	78.405998530449	84.8947019564637	-67.4533471925001
5969734	30.2235220132396	76.2796896283858	82.0490848985389	-68.385549525178
5091109	29.8123811956973	79.0926974109089	84.5247470051887	-69.3470872969665
4341796	32.646448598417	84.5292695016368	90.6145021978791	-68.882705004013
3702781	40.1843286870647	90.5169122836023	99.035810096083	-66.0615181165683
3157797	48.2737532493426	96.5999744381779	107.990325095515	-63.4473981762839
2693047	57.7068211283359	103.149250598844	118.194099276745	-60.7751803155733
2296687	69.5873929144502	110.545972379582	130.6247191843	-57.8100664299918
1958656	84.0206530874083	116.38358493121	143.543056211977	-54.1734001718933
1670375	100.49047526823	121.085231978452	157.353007670366	-50.310203590334
1424531	118.200347723251	123.230548520123	170.754473705574	-46.1935820464103
1214875	136.214101582878	122.861345935872	183.437160344366	-42.0495845790353
1036062	153.932819521752	120.112023818019	195.249100360479	-37.9645100913116
883578.1	170.642841897832	115.267355496269	205.926061328021	-34.0385918199193
753531.2	185.864209485682	108.54053248637	215.236036852945	-30.2839707405372
642624.9	199.16740522271	100.744192182165	223.197328751005	-26.8315046839954
548046.8	210.53095843224	92.2113712718992	229.839555886801	-23.6531473662221
467390.6	219.955538497672	83.4901811983466	235.268037081822	-20.7856368410411
398593.7	227.61529460168	74.9048564599198	239.623579511472	-18.2156174622479
339937.5	233.674654519508	67.0094583365022	243.092804647449	-16.0009808854626
289906.2	238.675564466348	59.5195309347501	245.984958149929	-14.0024926368904
247234.4	242.317227690945	53.3599649713997	248.122801647842	-12.4187341587457
210843.7	245.323096858311	47.6708013687852	249.911838765783	-10.9965841562955
179812.5	248.184685328698	42.6972112159127	251.8306769981	-9.76149914437769
153343.8	249.812636825697	38.6301239849189	252.781803136416	-8.79038724783251
130781.2	251.45740857349	35.264253611143	253.918088976044	-7.98306679618137
111531.3	252.753117668131	32.5925104404433	254.845855818318	-7.34774254505056
95109.37	253.878652568717	30.5576071691402	255.711043144427	-6.86327808137769
81109.37	255.167122735302	29.3675070432314	256.851534928151	-6.56535721664352
69171.88	256.139211773706	28.3051142288456	257.698419280296	-6.30598495236574
59000	257.065404112469	28.0412574396536	258.590282319935	-6.22533541312313
50312.5	258.213362183622	28.2735066821743	259.756677662534	-6.24880376441169
42906.25	259.098725107878	28.8065518131993	260.695160637657	-6.34408091616399
36593.75	260.302793849256	30.0566182881845	262.032335387543	-6.58665405788853
31203.13	261.555168545731	31.654010284813	263.463626635816	-6.90050887890529
26609.38	262.834894030578	34.0884621279722	265.03623293866	-7.3897460810116
22703.13	264.430542891209	36.940974788461	266.998403800587	-7.95275732881895
19359.37	266.006524632953	40.5156314560081	269.07431601619	-8.66019977762288
16500	267.769666606245	44.5228861512842	271.445909428859	-9.44037921851867
14112.02	269.861496047299	49.2666436668209	274.321762219259	-10.3461338193733
12011.13	272.387404558049	54.7379622236734	277.832940218165	-11.362606784559
10236.38	274.737989022486	61.1817008275885	281.467872284345	-12.5544048350547
8750.684	277.620986080329	68.3896832094036	285.920549596731	-13.8388100539774
7449.463	280.791725511999	76.8825738642914	291.126988237099	-15.3126523087042
6363.206	284.393614650689	85.9156881517275	297.087922212718	-16.8096363287764
5414.761	288.180445483484	97.3040598849763	304.164510140743	-18.6572418715789
4620.567	292.354783817707	109.0472707619	312.029849344125	-20.4553324017261
3941.215	297.441888949313	123.566134150458	322.087358973656	-22.5594396902527
3361.769	302.924031931953	139.831788736064	333.640372651509	-24.7783677209236
2867.244	308.616097055219	158.641479731295	347.002902657789	-27.2050445185309
2442.658	315.301497309089	179.293237328477	362.713522159127	-29.6243187014252
2083.003	322.683682934213	203.101928239135	381.280936431973	-32.1869240063493
1777.843	330.775414010913	230.387627045691	403.101517250723	-34.8575089373439
1513.548	340.126074994439	262.050752301958	429.367376116474	-37.6125191994509
1292.065	350.552205615732	298.044157917305	460.127339907868	-40.3716318393711
1101.762	362.133528115709	339.210930391824	496.190233159439	-43.1280229297644
939.101	375.224210973937	387.071883848881	539.089836453383	-45.8904243474286
801.2801	390.3411629888	439.89847988747	588.112996056673	-48.4159535534299
684.3433	408.480610230078	500.334141490738	645.902981937079	-50.7712627280757
582.9476	427.162017020101	571.113237512876	713.188417493666	-53.2054853798449
497.0677	449.720711054823	651.042354157794	791.267884384914	-55.3644361885215
423.5089	476.365742235996	743.81984310203	883.284936681465	-57.3632166455692
361.5036	505.960948791386	847.64514966087	987.167048399347	-59.1669450804206
308.1262	540.681034286273	967.579784358157	1108.39822263276	-60.8036563179913
262.7298	580.446358719826	1103.88065486176	1247.18502056797	-62.2635527799846
224.2111	627.313530216311	1257.71726968302	1405.48034338846	-63.4912867433909
191.2854	680.163644043763	1433.49516732043	1586.67292704259	-64.6166331488074
163.1722	742.357967082573	1631.89282404829	1792.81051437995	-65.5389233116295
139.1537	814.955304305024	1861.14362182576	2031.74991794699	-66.3524087891562
118.6706	900.125819073912	2121.66891954093	2304.71375539555	-67.0107372957615
101.1982	996.979721867677	2413.69668547672	2611.49387425984	-67.5568806660802
86.24196	1112.09940671278	2748.981250996	2965.41110282174	-67.9742231240535
73.61024	1240.62607029742	3123.56510332572	3360.92427778666	-68.3378794366231
62.69291	1392.50322879623	3552.85341674624	3815.99693960744	-68.5978303882739
53.57697	1570.27517799153	4028.83082767759	4324.03075528628	-68.7061767073332
45.65746	1772.88049200455	4574.25168403464	4905.8010261143	-68.8147522095104
38.96512	2007.31964502048	5182.28633639504	5557.46559410599	-68.8264978443106
33.18414	2277.0336767238	5872.6068228182	6298.60248470604	-68.8067880961581
28.30617	2578.23987936641	6639.05343745324	7122.10301953819	-68.7765932203547
24.17237	2933.59143039656	7505.3236533794	8058.27784470556	-68.6510581674416
20.61345	3336.36737371801	8478.42538352395	9111.25920147118	-68.5197362407976
17.55618	3796.68938771284	9576.71583053906	10301.8608224761	-68.3741476650548
14.98558	4305.06840162795	10792.4256994302	11619.3832203098	-68.2530816829437
12.76553	4902.0467819096	12173.914547323	13123.8050144595	-68.0669276953057
10.8809	5560.45027442578	13719.369961095	14803.368514759	-67.9373246420471
9.278505	6312.37574596422	15443.3116261443	16683.5835940736	-67.7679583178064
7.923394	7105.89324368914	17373.9962937811	18770.9740292566	-67.7556397252111
6.75822	8091.8073851701	19547.5552992341	21156.1873912884	-67.5126483242961
5.761429	9179.63133138279	21996.2129424631	23834.827777651	-67.3478656624165
4.919708	10341.3293769709	24690.6268986476	26768.8279521391	-67.2742978815217
4.191257	11646.5900103577	27855.793614896	30192.5205437546	-67.3100504479379
3.564097	13206.8509973713	31361.8969749427	34029.2447041319	-67.1634878439434
3.051758	14791.1579766321	35219.2785994064	38199.1615006442	-67.2188928627326
2.604164	16690.4531988744	39572.9910061331	42948.7234403458	-67.1317459820932
2.214424	18861.9340306208	44680.8776584977	48499.0039455361	-67.1130675579719
1.892567	21118.3118689098	50162.1785141874	54426.3470157767	-67.1688736472176
1.607507	23872.9030370332	56699.2732938334	61520.1031490065	-67.1667537033756
1.376413	26692.8561949836	63645.2566469279	69016.1377179236	-67.2467959073554
1.17375	30052.3537614338	71625.568773915	77674.7453731854	-67.238258836208
1.001604	33889.6559849715	80623.4072899572	87456.518258058	-67.2007873964064
