EC-Lab ASCII FILE
freq/Hz	Re(Z)/Ohm	-Im(Z)/Ohm	|Z|/Ohm	Phase(Z)/deg
6999984	10.3971016934039	-2.50475981119128	10.6945568087108	13.5449915670564
5969734	6.03244421436597	-2.07164162467032	6.37825071790881	18.9533235417907
5091109	3.62893406221983	-1.2101069732251	3.82537858447858	18.4415175321341
4341796	2.29792834857942	0.727206508548235	2.41024977985268	-17.5605891925426
3702781	1.714417216541	0.404398647497743	1.76146662144651	-13.2723839777111
3157797	1.45074579940579	0.360321952789548	1.49482282701182	-13.9483194773608
2693047	1.33747782332088	0.342974409899583	1.3807528286124	-14.3826558635376
2296687	1.2572019723849	0.329639097447714	1.2996994783159	-14.6922536081366
1958656	1.2303242596825	0.313192520374136	1.26956186882782	-14.2819298831536
1670375	1.2151652199226	0.288282756249707	1.24889289343021	-13.3459804064956
1424531	1.21089473202676	0.256248704277625	1.23771137608657	-11.9486108286849
1214875	1.20890535971109	0.217082883623947	1.22824148566179	-10.1800963799223
1036062	1.20726602643017	0.180285816269228	1.22065319977476	-8.49344041135005
883578.1	1.1973177273439	0.150466271319904	1.20673519838318	-7.16278030962642
753531.2	1.18904129563155	0.128700100897103	1.19598616994014	-6.17756219216512
642624.9	1.17746259747025	0.110176640452759	1.18260604621439	-5.34567216434318
548046.8	1.16836838326784	0.0926773508647551	1.17203829731934	-4.5353213389136
467390.6	1.15996868036832	0.0788232173262008	1.16264372833	-3.88743727995573
398593.7	1.15357852390865	0.0663152148479994	1.15548306718169	-3.29011388162917
339937.5	1.14643705669545	0.0567451748370351	1.14784055505623	-2.8336555949823
289906.2	1.1411206356729	0.0484176740865087	1.14214735315653	-2.4295988823625
247234.4	1.13521415561955	0.0421216602058626	1.13599534038548	-2.1249618063538
210843.7	1.12727151618046	0.0365763527772775	1.12786475287344	-1.85841267273422
179812.5	1.12065818652093	0.0324804190109645	1.12112878325173	-1.66015838942085
153343.8	1.11610350747021	0.0280563453469481	1.11645608865801	-1.43998445973916
130781.2	1.11020829027087	0.0257719293520236	1.11050737959218	-1.32980238390432
111531.3	1.10543175699379	0.0227703715864477	1.10566625126779	-1.18004725907538
95109.37	1.10123574965162	0.0198604287055139	1.10141482327919	-1.03319874914115
81109.37	1.09697630116483	0.0174075459091024	1.09711440970021	-0.909131041141316
69171.88	1.09285670210311	0.0153457438569656	1.09296443820749	-0.804486602396418
59000	1.08875117688531	0.0132990710854952	1.08883239778255	-0.699831850411207
50312.5	1.08436907402227	0.0117531775489259	1.08443276687788	-0.62098884709664
42906.25	1.08047665384148	0.0105103440000516	1.08052777235362	-0.557327506479654
36593.75	1.07647833654809	0.00898643244788866	1.07651584522732	-0.47829359362775
31203.13	1.07247083867452	0.00821438744801953	1.0725022964863	-0.438837599911199
26609.38	1.06808125401782	0.00724179586120141	1.06810580411848	-0.388470427127295
22703.13	1.06430053368428	0.00658976694835967	1.06432093422477	-0.354750371193579
19359.37	1.06064309582437	0.00561825887217809	1.06065797576441	-0.303494655460986
16500	1.05724637260141	0.00509518671390014	1.05725865014503	-0.276123372967776
14112.02	1.0542711191083	0.0042569885797439	1.05427971361382	-0.23135050279975
12011.13	1.05090161877238	0.00415402240098634	1.05090982878672	-0.226478585371973
10236.38	1.04650773514314	0.00347175191508317	1.04651349383359	-0.190075998337234
8750.684	1.04278669706236	0.0031681677933543	1.04279150977431	-0.174074031964364
7449.463	1.0376258097452	0.00283985092762204	1.03762969589477	-0.156810928188631
6363.206	1.03165225642974	0.00246459613795499	1.03165520036042	-0.136878184862266
5414.761	1.02464298265648	0.00237280073569331	1.02464573004063	-0.13268155549183
4620.567	1.01795725184628	0.00211572234481907	1.01795945050256	-0.119083376252652
3941.215	1.01139569450278	0.00180433486737928	1.01139730397261	-0.102215842538677
3361.769	1.00654108262003	0.00179713672488014	1.00654268697473	-0.10229909330631
2867.244	1.00130868108492	0.00175762897236156	1.00131022369474	-0.100573000652699
2442.658	0.997191175941384	0.00144405349512258	0.99719222152294	-0.0829711642284848
2083.003	0.992961934032789	0.00133008919355569	0.992962824870801	-0.076748613390246
1777.843	0.989193476827074	0.0013557389793474	0.989194405880571	-0.0785266733158755
1513.548	0.985310809475111	0.000730167369360074	0.985311080021374	-0.0424591921067743
1292.065	0.980792799897439	0.00117339458422158	0.980793501806322	-0.0685471236234048
1101.762	0.975823228646874	0.00108903966759176	0.975823836342506	-0.0639432931479696
939.101	0.973197078063467	0.000686886504545141	0.973197320467098	-0.0404395903634516
801.2801	0.969945384586473	0.00103973723303799	0.96994594186177	-0.0614184400321666
684.3433	0.966103533281491	0.000623592286775263	0.966103734536992	-0.0369827870164006
582.9476	0.961987905871359	0.000445626884246732	0.961988009086434	-0.0265414333410545
497.0677	0.957997102912562	0.000429160313681018	0.957997199039453	-0.0256671685006203
423.5089	0.954057787150856	0.000493189913174613	0.954057914625459	-0.0296184344248692
361.5036	0.950883901562263	0.00038699122706595	0.950883980311206	-0.023318264994124
308.1262	0.946670316968432	0.000237536343577062	0.946670346769469	-0.0143765252151297
262.7298	0.943010091333444	0.000267965000357646	0.943010129405805	-0.0162811228698139
224.2111	0.939472201385916	0.000222906882355811	0.939472227830274	-0.0135944664726659
191.2854	0.936485337220795	0.000184994907946004	0.936485355492899	-0.0113183056878395
163.1722	0.933226389446307	0.000294193096433677	0.933226435817465	-0.0180620934210426
139.1537	0.930402478335601	0.000136733065683542	0.930402488382828	-0.00842025651217799
118.6706	0.927384499379475	4.20630263610894E-05	0.927384500333394	-0.00259874289897866
101.1982	0.923958618423907	0.000128186138916362	0.92395862731591	-0.00794897580737109
86.24196	0.920764279235568	0.000140047419263837	0.920764289886111	-0.00871463649773826
73.61024	0.915168406380951	0.000145283900901858	0.915168417912933	-0.00909576229348133
62.69291	0.911551647879712	-5.55497660647079E-05	0.911551649572308	0.00349159277141354
53.57697	0.906677448418742	-2.41244292812692E-05	0.906677448739688	0.00152449802635213
45.65746	0.901000494676018	0.000104013569868598	0.901000500679801	-0.0066143565672831
38.96512	0.896756902646226	0.000141909449460395	0.896756913874627	-0.00906690813891854
33.18414	0.891572004154101	5.8666258204254E-05	0.891572006084248	-0.00377011500407797
28.30617	0.887007391461916	-1.24402520558473E-05	0.887007391549153	0.000803571588797594
24.17237	0.882357600575023	1.14125985015699E-05	0.88235760064883	-0.000741075644335905
20.61345	0.876895936617567	3.45067232506897E-05	0.876895937296504	-0.00225464564666151
17.55618	0.871014334913793	6.12095569507712E-05	0.871014337064509	-0.00402639673400881
14.98558	0.864273466591376	4.84118029313419E-05	0.864273467947257	-0.00320939157674657
12.76553	0.858378884908794	-7.1731041133383E-05	0.858378887905921	0.00478796249501418
10.8809	0.853154882650551	3.79088878550202E-05	0.853154883492768	-0.00254586748885501
9.278505	0.847633766188238	1.98049799032675E-05	0.84763376641961	-0.00133871703423876
7.923394	0.84104348347022	-0.00016844217261719	0.841043500337817	0.0114750612110093
6.75822	0.83511010401526	-7.60584045325803E-05	0.835110107478804	0.00521826468535553
5.761429	0.830087139907261	-4.60037613756154E-05	0.830087141182035	0.00317535501892683
4.919708	0.825080419071484	3.16464462864529E-05	0.825080419678393	-0.00219761342773419
4.191257	0.819212876823557	4.59382222895529E-05	0.819212878111574	-0.00321292099676458
3.564097	0.813143284657264	-0.000111629449219611	0.813143292319587	0.00786564482564726
3.051758	0.808193839229242	2.09331902733256E-05	0.808193839500339	-0.00148402944432425
2.604164	0.804037832607231	-6.23304601766723E-05	0.804037835023216	0.00444167196025726
2.214424	0.79884135642714	-8.1706772366464E-05	0.798841360605689	0.00586030400184528
1.892567	0.793321486198672	4.74747932877633E-05	0.793321487619191	-0.00342875534410595
1.607507	0.784803377924616	-0.000197889353142719	0.784803402873665	0.014447216747893
1.376413	0.776998812499648	4.28253929325971E-05	0.776998813679839	-0.00315793824787044
1.17375	0.768166516173375	2.1661496868654E-05	0.768166516478791	-0.00161568139465823
1.001604	0.764874133829762	-0.000113318627840613	0.764874142224026	0.00848855881093554
