EC-Lab ASCII FILE
freq/Hz	Re(Z)/Ohm	-Im(Z)/Ohm	|Z|/Ohm	Phase(Z)/deg
6999984	-13.4091542456787	30.6745327866313	33.4773412812685	-113.612202266948
5969734	-13.716002385709	33.1646025055547	35.8889896875939	-112.468693099425
5091109	-14.4926515438129	37.0409292783574	39.7752107546227	-111.368442245436
4341796	-14.4604234777089	42.3831702646658	44.7821054533876	-108.838776284154
3702781	-13.4177228947946	49.5364147534873	51.3214543277079	-105.155803577053
3157797	-12.2066971289801	57.1776751638556	58.4661439804443	-102.051002581018
2693047	-12.8447641327213	66.3183251223334	67.5507824725722	-100.961523333577
2296687	-12.3034875162001	77.3995888931811	78.3713733827265	-99.032202550033
1958656	-11.8745862912241	89.7070054629207	90.4895166785204	-97.5404496346304
1670375	-11.6062136288969	104.759959456794	105.400916979829	-96.3219402917257
1424531	-11.2741491160071	121.982250701387	122.502146611666	-95.2805322032959
1214875	-10.3229877436211	143.307398763556	143.678720123517	-94.1201207808174
1036062	-8.76202207073291	166.543113410726	166.773444094994	-93.0116193345778
883578.1	-8.7334187266362	194.101855282987	194.298231661928	-92.5762287060579
753531.2	-7.61872961650451	226.42199493976	226.550137571069	-91.9271821157337
642624.9	-6.92974404617045	264.588377952108	264.679109677876	-91.5002712625817
548046.8	-5.01773394354062	308.781663550771	308.822430207247	-90.9309803973397
467390.6	-3.04983629363216	360.761951346483	360.774842582933	-90.4843597960353
398593.7	-1.62569558635134	422.51186031136	422.514987887892	-90.220455435598
339937.5	-1.07391627112634	493.601049149555	493.602217395444	-90.1246568922521
289906.2	-102.056921264096	502.186627998864	512.451972889924	-101.487498589507
247234.4	-109.116150678322	604.876392065739	614.639556176886	-100.225845524629
210843.7	-114.115835559162	721.255046884313	730.226859668595	-98.9907204056655
179812.5	-113.536599152357	861.211621946677	868.663350857574	-97.5101974630475
153343.8	-106.568972314504	1025.98589532124	1031.50569715261	-95.9300371598562
130781.2	-108.443539409115	1211.57091223731	1216.41443456543	-95.114718217385
111531.3	-110.70774225525	1428.44475966461	1432.72838863776	-94.4316952298095
95109.37	-96.555178331236	1677.52519256524	1680.30166165294	-93.2942021191363
81109.37	-87.448884416289	1965.14293629433	1967.08771219109	-92.5479818867579
69171.88	-71.009365365644	2297.55379071856	2298.65085456988	-91.7702489756474
59000	-64.4108686995333	2697.58780954842	2698.35667587346	-91.3678034203475
50312.5	-59.2148951782023	3190.49143444581	3191.04089555165	-91.0632763522354
42906.25	6.57979169133127	3727.23332320719	3727.23913094998	-89.8988542251911
36593.75	4.78836897234795	4316.46204723274	4316.46470316601	-89.9364402565516
31203.13	-736.531254793071	4678.85622451013	4736.47272333793	-98.9459151060863
26609.38	-708.233665054624	5643.87163598196	5688.13519246496	-97.1524999115473
22703.13	-692.485700379262	6666.79646086306	6702.66450717966	-95.9300944556357
19359.37	-635.777086190767	7847.23474372195	7872.94770885735	-94.6319439792078
16500	-575.680220065257	9244.90901168055	9262.81546561447	-93.5632058039503
14112.02	-554.282711937524	10944.057475675	10958.0848397715	-92.8993769025117
12011.13	-487.508636443517	12798.8352622027	12808.1165180369	-92.1813461936537
10236.38	-305.331727943676	14877.1370945219	14880.2700107655	-91.1757479674196
8750.684	-373.584000363768	17434.424068769	17438.4261794176	-91.2275433520995
7449.463	-234.061734865293	20354.6456846661	20355.9913991931	-90.6588254446526
6363.206	10.6163017917863	23839.3494657289	23839.3518295908	-89.9744846541483
5414.761	359.921218795418	27552.5757216611	27554.9264593758	-89.2515838040318
4620.567	147.017087474066	32394.3349114018	32394.6685177681	-89.7399730286013
3941.215	-6646.46453856355	34117.4142376402	34758.7894657612	-101.023803845908
3361.769	-6650.21415950055	41188.9981217443	41722.4030305096	-99.1716031815883
2867.244	-6598.03194317866	48998.1292175415	49440.3751233958	-97.6692505469758
2442.658	-6410.49803691076	58019.3228446826	58372.3933759508	-96.3049807409898
2083.003	-6144.86278487465	68197.1911541823	68473.4709209707	-95.1486946146363
1777.843	-5991.09996282453	80109.2324904566	80332.9472195225	-94.2769966251242
1513.548	-5335.31551595669	94093.4168513918	94244.5578610488	-93.2453288192117
1292.065	-4705.80396249183	110747.682922402	110847.61550712	-92.4331038488342
1101.762	-5221.71499452378	128791.736364962	128897.547158144	-92.3217208534608
939.101	-3261.74126605898	150261.620327303	150297.017600062	-91.2435288745836
801.2801	-1041.98134350971	179381.691418504	179384.717691568	-90.3328124592232
684.3433	-499.022356987231	205894.663859136	205895.26859299	-90.1388662455714
582.9476	3389.26824982825	241207.572557965	241231.383112926	-89.1949755738729
497.0677	-58733.9569739418	241669.802634423	248704.586220636	-103.659982661305
423.5089	-54048.4495314759	276890.892395033	282116.644649113	-101.045117875887
361.5036	-58561.3568140434	358809.603133433	363557.098421518	-99.2695216687762
308.1262	-64130.8832280264	456337.019993314	460821.273380456	-97.9996180116482
262.7298	-98584.9083809934	502626.82672583	512203.778885872	-101.097085147905
224.2111	-71991.7851590528	618173.17233153	622351.097147595	-96.6426820654399
191.2854	-74628.3691052838	658262.833644329	662479.699034451	-96.4681018252635
163.1722	-129080.565134442	708103.60213726	719772.536052321	-100.331040575815
139.1537	-189504.279977642	891489.839830565	911408.803255143	-102.000754182385
118.6706	-31565.438439655	897429.514217886	897984.470853054	-92.0144435879321
101.1982	795017.477967454	510156.232422647	944622.766904017	-32.6879584094574
86.24196	648070.576695034	-157826.795114062	667011.821209947	13.6869991565795
73.61024	8519.84509666875	391955.806891667	392048.392824877	-88.7547720998738
62.69291	26898.6149608696	47946.3771989642	54976.2728212678	-60.7069410421732
53.57697	134549.984840618	75525.7163026202	154297.868564781	-29.3064073392189
45.65746	-32503.9757964027	-653653.702239075	654461.359358536	92.8467793769187
38.96512	399209.498851716	-351357.311571002	531808.409455737	41.3520600296651
33.18414	703746.420791387	-319105.973301949	772714.466652251	24.3913862965143
28.30617	-417114.090449244	669484.967339493	788792.929700097	-121.924444775587
24.17237	1167398.9303042	-728472.68016482	1376042.40785737	31.9647195142417
20.61345	338627.905657085	-1247643.28320784	1292780.96390043	74.814938127459
17.55618	326101.04553929	-1168608.02242646	1213254.54954074	74.4081953886956
14.98558	-1075873.80765866	4514632.62351226	4641057.2260302	-103.40404241422
12.76553	1748642.62913035	2067307.88823576	2707676.66998364	-49.773622885616
10.8809	-329375.440267755	1343248.06878379	1383041.41476058	-103.777553600865
9.278505	469502.851285821	3041688.80583238	3077710.79195097	-81.2253045309416
7.923394	3148856.24737102	-1765441.39974934	3609997.09176565	29.2776563170592
6.75822	760114.406747841	1699772.42406823	1861988.2397503	-65.9064757372059
5.761429	397598.987614278	-932542.087769375	1013765.11106526	66.9085216251102
4.919708	1800853.38459666	-70614.4833907322	1802237.30903502	2.24551327236492
4.191257	1586769.31486954	19372.7500297643	1586887.57070414	-0.699485210945153
3.564097	2243394.53302411	-34946.7472089075	2243666.71008485	0.892459688176395
3.051758	-1135992.48264655	1459927.50490456	1849828.97593435	-127.887044662175
2.604164	8190502.87597442	-3123910.435526	8766022.68822831	20.8771725783912
2.214424	9886707.56558934	6681163.98676048	11932516.0257788	-34.0497415786125
1.892567	2781532.33154087	1324316.69892283	3080703.95047188	-25.4596088097562
1.607507	2917903.8604973	-3364669.207424	4453668.35479386	49.0675612650983
1.376413	4262364.08961987	6196583.24166302	7520996.70943553	-55.4775838939039
1.17375	4802355.07929626	5766610.62890201	7504426.19078956	-50.2129268158766
1.001604	5434134.76960756	-7624024.6570013	9362455.48266167	54.5200740154151
