EC-Lab ASCII FILE
freq/Hz	Re(Z)/Ohm	-Im(Z)/Ohm	|Z|/Ohm	Phase(Z)/deg
6999984	18.2546310946736	2.48552473156225	18.4230667803661	-7.75363157669918
5969734	18.1264341676018	-1.28879833039922	18.1721935046059	4.06691401744928
5091109	12.359582197313	-5.00271514956808	13.3336578237127	22.0363349528762
4341796	12.8887737959276	-6.00983715749488	14.2210629919917	24.9989163650033
3702781	5.86186227501278	-5.45530432371461	8.00760729528848	42.9425908689483
3157797	4.40728833686444	-4.86620353396733	6.56537335711058	47.8330721292874
2693047	3.38440269233575	-4.07205314070488	5.29488416914043	50.2690365727538
2296687	2.30148828131997	-3.70383886479607	4.36065025488481	58.1440435287735
1958656	1.85821585031142	-3.16786018401218	3.67264268501555	59.6047994274595
1670375	1.46577593157942	-2.68035548974704	3.05496393317738	61.3275689258589
1424531	1.19603391253671	-2.38012119966814	2.66373310319326	63.3200296584263
1214875	0.843842794490276	-1.94445876367014	2.11966755540268	66.5404535375182
1036062	0.826482813132044	-1.80466894810672	1.98491910481593	65.3936785105638
883578.1	0.727416666016426	-1.57164522997172	1.73182093037685	65.1635213642598
753531.2	0.658332402365206	-1.34385971095026	1.49644928905702	63.9006077922324
642624.9	0.583152503213381	-1.15715272399966	1.2957890525328	63.2539676246478
548046.8	0.561571419980376	-1.0114912461386	1.15692566777378	60.9613343032113
467390.6	0.523444122167525	-0.878379399438572	1.02251851738235	59.208427224788
398593.7	0.492444735952226	-0.761234206160299	0.906630759788988	57.1010483472512
339937.5	0.466194180913104	-0.661293850031728	0.809102323817591	54.817204198392
289906.2	0.445071586042649	-0.572376073558257	0.725053850610068	52.1318656041729
247234.4	0.427136579755072	-0.496012268515284	0.654579123011526	49.2669047411802
210843.7	0.412886562143621	-0.42839261903164	0.594975250947101	46.0559289361301
179812.5	0.402000078189891	-0.368641790358172	0.545436368848977	42.5214210529035
153343.8	0.393756652917936	-0.3204721435706	0.50768759736857	39.1415831264724
130781.2	0.387270066771195	-0.277466773100706	0.476409398303481	35.6204022415605
111531.3	0.380488188199767	-0.242316139359781	0.451096855180537	32.491261998389
95109.37	0.373863471606016	-0.21117015861093	0.429379472365724	29.4591636169787
81109.37	0.365197014880006	-0.187398965214499	0.410471962307698	27.1643931629664
69171.88	0.360649304905252	-0.159402577481734	0.394305849356134	23.844841855739
59000	0.352048038974944	-0.134935954331567	0.377021927104346	20.9712522483517
50312.5	0.345695477513654	-0.105021124348437	0.361296000161645	16.8986052152043
42906.25	0.375167594711056	-0.105067680560045	0.389602286466015	15.6451855538423
36593.75	0.359519298530792	-0.0956458835008644	0.37202454360799	14.8977964875618
31203.13	0.354154819048278	-0.0842673484760044	0.364042060584069	13.3840419928262
26609.38	0.349177821781876	-0.0715790167942746	0.356438924459115	11.5847425217312
22703.13	0.349197984313247	-0.0637663681151925	0.354972367869721	10.3486491040939
19359.37	0.34687508869206	-0.0571151296200574	0.351545822314305	9.35020712072098
16500	0.344370122353675	-0.0508004453454799	0.348096921010778	8.3915799745317
14112.02	0.34233043950473	-0.0453258773872643	0.345318063489918	7.54231328269903
12011.13	0.340821771259209	-0.0404337411236008	0.343211840101	6.76572055760076
10236.38	0.339403637986779	-0.0365644978862069	0.341367532117996	6.14885127705112
8750.684	0.3374432497208	-0.0328730299058978	0.339040680269092	5.56408023810029
7449.463	0.335900974208411	-0.0296599682875424	0.337207915377112	5.04611493214612
6363.206	0.335018377831009	-0.0271139838772884	0.336113792645018	4.62702437993988
5414.761	0.333520842144662	-0.0249781063163127	0.334454866820672	4.28301077946082
4620.567	0.331734625523705	-0.0233114021753238	0.332552677395224	4.01963755089965
3941.215	0.331036749825587	-0.0210677693532119	0.331706467589355	3.64149457343803
3361.769	0.328152879477863	-0.020833435664164	0.328813540401221	3.6326607101527
2867.244	0.326889675293236	-0.0174494378257334	0.327355071281554	3.05556043016308
2442.658	0.32626202709075	-0.0159151975126108	0.326649971426955	2.79269827995517
2083.003	0.321996926174726	-0.0167001608200714	0.322429706815901	2.96894811914654
1777.843	0.325165550081144	-0.0165023709772321	0.325584034018014	2.90530683205238
1513.548	0.319020079467689	-0.0172929104415528	0.319488428358697	3.10275782853698
1292.065	0.320099606020625	-0.0126011167639852	0.320347539272989	2.25435515705938
1101.762	0.320173750727488	-0.01187700581117	0.320393966737743	2.12444156067582
939.101	0.318979350408931	-0.0145435075676508	0.319310725782386	2.6105292137823
801.2801	0.316098281030542	-0.0134786980054976	0.31638552206191	2.44166136282339
684.3433	0.317135815116665	-0.0117018968770243	0.317351634027985	2.11318064817032
582.9476	0.31626810859068	-0.0132836660647375	0.316546951170984	2.40508259126665
497.0677	0.313462435344914	-0.0134906653881238	0.313752603853704	2.46435106446836
423.5089	0.311449229223175	-0.0117167332151686	0.311669543300184	2.15445366294257
361.5036	0.311431469053231	-0.0127729485823347	0.311693291766347	2.3485941092869
308.1262	0.303450461408872	-0.00824748901666248	0.303562520091557	1.55686040149451
262.7298	0.307731564278166	-0.0182914699089104	0.308274704645898	3.40164126236698
224.2111	0.301216295245384	-0.0105593961628227	0.301401322771945	2.00773063076547
191.2854	0.313400856933496	-0.0151188021178649	0.313765318835797	2.76187028578815
163.1722	0.303456328154958	-0.00570592135855256	0.303509967934892	1.07721164808971
139.1537	0.303973536295193	-0.0170628841652907	0.30445205334148	3.2128006756276
118.6706	0.29916746367967	-0.00671838098543108	0.299242891256571	1.28647073177416
101.1982	0.301006087130435	-0.00352213663880917	0.301026693062388	0.670399581433132
86.24196	0.302552783212097	-0.0178187136281715	0.303077041665563	3.37051647606208
73.61024	0.284035587192158	-0.00960747280528608	0.284198026603455	1.93728489689634
62.69291	0.273328279693933	-0.012054885005565	0.273593985191455	2.52533955697107
53.57697	0.295917173261313	-0.00092969787879435	0.295918633697022	0.180008442327431
45.65746	0.287062071295907	0.00323677636841681	0.287080318896917	-0.646012778798979
38.96512	0.292748682547597	-0.0199056724888328	0.293424652901876	3.88988323678314
33.18414	0.29292343570169	-0.00797646260287276	0.293032017259099	1.55980941526605
28.30617	0.289411666299337	-0.0235060215901776	0.290364676985953	4.64337201175055
24.17237	0.306660534789022	-0.0138327871483434	0.306972359663505	2.58273675001389
20.61345	0.298662385077586	0.000511680845237476	0.298662823393739	-0.0981614212929932
17.55618	0.283930487054574	-0.000138407775845954	0.283930520789435	0.0279300080167099
14.98558	0.294736945059563	-0.0171571559941063	0.29523589684327	3.33152841697682
12.76553	0.285290758181301	-0.000263560321697473	0.285290879923815	0.0529315771763047
10.8809	0.291485889762551	-0.0152186893402506	0.291882908776621	2.98874037322154
9.278505	0.280525167336923	-0.00414712328530136	0.280555820009053	0.846966266285212
7.923394	0.292597513724103	-0.00153861392172924	0.292601559070226	0.301285101019844
6.75822	0.287369328722583	-0.0130223971819976	0.287664238164624	2.59463421862978
5.761429	0.270732881583739	-0.0102417898824702	0.270926535117237	2.16645884762395
4.919708	0.28030489984412	-0.000171325123107144	0.280304952201919	0.0350197419370351
4.191257	0.28386524455615	-0.00390042331936245	0.283892039988784	0.787217654451175
3.564097	0.288368973233261	-0.00432078837676649	0.288401341771847	0.858429432892395
3.051758	0.286995812949843	-0.0107916530395226	0.287198635836013	2.15342864144708
2.604164	0.283093005311327	-0.00813553171409192	0.283209880711231	1.6461140479466
2.214424	0.280454975094663	-0.00683331065030291	0.280538209857038	1.39574065879915
1.892567	0.278500196452242	-0.00853806664102192	0.278631042789392	1.75598443474089
1.607507	0.264149914091732	-0.00299871637102311	0.264166934748737	0.650412521707788
1.376413	0.272597843168595	0.0145319191832384	0.272984909427825	-3.05149242981765
1.17375	0.296636296520762	0.0107402359489345	0.296830667353951	-2.07358811861119
1.001604	0.297379940117105	0.00203554008516172	0.297386906583816	-0.392178552681602
