EC-Lab ASCII FILE
freq/Hz	Re(Z)/Ohm	-Im(Z)/Ohm	|Z|/Ohm	Phase(Z)/deg
6999984	9.80991315811857	-1.22150995161514	9.88567057572337	7.09781835481449
5969734	5.91648003426431	-1.43191408778589	6.08729118333007	13.6051865130128
5091109	3.56002721278755	-1.15075453361992	3.74139409210453	17.913072828107
4341796	2.39833627950862	0.587102326069032	2.46915087649234	-13.7552556187135
3702781	1.93494715513846	0.248928765203925	1.95089364736379	-7.33077153515878
3157797	1.70483829691599	0.152471395597727	1.71164282054023	-5.1106236773421
2693047	1.55316096057639	0.0935100395633502	1.55597335997687	-3.44540664354804
2296687	1.45543336364726	0.0736818720124455	1.45729725666415	-2.89814657848663
1958656	1.41558745817226	0.08228477982808	1.4179769521138	-3.32672588473803
1670375	1.36269230331831	0.0750527722311849	1.36475757266357	-3.15248483557639
1424531	1.35898259094755	0.0690979156882726	1.36073811016337	-2.91071612659621
1214875	1.33146661644273	0.0420913007433166	1.33213176086291	-1.81067325628613
1036062	1.3253171551714	0.0384898752923089	1.32587594905844	-1.66351706801591
883578.1	1.31931150169522	0.032055258099539	1.31970086689261	-1.39183938917211
753531.2	1.30974593756612	0.0214246521791496	1.30992115667011	-0.937153260985575
642624.9	1.30207489887238	0.0251369306421253	1.30231751410922	-1.10597412940528
548046.8	1.29128634654349	0.0265050622944745	1.29155834057037	-1.17589331506069
467390.6	1.29007135097136	0.0162807648446884	1.29017407891377	-0.723037214071801
398593.7	1.28347504980954	0.0150081267187133	1.28356279447139	-0.669949236606159
339937.5	1.28222177759261	0.0175218433350278	1.28234149193053	-0.782910730705177
289906.2	1.28540752059658	0.0110276801113108	1.28545482368494	-0.491535966076152
247234.4	1.28747068331675	0.00795796021283522	1.28749527747904	-0.354145327761921
210843.7	1.28551736769889	0.00749299150620803	1.28553920499423	-0.333960425709919
179812.5	1.28171306817521	0.00749427837578474	1.28173497780917	-0.335009167658126
153343.8	1.28141259610369	0.00842156867213175	1.28144026949058	-0.376548034847316
130781.2	1.27999482776695	0.00691871078286372	1.28001352636175	-0.309695834973467
111531.3	1.2807576048031	0.00728310406114784	1.28077831253724	-0.325812335609584
95109.37	1.280448578695	0.00695355460473484	1.28046745940835	-0.31114518901203
81109.37	1.2802943293308	0.00611928888119384	1.28030895310977	-0.273848558633768
69171.88	1.28050969429034	0.0070895324063739	1.28052931971169	-0.317214416344291
59000	1.28065498004887	0.00613972344370129	1.28066969751296	-0.274685649972454
50312.5	1.28116861748855	0.00650224920109081	1.2811851176478	-0.290787826663693
42906.25	1.28227790793504	0.00711398284170538	1.28229764170809	-0.317869478991465
36593.75	1.28284436970397	0.00770112784779384	1.28286748507058	-0.343951950220307
31203.13	1.28344640892403	0.00750849870683578	1.28346837208122	-0.335191540124316
26609.38	1.28448728295885	0.00771587561026214	1.28451045726356	-0.344169846069796
22703.13	1.28601828240115	0.00735648290391575	1.28603932308103	-0.327748703774008
19359.37	1.28664662742917	0.00753418825608545	1.28666868613001	-0.33550179677038
16500	1.28759764725364	0.00778116189866334	1.28762115845213	-0.346243494921933
14112.02	1.28837908995372	0.0074822335914987	1.2884008162251	-0.332740254789408
12011.13	1.2891891602121	0.00670231374829006	1.28920658228927	-0.297870043377746
10236.38	1.2893960651627	0.00575468118572525	1.28940890690758	-0.255714100643201
8750.684	1.28988778435806	0.00609468516281157	1.28990218288961	-0.270719005860984
7449.463	1.29041981691206	0.00564225594957979	1.29043215200628	-0.250519550680986
6363.206	1.29106252306897	0.00523691786451651	1.29107314424161	-0.232406750495074
5414.761	1.29162165511083	0.00473082054203365	1.29163031886613	-0.209856220298535
4620.567	1.29235041363258	0.00457982859766019	1.29235852860044	-0.203043809410209
3941.215	1.2927036155846	0.00390482480899044	1.29270951315533	-0.173070840160869
3361.769	1.29288130381484	0.0038128098128897	1.29288692594234	-0.168969321784425
2867.244	1.2932756577393	0.00357110787094118	1.29328058816038	-0.158209804645443
2442.658	1.29347269078941	0.00321269915214058	1.29347668059917	-0.142309710168547
2083.003	1.29386770832116	0.00296812737843937	1.29387111275288	-0.131436059836775
1777.843	1.2937388931488	0.00268427141964881	1.29374167783176	-0.118878085474656
1513.548	1.29409521256609	0.00250259949932958	1.29409763240287	-0.11080190157761
1292.065	1.29415950878008	0.00235597986944669	1.29416165327483	-0.104305190434401
1101.762	1.29441104170546	0.00214014751180401	1.29441281093799	-0.094731352156663
939.101	1.29458150188184	0.00208721672655319	1.29458318446066	-0.0923762664355572
801.2801	1.29443114392576	0.00160090277222795	1.29443213389294	-0.0708611855663792
684.3433	1.29481045542259	0.0016676973666116	1.29481152940733	-0.0737961045761573
582.9476	1.29476149061592	0.00137516022245698	1.29476222089138	-0.0608535609419472
497.0677	1.29495440875583	0.00129957912724196	1.29495506086585	-0.0575003827417235
423.5089	1.29498644942907	0.0011181959542534	1.29498693219935	-0.049473794071424
361.5036	1.29504601292799	0.00109162821403613	1.29504647300892	-0.0482961022418444
308.1262	1.29526658875029	0.00100766566914454	1.29526698071206	-0.0445738189004196
262.7298	1.29534815947778	0.000940136656911573	1.29534850064352	-0.0415840735592254
224.2111	1.29540568197057	0.000760679273699833	1.29540590531099	-0.0336448323047936
191.2854	1.29507977637656	0.00068720099378857	1.29507995869938	-0.0304025386266616
163.1722	1.29526865420719	0.000724081288027745	1.2952688565952	-0.0320294923929812
139.1537	1.29547112297237	0.00056055803317502	1.29547124425076	-0.0247922218404098
118.6706	1.29526999570731	0.000672030950415993	1.29527017004377	-0.0297270328453583
101.1982	1.29520386031928	0.000517734327548256	1.29520396379675	-0.0229029508067455
86.24196	1.29539935795551	0.000363389712243675	1.29539940892515	-0.0160728011450822
73.61024	1.29541145433647	0.000472347713104575	1.29541154045288	-0.0208918402979465
62.69291	1.29524490541683	0.000328049404223658	1.29524494695971	-0.0145114223984153
53.57697	1.29503423414896	0.000305583924263399	1.29503427020266	-0.013519850179006
45.65746	1.29504298192545	0.000283999563377139	1.29504301306563	-0.0125648154781922
38.96512	1.29525569279955	0.000209931158760096	1.29525570981205	-0.00928632805614184
33.18414	1.29503660233635	0.000363272539900846	1.2950366532874	-0.016072119325306
28.30617	1.29522789118529	0.000135511923381816	1.29522789827419	-0.00599451363577673
24.17237	1.29526057908098	8.82050565813827E-05	1.29526058208429	-0.00390174575497353
20.61345	1.29507965161317	0.000225649888985817	1.29507967127137	-0.00998300462797527
17.55618	1.29521306161417	0.00015773648731805	1.29521307121908	-0.00697772067137712
14.98558	1.2950329876457	0.000144962755660052	1.29503299575909	-0.00641354631924565
12.76553	1.29497041280118	0.000111673068795147	1.2949704176163	-0.00494095884209017
10.8809	1.29513992141374	4.09603930504693E-05	1.29513992206145	-0.00181204950091003
9.278505	1.29514178934741	0.000132839714973079	1.29514179615994	-0.00587669632436397
7.923394	1.29512068254115	3.70112465593611E-05	1.29512068307	-0.00163736727424613
6.75822	1.29508426439312	8.86793669434831E-05	1.29508426742923	-0.00392326089313849
5.761429	1.29506847077718	8.98786197121102E-05	1.29506847389599	-0.00397636548638019
4.919708	1.2951310350748	0.00011758468797131	1.29513104041255	-0.00520187236283684
4.191257	1.29523583327339	7.17670488366561E-05	1.29523583526164	-0.00317467205323503
3.564097	1.29522080639164	9.49420166760046E-05	1.29522080987135	-0.00419988377071206
3.051758	1.29549896053435	6.72129994008122E-05	1.29549896227792	-0.00297261619495097
2.604164	1.29551032051865	7.40061437360578E-05	1.29551032263246	-0.00327302656130498
2.214424	1.2956393859518	-9.77373864738738E-05	1.29563938963824	0.00432214379686825
1.892567	1.29582315926212	-3.59924730833625E-05	1.29582315976198	0.00159143382076829
1.607507	1.29580547080126	0.000163941162462977	1.29580548117191	-0.00724887867750073
1.376413	1.29573805535298	9.46430011876499E-05	1.29573805880943	-0.00418498514916527
1.17375	1.29557556292147	2.80780374979207E-05	1.29557556322572	-0.0012417284575524
1.001604	1.29535070687666	-2.61583769457584E-05	1.29535070714078	0.00115703383627616
