EC-Lab ASCII FILE
freq/Hz	Re(Z)/Ohm	-Im(Z)/Ohm	|Z|/Ohm	Phase(Z)/deg
6999984	47.0853582193871	59.6123243613767	75.9648614453682	-51.6962228742231
5969734	45.4998183756654	53.88511280845	70.5254482764762	-49.8227310982367
5091109	46.0858593315478	51.33851253472	68.9894868773846	-48.0861246690849
4341796	49.3066691349251	49.2223712737973	69.6705781158483	-44.9509798282203
3702781	54.0788925476672	45.6203446634992	70.7512718359083	-40.1506019107435
3157797	58.014873176431	42.618285262004	71.9864136372338	-36.3013625810735
2693047	61.2825285448292	38.7474639724957	72.5045810218062	-32.3041798191229
2296687	64.8606749766727	36.2387717424596	74.2977505435505	-29.192841374646
1958656	67.9632765974027	32.9871879448879	75.5457578846518	-25.8904444238048
1670375	70.810679970499	29.8736585358153	76.854328909951	-22.873941953578
1424531	73.0316401453656	26.7247102115472	77.7677992373023	-20.0992563207862
1214875	74.7801402114644	23.9065607283193	78.5085537753887	-17.7286262546985
1036062	76.242668305069	21.2685108434327	79.1536103015774	-15.5868756390318
883578.1	77.4648085245843	19.0554779557476	79.7741048202516	-13.8197362889775
753531.2	78.4227193343935	17.0146091533925	80.2472418992937	-12.2411859971905
642624.9	79.212413259879	15.3636632873076	80.6885900487772	-10.976530633466
548046.8	79.8446564941703	13.926015805563	81.0500036205357	-9.89365758940257
467390.6	80.3632118984012	12.7470298230933	81.3678843029494	-9.01303864702034
398593.7	80.8111114755011	11.8131227092036	81.669979833771	-8.31670012028605
339937.5	81.2231008805572	11.1158225772043	81.9802026602829	-7.79282761946408
289906.2	81.6369713529172	10.5821078621731	82.3199617254751	-7.38572391728978
247234.4	81.9560784380621	10.2713385102451	82.5972105324256	-7.14348309108642
210843.7	82.1632044897805	10.2624986784567	82.8016367661583	-7.11959075102946
179812.5	82.5133533655182	10.4640675289	83.1742159137809	-7.2274787038526
153343.8	82.826331406902	10.6801846456487	83.5120800746282	-7.34755919855612
130781.2	83.1340907107031	11.2598736550039	83.8931570095086	-7.71333545496763
111531.3	83.5518989071622	12.03177407341	84.4137630860408	-8.19446530427284
95109.37	83.8612390659533	12.8745147556885	84.8437419487814	-8.72799787352071
81109.37	84.4405252007094	14.1199530148766	85.6129392633728	-9.49303976946914
69171.88	84.873776251947	15.5599664697874	86.2882984639659	-10.3887103131295
59000	85.4657913068324	17.303073002809	87.1997581363823	-11.4451814619932
50312.5	86.1331139648146	19.3057195444633	88.2701768912083	-12.6333756079576
42906.25	86.7896824848667	21.6555820344867	89.4506188859326	-14.0102447558585
36593.75	87.5527588831881	24.3705458984708	90.8812912289826	-15.5546868701013
31203.13	88.4697816819585	27.6093883849039	92.6778322892906	-17.3319446548176
26609.38	89.4106968316439	31.209461359125	94.7011255806754	-19.2419166536201
22703.13	90.5420757367809	35.4228133773749	97.224704608928	-21.3669483608249
19359.37	91.7887798812468	40.2779381109811	100.23718077919	-23.6924007047665
16500	93.2076615646832	45.8604326416759	103.879003924942	-26.1983061062845
14112.02	94.783901654606	52.1330334540836	108.175048832874	-28.8116697422793
12011.13	96.614563931149	59.5706400226115	113.503458609461	-31.6571672289714
10236.38	98.6959524736004	68.0660527453404	119.891111309399	-34.5922409373542
8750.684	100.970232543162	77.5914390916817	127.339778860097	-37.5407848835005
7449.463	103.674059559133	88.869365658004	136.550630822148	-40.6031698139614
6363.206	106.63171369385	101.441608757899	147.175821223046	-43.5711312997847
5414.761	110.182174533775	116.320363356559	160.220281226794	-46.5523281106756
4620.567	114.25392632859	133.034585994463	175.362940076337	-49.343068020887
3941.215	118.827218292096	152.32837897548	193.193796091734	-52.0431774670646
3361.769	124.20009000183	174.295529996484	214.02007880855	-54.5269609681126
2867.244	130.408498800441	199.737305344738	238.540075680716	-56.8594778816682
2442.658	137.486988790362	229.02461821566	267.123469271178	-59.0229607865042
2083.003	145.673100633054	261.832869693256	299.628276202119	-60.9102264678856
1777.843	155.23846551034	299.959389214154	337.749339528197	-62.6370066708509
1513.548	166.574056589222	343.548284136013	381.801440360547	-64.1329421781579
1292.065	179.64087742697	392.838392396762	431.963942226205	-65.4258787386502
1101.762	194.297589666919	449.701684145841	489.880759036298	-66.6328143340933
939.101	212.01877846231	514.873085188936	556.817974092633	-67.6187028121749
801.2801	232.048212545628	588.668246168508	632.753251269978	-68.4860463224439
684.3433	255.067864040284	672.200083327324	718.966318607022	-69.2206355115811
582.9476	281.988681612762	769.206321907086	819.265513871743	-69.8672183833863
497.0677	313.96836337925	878.275630787809	932.708001916338	-70.3289077747027
423.5089	351.093596835996	1004.14369248733	1063.75338725727	-70.7280874705703
361.5036	393.228369128328	1144.85217460739	1210.50198347239	-71.0436726241284
308.1262	443.200128678377	1307.36438330638	1380.44485032855	-71.2731995168578
262.7298	500.944172699091	1490.90184160084	1572.81065785108	-71.4276116426455
224.2111	567.448511975374	1698.4790732532	1790.76212156225	-71.52593120029
191.2854	644.75519703737	1933.96406595253	2038.60890621579	-71.5623713160603
163.1722	736.079810203686	2199.84913900591	2319.73052774984	-71.4995178459345
139.1537	840.535782461444	2501.99488792203	2639.40880137694	-71.4304191358417
118.6706	962.038350263019	2842.93359489793	3001.29792129606	-71.3043684209129
101.1982	1103.43822908816	3228.83005483379	3412.17224776405	-71.1323664908146
86.24196	1266.75607547994	3666.07452134084	3878.75925403856	-70.9381910940448
73.61024	1452.69090394308	4154.5488518195	4401.202906542	-70.7271707380981
62.69291	1669.75154157527	4713.50832340658	5000.52306518189	-70.4934039576847
53.57697	1915.94390115352	5323.75775154207	5658.02418070758	-70.2069250601193
45.65746	2202.1825417362	6025.49093624807	6415.3058360405	-69.9237693177657
38.96512	2526.83682181755	6807.53848155247	7261.36932691836	-69.6359726172714
33.18414	2903.57866251174	7694.26114927442	8223.89346250468	-69.325028421854
28.30617	3330.65535900983	8679.91785323065	9297.00161661452	-69.0072087328949
24.17237	3819.06888386999	9769.41080712827	10489.3600690499	-68.648422561584
20.61345	4372.47454270123	11012.3502600422	11848.645149401	-68.344353859708
17.55618	5012.53742073375	12407.3623991981	13381.6356660646	-68.0014386193222
14.98558	5740.6036424057	13945.3759623947	15080.7175197912	-67.6255210099369
12.76553	6569.8607602612	15687.3539480876	17007.5319873814	-67.2760740506866
10.8809	7510.90469219428	17621.6042702818	19155.537746397	-66.9147095692976
9.278505	8576.53716485134	19783.0339447077	21562.1293428439	-66.5618248632765
7.923394	9768.65472130323	22184.6682336259	24240.1757357509	-66.2344940749183
6.75822	11122.7245205074	24855.427217541	27230.6309681869	-65.891636130312
5.761429	12672.0010653665	27867.7613741951	30613.5874246997	-65.547804157454
4.919708	14449.2020273966	31201.3682283559	34384.659639874	-65.151374659003
4.191257	16410.0756993569	34815.6612960244	38489.2303890077	-64.7635395274789
3.564097	18678.7499164558	39043.7530408656	43281.7553936713	-64.4332866543655
3.051758	21159.6910671513	43406.077963383	48288.9234734071	-64.0115897171492
2.604164	23951.6105868116	48503.3342551653	54094.852653192	-63.719209354294
2.214424	27184.3292443237	54125.1848581036	60568.3365496171	-63.3319471805651
1.892567	30771.4791298963	60266.7138045352	67668.0184477084	-62.9516750919367
1.607507	34805.4393776659	67307.3484609186	75773.9913632105	-62.6559715738697
1.376413	39236.7777605872	74592.693972923	84282.8257901445	-62.2550157088372
1.17375	44284.4758983127	82950.2686448904	94031.1750104598	-61.9036779888629
1.001604	49849.5757618517	92084.1631861728	104711.381011494	-61.5711905803485
