EC-Lab ASCII FILE
freq/Hz	Re(Z)/Ohm	-Im(Z)/Ohm	|Z|/Ohm	Phase(Z)/deg
6999984	16.7481838151625	-2.06021734208796	16.8744231487512	7.01280287717298
5969734	16.0252251196993	1.90974512272141	16.138617244696	-6.79595554044982
5091109	12.4497901883659	-5.38344768799501	13.563877938986	23.3842697321231
4341796	9.17489350741516	-6.33313518805819	11.1484201653252	34.6160759816316
3702781	5.17842688434429	-5.46895458815599	7.53163788852147	46.5630023143989
3157797	4.18499470443918	-4.62194193231736	6.23510448203536	47.8403429637076
2693047	3.15596723220268	-3.89612123383159	5.01396946933768	50.9915592707256
2296687	2.33444846873429	-3.74884125005453	4.41627222567702	58.0889822846614
1958656	1.73775416774696	-3.21221351317196	3.65213707323896	61.5873479901712
1670375	1.3724697887181	-2.80930321645953	3.12663683259725	63.962429938327
1424531	1.14948878139881	-2.41446684249084	2.67413062359515	64.5416329734248
1214875	1.14445181016305	-2.57089385869253	2.81411889913139	66.003420196142
1036062	0.806530097753655	-1.80778620138911	1.97954079233427	65.9563230653823
883578.1	0.702854476808775	-1.55304898103872	1.7046892834401	65.6501917154439
753531.2	0.641052866130309	-1.35282290164086	1.49702323975878	64.6454529259025
642624.9	0.594381154512151	-1.18736766207897	1.32782940236692	63.4080359757584
548046.8	0.542648219793887	-1.01373920881726	1.14984097767427	61.8401369693829
467390.6	0.50388845709892	-0.881168080005207	1.01506687583508	60.2372875375045
398593.7	0.472800134846647	-0.763621258359424	0.898141076740975	58.2360605506715
339937.5	0.447476429745125	-0.662777731463602	0.799693364047422	55.9746247811799
289906.2	0.427423957427014	-0.574236380405928	0.715848210142535	53.3384173178932
247234.4	0.407472636879004	-0.498040183749008	0.643488907778429	50.7116120920247
210843.7	0.392624826048538	-0.428587004009291	0.581240977594753	47.5074716734705
179812.5	0.382031272339297	-0.369777091732344	0.531679405859596	44.0661840235116
153343.8	0.374176798115668	-0.321419509295858	0.493273531830042	40.6627230471873
130781.2	0.367555456910629	-0.278811919420373	0.461338379408926	37.1824055122241
111531.3	0.360916322677684	-0.242944663193787	0.435066318334947	33.9457955754199
95109.37	0.354065006800381	-0.211695923235788	0.412525384619185	30.8752574555343
81109.37	0.34788677023882	-0.184420995310383	0.393746502738081	27.9288621011197
69171.88	0.34135994892534	-0.160156578718429	0.377063316217718	25.1346615258257
59000	0.332599365276924	-0.135443720095028	0.359120229304607	22.1575212561244
50312.5	0.326225056225563	-0.105900200529138	0.342983439514917	17.9846295271409
42906.25	0.355890160217381	-0.105431923172009	0.371178793256433	16.5018434012321
36593.75	0.34008017463161	-0.0959528199662784	0.35335742363356	15.7562877998961
31203.13	0.334429663714486	-0.0839847492595007	0.344813918049091	14.0970707801326
26609.38	0.329608215810778	-0.0719695967274186	0.337373974667685	12.3171544712469
22703.13	0.330196498087455	-0.0641733769192983	0.336374716134321	10.9982743817912
19359.37	0.327371166508773	-0.0574082978223038	0.332366654946264	9.94634105866484
16500	0.325480795074057	-0.0512734592524156	0.329494636657032	8.95231657989238
14112.02	0.323284695629579	-0.0456931116929025	0.326497863522091	8.04490613100984
12011.13	0.321641745030277	-0.0409439922748353	0.32423729373643	7.25455668925048
10236.38	0.319923605016432	-0.0367024227514732	0.322022019251073	6.54450155290075
8750.684	0.31833773076364	-0.0332861861294147	0.320073243203467	5.96929776321302
7449.463	0.316971790415719	-0.0303055880563549	0.318417249197947	5.46143313022921
6363.206	0.315488241497583	-0.0280703445623755	0.316734549373901	5.08446299737422
5414.761	0.314146366763047	-0.0257576432278143	0.315200564617315	4.68733850111771
4620.567	0.313032455175298	-0.0237303393187041	0.313930640424372	4.33518202445425
3941.215	0.311984956118896	-0.0222234790708153	0.312775471970743	4.07444153696171
3361.769	0.310625832879179	-0.0213132941236317	0.311356169937717	3.92514305949549
2867.244	0.309454974841914	-0.0207644141178955	0.310150838057983	3.83878972540235
2442.658	0.307487018214275	-0.0174762492944417	0.307983255485923	3.25294782833242
2083.003	0.305879259560126	-0.020597295512693	0.306571965468939	3.85236710627356
1777.843	0.307175748473815	-0.0181388391101684	0.307710834932267	3.37941221878928
1513.548	0.302697351888484	-0.0136181257550541	0.303003531645064	2.5759569404241
1292.065	0.300785742349501	-0.0129817436939208	0.30106575439607	2.47131995013054
1101.762	0.302838239442719	-0.0134265075065109	0.303135729290672	2.53857889274315
939.101	0.299576350509472	-0.0153930833138664	0.299971559982745	2.94143296695097
801.2801	0.300420618841272	-0.0113575323952186	0.300635230415667	2.16506083060383
684.3433	0.298118138476641	-0.0148320569701891	0.298486874757911	2.84824711115089
582.9476	0.297777165202729	-0.0115234105217812	0.298000048835948	2.21613199663061
497.0677	0.29500213659901	-0.0123033608232902	0.295258587149517	2.38819408729737
423.5089	0.295687609654136	-0.0118466668856814	0.2959248317044	2.29431724439637
361.5036	0.292944326551917	-0.0129065863248126	0.293228508896246	2.52271483731157
308.1262	0.292434824357903	-0.00385987544281504	0.292460296682596	0.7562086056209
262.7298	0.284487927708845	-0.0119642301050508	0.284739396315437	2.40817312561358
224.2111	0.298183096316848	-0.013793118208178	0.29850194143256	2.64845500911539
191.2854	0.288976387689999	-0.0175584447802422	0.289509329081916	3.47706428060241
163.1722	0.294319370070688	-0.0101931824374272	0.294495827758237	1.98353576899268
139.1537	0.288996590902527	-0.017205809290159	0.289508323587789	3.40716113776527
118.6706	0.29005320440021	-0.00723513109550021	0.290143427471309	1.42889829936117
101.1982	0.286098598208495	-0.00820008496166833	0.286216088454588	1.64174753658991
86.24196	0.284867722992605	-0.0116669331077452	0.28510653610735	2.34527324590633
73.61024	0.291862195398316	-0.00130722740955174	0.291865122867096	0.256621493903349
62.69291	0.219993297068169	-0.0113799177723995	0.220287433330706	2.96118396806472
53.57697	0.276830171027996	-0.0249931495340435	0.277956113649296	5.15886729664991
45.65746	0.29799225114364	-0.0198412489310853	0.298652066627371	3.80930818205389
38.96512	0.271994958615339	-0.00172966645623248	0.272000458194853	0.364349591501642
33.18414	0.285471633893449	-0.00967225172036506	0.285635442848288	1.94053356759473
28.30617	0.275004999797442	0.00444690761967599	0.275040951316288	-0.926408010495691
24.17237	0.265213432030919	-0.0052812166667909	0.265266009468044	1.14078475320625
20.61345	0.266704300227218	-0.0282425668236301	0.268195500224141	6.04479068229945
17.55618	0.269030772922082	-0.026247383151213	0.270308124001739	5.57229874471364
14.98558	0.278669602132852	-0.00912885406326521	0.278819086737961	1.87626431875711
12.76553	0.26843392438572	-0.00394110252828176	0.2684628541349	0.841146733960069
10.8809	0.272478497485593	-0.0128543230500448	0.272781533856457	2.70095742371441
9.278505	0.268091592144912	-0.00452984113974903	0.268129858910837	0.968012767831321
7.923394	0.275136275911588	-0.0107871304690811	0.275347657528178	2.24521705318483
6.75822	0.263915251934769	-0.0100661710569216	0.264107152503562	2.18429846153314
5.761429	0.275616790514587	-0.00112403158776516	0.27561908254069	0.233664679334284
4.919708	0.271634610384659	-0.00527417424369033	0.271685808375739	1.11233969050919
4.191257	0.269702915959374	-0.00728089053166811	0.269801175393888	1.54637928454818
3.564097	0.263073183795312	-0.00947355585884853	0.263243705134259	2.06239309625213
3.051758	0.259439765638121	0.00142832062516046	0.2594436973491	-0.315433205150789
2.604164	0.259814465808376	0.0102143968297437	0.260015173683936	-2.25137806835588
2.214424	0.280621991432829	0.0054272828606857	0.280674468869145	-1.10797317915249
1.892567	0.269725553400212	-0.0167906678171381	0.270247665452999	3.56211929233178
1.607507	0.253365378840496	-0.0121627909469282	0.253657147895751	2.74837082717707
1.376413	0.25461492473159	0.00283094065640133	0.254630662177738	-0.63701791437322
1.17375	0.257509823334716	0.00787799002543065	0.257630300703775	-1.75230146203379
1.001604	0.280646614956509	0.0107480179712392	0.280852349779839	-2.19320394454286
