EC-Lab ASCII FILE
freq/Hz	Re(Z)/Ohm	-Im(Z)/Ohm	|Z|/Ohm	Phase(Z)/deg
6999984	26.312861816717	-15.5647732377037	30.5717003604114	30.605468818541
5969734	11.6680164254045	-17.5943946041029	21.11173438608	56.4489879989246
5091109	7.24976240237416	-12.0576198672409	14.0693017507537	58.9831975155221
4341796	4.76634387964716	-10.4031119293771	11.4430228433836	65.3843965942827
3702781	4.35804191525392	-7.41782976327805	8.60329749178091	59.5653799311545
3157797	4.3259253863638	-4.88782476355455	6.52720930931465	48.4898536498459
2693047	3.18635590814587	-4.23748903996874	5.30180887407602	53.0588712096489
2296687	2.40322595752183	-3.82487658830665	4.51720886374352	57.8582521805623
1958656	1.76508405351302	-3.24626896546003	3.69510269303505	61.4658809376035
1670375	1.47855653733935	-2.75789044535737	3.12923139807563	61.8034103747151
1424531	1.2082538310718	-2.47974959057344	2.75844799701732	64.0224186194772
1214875	0.781552233533436	-2.12394889846205	2.26317980218524	69.7978331943959
1036062	0.8221849480515	-1.83217982805888	2.00820093893721	65.8319912238389
883578.1	0.706227986756159	-1.57380338725108	1.72499712202677	65.832334998516
753531.2	0.674323498174625	-1.35253425255189	1.5113110482348	63.5008551385696
642624.9	0.59755431758556	-1.16433039552454	1.3087155658918	62.832327983211
548046.8	0.573038685248518	-1.01484189738271	1.16545159121891	60.5484036202605
467390.6	0.530988264376958	-0.894381410453881	1.04012818646142	59.3026787820871
398593.7	0.500030565568056	-0.762799368497111	0.912081927834282	56.7543401262616
339937.5	0.473173895483235	-0.675199032230628	0.824492127610662	54.9775464373594
289906.2	0.437623577491004	-0.5793864977624	0.726087535608072	52.9354331822659
247234.4	0.420026250852914	-0.500027187723374	0.653030810810716	49.9695114261933
210843.7	0.411969905543715	-0.441587451826269	0.603919432278938	46.987306209583
179812.5	0.405108586383677	-0.377824041336664	0.553953042210033	43.0040978882556
153343.8	0.388713957129705	-0.317567713777773	0.501944014110614	39.2477980425338
130781.2	0.389140807313771	-0.275257970062797	0.476652407945145	35.2736023473238
111531.3	0.386113805161275	-0.249338286714028	0.459623162773163	32.8529072290976
95109.37	0.366198480320803	-0.207459593723628	0.420880992701308	29.5325194034893
81109.37	0.359970914246872	-0.194934265732602	0.409363441284683	28.4367777273473
69171.88	0.359236289911588	-0.171321583941719	0.397997232545331	25.4967078269909
59000	0.349680711904852	-0.130724798223805	0.373316987490442	20.4977771151894
50312.5	0.347755857171335	-0.102348415268606	0.362504254188782	16.3997423221398
42906.25	0.371453247598487	-0.11833765114978	0.389847809832388	17.6708491906375
36593.75	0.350934136970984	-0.0897608412886481	0.362231662227938	14.3473387450458
31203.13	0.357521736895288	-0.0934069641488779	0.369522195955985	14.6419421841461
26609.38	0.343940253716031	-0.0651760640478942	0.350061162443113	10.7302160773392
22703.13	0.354088817805811	-0.0700783658551565	0.360956878665647	11.1948447421447
19359.37	0.350893979786196	-0.0560318898993417	0.355339496447957	9.07258042109034
16500	0.348541208382456	-0.050700505484111	0.352209476302167	8.27647275348991
14112.02	0.338999089332311	-0.0562842786410775	0.343639786099169	9.42686887370948
12011.13	0.326448001563075	-0.0412382464753297	0.329042384347193	7.19970170994466
10236.38	0.340348733576749	-0.0356338174237579	0.342209043409853	5.97697539766777
8750.684	0.329249862590137	-0.0273505278451987	0.330383903041651	4.74861289956018
7449.463	0.3291640581649	-0.0236539607656494	0.330012858912329	4.110249680284
6363.206	0.328317733597303	-0.0206092639300224	0.328963943243339	3.5918758554219
5414.761	0.320240915440894	-0.0310922318612891	0.321746749485582	5.54547343370341
4620.567	0.324360203869626	-0.0160970566811848	0.32475938337197	2.8410925871631
3941.215	0.31760065205914	-0.0273391891139038	0.318775164418116	4.9199152481906
3361.769	0.319789872749723	-0.0158773548119646	0.320183780209287	2.8423634075527
2867.244	0.32568065616785	-0.0148708697312285	0.32601998798921	2.61436058255834
2442.658	0.316707579267276	-0.0171131283010111	0.317169591741681	3.09293962375962
2083.003	0.322246562414979	-0.0210125128197153	0.32293091007717	3.73076540862397
1777.843	0.314989076783494	-0.0187785108836402	0.315548333799951	3.41172933026584
1513.548	0.312375402406557	-0.0193575415452261	0.312974609902039	3.54601860533081
1292.065	0.315903107997353	-0.015352472950352	0.316275942917065	2.78230998217165
1101.762	0.314847045743517	-0.0124813608652956	0.315094345526018	2.27016592741601
939.101	0.313728322558935	-0.0150581586144945	0.314089491254487	2.74794225474632
801.2801	0.311441482486992	-0.0130896242967773	0.31171643408381	2.4066771328105
684.3433	0.309963702509975	-0.0133565655602488	0.310251341201384	2.46739117852933
582.9476	0.309463940412088	-0.0130069159758722	0.309737163218396	2.40675219028166
497.0677	0.30852423458822	-0.0129606294496523	0.30879634266613	2.40549340200576
423.5089	0.307371947130755	-0.0122241969821377	0.307614929538229	2.27745566944346
361.5036	0.305930763050724	-0.0122300642405132	0.306175123503078	2.28927005917906
308.1262	0.304181239783285	-0.0125381653572075	0.304439537883339	2.36036094352551
262.7298	0.303917506477444	-0.0112003236956405	0.304123820169277	2.11057598203366
224.2111	0.302614352985336	-0.0118046343932981	0.302844508000216	2.23390915814013
191.2854	0.302889378871453	-0.0117530794516236	0.303117321691999	2.22214518869051
163.1722	0.300201852946201	-0.0125685047960897	0.300464839582174	2.39739349765599
139.1537	0.299408384875696	-0.011167205364544	0.299616567314838	2.13600327602377
118.6706	0.297936169651609	-0.0106463103293842	0.298126324081423	2.04650956025551
101.1982	0.298844456479015	-0.00969309085106422	0.299001614006488	1.85775090648084
86.24196	0.29620128673376	-0.0114429167363033	0.296422237030505	2.21236365321203
73.61024	0.277926767589573	-0.00820497409876185	0.278047855130641	1.69099898865936
62.69291	0.24711906525058	0.00130324834460266	0.247122501740672	-0.302161783742174
53.57697	0.293443069331762	0.00139947670130535	0.293446406476349	-0.27325061987877
45.65746	0.273703678436094	-0.00126054353954631	0.273706581140213	0.263874108265674
38.96512	0.286890854933495	-0.0115667605769884	0.28712393246596	2.30877984506106
33.18414	0.280870300929561	-0.00919887104953001	0.28102089810697	1.87584147590431
28.30617	0.294184913470029	-0.0232450850869483	0.295101842241061	4.51785185574006
24.17237	0.282424362436101	-0.00919408299245834	0.282573975552439	1.86455649917141
20.61345	0.276368954651026	-0.00242881141631544	0.27637962699844	0.503519149178195
17.55618	0.280079589973147	0.00170006365829517	0.280084749559786	-0.34777713105216
14.98558	0.284625250260621	-0.00866319681277689	0.284757061483887	1.74338509282596
12.76553	0.284684411166838	-0.0068330999355869	0.284766404647984	1.37497036576787
10.8809	0.284754748236164	-0.00688566351118759	0.284837987292831	1.38520110015772
9.278505	0.278694505439684	-0.00823741886645704	0.278816216228274	1.69300777868908
7.923394	0.28032169043557	-0.007016251395816	0.280409482564882	1.43377302428214
6.75822	0.272908661561221	-0.00750089669845037	0.273011723203268	1.57437858608063
5.761429	0.286379512067156	-0.0117101949127662	0.286618829801388	2.34154730136459
4.919708	0.280490591471555	-0.0124556179445489	0.280767010744574	2.54263715280606
4.191257	0.282213811505511	-0.00306115779705212	0.282230413122907	0.621459818404238
3.564097	0.276850469653539	-0.0043615280874581	0.276884823481972	0.902568382555888
3.051758	0.289160419125083	-0.00127772348395999	0.289163242072527	0.253173262004913
2.604164	0.275032740651845	-0.000697159709782147	0.275033624239157	0.145234430529572
2.214424	0.277562910613733	-0.00692755404418715	0.277649347835363	1.42971992083939
1.892567	0.278037281828776	-0.00528095771157508	0.278087429778992	1.08812821296034
1.607507	0.271410665429032	-0.00192540707395084	0.271417494832279	0.406453624259948
1.376413	0.269931807814708	-0.0130515637132355	0.270247153889689	2.768171675619
1.17375	0.283734917335875	0.0034636106709086	0.28375605705337	-0.699386662204391
1.001604	0.271764937269944	0.00389937151565323	0.271792910554255	-0.822042029239227
