EC-Lab ASCII FILE
freq/Hz	Re(Z)/Ohm	-Im(Z)/Ohm	|Z|/Ohm	Phase(Z)/deg
6999984	14.9055931282533	1.29844659610929	14.9620409726741	-4.97854601936634
5969734	15.1091738894461	-2.73823120029957	15.3552937362922	10.2722050750675
5091109	11.5308320054793	-4.54248996033033	12.3933168190879	21.5016106314145
4341796	9.15461502146637	-4.5835491245651	10.2379636045729	26.5962940499383
3702781	6.40025917913389	-5.07495569148345	8.16813888414049	38.4119442926851
3157797	4.19827058180935	-5.13365748770456	6.63173545002746	50.72393068462
2693047	3.21309652668755	-4.21336314808958	5.29871855333824	52.6709787823453
2296687	2.80939389920909	-3.65731845978323	4.61179708976712	52.4700883202166
1958656	1.81615333833815	-3.2945786086781	3.76200228031778	61.1340237826637
1670375	1.3821815690654	-2.67352826488354	3.0096809254463	62.661586560262
1424531	1.12713845366328	-2.41464029197235	2.66475680566591	64.9771381935037
1214875	1.43821761052589	-2.0596747566775	2.51211663712522	55.0743992230483
1036062	0.769556059251471	-1.81929710019453	1.97536286972973	67.0718145967225
883578.1	0.701239149951225	-1.55075520617719	1.70193362235722	65.6678961113134
753531.2	0.648590189580646	-1.35658301820303	1.50365777998091	64.4472668245667
642624.9	0.604971330188325	-1.19051039203946	1.33540454690845	63.0620840590584
548046.8	0.548687792864424	-1.01403792839425	1.15296626761608	61.5825351446921
467390.6	0.516196582042516	-0.877296771497186	1.01789416767745	59.5276793082349
398593.7	0.48363268615433	-0.760489250412166	0.901246068013231	57.5457037033184
339937.5	0.456249130853343	-0.660965398900748	0.803142906305258	55.3835787084568
289906.2	0.434902620376683	-0.572083666547982	0.718623692026284	52.7576100009691
247234.4	0.417114215856987	-0.495479126871484	0.647675716879456	49.9079814885742
210843.7	0.403509921431817	-0.427575860476565	0.58791272579881	46.6586633478739
179812.5	0.39260481390931	-0.368076985723068	0.538162807451187	43.1531643178147
153343.8	0.384555517716419	-0.319348722334317	0.499866534849757	39.7074591632554
130781.2	0.37809520296431	-0.276860101308132	0.468622980871587	36.2134422074107
111531.3	0.371704363333166	-0.241475183672883	0.443254326601294	33.0094908649289
95109.37	0.365142780871706	-0.210511751228579	0.421478881829263	29.9642660204322
81109.37	0.360476346370935	-0.183744029576531	0.404604825351798	27.0091044117521
69171.88	0.352239219314638	-0.159005169119552	0.38646489029422	24.2950090657953
59000	0.343479816874867	-0.134531737908055	0.368886395933699	21.3889327514241
50312.5	0.337408559299627	-0.104704665631933	0.353281195216706	17.2401682751936
42906.25	0.366777711370008	-0.104617289314477	0.381406170350363	15.9199245461854
36593.75	0.351460822544407	-0.095132086836598	0.364108258254983	15.1456809480472
31203.13	0.345581746663003	-0.0841233396202467	0.355673276892593	13.6811549870692
26609.38	0.341173498424747	-0.0713006538505063	0.348544314638599	11.8041509797986
22703.13	0.341117015538451	-0.0633345199535207	0.346946796652748	10.5182216931408
19359.37	0.338660858209845	-0.0566476113408601	0.343365881755969	9.49592174717865
16500	0.336567442762322	-0.0502405456156334	0.340296570584139	8.49004277162493
14112.02	0.334503421107527	-0.0449969951474479	0.337516323019997	7.66136818294927
12011.13	0.332589130806557	-0.0399534671525991	0.334980312060537	6.85003702673222
10236.38	0.330881349656502	-0.0360396255059399	0.332838282289037	6.21615662924513
8750.684	0.329433564934223	-0.032564927214643	0.33103919434074	5.64542019148603
7449.463	0.327908063460697	-0.0297615850366649	0.329255903555941	5.18606904093154
6363.206	0.326146666466662	-0.0272899503279928	0.327286402767087	4.7830172962844
5414.761	0.324837249270013	-0.0252107373305588	0.325814087771015	4.43785033176374
4620.567	0.323724960327288	-0.0236223504064325	0.324585682644242	4.17350078311967
3941.215	0.321467423125418	-0.0214171305246673	0.322180070163887	3.81158511633174
3361.769	0.319833151875643	-0.0196671064966118	0.320437263932673	3.51878821315942
2867.244	0.318434169527542	-0.0211851724317224	0.319138107805472	3.80623369052522
2442.658	0.317493281785336	-0.0212590747700072	0.318204230391268	3.83075743007241
2083.003	0.318809152583152	-0.0160933558675392	0.319215087165169	2.88981462622984
1777.843	0.317118852352495	-0.0168570719746308	0.317566571592354	3.04280524372788
1513.548	0.311834718479352	-0.0187445633720121	0.31239758370561	3.43994291801368
1292.065	0.308488729745637	-0.0146486126597029	0.308836329198704	2.71865265225923
1101.762	0.307804173964216	-0.0139481829060039	0.308120043678065	2.59459010087955
939.101	0.311213344348509	-0.0132468172714433	0.311495142608046	2.43732751006102
801.2801	0.306939757254484	-0.0122901866375899	0.307185714627208	2.29295761554852
684.3433	0.306578978749655	-0.0112737987116865	0.306786193868911	2.10598315234789
582.9476	0.305148874586572	-0.013799631680482	0.305460742970301	2.5893011274727
497.0677	0.305228562505587	-0.0106722611881956	0.305415082352028	2.00252072553434
423.5089	0.305138743471488	-0.0107325240042065	0.305327430537872	2.01441131865669
361.5036	0.301032611059873	-0.0125607150061201	0.301294547715337	2.38930505246213
308.1262	0.30241306010192	-0.0110313439188126	0.302614192444542	2.08909407542082
262.7298	0.29939258490079	-0.0102736713431413	0.299568803810483	1.96533633758815
224.2111	0.298571180133631	-0.0135934946130981	0.29888046557476	2.60679009121127
191.2854	0.298129111642495	-0.0104730699730448	0.298313010784652	2.01193384915055
163.1722	0.295731873609849	-0.0125192295301608	0.295996743524013	2.42405723456799
139.1537	0.296632286058613	-0.0114322690776447	0.296852505309661	2.20709874403258
118.6706	0.292085854611594	-0.0101421044211974	0.292261883840976	1.98868379478194
101.1982	0.292492382790558	-0.0125637670878312	0.292762091524732	2.4595806178661
86.24196	0.291317777151106	-0.0101355596586913	0.291494042570095	1.99263720356834
73.61024	0.284641020247415	-0.024745766569463	0.285714653755455	4.96861666077672
62.69291	0.239188538087302	-0.0163105926895748	0.239744013869431	3.90103815209654
53.57697	0.285412804262031	-0.0050780237942608	0.285457974424208	1.01929077162214
45.65746	0.278954473949682	-0.0248655550490868	0.2800605191105	5.09379132323675
38.96512	0.28631510953101	0.000324049288810316	0.286315292909225	-0.0648469048866705
33.18414	0.29391463954697	-0.0109914254290186	0.294120089033352	2.14167269340659
28.30617	0.28615146616239	-0.00800821858892775	0.286263503003532	1.60305798851591
24.17237	0.279361293954485	-0.00550959876677916	0.279415619174188	1.12984813481279
20.61345	0.28082866509177	-0.0168169604681468	0.281331742426291	3.42697058057412
17.55618	0.280610322059013	-0.014726685707312	0.280996491291235	3.00417872101134
14.98558	0.285589530392827	-0.0126939767924197	0.285871504205652	2.54502638681176
12.76553	0.274460914085031	-0.0133791178568632	0.274786815831871	2.79078230908825
10.8809	0.278502126496309	-0.00351630959506921	0.278524323706448	0.723366091846206
9.278505	0.277531245547984	-0.0132634303253978	0.277847999523862	2.73612729205292
7.923394	0.280306519435795	-0.00396557586062441	0.280334569095779	0.810525577557097
6.75822	0.272417033647246	-0.00888100563551495	0.272561759024011	1.86722533658113
5.761429	0.275192172805766	-0.0124472853825492	0.275473532098736	2.58979444413431
4.919708	0.276407733618263	-0.00493907767249503	0.276451857820199	1.02369853594009
4.191257	0.269303382722092	-0.0043001682507414	0.269337712533069	0.914806761059882
3.564097	0.273065280611491	-0.00661094551446769	0.27314529480851	1.38686726142596
3.051758	0.271555682584749	-0.0153654488957503	0.271990047177901	3.23851674034646
2.604164	0.274266367256223	-0.00620370127884689	0.274336519839198	1.29576697200016
2.214424	0.295943142185495	-0.00850376178178977	0.296065292412106	1.64590950201374
1.892567	0.288427919116578	-0.010814557541751	0.288630592939735	2.14728997163005
1.607507	0.283085054594971	-0.0168685111785786	0.283587190832766	3.41011645407255
1.376413	0.281985901201457	-0.0145793041667194	0.282362541046761	2.95968511047266
1.17375	0.271761156181695	-0.0163871094492301	0.272254776570242	3.45073858878953
1.001604	0.277915586460545	-0.00765456828088663	0.278020980527146	1.57768627143192
