EC-Lab ASCII FILE
freq/Hz	Re(Z)/Ohm	-Im(Z)/Ohm	|Z|/Ohm	Phase(Z)/deg
6999984	21.2330699187567	88.8424373035975	91.3445232305608	-76.5586205853806
5969734	16.4771500801366	87.9702245880974	89.5000384851517	-79.3912093329484
5091109	12.033854510944	92.8219945219184	93.5988051281512	-82.6131229023075
4341796	9.40616197108831	101.76280074783	102.19659240439	-84.7190292783109
3702781	10.4674433600575	113.855709271421	114.335864470403	-84.7472188018313
3157797	11.2036215202565	127.524997379289	128.016194646446	-84.9792094130798
2693047	11.5223997737388	144.141802974508	144.601608086798	-85.4296115358321
2296687	11.6000906178031	165.51046862089	165.91647695587	-85.9908809919423
1958656	13.2256250982775	190.680226384696	191.138342289973	-86.0323058405302
1670375	15.3624597229824	220.953443990061	221.486860964277	-86.0227374453515
1424531	18.6707139583156	256.219845999766	256.899211839696	-85.8322289784705
1214875	22.8588273231241	297.244690132936	298.122343675903	-85.6024729026231
1036062	27.2508968344261	345.202816009364	346.276761505989	-85.4863343575501
883578.1	34.0164999591847	401.096425075695	402.536289641041	-85.1524145545478
753531.2	42.2014430719719	466.05888081408	467.965642096756	-84.8260004986618
642624.9	106.051557487766	610.13435050162	619.282535283867	-80.1395495091687
548046.8	131.026163930353	698.870345500574	711.046844767906	-79.3812971630926
467390.6	158.741097216668	798.931431817758	814.549058493056	-78.7621589696742
398593.7	191.508402488065	913.497363303624	933.355720497926	-78.1598084396532
339937.5	229.036462534693	1044.10447576162	1068.93023976116	-77.6274733521971
289906.2	272.273711003967	1195.14636109597	1225.76824813861	-77.1661277355578
247234.4	323.685273505443	1367.86423267752	1405.64032217447	-76.6866766525923
210843.7	382.573614691612	1564.25180431251	1610.35594759455	-76.2567864189057
179812.5	458.607668266023	1795.86343204459	1853.49574047187	-75.6746040032732
153343.8	552.336049862805	2058.44813484997	2131.2634365196	-74.9798353808976
130781.2	668.246336826669	2356.91407591782	2449.81573346687	-74.1705897910548
111531.3	813.928552709569	2694.4005754759	2814.65346890887	-73.1914049191763
95109.37	1000.50943587432	3071.1083491337	3229.97300660427	-71.9553630677405
81109.37	1226.617813826	3498.09712458607	3706.9225449465	-70.6766358605676
69171.88	1505.42959269078	3953.53079775155	4230.45198853729	-69.1541151115664
59000	1845.12030753138	4454.3475974513	4821.37754881164	-67.4992411118901
50312.5	2838.78826303781	5227.00776952312	5948.13660107233	-61.4936120948878
42906.25	3565.00192986149	5627.25802826034	6661.47668888337	-57.6447681060965
36593.75	4136.17662444119	6086.18438426577	7358.64100414297	-55.7999356790225
31203.13	4802.72289900267	6584.07091959511	8149.60962984502	-53.8912757535709
26609.38	5617.83837462111	7048.25881058474	9013.2158669562	-51.4432849259847
22703.13	6505.81622217328	7478.06728383379	9911.96928053342	-48.9771771729164
19359.37	7493.1721042064	7852.25834211844	10853.8283225149	-46.3404884250819
16500	8552.38778397077	8143.58921484275	11809.3768721095	-43.5974014146915
14112.02	9654.51514522081	8333.53480610293	12753.7235760317	-40.7999349799652
12011.13	10816.7137974435	8400.81304141343	13695.8007116264	-37.8347408802924
10236.38	11971.7196718106	8352.37385230514	14597.4045935943	-34.9025319608852
8750.684	13086.9591174096	8211.04090722394	15449.5854870238	-32.1050483374251
7449.463	14179.7622421753	7938.93985719508	16250.9206908649	-29.2435137620474
6363.206	15173.0051043149	7623.67665070819	16980.5927331798	-26.6772415272344
5414.761	16134.670802994	7234.81413002608	17682.4810877041	-24.1515461634725
4620.567	16973.5473425839	6771.94738187409	18274.5883875345	-21.7505493342429
3941.215	17766.1837305588	6339.66462601438	18863.4204723934	-19.6383747999609
3361.769	18543.5593040259	5971.21820420144	19481.248381562	-17.8490963607027
2867.244	19132.0174865538	5533.27126635895	19916.1036353227	-16.1306756119684
2442.658	19640.6491110758	5090.82756877468	20289.6925269802	-14.5311951719253
2083.003	19846.8619500115	4662.82384639208	20387.2473739173	-13.2212990606972
1777.843	20361.4537318841	4344.7797608941	20819.8441215666	-12.0452745383014
1513.548	20727.5929611613	3952.28647463971	21101.0350063973	-10.795430133581
1292.065	21000.6448294482	3692.83805006752	21322.8547834632	-9.97316121305492
1101.762	21222.3600327073	3440.33468718467	21499.4062270961	-9.20805629174902
939.101	21494.3863420169	3268.58579321507	21741.4879276348	-8.64655192294286
801.2801	21687.6543847886	3135.49820710215	21913.1399329439	-8.22655094080016
684.3433	21827.9052557653	3126.35884456622	22050.6591166719	-8.15090332310904
582.9476	22070.7178287181	3005.03902025877	22274.3539746537	-7.75343104147089
497.0677	22223.7795182228	3012.86458838136	22427.0758036464	-7.72048596825087
423.5089	22447.3379816292	3076.41257247028	22657.1687723234	-7.80378257250698
361.5036	22626.6474228256	3193.95768350492	22850.9636400937	-8.03473613014627
308.1262	22806.8577905817	3332.16341005068	23048.9929339895	-8.31230553399739
262.7298	22999.3196552576	3548.1698380356	23271.4033484074	-8.77004151652741
224.2111	23227.4064136045	3775.29263341073	23532.2171324897	-9.23190279518237
191.2854	23439.411466871	4103.41249292424	23795.8820807376	-9.92983987416508
163.1722	23691.2865882834	4398.10151207622	24096.0651791678	-10.516789298653
139.1537	23957.3120791127	4754.2804748203	24424.4955912964	-11.2244036347955
118.6706	24240.6831911062	5224.58714255996	24797.3190563371	-12.1628855849079
101.1982	24545.8729264765	5802.22249080974	25222.3247056173	-13.2996109321357
86.24196	24861.8116629429	6435.59468809153	25681.2491548413	-14.5127287421882
73.61024	25225.7133350884	7173.74725799472	26225.92730459	-15.8748155789748
62.69291	25594.6278714188	7987.78523458199	26812.1183204576	-17.3325348013466
53.57697	25993.5286737867	8909.94485038138	27478.1849864908	-18.920458682662
45.65746	26473.8616637735	10013.3013078771	28304.2674251596	-20.7182971113794
38.96512	26905.3208875953	11194.9731614228	29141.4432749898	-22.5915940817155
33.18414	27445.3236578195	12635.892455518	30214.4265017538	-24.7214558231332
28.30617	28065.2926227395	14289.0660829149	31493.4605834594	-26.9823071756738
24.17237	28646.6027795551	16012.8745553426	32818.2876203917	-29.2043119897045
20.61345	29346.2789259614	18126.2418595249	34492.9663953438	-31.702276196182
17.55618	30090.8934435435	20507.104549264	36414.3269225882	-34.2746389723573
14.98558	30885.3450986069	23258.2646521984	38663.3084007531	-36.9816411008103
12.76553	31848.8849542945	26356.4299473809	41340.2089061374	-39.6093344112613
10.8809	32899.2549365935	29986.0636459952	44514.323406794	-42.3476429536403
9.278505	34089.1283023686	34108.7922596295	48223.2140968011	-45.0165204704054
7.923394	35319.577348338	38860.7885585281	52513.1738848059	-47.733102453193
6.75822	36938.2969043373	44151.5693115526	57565.6047554944	-50.0833123034622
5.761429	38624.8566067918	50307.975154505	63425.3254784043	-52.4840971383075
4.919708	40641.5147289077	57485.6073532413	70401.1915540572	-54.7402273186162
4.191257	42979.5143670155	65453.2355779182	78303.03124939	-56.7093113731423
3.564097	45446.4795835788	74896.0244198779	87605.9186382038	-58.7508631295966
3.051758	48404.4334794757	85029.3596391587	97841.612727481	-60.3485559413189
2.604164	51906.5853837526	96836.8824610959	109871.176433972	-61.807764853958
2.214424	56022.5660745876	110724.436430491	124090.405480969	-63.1622370816473
1.892567	60377.8723384103	125878.100538083	139609.396758202	-64.3751314381598
1.607507	65877.936724165	143544.508117716	157939.635170499	-65.3478418869533
1.376413	71628.5519683876	162428.757464027	177521.127498661	-66.2032678750837
1.17375	78215.9029948707	183499.553700219	199473.842118415	-66.914079315723
1.001604	86710.6157997124	207537.515198005	224923.433876792	-67.3244889843752
