EC-Lab ASCII FILE
freq/Hz	Re(Z)/Ohm	-Im(Z)/Ohm	|Z|/Ohm	Phase(Z)/deg
6999984	42.3516041282465	64.0751986992329	76.8068321217708	-56.536604704956
5969734	43.6630738553919	60.7398836524582	74.8050632284712	-54.2894012070955
5091109	46.3494811115957	59.6045181557799	75.5047878210174	-52.1307597956283
4341796	50.7041582047162	58.0561621604151	77.0806695874218	-48.867209383297
3702781	57.5423156805633	54.3705540960816	79.166124362612	-43.376594939604
3157797	62.3554325369769	52.1053652469589	81.259885887149	-39.8827613302537
2693047	68.0113454822044	49.4507161733247	84.0887414839495	-36.0207163938625
2296687	73.8292886458092	46.4270056974252	87.2137071794048	-32.163432736749
1958656	78.8190390750049	43.3166904850414	89.9376261376963	-28.791937075815
1670375	83.20811070208	39.2545665625295	92.0027754071673	-25.2562374403745
1424531	87.0246950823558	35.4809492662416	93.9797601348855	-22.1812760863105
1214875	89.7923130914511	31.7880207992664	95.2530196720701	-19.4948374131247
1036062	92.2778321832143	28.6322489264417	96.617824396015	-17.238231677846
883578.1	94.0416835242976	25.4443205155761	97.4230552106816	-15.139704998244
753531.2	95.6443941756396	22.6137909367009	98.2814004669955	-13.3025043690011
642624.9	96.979450104466	20.0781969821999	99.0360931005492	-11.6970078721091
548046.8	98.025577076914	17.8961484033873	99.6458021641557	-10.3463228954457
467390.6	98.8168390067061	16.0426845900132	100.11061582136	-9.22138329006376
398593.7	99.4847374242888	14.4830458328322	100.533435219213	-8.28296436530875
339937.5	100.05261851598	13.2001904731055	100.919628915442	-7.51576814805062
289906.2	100.56017138796	12.179441832229	101.29504861009	-6.90579727935435
247234.4	100.978528914615	11.3825239839297	101.618035574422	-6.43135957709627
210843.7	101.370214159206	10.8225459821431	101.946298707795	-6.09396192027758
179812.5	101.722115221079	10.4142455406991	102.253827484512	-5.84553887946476
153343.8	102.094705912197	10.3353745127728	102.616513981022	-5.78054254718512
130781.2	102.445790373824	10.3253074081966	102.964809223303	-5.7552922971537
111531.3	102.820822777262	10.6137946004144	103.367181602349	-5.89354701311877
95109.37	103.220901559567	11.0525257503944	103.810947612633	-6.11174080066049
81109.37	103.661519420304	11.6428095985727	104.313305114327	-6.40835532162177
69171.88	104.126031225719	12.4666769849461	104.869673470772	-6.82734216846708
59000	104.642335163111	13.5118192100838	105.511077933811	-7.35754012334729
50312.5	105.239340910733	14.8087079303275	106.276134225382	-8.00976089985651
42906.25	105.904212760885	16.25880497631	107.14499997555	-8.72811246507974
36593.75	106.585842621489	18.0605810036955	108.105163769007	-9.61721118282989
31203.13	107.213892870464	19.9823180525262	109.060129557926	-10.5575437866207
26609.38	108.264539687132	22.4967629753416	110.577189772734	-11.7386905517049
22703.13	109.231577425036	25.2002406921439	112.100801235779	-12.9911075369255
19359.37	110.298998016437	28.4400857156611	113.906573291203	-14.4585212051909
16500	111.50910548693	32.0506317545687	116.02380618805	-16.0360344433687
14112.02	112.800346230381	36.1365235666407	118.447315061069	-17.7632902013039
12011.13	114.312873161734	40.8951984852802	121.407784880712	-19.6845666574043
10236.38	115.947804805276	46.3484484729573	124.868218995118	-21.7883416304098
8750.684	117.808077637117	52.458562608154	128.959854014599	-24.0028521564802
7449.463	119.857222248631	59.6423644474123	133.876679679606	-26.455478212629
6363.206	122.124950368713	67.7860286847048	139.676229858213	-29.0326710230172
5414.761	124.765921374394	77.1997931477891	146.718585047917	-31.7474424591722
4620.567	127.574721607553	88.1086535228936	155.043363027451	-34.6306462983618
3941.215	131.007816357896	100.04734931715	164.840893143213	-37.3680552970024
3361.769	134.616685989547	114.107328386552	176.471341974624	-40.2861522659155
2867.244	138.840313862551	130.215165262314	190.34868535859	-43.1638900877396
2442.658	143.566868690062	148.667084157871	206.672077691867	-45.9998535567207
2083.003	149.011352040499	169.725484444433	225.85642144255	-48.7183205706543
1777.843	155.131497276499	193.655244046789	248.129270732153	-51.3028128633525
1513.548	162.061124174599	221.50626793121	274.460989398399	-53.809594890297
1292.065	170.291675029536	253.038218410931	305.004253348938	-56.059921008141
1101.762	179.280697701459	289.112963656627	340.18799849883	-58.196698350146
939.101	189.9088027575	330.972760315763	381.586584454724	-60.1532346289588
801.2801	202.033341334239	378.031921699971	428.632248944068	-61.8784105500977
684.3433	215.744637009218	432.556385651502	483.374363372872	-63.491515926509
582.9476	231.876296794852	494.255548155535	545.944286441229	-64.866729226382
497.0677	250.078458659914	565.925978760385	618.717584138044	-66.1597230826537
423.5089	271.265698568681	647.688925844694	702.200842979989	-67.2750427266554
361.5036	296.363762796374	739.528016370614	796.701428953081	-68.1616949146203
308.1262	325.228006109053	845.785940378697	906.160644091293	-68.9668725041177
262.7298	358.692209929502	967.400490402028	1031.75763156576	-69.6562553232191
224.2111	396.541007049271	1105.02171466138	1174.0177852762	-70.2592934025943
191.2854	441.68303840155	1261.71073734604	1336.78640445881	-70.7065442574734
163.1722	493.63625144542	1441.36502416173	1523.55173250462	-71.094780459454
139.1537	554.680180543473	1644.17256024741	1735.21569568692	-71.3575962000806
118.6706	624.996816325462	1876.78716058781	1978.11806183661	-71.5815081064177
101.1982	709.84336584105	2143.29714831671	2257.78658646275	-71.6755304805987
86.24196	806.798219093541	2444.48357697441	2574.18401137722	-71.7346024292766
73.61024	918.970660862228	2783.38680258327	2931.16856702583	-71.7287009639868
62.69291	1052.50509249268	3172.48475568045	3342.51798719885	-71.6461950414879
53.57697	1201.46694379918	3602.66219399673	3797.72269934173	-71.556756329668
45.65746	1380.88803028312	4098.32985305374	4324.71494281538	-71.379311300516
38.96512	1591.3047525874	4653.45221894064	4918.01467764898	-71.1212511095891
33.18414	1830.27063040373	5286.98624631827	5594.82923325431	-70.9049595419272
28.30617	2116.5731751038	5995.93115278284	6358.54326040806	-70.5568876813852
24.17237	2435.86356344378	6786.08916754249	7210.02340423043	-70.2544232613357
20.61345	2814.71645214967	7677.15182717004	8176.87525179529	-69.8652703268828
17.55618	3254.99909478384	8680.56112133805	9270.7691422195	-69.4451776714929
14.98558	3762.8596644489	9787.62706677246	10486.0267238146	-68.9707113213451
12.76553	4349.42540400883	11035.2988735792	11861.5059151128	-68.488739224081
10.8809	5022.99088473222	12427.4046893168	13404.1346136241	-67.9920994072616
9.278505	5794.43236082996	13973.8474034266	15127.5859818573	-67.4780416734702
7.923394	6629.93306499482	15667.6652556431	17012.693702327	-67.0638504833702
6.75822	7647.60504308598	17556.2575717597	19149.6225242433	-66.4617864322467
5.761429	8784.40938131028	19683.8256225827	21555.0188893143	-65.9499632338563
4.919708	10090.6999373929	21982.4574636658	24187.8205171193	-65.3432582245923
4.191257	11488.5406895527	24529.7065363757	27086.7692783067	-64.9038568915065
3.564097	13158.7113561063	27473.7231462253	30462.3890735568	-64.4076181451437
3.051758	14919.8158921485	30485.2680003568	33940.4253259912	-63.9223801884474
2.604164	16956.873773996	33980.6020534802	37976.5307012662	-63.4800567706064
2.214424	19261.6862398158	37900.0699801819	42513.8549334661	-63.0592765658623
1.892567	21803.4561029238	42037.2910736684	47355.3010638138	-62.5856123566276
1.607507	24672.5570436379	46895.5618919446	52989.8933404548	-62.2503747506966
1.376413	27738.0463154491	51898.9190967382	58846.3849085717	-61.8771500429484
1.17375	31327.5321586468	57686.2380303484	65643.8597984995	-61.4950444893756
1.001604	35190.7086621845	64081.695969082	73108.479223826	-61.2264418750183
