EC-Lab ASCII FILE
freq/Hz	Re(Z)/Ohm	-Im(Z)/Ohm	|Z|/Ohm	Phase(Z)/deg
6999984	44.024822149953	66.4389549428573	79.7014410110257	-56.470124411987
5969734	42.0006003311473	63.0768557600808	75.7808693586634	-56.3417875954556
5091109	42.7307665244122	63.2011004886549	76.2908743608361	-55.9370616681311
4341796	46.8395272118906	64.2684056994823	79.5259032050985	-53.9150191246011
3702781	54.1411473540295	63.8295275267099	83.6987002353904	-49.694898484565
3157797	61.0489492305857	62.8591443534531	87.6256025999644	-45.8369845738768
2693047	67.9846776827267	61.4447262455528	91.6371692219656	-42.1073559135184
2296687	75.3539688830867	59.9383967682104	96.2851599862441	-38.4996011057622
1958656	82.6184457858107	57.0843386793262	100.421259235876	-34.6421226429983
1670375	89.6075247308223	53.6289072977411	104.429728460504	-30.8999576660824
1424531	95.6539764442725	49.4524594600901	107.681144850216	-27.3386582763554
1214875	100.701920591748	45.0603045632463	110.323650493442	-24.1067122160035
1036062	104.998159614402	40.7892541778018	112.642695186118	-21.2299484224312
883578.1	108.48282737305	36.6618822459002	114.510337719628	-18.6727346503592
753531.2	111.378321785413	32.7575746085565	116.095603956266	-16.3891827099755
642624.9	113.660690711613	29.2306977267849	117.35921907816	-14.422505078189
548046.8	115.498983041621	26.0852344453568	118.408000319733	-12.7266302186931
467390.6	116.918100895927	23.2463025102929	119.206681429819	-11.2452134619146
398593.7	118.130426149203	20.8484217790566	119.956051422467	-10.0088622132695
339937.5	119.038161077806	18.8231860506097	120.517202613908	-8.98562834610128
289906.2	119.826466154114	17.146476850945	121.047030774749	-8.14341476472668
247234.4	120.5166820215	15.7546671841922	121.542092229631	-7.44781535354811
210843.7	121.117601814114	14.6975904153406	122.006117195898	-6.91899822695416
179812.5	121.63491034396	13.9949253973577	122.437369096452	-6.56340916014007
153343.8	122.07389746966	13.4332033824016	122.810778828839	-6.27965181210153
130781.2	122.498795675135	13.2463760416697	123.212910931022	-6.17168364518708
111531.3	122.951563240303	13.2662420364286	123.66519349034	-6.15828216235897
95109.37	123.362954238049	13.4884966015233	124.098178950814	-6.23992864816511
81109.37	123.768443581821	14.0792286567447	124.566658084077	-6.48976116515395
69171.88	124.406882272778	14.8117992379419	125.285520925197	-6.78963581596952
59000	125.009486480465	15.8225725310093	126.006847082246	-7.21362458436633
50312.5	125.635380841253	17.1327866447133	126.798191222667	-7.76547461432454
42906.25	126.316533654663	18.6391141681128	127.684310905849	-8.39392337191378
36593.75	127.062503438383	20.5669748579	128.716278049183	-9.19443708495876
31203.13	128.106692670871	22.5935503487692	130.083793089037	-10.0021185000208
26609.38	128.852988175244	25.4223514421512	131.336927459637	-11.1609600181406
22703.13	129.943446183968	28.44170018277	133.019658379701	-12.3460601920113
19359.37	131.162924606754	31.9427124544653	134.996480214654	-13.687067911515
16500	132.501426541707	36.002523386536	137.305534213976	-15.2010802372584
14112.02	133.999513018036	40.4942990890366	139.984491097347	-16.8146783573735
12011.13	135.74199943737	45.7904486918026	143.257305582129	-18.6410214363987
10236.38	137.685502047918	51.8496604903561	147.124725206719	-20.6353901184239
8750.684	139.817948061315	58.5714529248731	151.590480234766	-22.7294076201783
7449.463	142.215525755675	66.564929266946	157.02275495697	-25.082258805883
6363.206	144.958726735257	75.3294687171262	163.363280188393	-27.4591627598273
5414.761	148.105818101386	85.6592433642213	171.09307212512	-30.043592027168
4620.567	151.637060891598	96.9198418996538	179.964590933039	-32.5849520570488
3941.215	155.46662537127	110.590208408281	190.788012726476	-35.4259059884254
3361.769	159.772555540922	125.804119388641	203.35669637174	-38.2167203831502
2867.244	164.873462888845	143.242646912253	218.407222086147	-40.9842268547691
2442.658	170.695863725229	163.209172031798	236.165856398013	-43.7155510416254
2083.003	177.353222243828	185.950794660706	256.966658294839	-46.355648888341
1777.843	184.707012807644	211.747770443825	280.987186306162	-48.9018962482142
1513.548	193.591086846845	241.695009374045	309.667541829722	-51.3062276918114
1292.065	203.709351309793	275.161697880178	342.361592167344	-53.4864925304668
1101.762	215.408169223728	313.723959639884	380.556700401459	-55.5258498585657
939.101	229.079861408356	357.673215194026	424.744289861681	-57.3615550679633
801.2801	244.779494076736	407.750607037471	475.581284598006	-59.0229034907247
684.3433	262.679435763421	464.322034789101	533.474870976769	-60.5019940388549
582.9476	284.415169222612	529.115736945087	600.712453314287	-61.7406714961482
497.0677	310.79102852082	602.447449205567	677.889365946482	-62.7116630715564
423.5089	339.584616801233	685.759206837903	765.234213643764	-63.6556110390345
361.5036	373.577209375363	779.797754516399	864.664368014262	-64.4023469334285
308.1262	414.196149476597	885.37387052931	977.468843931759	-64.9288378513742
262.7298	461.168711138417	1004.42744724949	1105.23801822105	-65.3384453791132
224.2111	516.268024367628	1138.25785219259	1249.86543718216	-65.6028654015661
191.2854	581.567743370589	1288.34125957082	1413.52192810784	-65.7051956637764
163.1722	654.510409054215	1455.8624411968	1596.22032415573	-65.7928009106519
139.1537	740.780540666569	1640.07713188232	1799.61351627331	-65.6925332965041
118.6706	839.483373703285	1849.35262471592	2030.96958747981	-65.585103709917
101.1982	956.102547123704	2080.68327638896	2289.84169262006	-65.3205690959051
86.24196	1088.99404004099	2338.81036881861	2579.91123113533	-65.0324286207338
73.61024	1239.26586523203	2620.74412458379	2898.97907051254	-64.6920343946466
62.69291	1413.6381888998	2937.49076412115	3259.94247164164	-64.3012771783674
53.57697	1605.02046480584	3278.84840678042	3650.60783529155	-63.9179111176453
45.65746	1827.65999624869	3662.24159685751	4092.9640330256	-63.4782806014415
38.96512	2073.192222713	4080.71091397579	4577.15277828464	-63.0672979749941
33.18414	2355.77990848996	4545.94937619875	5120.09323237447	-62.6061242456933
28.30617	2667.10322855937	5050.12776329741	5711.14962660051	-62.160305785302
24.17237	3016.70219228266	5609.9443202358	6369.61281343449	-61.7312176925286
20.61345	3399.47481450109	6219.46913498229	7087.89286991731	-61.3396010395566
17.55618	3834.64787022393	6905.63827918482	7898.88373958977	-60.9569225281888
14.98558	4304.45524138707	7649.80697601367	8777.69227618353	-60.6340608106326
12.76553	4836.78505174277	8484.90149716533	9766.68024731847	-60.3148660229652
10.8809	5417.3889406104	9398.21596788487	10847.7908494243	-60.0396743939638
9.278505	6056.31000847216	10397.580066138	12032.8118970783	-59.7803536958876
7.923394	6750.87762218434	11487.7329879286	13324.5021622443	-59.5589628038491
6.75822	7530.23680212931	12734.6039973342	14794.4112848421	-59.403290170912
5.761429	8382.43453510664	14103.8023744701	16406.7806151437	-59.2753486952593
4.919708	9340.05028162629	15635.8926470837	18213.1182979311	-59.1481520647403
4.191257	10404.2774688783	17298.2527023761	20186.0975972245	-58.9746031485952
3.564097	11546.0334977553	19240.5618424501	22439.0309404046	-59.0325291816829
3.051758	12837.3146740852	21265.7552344599	24840.0683117708	-58.8822423520201
2.604164	14205.9530240895	23593.9485082123	27540.5792882214	-58.947788723783
2.214424	15836.1174238052	26189.4448637533	30605.0590153348	-58.8396715878418
1.892567	17559.9594461304	29055.1273245536	33949.2650818212	-58.8526204340118
1.607507	19521.0981163222	32300.9497031959	37741.5503576029	-58.853307983366
1.376413	21682.1773657686	35743.7796641132	41805.9158492828	-58.7589991302874
1.17375	24064.6645297209	39738.479375571	46457.0212348003	-58.8019136691427
1.001604	26677.4237438362	44061.2360683415	51508.0329800926	-58.8066692188423
