EC-Lab ASCII FILE
freq/Hz	Re(Z)/Ohm	-Im(Z)/Ohm	|Z|/Ohm	Phase(Z)/deg
6999984	-15.6388831899915	27.682080729201	31.7942174133631	-119.464106707516
5969734	-15.2263348912334	34.8544615790832	38.0351780091507	-113.598336688305
5091109	-14.1153433407479	40.6332223232935	43.0151330812935	-109.156424085774
4341796	-12.6300918532124	46.5868629956647	48.2685718039949	-105.168752423223
3702781	-17.4318608458544	48.216115800242	51.2704943940623	-109.876746625813
3157797	-16.4067752082902	56.3863299619113	58.7247859026229	-106.223453132499
2693047	-14.7976273510517	65.8114118928074	67.4545158647317	-102.67214612672
2296687	-15.949747672188	77.2131475035398	78.8432913963507	-101.671303450185
1958656	-15.5968254984129	89.007290571129	90.3634812324167	-99.9390801481661
1670375	-15.6165097890671	103.92535363428	105.092123900901	-98.5457040861874
1424531	-15.0101833723873	121.479155318678	122.402985183419	-97.0438671135905
1214875	-14.54296718551	143.066721170987	143.803979782118	-95.804272923825
1036062	-13.0315041812511	166.1057947373	166.616191129602	-94.4858397414494
883578.1	-12.9346154583591	193.463917195692	193.895826499069	-93.8249902205455
753531.2	-11.8904094672812	226.03572994554	226.348256121652	-93.0112182641212
642624.9	-10.6655664903388	263.857661957503	264.073133965271	-92.3147307683602
548046.8	-8.92945434098054	309.925220144211	310.053829578454	-91.6503289091265
467390.6	-6.9572581716515	361.189821139876	361.256820470317	-91.1034979894536
398593.7	-5.30791927557353	420.984740715759	421.018201414797	-90.7223664641326
339937.5	-1.33962368505686	492.385626181125	492.387448521381	-90.1558830920868
289906.2	-94.7846402402371	510.474524051644	519.199737799648	-100.518856141059
247234.4	-97.8299851712117	613.263580071692	621.017652439082	-99.0636579329857
210843.7	-107.097250029449	728.674287694497	736.502571964928	-98.3612116761553
179812.5	-110.239612940128	870.333740169012	877.287633298094	-97.2188484242235
153343.8	-100.600157115942	1024.58357572517	1029.51051245606	-95.6076911043156
130781.2	-101.650251252898	1218.36847695303	1222.60153738355	-94.7692246669211
111531.3	-78.3259891858759	1391.05077049548	1393.25417877644	-93.2227542820835
95109.37	-79.8393621067988	1712.02591277327	1713.88653351054	-92.6700218971208
81109.37	-85.8321652879487	1979.39530728335	1981.25539572599	-92.4829511770106
69171.88	-108.55425628702	2266.16137729301	2268.75988471512	-92.7425010582049
59000	-59.728797938313	2694.21168215069	2694.87367376291	-91.2699995247186
50312.5	-47.0378145465	3155.67679403252	3156.0273421491	-90.8539748696741
42906.25	38.8132643169295	3714.29207022831	3714.4948583149	-89.4012976758995
36593.75	49.6214054338008	4284.04304108486	4284.3304099643	-89.3363815577112
31203.13	-562.112340723265	4795.8523757364	4828.68204518064	-96.6850236465001
26609.38	-587.997946762774	5693.26557835943	5723.54912018142	-95.8965764246205
22703.13	-601.255458324263	6650.77950377474	6677.90207580157	-95.1657114611516
19359.37	-592.094816510396	7867.08397187878	7889.33371662846	-94.3040975288339
16500	-450.440260409501	9228.74919978923	9239.73528954202	-92.7942964428847
14112.02	-603.135581007455	10665.9365452361	10682.9759391323	-93.2365052691667
12011.13	-365.001596230779	12659.3109801634	12664.5718702898	-91.6515321204963
10236.38	-339.937498830121	14751.189740499	14755.1061081686	-91.3201333317926
8750.684	-112.537361687886	17208.1622195067	17208.5301996025	-90.3746956740472
7449.463	189.224676802579	20101.1918294861	20102.0824529229	-89.460656103475
6363.206	380.538613384984	23764.8071944616	23767.8537235951	-89.0826185502477
5414.761	521.886794595732	28121.2385025341	28126.0807924386	-88.9368007913869
4620.567	780.857029684684	33450.6323809547	33459.7451333178	-88.6627550779758
3941.215	-5662.60420516002	34703.6926671621	35162.6416971356	-99.2672871333752
3361.769	-5511.87974072096	41746.5569240362	42108.8569458726	-97.5213701400525
2867.244	-5183.14456604655	49014.9439725479	49288.2310518905	-96.0363781266324
2442.658	-5128.60523757763	57844.5186566084	58071.4295527296	-95.066704354153
2083.003	-5707.04270230774	68528.8618767814	68766.0908190435	-94.7605730042146
1777.843	-4310.21640598659	80637.9080681751	80753.0196530005	-93.0596331978098
1513.548	-4654.02359018868	93874.211935849	93989.5079365496	-92.8382423057712
1292.065	-3853.64639246309	110884.63595557	110951.579896446	-91.9904366563161
1101.762	-894.183767120426	128737.612825483	128740.718192083	-90.3979577605295
939.101	143.679822378169	152150.484816989	152150.552657348	-89.9458940601713
801.2801	-637.347491330172	177598.995188225	177600.138805385	-90.2056158287041
684.3433	2183.80141260531	208503.143968402	208514.579905862	-89.3999225771911
582.9476	7973.97862071564	245354.985039612	245484.527045661	-88.1385559912106
497.0677	-41935.4660591351	268128.683602464	271388.235345578	-98.8890776928093
423.5089	-19637.3803499816	290531.078755397	291193.980758161	-93.8668161395901
361.5036	-66662.6816010511	366224.047168507	372241.810981416	-100.316430152039
308.1262	-36309.2987506363	434957.685910933	436470.564538729	-94.7718602727787
262.7298	-127915.131036699	502238.977147459	518272.390654048	-104.28886113724
224.2111	-2639.3561740758	573685.074917646	573691.14633597	-90.2635991575713
191.2854	-47980.3232598152	634127.140622365	635939.731337816	-94.3269585448596
163.1722	-34409.3756062661	687618.428630404	688478.836654954	-92.8647702516858
139.1537	803877.522717913	589747.150029572	997005.903943949	-36.2648193329001
118.6706	26846.6555509509	785849.13023055	786307.572390336	-88.0433877014394
101.1982	216274.549715755	581888.173473603	620780.579015805	-69.6110489531833
86.24196	243099.534978027	290038.955999552	378444.156915975	-50.03155129625
73.61024	94314.9326376541	184964.710962719	207622.857171284	-62.9826148128738
62.69291	47486.398640866	-5228.23662192443	47773.3452257017	6.28294058984558
53.57697	70974.7552356432	97956.8379881921	120966.76398666	-54.0747425691497
45.65746	212479.133021839	126999.669606689	247540.497797674	-30.866938108349
38.96512	382107.70815657	-123986.771603301	401720.076876021	17.9772727490514
33.18414	320840.036095287	392112.206356714	506646.139959199	-50.7087587622049
28.30617	264565.85760117	-685357.124523968	734649.223197034	68.8921015118531
24.17237	506986.761228317	141317.859381073	526313.89250221	-15.575319080304
20.61345	-264519.866082792	825516.092720171	866860.760960165	-107.767001432582
17.55618	-296463.892713926	725324.939087993	783573.293920929	-112.231431276462
14.98558	686831.615009156	-920480.606997264	1148486.92427652	53.2709400783607
12.76553	1617496.46851491	565732.850988859	1713577.68552995	-19.2777093270819
10.8809	714234.349411248	2671885.55455372	2765701.19906539	-75.033922596758
9.278505	2520624.20163481	-421866.705692673	2555683.44738528	9.50130182087493
7.923394	1484876.17618866	-1263007.03291282	1949370.1607955	40.3838472995633
6.75822	649360.350553392	-935542.975594967	1138819.35532195	55.2354863071493
5.761429	634661.572500587	333122.197986452	716774.518520464	-27.6941556699223
4.919708	1792090.77145546	102209.064268187	1795003.07129387	-3.26423796168547
4.191257	944714.163657122	-154081.897825613	957196.992395984	9.26331807108939
3.564097	1424149.70175463	1934084.47467413	2401850.35507696	-53.6341838613177
3.051758	1386943.43872276	-451461.646436294	1458571.12285246	18.0305005282191
2.604164	7230309.08241385	-667182.00128172	7261026.1843675	5.2720797462632
2.214424	3913185.89913673	-2345560.39915629	4562310.54042716	30.9384375116034
1.892567	2171748.12471557	594819.019541803	2251732.57364507	-15.3170812724606
1.607507	1365892.24760875	2338590.14834371	2708258.76053377	-59.7122290140466
1.376413	3701955.71139409	2764785.6771319	4620445.42545381	-36.7540164279607
1.17375	7692480.47918574	-3098309.97430667	8292995.87721722	21.9381586346806
1.001604	-2521294.27458161	7234755.4565264	7661501.89811218	-109.213318794831
