EC-Lab ASCII FILE
freq/Hz	Re(Z)/Ohm	-Im(Z)/Ohm	|Z|/Ohm	Phase(Z)/deg
6999984	26.416809364934	1.0323656483161	26.4369740298524	-2.237973147781
5969734	16.5992991002489	-1.68134608460478	16.6842337335503	5.78377402914966
5091109	11.304159472644	-6.20462676539076	12.8950151097535	28.7615015577377
4341796	8.00886348234308	-5.00235034630821	9.44274341841492	31.9889728177096
3702781	5.89434390930711	-4.52318444451674	7.42983765908139	37.5018065646978
3157797	4.20541609943496	-4.81741844133484	6.39476700187737	48.8803243872275
2693047	3.09313778027826	-4.19715050959093	5.21378688938704	53.6112197128889
2296687	2.02354761709906	-3.58335083481609	4.11523367064915	60.546226380639
1958656	1.74892260754651	-3.26989997820662	3.70823086587971	61.8596748301969
1670375	1.41319498692594	-2.76759332599789	3.1075219853093	62.9501281058899
1424531	1.16523360281219	-2.43797088954342	2.70212349965427	64.4544287970059
1214875	0.86676096550424	-1.84880733886722	2.04190184572402	64.8817980163939
1036062	0.806592095220587	-1.82545602743631	1.99571553989437	66.1613846602596
883578.1	0.701977882860572	-1.5662396755525	1.71635650996528	65.8584045781944
753531.2	0.649403985284015	-1.35645470539957	1.50389324883896	64.4171865403223
642624.9	0.581927607149015	-1.19954348594773	1.33324578178287	64.1208527686807
548046.8	0.547743266646671	-1.01385417888884	1.1523554062038	61.6194909224781
467390.6	0.512410314938719	-0.877826871977355	1.01643708512684	59.7267821420429
398593.7	0.480355879090494	-0.762744306605364	0.901399272151746	57.7983780909711
339937.5	0.454128698711662	-0.660902174315981	0.801888121254542	55.505698932911
289906.2	0.434152338001574	-0.572774560974806	0.718720356113638	52.8385574782652
247234.4	0.415289970237559	-0.496386559124315	0.647198095994719	50.0832664668385
210843.7	0.399555536479106	-0.430736727825283	0.587519153244163	47.1507023135984
179812.5	0.389925671060941	-0.368593772520627	0.53656630353882	43.3890911491158
153343.8	0.382214723624247	-0.31986315045609	0.498397963453759	39.9248737281958
130781.2	0.37503574671979	-0.277574786322627	0.466582868652207	36.5062121815666
111531.3	0.369089613337528	-0.242051000881658	0.441379462256072	33.2570831169388
95109.37	0.36226241085138	-0.210804157499631	0.419132970708561	30.1955576231706
81109.37	0.355315663046717	-0.183475618015323	0.399890638565637	27.3106349105956
69171.88	0.349787978680978	-0.159218072316374	0.384320210998415	24.4742932894697
59000	0.340352870432205	-0.134570967269422	0.36599101306353	21.5731787896043
50312.5	0.334599984711301	-0.10482057476346	0.350634428803769	17.3942767333499
42906.25	0.363903747262335	-0.104763063530343	0.3786835575409	16.0604080679736
36593.75	0.348637827203528	-0.0951585427480098	0.361391038648057	15.266666716067
31203.13	0.342779908213024	-0.0834506327742922	0.352791827548427	13.6826274886027
26609.38	0.338317222833548	-0.0711177284545564	0.345711258952236	11.8713130925438
22703.13	0.338755277400424	-0.0635245220352156	0.344659981527361	10.6209472962298
19359.37	0.335941134265128	-0.0566003015650383	0.340675857419621	9.56353649658204
16500	0.333809791573014	-0.0503794336099112	0.337590083208726	8.58245513440158
14112.02	0.332032858733794	-0.0450949230741499	0.335081141465764	7.73428279195762
12011.13	0.330272894306161	-0.0401515605343796	0.332704572446359	6.93148297731006
10236.38	0.328677659163704	-0.0362298817599009	0.330668426018675	6.29027444962326
8750.684	0.327061551177907	-0.0327329675745389	0.328695460000795	5.71524369318965
7449.463	0.325626687040624	-0.0297730684271277	0.326984976591615	5.22420683064884
6363.206	0.324599839269044	-0.0270566963127071	0.325725529347712	4.76481786487987
5414.761	0.323031678814456	-0.0248832002396412	0.32398864049817	4.40480785571855
4620.567	0.321791746930681	-0.0230834685745693	0.322618621462142	4.10303786051669
3941.215	0.320477585981617	-0.0213949022287924	0.321190947814511	3.81936645614741
3361.769	0.318946643943764	-0.0201160378784036	0.319580375903958	3.60887780503461
2867.244	0.318574528855762	-0.0195704417205293	0.319175081459702	3.51533556948597
2442.658	0.316677796730032	-0.0176656069770291	0.317170144578039	3.19288810041563
2083.003	0.315470970287946	-0.016222873192109	0.315887819817456	2.94380214743384
1777.843	0.3132781527476	-0.0148171515269467	0.313628361230806	2.70790682881155
1513.548	0.3131496011355	-0.0170493643491813	0.313613382233657	3.11637990011622
1292.065	0.308665940175935	-0.0173119271057681	0.309151039857234	3.21014444328938
1101.762	0.311188893392063	-0.0109226441239417	0.311380525282548	2.01024075886594
939.101	0.30448933945352	-0.0128987508105008	0.304762424871099	2.42570849893356
801.2801	0.308472077022296	-0.0166144423000545	0.308919183598868	3.08299708714071
684.3433	0.307669221529814	-0.00859080249648325	0.307789135227829	1.59940882031872
582.9476	0.303948064099746	-0.0159084668258066	0.304364099372332	2.99609428652204
497.0677	0.303570527552013	-0.00874703569008032	0.303696519294462	1.65045534916031
423.5089	0.305743336602178	-0.0149982246112435	0.306110984151373	2.80839044804821
361.5036	0.298607040956996	-0.0137793749195533	0.298924800045541	2.64206882153086
308.1262	0.299191860850827	-0.00884856885138393	0.299322680012889	1.69402305990206
262.7298	0.302830828843846	-0.0106778246208846	0.303019020585977	2.01941438612378
224.2111	0.300776459577463	-0.013895353493689	0.301097259178272	2.64508544432223
191.2854	0.297709392486986	-0.0142168264220021	0.298048654632903	2.73402797469156
163.1722	0.293536861456731	-0.010214720663711	0.293714537522584	1.9930182205021
139.1537	0.295325609887059	-0.00798203651218076	0.295433459110584	1.54820873878803
118.6706	0.290205354688057	-0.0101768209979863	0.290383738482798	2.00840557504813
101.1982	0.290898462099071	-0.0121077175786479	0.291150325564937	2.3833778040715
86.24196	0.291337685236683	-0.00926866284441261	0.291485085295958	1.82220231303975
73.61024	0.301865666650074	-0.01435286179021	0.302206693082173	2.72220269875786
62.69291	0.250855932635448	0.00916942555634976	0.251023459667485	-2.09337521606603
53.57697	0.271321770552369	-0.0181085212544683	0.271925397338491	3.81836435296373
45.65746	0.306319679595838	-0.0103522965115175	0.306494561372236	1.93561587083912
38.96512	0.27542525613954	-0.00956529119493026	0.275591303409914	1.98903559086815
33.18414	0.283725354818229	-0.00756056988256877	0.283826072064705	1.52642774820613
28.30617	0.267770095799485	-0.0137668983612314	0.268123761899153	2.94316387245006
24.17237	0.275249614728372	-0.0124877611512859	0.275532746849968	2.59766287353484
20.61345	0.293049792926847	0.00228542268867285	0.293058704513846	-0.446826522336047
17.55618	0.290013743477974	-0.00475749891835789	0.290052762789922	0.939818087690728
14.98558	0.279151209512499	-0.00628884410388146	0.27922203948194	1.29056680705155
12.76553	0.278543279777713	-0.0106726069208057	0.278747669493059	2.19425990575928
10.8809	0.279715300362343	-0.00700837343588479	0.279803085320753	1.43526729821184
9.278505	0.275397233031521	-0.00511606722559973	0.275444749641874	1.06426394783535
7.923394	0.259092239650552	-0.0186124617487319	0.259759912957113	4.10891010495898
6.75822	0.259195163791991	-0.0105163776594188	0.259408417620232	2.32339886320382
5.761429	0.25508203719822	-0.00253028431099851	0.255094586457432	0.568326405385442
4.919708	0.261558457499786	0.00307316818172727	0.261576510895647	-0.673162956879048
4.191257	0.266889599683734	0.0100169133598327	0.267077511169702	-2.14941908279676
3.564097	0.272373384215242	0.00819440009773518	0.272496621303505	-1.72323359421342
3.051758	0.270801030403025	0.0114037905937149	0.271041038418992	-2.41137653264616
2.604164	0.278055329757006	0.00817573291961119	0.278175500386088	-1.68419740667336
2.214424	0.276975572890814	0.00469212415631239	0.277015313669286	-0.970530344383126
1.892567	0.280812382966151	0.00381704258572789	0.280838324025104	-0.778765381057405
1.607507	0.27887644403468	0.00412515952437796	0.278906952187517	-0.847461301820206
1.376413	0.285426653013558	-0.000756320748461924	0.285427655057453	0.151821439821293
1.17375	0.278423992487674	0.000528728911000468	0.278424494516983	-0.108804914478461
1.001604	0.281782703614262	0.00816126807790182	0.281900866179588	-1.65899299326555
