EC-Lab ASCII FILE
freq/Hz	Re(Z)/Ohm	-Im(Z)/Ohm	|Z|/Ohm	Phase(Z)/deg
6999984	29.2190236190398	82.3794483603848	87.4078077371313	-70.4710013078951
5969734	38.0672040364431	74.3826675819093	83.5577241178397	-62.8977597634149
5091109	38.2807258321217	77.3471114803137	86.3017359302937	-63.6682161105273
4341796	47.1540435612915	78.3561873431727	91.4505107647768	-58.960852161512
3702781	54.9505218822563	80.4631944180649	97.4365717330595	-55.6697596679687
3157797	62.618381438148	82.7120742962187	103.741741494524	-52.8719265402536
2693047	71.3978938944628	82.4396135011373	109.059383487996	-49.105376479577
2296687	82.8829530498996	86.4664532151681	119.77491990347	-46.2122203634859
1958656	94.7889604311807	84.6826159043106	127.106618458761	-41.776982719268
1670375	104.622963735877	83.000192216383	133.547730975989	-38.4259072741525
1424531	117.126602423542	78.9234777591353	141.235818179665	-33.9732918200082
1214875	125.571931685998	74.5465754814736	146.032537276348	-30.6957555078978
1036062	135.649223265021	69.0946915329082	152.232677735206	-26.9926089568303
883578.1	141.422757077608	63.2860251503888	154.937139507504	-24.1082935795181
753531.2	149.459260718514	56.5991020984591	159.817173585558	-20.7413013668539
642624.9	152.764418425569	52.6086018178382	161.569280873965	-19.0025463459703
548046.8	157.977092406619	48.1247223098345	165.144635464335	-16.9423620020184
467390.6	160.996493078835	43.0206863006848	166.645282661902	-14.9607473605128
398593.7	164.896260358488	37.091568567795	169.016452273244	-12.6770464511024
339937.5	165.856094537034	33.5061255020716	169.206691774404	-11.4211344233316
289906.2	167.89542121743	30.5491795285494	170.652057812514	-10.3123579573503
247234.4	169.458712327596	29.0224914961622	171.926031177282	-9.71852158016493
210843.7	170.950742751038	25.9367912726594	172.907124169749	-8.62716876073359
179812.5	172.349210122953	25.1534460185397	174.17504435657	-8.30339031070516
153343.8	172.995964196398	24.0120662472942	174.654467316774	-7.90223964002226
130781.2	173.914956905754	22.6883735095724	175.388638537507	-7.43264343113304
111531.3	174.679589545825	22.7548692424532	176.15545145734	-7.42191766120819
95109.37	175.703508108207	22.5258303583514	177.141569923223	-7.30567598373205
81109.37	174.597871861382	22.8181644610529	176.082609839516	-7.44577562379744
69171.88	177.804186112171	23.9288470891861	179.407130075784	-7.6648002001421
59000	178.858479304396	25.2393516672608	180.630508197438	-8.03217500880203
50312.5	180.005940647957	26.8675849804326	182.00001590999	-8.48926354902355
42906.25	181.329815370445	28.8860514669271	183.61619185581	-9.05123201364376
36593.75	182.603863323197	31.4035711883502	185.284524944579	-9.75807285676281
31203.13	184.084698641058	34.0647190439403	187.209992674835	-10.4839416282581
26609.38	185.55719577965	37.7812056167976	189.364443345275	-11.5086479969599
22703.13	187.436001869066	41.925036841983	192.067601408624	-12.6081883832836
19359.37	189.158252806102	46.4860456988147	194.786542269659	-13.8069478709902
16500	191.337218719679	51.9447912646067	198.262938056778	-15.1887387263513
14112.02	193.528570249608	58.0433000707394	202.045371602418	-16.6950963359518
12011.13	196.096119754153	65.3416346307532	206.6959539973	-18.428706195835
10236.38	198.866624718462	73.386699268422	211.975333603765	-20.255307105868
8750.684	201.849307060814	82.6889682726287	218.129796760834	-22.2767996099147
7449.463	205.145514274272	93.5974532917406	225.488725415607	-24.5247995191105
6363.206	208.828703687187	105.769618858464	234.08682098131	-26.8617511260003
5414.761	213.06012956499	119.986133252595	244.522577655234	-29.3863063037499
4620.567	217.734223928277	136.362063728585	256.910110143544	-32.057991313711
3941.215	222.987567892127	154.664264494264	271.375183364282	-34.7451920207644
3361.769	228.908706976262	176.325485962688	288.946142264475	-37.6066062750051
2867.244	234.969218723378	200.318540500218	308.768604970797	-40.4486201783028
2442.658	242.912924481372	228.955350813414	333.807192172646	-43.3057200603463
2083.003	251.681156948508	260.901794598888	362.509518754832	-46.0305583649617
1777.843	261.695031054811	297.639837927357	396.325323945117	-48.6769702065797
1513.548	273.429000212943	340.516321097125	436.709037107054	-51.2361091168433
1292.065	286.780047206746	389.018428991093	483.299217432225	-53.6027743149887
1101.762	302.332734621806	443.714871647237	536.924547534217	-55.7307682139943
939.101	320.371858137448	507.139664364644	599.857288576479	-57.7184504785503
801.2801	341.481367490895	578.818723156529	672.042140509066	-59.4609870208817
684.3433	366.248207623273	661.086483941387	755.75994127583	-61.0131296878911
582.9476	395.852983228607	754.135179792479	851.715594392649	-62.304576558116
497.0677	430.14177834021	860.32502869147	961.863350204517	-63.4360536119403
423.5089	474.684250190582	979.736884046891	1088.67327483543	-64.1497298415553
361.5036	516.926129650738	1116.77472903025	1230.60896263446	-65.1618024908744
308.1262	571.904509110925	1271.46151211479	1394.16252436028	-65.7817428252059
262.7298	636.804109641551	1445.76615583106	1579.79721844384	-66.2283634265104
224.2111	712.903000490477	1640.95578671842	1789.12452950403	-66.517764408831
191.2854	800.235619562086	1859.84308958088	2024.69586967467	-66.719216369599
163.1722	904.580791617023	2109.13567608139	2294.9334867664	-66.7861378400703
139.1537	1025.01949825164	2387.96812858197	2598.66441752669	-66.7688918104368
118.6706	1168.04652941151	2695.99819316885	2938.15230245812	-66.5752320756826
101.1982	1329.27077181501	3043.05649658333	3320.71583038954	-66.4032874413638
86.24196	1519.80563829084	3427.78872029785	3749.60593785291	-66.0885617244985
73.61024	1733.26469073908	3850.96453113557	4223.0479879143	-65.7681637254613
62.69291	1980.83096342375	4327.94695306692	4759.70756814108	-65.4072003145289
53.57697	2256.50667572967	4838.51290236309	5338.82285564399	-64.9973636036718
45.65746	2579.39696212751	5414.34662107939	5997.36925838541	-64.5268506623104
38.96512	2939.24048258955	6047.36899183144	6723.82378843004	-64.0785684834
33.18414	3349.69710607697	6746.98243724998	7532.74469971073	-63.596825569254
28.30617	3802.93852290955	7519.17414898972	8426.16883831939	-63.1712898148104
24.17237	4303.31317082985	8355.25297830756	9398.33796890466	-62.7495928775941
20.61345	4855.55716042586	9272.22570970248	10466.6424869597	-62.3604399431412
17.55618	5484.85662074193	10306.2855293115	11674.8950128809	-61.9787354600251
14.98558	6172.24261209736	11425.5949372027	12986.1772100808	-61.6215535705405
12.76553	6930.54884867139	12683.8628636101	14453.819027741	-61.3475078571295
10.8809	7769.40582738045	14067.2656602145	16070.2093970671	-61.0879579759352
9.278505	8670.19613266894	15601.9858674465	17849.2090577412	-60.9385878787446
7.923394	9670.74293854072	17317.5321785399	19834.8226545664	-60.8194126573574
6.75822	10736.9471986338	19165.3415647029	21967.9847149887	-60.7412612141015
5.761429	11902.4820639857	21276.9855040132	24379.8931790418	-60.7770710762972
4.919708	13159.781077271	23665.3686198955	27078.2109807357	-60.9225450604809
4.191257	14632.2741386311	26326.3827287314	30119.4600557131	-60.9345771741787
3.564097	16151.7748912511	29344.2662639644	33495.7578613784	-61.1705784899931
3.051758	17861.8871544841	32641.6113816155	37209.1629347925	-61.3119844738313
2.604164	19658.1504961669	36400.6683484404	41369.6934620393	-61.6287728387592
2.214424	21843.1165070056	40772.9211347657	46255.3006324728	-61.8208855874665
1.892567	24068.9803736401	45531.5341825865	51501.809883214	-62.138075022851
1.607507	26704.34703588	50985.9838673332	57555.996225699	-62.3563146470163
1.376413	29578.5247354613	57017.1019820669	64232.6945095698	-62.5812578773847
1.17375	32745.3273546454	63914.4527331245	71814.4395768546	-62.8725496204292
1.001604	36354.3425748278	71524.1232681687	80233.025826826	-63.0566409600047
