EC-Lab ASCII FILE
freq/Hz	Re(Z)/Ohm	-Im(Z)/Ohm	|Z|/Ohm	Phase(Z)/deg
6999984	30.0768745337486	78.1311927299025	83.7203778008438	-68.9456157699183
5969734	33.1343490453242	72.7464676833716	79.9370605355564	-65.5118224079198
5091109	34.8674006004976	74.2562676665627	82.0349249551908	-64.8473632529066
4341796	40.0971060551173	76.2645328026794	86.1629669730928	-62.2662456816217
3702781	48.7600142756631	77.9185533535989	91.917571491421	-57.962415907717
3157797	55.8656870519363	80.9842096245486	98.3840291830829	-55.4007559831548
2693047	64.1190443746035	84.6449221137124	106.188580794494	-52.8558493445223
2296687	75.6507966472267	87.3823789597762	115.579942836246	-49.1158100410263
1958656	86.9034585833399	88.4728795946876	124.014763385342	-45.5127191097225
1670375	98.8643877522944	87.8161985245379	132.234079907326	-41.6130537645031
1424531	111.012644438441	86.391378155114	140.667257898758	-37.8904839441807
1214875	122.423026599285	83.0921969881046	147.958476073658	-34.1659202307312
1036062	133.298512483405	79.2273181661775	155.065990385039	-30.7255607724005
883578.1	142.653469231267	73.8406610451129	160.631427520568	-27.3671056308837
753531.2	151.025733164109	68.3027245957358	165.752931391748	-24.3352822692151
642624.9	158.134029279698	62.6245051992027	170.082920564286	-21.6046399021349
548046.8	164.018137768269	56.8878477542735	173.603504397475	-19.1285283059637
467390.6	168.971347786592	51.4784005808574	176.639016355902	-16.9437542894606
398593.7	173.021256379484	46.5258068888427	179.167535747392	-15.0509366470444
339937.5	176.375415292698	42.0082588316858	181.309075696011	-13.3968361403914
289906.2	178.812445205444	38.0329129042045	182.812453143457	-12.0077114252527
247234.4	181.172393592389	34.5788163170211	184.442757347318	-10.8055944048666
210843.7	183.382423533643	31.7339532443142	186.107917750924	-9.81768911534617
179812.5	184.703181254543	29.3587214249599	187.02192301775	-9.03165404578414
153343.8	186.023567939881	27.4525097863932	188.038315570672	-8.39485729311984
130781.2	187.272745684612	26.1296418130282	189.086856913775	-7.94303996461353
111531.3	188.36648166801	25.1864244837872	190.042856730429	-7.61582949739227
95109.37	189.337360729151	24.8505222186737	190.961212350627	-7.4773284095753
81109.37	192.090784028082	25.0168472235157	193.712962791673	-7.42012430330943
69171.88	191.486206465167	25.2336778653547	193.14167278201	-7.50707064872054
59000	192.484228162599	25.9595340041804	194.226866053761	-7.68089458460733
50312.5	193.548107843147	27.2872466115444	195.462180171259	-8.02491563353773
42906.25	194.763004213611	28.9967314428935	196.909721051761	-8.46811567680527
36593.75	195.888167877908	31.2620597487774	198.367060507281	-9.06744671924597
31203.13	197.273136859638	34.2831471600237	200.229929595047	-9.85869570474368
26609.38	198.640659955673	37.4530389291572	202.140648838017	-10.6775784447006
22703.13	200.361663903661	41.3799321598803	204.590066102438	-11.669018883817
19359.37	201.9089820229	45.9423205354084	207.069876702774	-12.8188133983517
16500	203.836091307376	51.3669273003455	210.208737543776	-14.1441048855349
14112.02	205.957596402291	57.5223413674219	213.839545622878	-15.6046316011029
12011.13	208.319091507175	64.7247711047564	218.142476104352	-17.2600269923728
10236.38	211.02649176999	73.1965643312065	223.360509622095	-19.1295940074627
8750.684	213.927162193831	82.5889223082353	229.315853818138	-21.1096272854537
7449.463	217.356482080674	93.4741924112881	236.603602993337	-23.2701308097551
6363.206	221.173974187328	105.791372508687	245.172880545725	-25.5626037030089
5414.761	225.496936502958	120.431038683373	255.641357081704	-28.1053159132861
4620.567	229.546829647403	137.362288312358	267.507280744994	-30.8965714855131
3941.215	235.369857639607	155.330317854003	282.004392749323	-33.4224731140812
3361.769	240.681042537453	176.629620898313	298.538753289413	-36.2739866576222
2867.244	247.592263917942	201.102358427967	318.973490618425	-39.0846082033246
2442.658	254.963018922528	229.557044351865	343.078092611075	-41.9984251775081
2083.003	263.171406931628	261.509180007741	371.007062809717	-44.8184833380963
1777.843	272.408629385853	298.356297223427	404.008590820483	-47.6029436308731
1513.548	283.244542373919	341.218496133717	443.460858349828	-50.3040271053024
1292.065	295.079252842328	389.219544834351	488.429748826836	-52.8331201087894
1101.762	309.264090852605	445.75645589317	542.533958256373	-55.2472376715275
939.101	324.691986663485	509.957636641215	604.550806278657	-57.5149358697199
801.2801	343.114104457254	583.177528338467	676.626424429661	-59.5294554773998
684.3433	362.272395607938	666.325499042183	758.439819163873	-61.4676571067684
582.9476	387.219983544844	763.837624245302	856.380307964386	-63.1177182609656
497.0677	415.502914242072	874.372967814848	968.075802088349	-64.5828859346742
423.5089	447.786333770003	1002.31329094627	1097.79075142703	-65.9271595136101
361.5036	485.235235843188	1146.30412985497	1244.77563931271	-67.0568603982696
308.1262	528.154884945128	1312.32002537675	1414.6135272562	-68.0772409356181
262.7298	578.22380115378	1501.50166162205	1608.99036792472	-68.9384537974792
224.2111	636.873354809517	1717.09726488496	1831.401290581	-69.6501246748112
191.2854	703.971278163729	1962.48825592516	2084.93062597383	-70.2663980792539
163.1722	782.579603813777	2243.37483597653	2375.95485878795	-70.7691685444812
139.1537	876.593701054897	2571.04556632809	2716.37475707319	-71.173275677387
118.6706	981.822665573228	2934.10106424242	3094.01435061666	-71.4984865219032
101.1982	1107.28721666014	3349.03635182187	3527.3402821394	-71.7046367365913
86.24196	1251.31375105375	3824.94405443184	4024.42332801977	-71.8847173716009
73.61024	1415.956414875	4360.59474958025	4584.72672455977	-72.0105389034116
62.69291	1610.64628909582	4976.6262958839	5230.77343778731	-72.0662304010984
53.57697	1833.25384805106	5662.20412691576	5951.58594378473	-72.0595840906748
45.65746	2095.70721734034	6454.00664459973	6785.7343382533	-72.0106534949707
38.96512	2392.7261020413	7341.53831239785	7721.614014686	-71.9483729826399
33.18414	2753.52608500569	8355.8442650869	8797.8428767052	-71.7612449667502
28.30617	3155.20394934255	9497.01213149295	10007.4248129912	-71.6219016309744
24.17237	3624.0139658107	10778.3049420638	11371.2503555462	-71.4156941205068
20.61345	4172.54661412928	12233.2950501097	12925.3105583626	-71.1664574796249
17.55618	4820.02881458846	13890.8147389521	14703.3129561114	-70.8635346933392
14.98558	5549.70317726323	15727.4306162464	16677.8679436122	-70.5637058791473
12.76553	6397.52932837611	17815.0212315885	18928.9028469529	-70.2463445564243
10.8809	7371.84391652115	20166.0560572912	21471.2342364234	-69.9197586131997
9.278505	8468.66335261333	22761.6448616497	24286.0193483362	-69.5918548670464
7.923394	9775.89386569801	25666.9391387813	27465.6124203939	-69.1494168576464
6.75822	11290.5806468812	28995.401869195	31116.0817086574	-68.7244540609978
5.761429	13023.4670254419	32692.3708703614	35190.9335836381	-68.2794377415197
4.919708	14952.1463870127	36737.9790733347	39664.1625144341	-67.8539592828556
4.191257	17158.2872877911	41342.6821284213	44761.8608663901	-67.4602799818212
3.564097	19850.6978460466	46438.2270532561	50503.0606678923	-66.855007367045
3.051758	22617.7143926523	51933.2335276025	56644.6974480409	-66.4661409114897
2.604164	25945.9306478372	58073.2662091014	63605.7824837926	-65.9258990064608
2.214424	29602.8364339688	65116.9344619021	71530.015228937	-65.5529607776102
1.892567	33767.6466701794	72506.9293693071	79984.4282858093	-65.0278449583728
1.607507	38604.3125812791	81138.8366133609	89854.347456552	-64.5557850309645
1.376413	43569.0771574371	90110.0896990845	100090.422868163	-64.1957956482838
1.17375	49380.2065298983	100344.949019226	111836.995625805	-63.7979910511245
1.001604	55679.8132916692	111795.087660147	124893.487552935	-63.5242891123905
