EC-Lab ASCII FILE
freq/Hz	Re(Z)/Ohm	-Im(Z)/Ohm	|Z|/Ohm	Phase(Z)/deg
6999984	44.4536450755759	63.0504731848091	77.1458924981337	-54.8143050319487
5969734	42.8432174440162	58.5141788191474	72.5220683918655	-53.7889626800944
5091109	43.8524662252756	57.0093384878015	71.9242898390778	-52.4319579789506
4341796	47.6564167238029	56.2111711754949	73.694164082874	-49.7083744519065
3702781	53.8749351921601	53.9332957393204	76.2319423290817	-45.0310163026222
3157797	59.2862935137599	51.3878707499858	78.4574907756865	-40.9179241787165
2693047	64.3061468023238	48.6076494253778	80.6100744275953	-37.0848594476031
2296687	69.5908374912179	45.9747325458071	83.4059991570606	-33.4504850206852
1958656	74.3579991267249	42.6242891450651	85.7084713389064	-29.8226595013656
1670375	78.7405701505286	39.10678693109	87.917109664183	-26.4114578652291
1424531	82.4359956615707	35.3695615521215	89.7033960622663	-23.2219851662302
1214875	85.4414963529015	31.7707424988764	91.1571685494498	-20.3972516700337
1036062	87.7872206324685	28.3331212242515	92.2462024404357	-17.8873642118395
883578.1	89.7486003436323	25.2705647980124	93.2384722571728	-15.7256574761684
753531.2	91.3166271721217	22.4763903205462	94.0420890874603	-13.8277347797975
642624.9	92.5827613533898	20.0210682436832	94.7228107344633	-12.2023451882586
548046.8	93.6020809074159	17.8850286418961	95.2954552941528	-10.8174087946022
467390.6	94.4016295425175	16.0737691915404	95.7602930044892	-9.66308218390807
398593.7	95.0553767216173	14.5273406421606	96.1590779376651	-8.68929457445962
339937.5	95.6288509556827	13.2965695970629	96.5488264980663	-7.91585311723457
289906.2	96.1121461809717	12.3168769316077	96.8981429175031	-7.30271379193123
247234.4	96.5582104932818	11.5264549272328	97.2437513512022	-6.80736313015087
210843.7	96.9478859006776	11.1000393866754	97.5812659017936	-6.53163292082212
179812.5	97.317834611226	10.6331026951629	97.8970061153242	-6.2354939548308
153343.8	97.6930959918968	10.5163719478947	98.2574937774643	-6.14406134988382
130781.2	98.0390088929915	10.5983881705991	98.6102078718769	-6.16993039433398
111531.3	98.4654028082535	10.8520901610787	99.0616142158798	-6.28931188052744
95109.37	98.8881498939982	11.3228108805169	99.5342766874498	-6.5319881546551
81109.37	99.31362081559	11.9599967580398	100.031179149079	-6.86686479717521
69171.88	99.8815640803419	12.8194754151012	100.700872851499	-7.31374322948749
59000	100.48799541363	13.9194437222092	101.447464905661	-7.88634006120739
50312.5	101.139104034855	15.1413577203298	102.266216702233	-8.51441639622979
42906.25	101.834227417339	16.5915252031467	103.176976997066	-9.25370956886505
36593.75	102.587616410167	18.3894040539351	104.222786482508	-10.1626555446385
31203.13	103.522683134404	20.448648908577	105.522950894734	-11.1736911403484
26609.38	104.505257702793	22.7350736244265	106.949672557868	-12.2734320619005
22703.13	105.64462434179	25.4523843152149	108.667430813686	-13.5458108967034
19359.37	106.824438949305	28.4827535846816	110.556447159808	-14.9295326198341
16500	108.178667254049	31.982398768787	112.807348518915	-16.4700098661346
14112.02	109.741404578344	35.7925982756323	115.430870958113	-18.0639440747209
12011.13	111.402763124743	40.3487947201993	118.484601814753	-19.9098020962482
10236.38	113.311147534668	45.4654272028735	122.092265219231	-21.8628318733547
8750.684	115.330013578825	51.1613665503606	126.168528006759	-23.9224776369792
7449.463	117.619772765363	57.9037675395697	131.100180170174	-26.2108481524199
6363.206	120.217443190289	65.4133992483942	136.861778625152	-28.5517474385182
5414.761	123.268852316236	74.0092997681707	143.77964530328	-30.9801545686668
4620.567	126.392175311319	83.9333509133453	151.722738491862	-33.5869750266412
3941.215	130.074011194093	95.0291677544096	161.089388577326	-36.1510299147871
3361.769	134.159344428568	107.788478978504	172.09615305986	-38.7796571464442
2867.244	138.919441479759	122.327751111363	185.101836600861	-41.3660516590222
2442.658	144.200523783967	139.183155357337	200.413926149843	-43.9856719941398
2083.003	150.071651654067	158.124692964077	218.002108143851	-46.4967741228597
1777.843	156.764141688117	179.659416811398	238.437627416949	-48.8932560446636
1513.548	164.829525977757	204.662661932234	262.784280015453	-51.1530130478155
1292.065	173.460107085971	232.673265110927	290.215880074912	-53.2951246268932
1101.762	183.781050554909	264.216240435476	321.847318231678	-55.1786603530283
939.101	195.983866655453	301.064090145503	359.234272257481	-56.9370563671289
801.2801	209.545129891589	342.054353096567	401.136313406794	-58.5080436160201
684.3433	224.876502413805	388.758690319707	449.113304898619	-59.9528712880015
582.9476	243.117869334458	442.288951860955	504.703690622517	-61.2032370843155
497.0677	263.212963364374	502.73958839082	567.475248639468	-62.3653673801794
423.5089	287.762038587283	571.758775802183	640.0899066215	-63.2842197962307
361.5036	316.28061713914	648.781361406402	721.769134617337	-64.0107875762361
308.1262	349.11665334718	736.353766567316	814.922884193473	-64.6336499953228
262.7298	387.247097703037	835.391104830915	920.781522789224	-65.1298314459061
224.2111	429.981435834231	946.163011330107	1039.28267529644	-65.5606957078444
191.2854	480.513120523689	1070.91209480075	1173.7740727184	-65.834454942358
163.1722	539.328219211163	1210.00485677372	1324.75910317818	-65.9763192924324
139.1537	605.729183193611	1369.21295468647	1497.21473364834	-66.1357734468173
118.6706	681.828429713927	1544.21383051102	1688.04216828481	-66.1767399291691
101.1982	770.475352617581	1744.22719421283	1906.81954416844	-66.167572604447
86.24196	872.940243645544	1963.5335649476	2148.83427226294	-66.0312086492059
73.61024	987.265903860901	2208.59518931015	2419.2119946731	-65.9148409210148
62.69291	1120.53463874179	2485.78860367696	2726.67248836204	-65.7352759480208
53.57697	1266.61837376563	2787.90845624869	3062.14886398157	-65.5664825815753
45.65746	1436.35636573545	3129.29809423019	3443.19999011696	-65.3447479148596
38.96512	1626.77456312644	3507.74178695963	3866.60677121659	-65.1196900929322
33.18414	1843.06847453167	3931.61580328587	4342.17736008788	-64.8836887771179
28.30617	2085.47362800247	4401.60723551663	4870.66181425545	-64.6484896022167
24.17237	2348.66481082621	4917.68082990479	5449.75330986884	-64.4710445730646
20.61345	2649.67437778699	5500.00373299117	6104.98283136142	-64.2771556551924
17.55618	2989.69629164512	6154.63901688619	6842.3581713072	-64.0912308506724
14.98558	3367.59944215648	6868.9196501168	7650.01850733534	-63.8828461005833
12.76553	3784.00581309105	7673.99018070059	8556.2155937655	-63.7523263148525
10.8809	4255.02092624289	8582.14557394025	9579.0618400273	-63.6278225859706
9.278505	4757.66376186346	9582.84616520007	10698.8927042399	-63.5966536819155
7.923394	5352.74060981068	10676.1399266403	11942.8554277911	-63.3719969304447
6.75822	5983.2662654923	11926.1435867261	13342.8773529171	-63.3573865066689
5.761429	6701.86659330493	13331.9726306947	14921.6791970626	-63.3117217703969
4.919708	7509.60462138538	14878.7223185711	16666.449513999	-63.2189599033653
4.191257	8381.58824830365	16611.3320423455	18606.1111945822	-63.2258353969068
3.564097	9370.76694261075	18620.8206324012	20845.7725718378	-63.2865689231907
3.051758	10437.0264763751	20732.5302578584	23211.4052259136	-63.2787194013974
2.604164	11646.4938567725	23220.0473124524	25977.1325659389	-63.3630014930611
2.214424	12986.7628536921	26000.2538168534	29063.1933544619	-63.4585135575095
1.892567	14530.2769304307	29070.7484176595	32499.8055569239	-63.4429864012614
1.607507	16236.1317864005	32652.247037623	36466.1653041737	-63.561416777515
1.376413	18098.3173455219	36431.6145581416	40679.3759791398	-63.5829599906119
1.17375	20244.2698500509	40825.435015551	45569.1409395729	-63.6243848391998
1.001604	22564.787331397	45723.730037553	50988.5194515216	-63.7335332991723
