EC-Lab ASCII FILE
freq/Hz	Re(Z)/Ohm	-Im(Z)/Ohm	|Z|/Ohm	Phase(Z)/deg
6999984	4.73899926599257	3.86311734814381	6.11406490713075	-39.1860847584202
5969734	3.92686347044077	1.97934509867321	4.39750653610928	-26.7504999109198
5091109	2.69229123676323	0.458875040403593	2.73111669583295	-9.67256463541748
4341796	1.95105194865728	-0.304957314625088	1.97474116534363	8.88368196561366
3702781	1.23210884430749	-0.379582352350276	1.28925364705186	17.1227749525492
3157797	0.938827668004196	-0.412731379144518	1.02554599191881	23.7314535080826
2693047	0.771857440603531	-0.362650509651321	0.852806719465435	25.1660768017327
2296687	0.63334776036141	-0.26402125613276	0.686175348759145	22.6296041018445
1958656	0.56459697141407	-0.200335487074027	0.599086010111342	19.5361705884654
1670375	0.539184569569078	-0.162082078499861	0.563019182827927	16.7310895446419
1424531	0.51184797599	-0.123693571975997	0.526581855244976	13.5856715705107
1214875	0.490476868189323	-0.0996554098475356	0.50049851042804	11.4850535949564
1036062	0.46991586975021	-0.0693159672822463	0.475000661013613	8.39102993504837
883578.1	0.470880908749065	-0.0498974961405413	0.473517254538249	6.04884722348898
753531.2	0.467613723410163	-0.0426517965935638	0.469554863753082	5.21161894788981
642624.9	0.455909773242916	-0.03848392819427	0.457531129069563	4.82497213083286
548046.8	0.456061795980317	-0.0304671744960625	0.457078341725536	3.82196138200156
467390.6	0.448795714893785	-0.0197407034425687	0.449229661842838	2.51858553048206
398593.7	0.448445364036935	-0.0192210895714752	0.448857098429482	2.45428706079689
339937.5	0.453145250731661	-0.0126430090999198	0.453321589977535	1.59817008556564
289906.2	0.449336892779312	-0.0109092655852983	0.449469304055546	1.39078743866025
247234.4	0.449323864140733	-0.0102545865592238	0.449440865333651	1.30739228566337
210843.7	0.447965347777544	-0.0104843969270524	0.448088021920225	1.34073327271982
179812.5	0.450171964584594	-0.0101676783080245	0.450286774600507	1.29387449240284
153343.8	0.448165886362242	-0.0103431156957671	0.448285223648014	1.32208120465714
130781.2	0.447422356574033	-0.00871836718885128	0.447507290542513	1.11631086098724
111531.3	0.446670636324816	-0.00820914916331274	0.446746065998125	1.05289360039098
95109.37	0.445913726850163	-0.0075435820723586	0.445977530178241	0.969187904269134
81109.37	0.445189571000458	-0.00689688983312927	0.445242991204738	0.887556888323461
69171.88	0.444537077344504	-0.00626655634532997	0.444581244388944	0.807634432522867
59000	0.444043133377555	-0.00554997113872292	0.444077815792905	0.716086663059069
50312.5	0.443732337913451	-0.00477232116789895	0.44375800022024	0.616189752604624
42906.25	0.44342462457991	-0.00410820058227684	0.443443654815195	0.530813598031078
36593.75	0.443076936155829	-0.003393186728363	0.443089928873824	0.438775892356664
31203.13	0.442930635531474	-0.00281145580861649	0.442939558152214	0.363674074261183
26609.38	0.442821175640433	-0.00219382977488705	0.442826609955473	0.283853089286107
22703.13	0.442870083495507	-0.00183051293988436	0.442873866504833	0.236819041179597
19359.37	0.442669380241032	-0.00142465353976971	0.442671672733515	0.184395752052086
16500	0.442792315454218	-0.00115362846972807	0.442793818253998	0.149275158083952
14112.02	0.442779119502774	-0.000821094082639839	0.44277988082471	0.106249751895296
12011.13	0.442831398704044	-0.000641420473685272	0.442831863237509	0.0829901864272831
10236.38	0.442874915435504	-0.000523265370701041	0.442875224559529	0.0676960521145175
8750.684	0.442907379945363	-0.000417801299039047	0.442907577004493	0.0540479682513832
7449.463	0.442953132000312	-0.000256569999529328	0.442953206306321	0.0331872051842446
6363.206	0.442928707139829	-0.000214264697027295	0.4429287589646	0.0277165640492899
5414.761	0.442876101906805	-0.00013476702481953	0.442876122411581	0.0174350827875191
4620.567	0.44294023130602	-3.28960149655753E-05	0.442940232527571	0.00425520800245209
3941.215	0.442902932782171	-7.84844378640003E-05	0.442902939736072	0.0101530756903039
3361.769	0.442854052934995	-1.57268324187626E-05	0.442854053214244	0.00203471350516936
2867.244	0.44266455631802	5.01576128277592E-05	0.44266455915966	-0.00649209310338014
2442.658	0.442600849013346	9.50457011411873E-05	0.442600859218574	-0.0123039019574455
2083.003	0.442547273098346	1.55998754671599E-05	0.442547273373296	-0.00201968711403426
1777.843	0.44234647419899	7.80879104826264E-05	0.442346481091462	-0.0101144869828019
1513.548	0.442193046313729	7.45158523697696E-05	0.442193052592223	-0.00965515817760141
1292.065	0.441944594320505	0.000128996559631988	0.441944613146521	-0.0167237213073965
1101.762	0.44175092173419	8.52815626284829E-05	0.441750929966142	-0.0110611507702288
939.101	0.441449971709694	7.45379455315886E-05	0.441449978002485	-0.00967427777922492
801.2801	0.441206509190845	6.4067068202089E-05	0.441206513842396	-0.00831985138815927
684.3433	0.440819868949301	7.6706978006108E-05	0.440819875623184	-0.00997002713391555
582.9476	0.44055143663004	2.57337372255311E-06	0.440551436637556	-0.000334679315855469
497.0677	0.440370188470414	-2.34920585335957E-06	0.44037018847668	0.000305650982122961
423.5089	0.440128899406842	3.18989010040661E-05	0.440128900562799	-0.00415258438585062
361.5036	0.43989976375901	-4.59795112048958E-05	0.439899766161961	0.00598870957331205
308.1262	0.439577157389117	1.97659165781914E-05	0.439577157833512	-0.00257634769764038
262.7298	0.439279235929565	3.70071715670755E-05	0.439279237488403	-0.00482689497719332
224.2111	0.43914590512842	1.20536504582376E-05	0.439145905293844	-0.00157265111832831
191.2854	0.438897462500811	2.75795265284814E-06	0.438897462509476	-0.000360036365219897
163.1722	0.4387486476375	5.27618943754428E-05	0.438748650809951	-0.00689012688365752
139.1537	0.438612069947883	4.96095692726617E-05	0.438612072753448	-0.00648048497845079
118.6706	0.438399702412288	-8.83216261269979E-07	0.438399702413178	0.000115430197350898
101.1982	0.438279753089556	4.04130704031309E-06	0.438279753108188	-0.00052831515826963
86.24196	0.438117023699354	-1.39748027188278E-05	0.438117023922234	0.00182758754335618
73.61024	0.437869589582995	2.47001535154416E-05	0.437869590279661	-0.00323204575500825
62.69291	0.437718807091247	-1.4059939544285E-05	0.437718807317056	0.00184039429599295
53.57697	0.437543614618002	1.00458745057463E-05	0.437543614733327	-0.00131549448184431
45.65746	0.437366134755905	1.80189293071469E-05	0.437366135127083	-0.00236051335029901
38.96512	0.437233158331728	-3.4947972090243E-05	0.43723315972842	0.00457964191619815
33.18414	0.437111219621502	-4.70324243237045E-05	0.437111222151806	0.00616492847278249
28.30617	0.436953999904138	-1.06147574792393E-05	0.436954000033068	0.00139186459931509
24.17237	0.43673822239254	-1.90915921353572E-05	0.436738222809825	0.00250462999746606
20.61345	0.436570072993925	4.81920100993862E-05	0.43657007565383	-0.00632475504973423
17.55618	0.436476337948319	2.34794589651691E-05	0.436476338579837	-0.00308212332650314
14.98558	0.436347432898315	-3.196684353564E-05	0.436347434069262	0.00419749281783298
12.76553	0.436256270381474	7.6760555924726E-06	0.436256270449005	-0.00100813585630874
10.8809	0.436173845331035	-7.46064029194675E-05	0.436173851711651	0.009800294116686
9.278505	0.436033920688645	-6.33627488266432E-06	0.436033920734683	0.000832599922530102
7.923394	0.43592502942045	1.81752184284217E-05	0.435925029799344	-0.00238885871833972
6.75822	0.435836878947814	-2.01588503294928E-06	0.435836878952476	0.00026501131489745
5.761429	0.43569119183971	9.18093272183636E-06	0.435691191936441	-0.00120734296843542
4.919708	0.435628940751866	1.36786311242901E-05	0.435628940966619	-0.00179907200685032
4.191257	0.435546201233732	1.31256682344354E-05	0.435546201431511	-0.001726671913942
3.564097	0.435443341586188	1.99433965016939E-05	0.435443342042893	-0.00262415873381287
3.051758	0.435345193557792	1.50112638751216E-05	0.435345193816596	-0.00197563238916665
2.604164	0.435199071356748	-1.43810706303947E-05	0.435199071594358	0.0018933281478117
2.214424	0.435048860547108	-2.73830629053479E-06	0.435048860555726	0.000360633960200218
1.892567	0.434880312955721	-8.22210377710519E-06	0.434880313033447	0.00108326781198425
1.607507	0.434659970234567	-7.07799860932561E-06	0.434659970292196	0.000933003900633238
1.376413	0.434298715092243	-2.28769453967151E-07	0.434298715092303	3.01808956331932E-05
1.17375	0.433962055338041	-8.60825793449824E-06	0.433962055423419	0.00113654371960669
1.001604	0.433716880427556	8.44828437154078E-06	0.433716880509838	-0.00111605302997943
