EC-Lab ASCII FILE
freq/Hz	Re(Z)/Ohm	-Im(Z)/Ohm	|Z|/Ohm	Phase(Z)/deg
6999984	40.9116592436104	69.850254278201	80.9495020663785	-59.6422708672611
5969734	39.7386589029396	65.7546114570453	76.8298766058568	-58.853422574925
5091109	40.8812465526831	65.5456901550109	77.2496849029041	-58.0479585065301
4341796	45.1262968587492	66.5255209649376	80.3867377609038	-55.8497543593091
3702781	52.757538798696	66.1952732552025	84.6473396004082	-51.4452043345984
3157797	59.9658039793891	65.5272567230017	88.824090316404	-47.5375061210912
2693047	67.2263396594723	64.6139563576536	93.2434667963365	-43.8648466543026
2296687	75.3546699474443	62.7727603049383	98.0752044055454	-39.7953394298726
1958656	83.0620700939251	59.9827211245797	102.456011643033	-35.8346827273615
1670375	90.5241902055618	56.5567976869376	106.739404050116	-31.9959056070307
1424531	97.0648925399942	52.2250548196417	110.222727759366	-28.2821478775974
1214875	102.609730007937	47.7119179754229	113.159992087288	-24.9376900950156
1036062	107.249586029551	42.754967609767	115.457615421515	-21.734661214584
883578.1	111.027413791896	38.7234257479321	117.586522675741	-19.2274208214033
753531.2	114.089036255246	34.6038324874199	119.221363087612	-16.8728393031573
642624.9	116.592114672285	30.8013321680966	120.592053084292	-14.7983310143271
548046.8	118.573444897142	27.3654445718842	121.690301139377	-12.9956911992865
467390.6	120.158141138119	24.347015896995	122.59998395129	-11.4544633782743
398593.7	121.400250631478	21.7039274302004	123.325104172999	-10.136247919861
339937.5	122.448229078844	19.4120783832455	123.977407585827	-9.00830028605461
289906.2	123.223727601828	17.5620796325686	124.46892658455	-8.1112775619978
247234.4	123.985493076645	15.9562148982	125.008012892519	-7.33332692692507
210843.7	124.541612887604	14.7098825134072	125.407312323501	-6.73612155790431
179812.5	125.050752799245	13.6582979820471	125.794435009758	-6.23325368985184
153343.8	125.582839594027	13.0322370154452	126.257232672532	-5.92460705519281
130781.2	125.999675505467	12.5754154983373	126.62566604934	-5.69953892002511
111531.3	126.427306269824	12.375551620226	127.031563198084	-5.5906838144438
95109.37	126.856670224595	12.3216090854313	127.453665427581	-5.5477457843189
81109.37	127.325805775289	12.4413971182499	127.932205400284	-5.58083065924093
69171.88	127.921157324865	13.0706220390647	128.587183077556	-5.83407399398419
59000	128.44235133645	13.7211513601322	129.173169085084	-6.09762885016642
50312.5	129.062885619133	14.637832588628	129.890317526866	-6.47062437479658
42906.25	129.640921199501	15.7221979248271	130.590795835858	-6.91477552800405
36593.75	130.361138683881	17.1352899046564	131.482487955905	-7.48830055135205
31203.13	131.143053159507	18.7825976179813	132.481267978821	-8.15059965547762
26609.38	131.964736047263	20.7713390431829	133.589446011542	-8.94500563842651
22703.13	132.853882487169	22.9530811855003	134.822097698495	-9.80219060698788
19359.37	134.007573195729	25.6289460541344	136.436331487087	-10.8270745926061
16500	135.182412572013	28.6037623467317	138.175467754513	-11.9472128116648
14112.02	136.442666180704	31.9866827864031	140.141888920397	-13.1937684386412
12011.13	137.87211925777	35.9680842874653	142.486576055217	-14.6214360246584
10236.38	139.53536706317	40.5007132901223	145.29427531208	-16.1855878870538
8750.684	141.331416649759	45.5664978871868	148.495370506729	-17.869780137107
7449.463	143.207410980427	51.54800638878	152.202363721378	-19.7965168809949
6363.206	145.40769606864	58.2034495849843	156.623879467921	-21.8151216777542
5414.761	147.951121093193	65.8836207180898	161.957357695345	-24.0037287819067
4620.567	150.825791955949	74.8979990998699	168.398722644512	-26.4083581635574
3941.215	153.701969137911	84.656799514331	175.473841414842	-28.8453310127432
3361.769	157.264390932312	96.1441867395357	184.32523782466	-31.4396896386736
2867.244	161.07398522235	109.104254650006	194.54708195741	-34.1119418768519
2442.658	165.515160783984	124.372725582097	207.035850320826	-36.9222253774552
2083.003	170.811081403974	141.430893579532	221.763665168801	-39.6246209252354
1777.843	176.652931981481	160.749785059088	238.844618474432	-42.3014167187292
1513.548	183.145195100174	183.485221665782	259.246965378617	-45.0531382030922
1292.065	190.755540371416	208.845362600557	282.849892455608	-47.5919944074082
1101.762	199.722470675019	237.875527469411	310.602369375033	-49.9828728019757
939.101	209.577443717064	270.418007339503	342.123667127029	-52.2238539781812
801.2801	221.253624755039	308.252218983485	379.437210847178	-54.3304192556489
684.3433	234.854446993836	350.254932608333	421.705026160762	-56.1571863234424
582.9476	250.795413221318	399.646200157845	471.821390563692	-57.889936746633
497.0677	268.825958579799	454.746070738873	528.26260974897	-59.4102802560126
423.5089	289.516193288355	517.504134943691	592.984110967569	-60.7752949071323
361.5036	313.906796869748	588.939712742207	667.373555339061	-61.9422380484753
308.1262	342.183378554938	669.524919188196	751.899648871598	-62.9291578505881
262.7298	374.038873805343	760.888505539306	847.85399508371	-63.8221125742995
224.2111	412.70878934076	863.600359539849	957.148956953134	-64.4571789944225
191.2854	456.227122134636	979.883493339161	1080.88613992863	-65.0336318321036
163.1722	508.525923322656	1110.16744456691	1221.09392336027	-65.3892667355413
139.1537	565.703428367142	1257.28872720686	1378.69333516478	-65.7751538105619
118.6706	633.450611970405	1422.48038027413	1557.14806941103	-65.9959144490258
101.1982	711.114981185168	1609.84525226072	1759.91086498503	-66.167572604447
86.24196	802.069533381388	1819.77218304731	1988.68960236921	-66.2143832563092
73.61024	904.806072176647	2050.78696973467	2241.51761614341	-66.1929546347713
62.69291	1022.79040929331	2315.0003139758	2530.87468576585	-66.1636764914401
53.57697	1157.8614716355	2601.10830353841	2847.17537117656	-66.0041650412757
45.65746	1312.98179863716	2926.79406902436	3207.80995790409	-65.8386375342624
38.96512	1487.69234108035	3285.87751134623	3606.96818966844	-65.6411962780603
33.18414	1686.56288907985	3693.43556510474	4060.29071033122	-65.4567611638077
28.30617	1908.73453397322	4138.64159271459	4557.58946748488	-65.2409279623819
24.17237	2157.75927180678	4632.96494880464	5110.80123776307	-65.0266990427825
20.61345	2439.75078799512	5185.07948204087	5730.39554852927	-64.8014693335166
17.55618	2752.48973325997	5804.89723529335	6424.40905017869	-64.6312435725832
14.98558	3100.03109660257	6490.55592686465	7192.87905081552	-64.4698413616949
12.76553	3484.62586328908	7258.8677742186	8051.94254641031	-64.356624901377
10.8809	3924.74500805126	8118.0334394748	9016.98898206349	-64.1980874794643
9.278505	4409.28826162759	9081.07805330191	10094.9394046863	-64.1012576120872
7.923394	4913.5215878598	10136.2235792301	11264.3562995186	-64.1382706856527
6.75822	5500.86642131503	11336.8652538594	12600.9541372594	-64.1164409936582
5.761429	6148.71964814321	12687.705337713	14099.0999729804	-64.144229446722
4.919708	6851.78138995533	14197.4461924907	15764.3390792132	-64.2377361588874
4.191257	7674.02772255909	15930.4584608365	17682.4830908739	-64.2789318243573
3.564097	8567.11921699095	17867.3810832615	19815.1164127952	-64.3830382557326
3.051758	9536.6465786369	20004.9927103469	22161.8447180477	-64.5122402385345
2.604164	10641.1669954576	22394.5982628983	24794.2022735523	-64.5844902165006
2.214424	11927.5981433201	25227.2158935048	27904.8386342949	-64.6948991836223
1.892567	13269.1712536737	28223.2288517077	31186.8810972689	-64.8194029125042
1.607507	14910.1637183968	31766.2853078551	35091.4500180521	-64.856014915613
1.376413	16613.8987039039	35592.4649526853	39279.0681095123	-64.9777111512988
1.17375	18548.264725046	39949.8877727219	44045.7904613309	-65.0951102035211
1.001604	20785.0532355919	44826.6959736787	49411.0423885492	-65.1239872763957
