EC-Lab ASCII FILE
freq/Hz	Re(Z)/Ohm	-Im(Z)/Ohm	|Z|/Ohm	Phase(Z)/deg
6999984	11.4465982962073	-2.77557976701438	11.7783044449444	13.6300528813215
5969734	7.1789506972237	-1.98131649483879	7.44734504141502	15.4289570115378
5091109	4.92981892253927	-1.2167591312755	5.07775712225079	13.8644269969977
4341796	3.93928201304809	-0.750314099767945	4.01010149829587	10.7839423297886
3702781	3.2884541662135	-0.365281524198377	3.30867970574482	6.338431552304
3157797	2.54548899363124	1.14040847082311	2.78927332777247	-24.1329307647087
2693047	2.51060445083647	0.990473134152354	2.69892047641969	-21.5300178788971
2296687	2.50293510091446	0.8611542790975	2.64693611781577	-18.9861769417635
1958656	2.51727748320157	0.75013190637542	2.62666781386533	-16.5937057245254
1670375	2.52914313430967	0.644063204819218	2.60986252619324	-14.2870807737319
1424531	2.54259919803307	0.537759719933929	2.59884516626555	-11.9420676506645
1214875	2.55248206961748	0.441687604354224	2.59041553723701	-9.8173797181368
1036062	2.5618754290213	0.352956253270071	2.58607498548389	-7.84440528018176
883578.1	2.55016671709987	0.287482148146028	2.56631959632985	-6.43184086164418
753531.2	2.54228807461848	0.243408701992752	2.5539139473665	-5.46905346890445
642624.9	2.53088242223897	0.207551012821098	2.53937851808691	-4.68818533273892
548046.8	2.52433537702243	0.175183694596382	2.5304067701734	-3.9698446537138
467390.6	2.51891102545474	0.148812195151324	2.52330295913574	-3.38098957159928
398593.7	2.51543926984262	0.12524007182262	2.51855510081803	-2.85032007245368
339937.5	2.51035548116995	0.106632695198164	2.51261918593432	-2.43229808653536
289906.2	2.5066272613768	0.0905218469441897	2.50826123684347	-2.06822408773318
247234.4	2.5053672894147	0.0789397153398018	2.50661060668128	-1.80469214986275
210843.7	2.50423526645455	0.0678328013515517	2.50515379940911	-1.55160465963977
179812.5	2.50324833713221	0.0598178396639442	2.50396294127873	-1.36888440806799
153343.8	2.50323451616923	0.0516553913822506	2.50376742578056	-1.18215688967706
130781.2	2.50403588108628	0.0458745112625158	2.5044560616132	-1.04955440236095
111531.3	2.5050962869346	0.0401567255933573	2.50541812267412	-0.918373423334572
95109.37	2.50538919572618	0.0346721145847848	2.50562909816901	-0.79286644535337
81109.37	2.50640001411664	0.0303762481096717	2.50658407942226	-0.694360676425503
69171.88	2.50685896151814	0.0271377079890501	2.50700584525419	-0.620224521397936
59000	2.50845218542729	0.0231158881728244	2.50855869193068	-0.527977113170503
50312.5	2.50817095365198	0.0202213273806651	2.50825246632482	-0.461918918209147
42906.25	2.50987183408358	0.0179413538574393	2.50993595848666	-0.409561290044958
36593.75	2.5105052523702	0.0149528816665473	2.51054978258718	-0.341256756752012
31203.13	2.51030879638237	0.0136746909850295	2.51034604195681	-0.312110737488384
26609.38	2.51085615235946	0.0113681370916753	2.51088188738186	-0.25941025137959
22703.13	2.51153612546479	0.0102190347648696	2.51155691517955	-0.233125984415302
19359.37	2.51172290872996	0.00858575036660717	2.51173758289918	-0.19585175668683
16500	2.51193975172753	0.00733550286422535	2.51195046247159	-0.167317770939961
14112.02	2.51236873586083	0.00576763242778733	2.51237535621466	-0.131533405366167
12011.13	2.51292118316326	0.00613419100280731	2.51292867011578	-0.139862149059307
10236.38	2.51272806954649	0.00420162195380041	2.51273158238477	-0.0958062209803284
8750.684	2.51238472122475	0.00367603098913378	2.5123874105415	-0.0838330646397001
7449.463	2.51256448265636	0.00316354397363096	2.51256647424833	-0.0721404857313473
6363.206	2.51260484197353	0.00283423453946631	2.51260644049049	-0.0646299830654339
5414.761	2.51235449455707	0.00197927975885549	2.51235527421371	-0.0451386750723272
4620.567	2.5121214708294	0.00149003060909454	2.51212191272504	-0.0339842066660054
3941.215	2.51285788032141	0.0016083463622078	2.51285839502974	-0.036671968871698
3361.769	2.51361823519751	0.00148049441601487	2.5136186711952	-0.0337466010683647
2867.244	2.51376392094511	0.000924077758064753	2.51376409079393	-0.0210623410786216
2442.658	2.51388633569493	0.000502590994857759	2.5138863859354	-0.0114549102853545
2083.003	2.51360745912841	0.000245304687104244	2.51360747109814	-0.00559153465676957
1777.843	2.51613345782767	0.000809615535826553	2.51613358808254	-0.0184360457851906
1513.548	2.51574767669176	0.00142240590057032	2.51574807880649	-0.0323950795733204
1292.065	2.51473397215914	0.00166796494650435	2.51473452532038	-0.0380029612889428
1101.762	2.51556607159096	0.000908333214437304	2.51556623558371	-0.0206886465454813
939.101	2.51493652744957	0.00043138756977158	2.51493656444757	-0.00982795651903491
801.2801	2.51576085077445	0.000402018838951836	2.51576088289577	-0.00915587129576851
684.3433	2.51535617346094	0.000870445830033842	2.51535632407101	-0.0198273591991068
582.9476	2.51538868332211	0.000612189524440177	2.51538875781875	-0.0139445150376011
497.0677	2.51585350425753	-7.28189141646349E-05	2.51585350531137	0.00165837018814225
423.5089	2.51648325554734	-0.000259309759744046	2.51648326890756	0.00590401495203581
361.5036	2.51645900704084	0.000423399264847934	2.51645904265972	-0.00964012949463513
308.1262	2.516928719529	0.000234632299185128	2.5169287304654	-0.00534120825016132
262.7298	2.51760729630624	0.000302583166056623	2.51760731448949	-0.00688619639318292
224.2111	2.51745429437037	0.000455812796973978	2.51745433563533	-0.0103740311344182
191.2854	2.51683487452726	0.000229148000302862	2.51683488495877	-0.00521655727112604
163.1722	2.51734031759122	-8.91268367191404E-06	2.517340317607	0.00020285662409854
139.1537	2.51734635344681	-1.26638431208397E-05	2.51734635347866	0.000288233981883456
118.6706	2.51771989219449	-0.000185453787316915	2.5177198990247	0.00422037388738153
101.1982	2.51738789819435	0.000376245525461372	2.51738792631093	-0.00856335272151192
86.24196	2.51782572606691	0.000170799352106752	2.51782573186009	-0.00388671936383843
73.61024	2.51819016450035	0.000108091524962547	2.51819016682023	-0.0024593806555956
62.69291	2.51894833825121	7.99651233619158E-05	2.51894833952048	-0.00181887973078578
53.57697	2.51939440473111	2.27503960117528E-05	2.51939440483382	-0.000517386905059982
45.65746	2.51960871522514	-2.42691483027578E-05	2.51960871534202	0.000551879250805755
38.96512	2.52013311502208	0.000222733825921215	2.52013312486489	-0.00506390240689595
33.18414	2.52053156359398	-8.22688899991404E-05	2.52053156493659	0.00187010559541725
28.30617	2.52073857621248	-6.47567657276106E-06	2.5207385762208	0.000147190565737928
24.17237	2.52160711162856	4.0595882431109E-05	2.52160711195535	-0.00092241678649481
20.61345	2.52221923677552	4.81169060460647E-06	2.52221923678011	-0.000109304361788477
17.55618	2.52261237481747	-0.000116393208926056	2.52261237750266	0.00264362440194464
14.98558	2.52299663983794	-5.11299902444371E-06	2.52299663984313	0.000116113220338473
12.76553	2.52277022069177	-0.000113403945452454	2.52277022324064	0.002575568475039
10.8809	2.52254044982616	5.43383465429639E-05	2.52254045041141	-0.00123421526198485
9.278505	2.52276453493325	0.000150789521489916	2.52276453943971	-0.00342465697699738
7.923394	2.522894491241	0.000238677172608664	2.52289450253097	-0.0054204385729454
6.75822	2.52318781451818	-0.0001874328624366	2.52318782147982	0.00425616827971673
5.761429	2.52330745050314	0.000158101386381672	2.52330745545618	-0.00358994785244129
4.919708	2.52301638611625	8.55682269187596E-05	2.52301638756727	-0.00194318922697516
4.191257	2.52325154568462	-8.6734248665524E-05	2.52325154717532	0.00196948512498269
3.564097	2.52313260641841	-0.000156406038407064	2.52313261126612	0.00355169833595394
3.051758	2.52312914120339	3.45296026192265E-05	2.52312914143967	-0.00078410592066582
2.604164	2.52342510977465	9.13878086620287E-05	2.52342511142949	-0.0020750113457743
2.214424	2.52331192152898	-8.62587872430886E-05	2.52331192300335	0.00195864189870984
1.892567	2.52269215864016	6.61602506872565E-06	2.52269215864884	-0.000150264197829907
1.607507	2.52274605238027	-1.05858637344405E-05	2.52274605240248	0.000240422659232072
1.376413	2.52395327558124	-0.000101335941643523	2.52395327761555	0.00230040778575861
1.17375	2.52443551945062	6.71087608011623E-05	2.52443552034262	-0.00152313209496854
1.001604	2.52575261038419	-2.20701273402032E-05	2.52575261048062	0.000500652813216494
