EC-Lab ASCII FILE
freq/Hz	Re(Z)/Ohm	-Im(Z)/Ohm	|Z|/Ohm	Phase(Z)/deg
6999984	19.5139933475299	1.78863864430922	19.5957945633076	-5.23705655512024
5969734	19.3458677463197	-0.803846112970972	19.3625609729558	2.37934590006717
5091109	11.2421135768464	-5.74166459893409	12.6234634724931	27.0546832043547
4341796	10.5069458264874	-7.09680566427053	12.6791388208018	34.0366437634158
3702781	6.03313316022757	-4.62977536709815	7.60483501982958	37.5023279562913
3157797	4.25664898978677	-4.9818637692713	6.55271144167289	49.4884617909794
2693047	3.71560733561338	-4.36814641321712	5.734670082905	49.6150396270797
2296687	2.48531433738904	-3.68225875154446	4.44250119515542	55.9828982917416
1958656	1.83405837906254	-3.31497385356523	3.78851181701082	61.0457882822136
1670375	1.58780518425991	-2.79904367260622	3.21803834413445	60.4351871599427
1424531	1.19225378580112	-2.35133228444826	2.63632938034036	63.11250434503
1214875	0.923965272149621	-1.87076968862884	2.08650210928025	63.7154278328461
1036062	0.84690557732541	-1.83106473173312	2.01743577560768	65.1784755627127
883578.1	0.682445969012151	-1.50645754809786	1.65382793689125	65.6288203896855
753531.2	0.624409973723859	-1.30286618300687	1.44476576167513	64.3935233833835
642624.9	0.594892338407144	-1.11734642395702	1.26584356277743	61.9684795154922
548046.8	0.559794460164217	-1.01702733528337	1.16091103808352	61.1706357857726
467390.6	0.463036506092658	-0.885167117430178	0.998961276403719	62.385650086127
398593.7	0.488683332846824	-0.745099022143916	0.89105777175338	56.7405891391785
339937.5	0.410078748646877	-0.654805243752624	0.772615355359781	57.9427061595645
289906.2	0.387504374266013	-0.584265257029242	0.701088817944446	56.4463237451773
247234.4	0.404709321476939	-0.464031530290443	0.615723067615641	48.906393966906
210843.7	0.366690022107043	-0.420665547903803	0.558051140583075	48.9216575625683
179812.5	0.368120825015908	-0.35861052041204	0.513920662321128	44.2502467151974
153343.8	0.368427447049909	-0.30025187861745	0.475278838528523	39.1784930676348
130781.2	0.375706961504809	-0.255374675092129	0.45428179096414	34.2046407185261
111531.3	0.376726625407618	-0.206077720845772	0.429407705240602	28.6796258888135
95109.37	0.369917748674687	-0.171703499873694	0.407825002486881	24.8991586832931
81109.37	0.356724322996088	-0.187580658133957	0.403036903921943	27.7372822031618
69171.88	0.339904071629656	-0.160760503947555	0.376003613732488	25.3122039578029
59000	0.338504721321188	-0.14419667177594	0.367937666606714	23.0730963535875
50312.5	0.331507532593099	-0.112768035874009	0.350162639470356	18.7866272008753
42906.25	0.373284484614665	-0.10414268463613	0.387539682119466	15.5885773236833
36593.75	0.343093813455102	-0.0965450254169738	0.356418723924443	15.7163583711534
31203.13	0.340854514079756	-0.0799711001106651	0.35011023495673	13.2038868733032
26609.38	0.334136657730687	-0.0761413493697577	0.342702219314789	12.8370678337045
22703.13	0.333899132721663	-0.065198066383737	0.340204965708111	11.0487118564965
19359.37	0.329983818264789	-0.0559076255723761	0.334686394873993	9.61604234892783
16500	0.332343465448584	-0.0583728811936796	0.337430840744034	9.96183383744518
14112.02	0.333371344097989	-0.0439550027374341	0.336256591506171	7.51112146033211
12011.13	0.326059079427366	-0.0456498530893967	0.329239171977006	7.96988303731541
10236.38	0.328567585510909	-0.0415398164532656	0.331183053007607	7.20550577240933
8750.684	0.321652965361932	-0.0343509119145344	0.323482016927501	6.095795385222
7449.463	0.320999820572581	-0.034468240479396	0.322845078031824	6.12880921337744
6363.206	0.322651509726261	-0.0262741264683741	0.323719518179413	4.65543220038026
5414.761	0.322913872105164	-0.0282422565625185	0.324146562304296	4.99840702837675
4620.567	0.317179632900176	-0.0234933851216766	0.318048516222236	4.23614283181912
3941.215	0.316738891388119	-0.0242308662599451	0.3176643829539	4.37466798386349
3361.769	0.315329971822812	-0.0227595858028858	0.316150264709195	4.12828123505456
2867.244	0.313554599018047	-0.0222399340095893	0.31434233127296	4.05710497999664
2442.658	0.310528728312662	-0.0199074220225509	0.31116618800741	3.66810674414847
2083.003	0.311119806446127	-0.0217244679556971	0.311877358060879	3.99429161691645
1777.843	0.307403866978128	-0.0208544500777737	0.308110443706722	3.88103103884837
1513.548	0.305047313248804	-0.0193518838406012	0.305660528574584	3.62992025301859
1292.065	0.306820195181344	-0.0188022170831159	0.307395763696181	3.50675151579932
1101.762	0.304100113060063	-0.012621997627014	0.304361945037877	2.37675784970656
939.101	0.300969061908133	-0.0312113858033974	0.302583090786035	5.92057916189304
801.2801	0.313786517153902	-0.0207078560611163	0.314469066285103	3.77567154877515
684.3433	0.312082196427208	-0.00407072204866746	0.31210874403776	0.747309425146928
582.9476	0.311929131594387	-0.0199274419002873	0.312565010962388	3.65534582813531
497.0677	0.308361022711012	-0.0127355319148723	0.30862390396814	2.36501278786417
423.5089	0.29646831157138	-0.0194607306271896	0.297106344265027	3.75561344228321
361.5036	0.296331410131617	-0.0190546978577526	0.296943405619729	3.67916712142567
308.1262	0.296162702196381	-0.00737029478279518	0.296254396452521	1.42556654978248
262.7298	0.292659344449934	-0.0145010276382237	0.293018381157956	2.83663841326375
224.2111	0.291892228168231	-0.010749990074676	0.292090114779019	2.10917166247779
191.2854	0.297200371216778	-0.0137347995407728	0.297517571531188	2.64598097735602
163.1722	0.293863702545326	-0.0137398932915222	0.294184738457504	2.67697226449464
139.1537	0.294947113805072	-0.0133991563909754	0.29525131216293	2.60110233917901
118.6706	0.289234111947443	-0.0135397632385592	0.289550853396397	2.68020030871241
101.1982	0.289581518103794	-0.0105087997133297	0.289772135476675	2.0783293443659
86.24196	0.283635177828248	-0.0103722258694433	0.283824764901071	2.09431028318769
73.61024	0.268250976403275	-0.0198056273800094	0.268981131712293	4.22262618447419
62.69291	0.244698264944202	-0.0421553124696211	0.248302861916882	9.7746657145098
53.57697	0.283018856068621	-0.011020916952554	0.283233355205326	2.23000387780852
45.65746	0.293061960585577	-0.0012987887774081	0.293064838550363	0.253921143814898
38.96512	0.276512735175833	-0.00100900829752943	0.276514576129658	0.209074132908182
33.18414	0.284105727659156	-0.00341248980450707	0.284126221203543	0.688165856744549
28.30617	0.274591276760397	-0.00170964467922703	0.27459659895533	0.35672713288256
24.17237	0.274100990918725	-0.0127559920157337	0.274397646773678	2.66448350343418
20.61345	0.287924877975939	-0.0172100625550388	0.288438765790258	3.42065658567178
17.55618	0.278582217479782	-0.0245908927844559	0.279665449964577	5.04451408806652
14.98558	0.271941221983901	-0.00498782525027251	0.271986960376458	1.05077594838017
12.76553	0.273500805363848	-0.0091065720935709	0.273652371065864	1.90703444418682
10.8809	0.271798688426476	-0.00791417847768049	0.271913885727318	1.66785550444064
9.278505	0.275246901680214	-0.00978650584202182	0.275420828154215	2.03631492220675
7.923394	0.288112647611112	-0.0102207298961204	0.288293879631695	2.03170261195595
6.75822	0.269036615180009	-0.00528846114699707	0.269088587882912	1.12611989843988
5.761429	0.277230656887931	-0.00731975786854005	0.277327272322373	1.51243669180683
4.919708	0.276467333504566	-0.0055864314904362	0.276523768801024	1.15758845942185
4.191257	0.264502089068079	0.00318607645456979	0.264521277413656	-0.690126518319486
3.564097	0.276602476220867	-0.0197723089568485	0.2773082653889	4.08870589422928
3.051758	0.258024538957215	0.00976581262979487	0.258209282947774	-2.16751824658714
2.604164	0.288524529846904	-5.51004822656647E-05	0.288524535108265	0.0109419640896857
2.214424	0.264191772040583	-0.0223321897092616	0.265133964461655	4.83173876239335
1.892567	0.251028836950698	0.00231683852980717	0.251039528205407	-0.528789051661983
1.607507	0.280402545269493	0.0068848870259208	0.280487056854625	-1.40653403774383
1.376413	0.26610072946538	0.00143778018161614	0.26610461370269	-0.30957425332934
1.17375	0.290454071180827	-0.017022884464441	0.290952480761046	3.35414478002402
1.001604	0.277572558490377	-0.0137699653841369	0.277913902447456	2.84003089636872
