EC-Lab ASCII FILE
freq/Hz	Re(Z)/Ohm	-Im(Z)/Ohm	|Z|/Ohm	Phase(Z)/deg
6999984	17.8095181941151	-1.41059909649515	17.8652939555315	4.52864580764253
5969734	13.0583279047259	-7.82548257353008	15.2236035542169	30.9330517083291
5091109	12.2811785517337	-3.96607874597795	12.9057013462602	17.8973222183189
4341796	7.24236693934856	-5.45184957567481	9.06501752231923	36.9714023450113
3702781	8.53707277498559	-4.30487220981065	9.56104263708725	26.7598104750907
3157797	4.38185194184659	-5.09472301584332	6.71988311270578	49.3019468399304
2693047	3.45134095438919	-4.25111811392958	5.47574283563648	50.9280067920897
2296687	2.56533054830295	-3.84813069656003	4.62482763785461	56.3108593336745
1958656	1.82293543075063	-3.21317338419	3.69426268442744	60.4323796667465
1670375	1.31471675834398	-2.86450873981676	3.15180749335315	65.3464094924655
1424531	1.14845479142397	-2.44591930044358	2.70212317117986	64.8481080980402
1214875	1.33950805185124	-1.9859774027868	2.39549328226027	56.0010037580677
1036062	0.796809522490514	-1.80776945179531	1.97558492755332	66.213581115396
883578.1	0.685647524596486	-1.5667126940836	1.71017577862277	66.3641544239564
753531.2	0.663697622942248	-1.34894766223325	1.50338096640331	63.802288234588
642624.9	0.597024835183378	-1.17066076850959	1.31411007482372	62.9788905872054
548046.8	0.548807460690938	-1.0154839851755	1.15429517587919	61.6114695133462
467390.6	0.513180627702032	-0.882595411140234	1.0209451583775	59.8243568545537
398593.7	0.480860940139204	-0.764135865367818	0.902845980493341	57.8183170222416
339937.5	0.455858059512866	-0.667047718212215	0.807935163732188	55.6514364776805
289906.2	0.43374591183871	-0.577007589994712	0.721854053772853	53.0672249343019
247234.4	0.415060634656815	-0.500126385978642	0.64992440513784	50.3103296410489
210843.7	0.401379768780886	-0.433170497560969	0.590544154779145	47.1815274429764
179812.5	0.390074451199196	-0.371652111708592	0.538779518556348	43.6145729598115
153343.8	0.38181643430968	-0.323290778411394	0.500300626538487	40.2551838970887
130781.2	0.375376530869092	-0.281123212110489	0.468975266207753	36.8299046879258
111531.3	0.36835868991768	-0.244995734579576	0.442392398668937	33.6279185906813
95109.37	0.361614182193492	-0.213553014247371	0.419963934948712	30.5641814798239
81109.37	0.354787766507584	-0.186468325530199	0.40080518420983	27.7253875993349
69171.88	0.348369401465856	-0.162029959753376	0.384206907453991	24.9435915603055
59000	0.339495287971298	-0.136714873166751	0.365989080574428	21.9346635921303
50312.5	0.333012997958093	-0.106736675592864	0.349700407099639	17.7715923597554
42906.25	0.362123473422346	-0.107427287822792	0.377722162670428	16.5234782875763
36593.75	0.346746205754568	-0.0974932036965782	0.360191415739203	15.704171558851
31203.13	0.340690408979104	-0.0850558852994756	0.351147345703234	14.0177676917086
26609.38	0.336195626508377	-0.0735116521801487	0.344138725355946	12.3340223487356
22703.13	0.335869179579921	-0.0653544250474079	0.342168535468951	11.0111888504934
19359.37	0.333305382614746	-0.0585473986779029	0.338408445479589	9.96276202907329
16500	0.330788440019942	-0.0522192514500912	0.334884819412338	8.97085176456486
14112.02	0.3284636977864	-0.0466754366827464	0.331763465669504	8.08771180788406
12011.13	0.326899716612904	-0.0417446397537206	0.32955430458388	7.277205710892
10236.38	0.32486644994065	-0.037449168018617	0.32701781370795	6.57577931893695
8750.684	0.324898125299887	-0.0337674475436049	0.326648178223898	5.93358530384251
7449.463	0.321912408301678	-0.028750563006098	0.323193739870923	5.1036456243552
6363.206	0.320501424119767	-0.0259224074084208	0.32154802762363	4.62406218813905
5414.761	0.318562602508116	-0.024409295136511	0.319496393415959	4.38162598332756
4620.567	0.317941572067562	-0.0225055865185763	0.31873710903084	4.04894491507838
3941.215	0.316496083084227	-0.0217482179802712	0.317242424011946	3.93093451688867
3361.769	0.315491915209022	-0.0210559804052756	0.316193774247824	3.81826695013856
2867.244	0.313777480477252	-0.0199849851083548	0.314413274027089	3.64433644410188
2442.658	0.31263834616987	-0.0190486473262573	0.313218113238669	3.48664699972597
2083.003	0.310957618978387	-0.0184446869470707	0.311504168956505	3.39456523359711
1777.843	0.309127182296589	-0.0180731169541606	0.309655053876192	3.34598815285253
1513.548	0.306741484858234	-0.0167149815721796	0.3071965643395	3.11908139612026
1292.065	0.305765066430051	-0.014646837375086	0.306115673715127	2.74250087456596
1101.762	0.305287449766948	-0.013693887602453	0.305594420012662	2.56832170484619
939.101	0.304125818016589	-0.0111219479821084	0.304329116108164	2.09438591361665
801.2801	0.30173330351123	-0.0130378484136953	0.302014853838447	2.47420250079784
684.3433	0.301936464427236	-0.0132485063294067	0.302226986668597	2.5124388392559
582.9476	0.301438564477519	-0.0127956354703645	0.301710020452351	2.43066458386144
497.0677	0.300365254812697	-0.0128898458273471	0.300641704399355	2.45727790048747
423.5089	0.29853772508095	-0.0118672620889752	0.298773501512428	2.27638309245098
361.5036	0.297737831810758	-0.0120515145250157	0.297981636168603	2.31789216583482
308.1262	0.296732112795203	-0.0120221360810135	0.296975552057497	2.32007628094986
262.7298	0.295559034584067	-0.0114932721174004	0.295782417036967	2.22691334346159
224.2111	0.294877516784264	-0.0114231807523192	0.295098693598183	2.21845648640545
191.2854	0.295092592126809	-0.0108820269477038	0.295293170321648	2.11191956806324
163.1722	0.293487216084608	-0.0103931547784922	0.293671182909292	2.02814683587937
139.1537	0.290788455180415	-0.0122250409869619	0.291045318281097	2.40735494188214
118.6706	0.288890727982888	-0.0118003643368557	0.289131633193198	2.33906925890065
101.1982	0.290091466041471	-0.0108590198158445	0.290294638223738	2.14375711386527
86.24196	0.287499392928397	-0.00911336294516194	0.287643797635838	1.8155949637463
73.61024	0.299539486627796	-0.0185156646155725	0.300111202532328	3.53716755331163
62.69291	0.252411352259999	0.0317027837759741	0.254394491388606	-7.15884408957388
53.57697	0.282039118070326	-0.0206864842577413	0.282796737521551	4.1949133618393
45.65746	0.30420076191631	-0.0143198232628599	0.304537618183276	2.69512872406454
38.96512	0.276651407429156	-0.00311947087756348	0.27666899416286	0.646029394575038
33.18414	0.286161473462183	-0.00424555125750983	0.28619296567094	0.849989764570118
28.30617	0.267809927182813	-0.00485687171400629	0.267853964503999	1.03897473667386
24.17237	0.276478682744502	-0.00867500824585277	0.276614746136573	1.79716692218151
20.61345	0.289054983177967	-0.00683508830430456	0.289135784247026	1.35458223558593
17.55618	0.286624571507417	-0.00691200113600682	0.286707901445905	1.38142989195017
14.98558	0.278448149415921	-0.00837860969448246	0.278574178655459	1.72353153226688
12.76553	0.275550483678361	-0.00669000993123167	0.27563168411534	1.39079431415379
10.8809	0.277931782691147	-0.00722988537461135	0.278025802889604	1.49010852653059
9.278505	0.270626634945031	-0.00802425418471004	0.270745570964497	1.69835920449561
7.923394	0.268801166570564	-0.00873431723907732	0.268943033833057	1.86109125042646
6.75822	0.272852625737889	0.00287592951361635	0.272867781796656	-0.603888348743166
5.761429	0.265205788027747	-0.0134241532107845	0.265545321730293	2.89771743309808
4.919708	0.275096712201166	-0.0120958243244793	0.275362506579926	2.51763671237333
4.191257	0.270075131201855	-0.00699170525489742	0.270165616679973	1.48294197042909
3.564097	0.26590849735171	-0.0114273688846039	0.26615392862678	2.46076148388187
3.051758	0.279661823980736	-0.00342817404659874	0.279682834956895	0.702312757664124
2.604164	0.267322837526919	-0.00654294185117292	0.267402897425423	1.40208043680228
2.214424	0.270513486926437	-0.00319522124837136	0.270532356748551	0.676728473238147
1.892567	0.269895459275673	-0.00372097134405882	0.269921108039682	0.789870449042631
1.607507	0.260018329254385	0.00517241546647792	0.260069770311737	-1.13960617902167
1.376413	0.267119776155624	-0.0040153610568765	0.267149954029283	0.861208851156574
1.17375	0.265605189744146	-0.00863929320400111	0.265745656984434	1.8629928973485
1.001604	0.262546324182035	-0.00427437970026786	0.262581116349444	0.932720286524648
