EC-Lab ASCII FILE
freq/Hz	Re(Z)/Ohm	-Im(Z)/Ohm	|Z|/Ohm	Phase(Z)/deg
6999984	19.8457285365524	0.407799583670644	19.8499179254468	-1.17717559460619
5969734	12.6269669721979	0.0877904150220672	12.6272721549013	-0.398348964360484
5091109	12.1327244002518	-5.93928623477266	13.5084463337212	26.0829582429688
4341796	15.0942450592299	-3.85622269004232	15.5790464195754	14.3311756056451
3702781	5.8757236569206	-5.35056095836397	7.94686296985579	42.321670776787
3157797	4.22378548299307	-4.98848205283661	6.53646058641953	49.7451583423539
2693047	3.38980294921125	-3.7677263886441	5.06818766169588	48.0224575988899
2296687	2.28903993480994	-3.50514589947645	4.18637690608135	56.8534045290398
1958656	1.74289820977088	-3.35890408084663	3.78416844154045	62.5757001867719
1670375	1.42239457041545	-2.78787396792833	3.12976797462685	62.9689784173497
1424531	1.2012544001724	-2.4840114352013	2.75922542466982	64.1918422394974
1214875	0.832860214546116	-1.90880418798607	2.08259203039073	66.4271224856413
1036062	0.796422874240296	-1.86934556261324	2.03193066492806	66.9238768940197
883578.1	0.680015860251207	-1.53333558448614	1.67736089880641	66.0832905127833
753531.2	0.693929518929086	-1.30531475208027	1.47830469769921	62.0040601945699
642624.9	0.628509488509276	-1.15854144576365	1.31804493804207	61.5201400408024
548046.8	0.54380149035303	-1.03845440012682	1.17222335843171	62.3605545347003
467390.6	0.495140750428872	-0.85795256616066	0.990579107652149	60.0099378843966
398593.7	0.46514003347856	-0.742227567066807	0.875932081875272	57.9254028341516
339937.5	0.439161727423245	-0.655791848533723	0.789256594167351	56.1911111544921
289906.2	0.444120917992415	-0.544961315626922	0.70301225119357	50.8213908055717
247234.4	0.419264721287032	-0.471868928848564	0.631223567786077	48.378287307978
210843.7	0.392425885859764	-0.445834777199833	0.593941684387992	48.6456122264522
179812.5	0.42545799636323	-0.371294825794242	0.564689608839219	41.1110224148315
153343.8	0.408041979261186	-0.333775893780962	0.527166580986187	39.282960462421
130781.2	0.37805159079857	-0.28940728829008	0.476108794101461	37.4348965533824
111531.3	0.367548536736518	-0.236192553367271	0.436896840367731	32.7254470379928
95109.37	0.389892201931585	-0.20646561901184	0.441184746972288	27.9032508876773
81109.37	0.357359239358921	-0.183407841646488	0.401676564330818	27.1683007351292
69171.88	0.359245124272194	-0.147745783853762	0.388440311965566	22.3557646532396
59000	0.344405256966877	-0.139623269061456	0.371631051299308	22.0678304428746
50312.5	0.344021186182305	-0.0957162253497154	0.357088465702097	15.5480405596778
42906.25	0.366707786079016	-0.110801957131469	0.383081811203739	16.8123636078812
36593.75	0.360564227200335	-0.107171377738484	0.376154577458443	16.5536559746458
31203.13	0.358413571956897	-0.0942471575114631	0.370597915889839	14.7327674538303
26609.38	0.343638575005965	-0.0643492648411455	0.349611638990647	10.6062910358304
22703.13	0.346074646291678	-0.0553586113838127	0.350474302424948	9.08812476607224
19359.37	0.355275084898671	-0.051795240043474	0.359030824360415	8.29466416348532
16500	0.343263072114335	-0.0422939147871047	0.345858803423291	7.02409014573706
14112.02	0.34179649477446	-0.0534159818257616	0.34594524271121	8.88234124437305
12011.13	0.345328472134981	-0.0442827940718873	0.348156171161583	7.30737766838359
10236.38	0.335976682941078	-0.0428161070076685	0.338693889078888	7.26249788429099
8750.684	0.33052861911888	-0.0320790885505111	0.332081670645739	5.54341651521889
7449.463	0.332486504036981	-0.0373627591348695	0.334579215040181	6.41164409936582
6363.206	0.333629063864156	-0.0355570483830119	0.335518488230656	6.08342522642513
5414.761	0.335950126514906	-0.022409408966718	0.336696701967244	3.81623696067041
4620.567	0.324093625859034	-0.0265171485531281	0.325176625066815	4.67748763774603
3941.215	0.331123527912187	-0.0268799109767958	0.332212763678841	4.64097418337793
3361.769	0.324801580691971	-0.0252359952978193	0.32578048173375	4.44276459077258
2867.244	0.325003502629873	-0.0224770630121617	0.325779826084027	3.95624492748858
2442.658	0.32177436501355	-0.0170307350946848	0.322224747525293	3.02969940712206
2083.003	0.321056873805527	-0.0212191657500421	0.321757314156035	3.78127106530696
1777.843	0.316640401415442	-0.0176507142692801	0.31713197808286	3.19057793458566
1513.548	0.315474553348852	-0.018714882246004	0.316029176862105	3.39497604433622
1292.065	0.312608831027676	-0.0165591400066989	0.313047099258644	3.03216942817686
1101.762	0.312664748993568	-0.0131186108883269	0.312939839609549	2.40257475499736
939.101	0.314614226334807	-0.013809480595029	0.314917152861754	2.51329197341285
801.2801	0.319188856892233	-0.0200804836784591	0.319819874599643	3.59978954848825
684.3433	0.314642588400023	-0.0159748629220125	0.31504786093615	2.90649457356169
582.9476	0.311781805525687	-0.00993970809677537	0.311940205895146	1.82599013702336
497.0677	0.303989066492183	-0.0139721172955246	0.304309994263265	2.63160890402295
423.5089	0.305003050171675	-0.0166940429233075	0.305459574548172	3.1329022840544
361.5036	0.305195141570331	-0.0119045988280555	0.305427231777704	2.23377623193166
308.1262	0.303456094035741	-0.0137939637736284	0.303769442906979	2.60265734663499
262.7298	0.301056600074053	-0.0151325582790368	0.301436677874835	2.87754072434255
224.2111	0.304217127288126	-0.0108022976393004	0.304408853632294	2.03363347972554
191.2854	0.297209125070903	-0.01233948404364	0.297465169207884	2.37743222103143
163.1722	0.297741818722366	-0.0108515860841405	0.297939503148951	2.08729498794411
139.1537	0.296129582517968	-0.0115993288015203	0.296356666992514	2.24311601695009
118.6706	0.295894192520064	-0.0106782367590003	0.296086808060376	2.06679455803433
101.1982	0.29721258958159	-0.00774879430551321	0.297313583979918	1.49345173526517
86.24196	0.293117521047019	-0.0149739758620978	0.293499746333567	2.9244258607181
73.61024	0.283645885904859	0.00171253227696551	0.283651055625661	-0.345923154218675
62.69291	0.281374062036555	0.0121012673677008	0.281634166000604	-2.46264536911226
53.57697	0.289875747063331	-0.019356704293568	0.290521308575865	3.82030381510025
45.65746	0.271847578262742	-0.0017668598828494	0.271853320011295	0.372385840240367
38.96512	0.298238245938126	-0.017492756483459	0.29875081233302	3.35675975940099
33.18414	0.280223194515372	-0.011015556800916	0.280439621373362	2.25113456129295
28.30617	0.293270617578672	-0.0238249689921111	0.294236782680974	4.64444401578524
24.17237	0.294394912959568	-0.0121800633073565	0.294646769401334	2.36915928342753
20.61345	0.278803555801305	-0.00211440696463274	0.27881157336858	0.434514805234276
17.55618	0.276187871021986	-0.00221866350990451	0.276196782326346	0.460256710349693
14.98558	0.283447797388709	-0.00808392802129381	0.28356305072552	1.63363216237968
12.76553	0.28213021584632	-0.00967977570080943	0.282296221638033	1.9650246485476
10.8809	0.282489095739068	-0.00837658037040528	0.282613262799498	1.69848009859038
9.278505	0.280081883936763	-0.00920610656061602	0.280233142414618	1.8825966483089
7.923394	0.274824727675821	-0.007161343031266	0.274918016463273	1.49266735604364
6.75822	0.281611520722483	-0.0139826069746913	0.281958440025189	2.84252211686195
5.761429	0.272867146417557	0.0105455659394726	0.273070848966059	-2.21322308990473
4.919708	0.266390663470491	-0.000668460023512831	0.266391502159981	0.143773273560429
4.191257	0.269517474280283	-0.00147331496874815	0.269521501182039	0.313203769074155
3.564097	0.276668936803021	-0.00940844518694394	0.276828863077082	1.94765829777718
3.051758	0.279300437160947	-0.00406706657703781	0.27933004712855	0.834260354220391
2.604164	0.260943291394604	0.00549945018557227	0.261001236158362	-1.2073452602666
2.214424	0.294901197187988	-0.0139397343952782	0.295230473186491	2.70630942247873
1.892567	0.272402778973084	0.00584587085646992	0.272465499097279	-1.22940127059016
1.607507	0.253976666811562	-0.00945068520575245	0.254152439955963	2.13104088856014
1.376413	0.312839479820912	-0.00866626452960237	0.312959493026678	1.58679916516348
1.17375	0.281105988881044	0.0169478857549905	0.281616419649767	-3.45018740339061
1.001604	0.25912614744336	-0.00687132909428853	0.259217236024845	1.51897414024928
