EC-Lab ASCII FILE
freq/Hz	Re(Z)/Ohm	-Im(Z)/Ohm	|Z|/Ohm	Phase(Z)/deg
6999984	20.5758544421878	-0.500110846718443	20.5819313205808	1.39234072724285
5969734	15.7446704153084	3.23315891050645	16.0732063704562	-11.6043376783247
5091109	12.4290918972097	-5.05344930881187	13.4171411003244	22.12579085343
4341796	12.0460003391779	-5.94366758768465	13.4325466150081	26.2623857060919
3702781	5.66312539780078	-5.69500476116731	8.0314424919148	45.1608141615311
3157797	4.07464944318139	-4.81973728188042	6.31131012953463	49.7885197882894
2693047	3.31761541520924	-4.31284381166571	5.44124928550946	52.4310469760564
2296687	2.42889065820395	-3.78281467480623	4.49546401314033	57.2960659919799
1958656	1.81783053748689	-3.22489630709061	3.70195408595333	60.5906306097616
1670375	1.42589034109226	-2.72293573529535	3.07368545615334	62.3607837178183
1424531	1.16508032697082	-2.38379513143954	2.65327936655175	63.9529188389279
1214875	0.64128167243652	-2.29427080981733	2.38220921251322	74.383558203505
1036062	0.828355542003964	-1.82115010070846	2.00069002928468	65.5414443259281
883578.1	0.728640198836919	-1.56944006564339	1.73033484014159	65.0960842317729
753531.2	0.656673318583355	-1.35100676000642	1.50214483753142	64.0773652720302
642624.9	0.594091794669652	-1.17279213442377	1.31468112143595	63.1349642905991
548046.8	0.564543884021903	-1.01383536680673	1.16041886746755	60.8891989168043
467390.6	0.529617876047953	-0.8762114690472	1.02383672190413	58.8495264619181
398593.7	0.500294561755867	-0.762130670775815	0.91166759724128	56.7174244555214
339937.5	0.472750576654918	-0.662077774960539	0.81353554797824	54.471613245103
289906.2	0.450834149913679	-0.572112306107753	0.72839818885574	51.7612936910161
247234.4	0.434576817853395	-0.495736848906375	0.659251116024239	48.7612866757111
210843.7	0.418757571288658	-0.429045262018283	0.59953126721791	45.6952233562055
179812.5	0.41038190751932	-0.368249772304813	0.551381179241496	41.9027183074094
153343.8	0.402173282267127	-0.319626353553468	0.513716220159925	38.4758462755761
130781.2	0.396436558679733	-0.277409045264927	0.483857131240852	34.9826543789563
111531.3	0.389459111343079	-0.241280817141301	0.458142807570429	31.7793733970948
95109.37	0.382922116163803	-0.210189443149444	0.436816836968126	28.7627849831987
81109.37	0.375129558955524	-0.182752921601597	0.417277864685014	25.974084802738
69171.88	0.370330438005429	-0.158652211465742	0.402883553295817	23.1906386452586
59000	0.36169887988641	-0.134036115775941	0.385735349745632	20.3333840646105
50312.5	0.35529948303722	-0.103782083338615	0.370146516218401	16.2829506051803
42906.25	0.385404827497205	-0.103817966743353	0.399142895811606	15.0761296012963
36593.75	0.369992502931162	-0.0943796204640368	0.381840234894388	14.3101365954079
31203.13	0.36409606618876	-0.0825152992701428	0.37332923810997	12.7692754673847
26609.38	0.359874193560794	-0.0703449746238096	0.366684947394703	11.0602053898669
22703.13	0.36013188258528	-0.0625852493312518	0.365529597007237	9.85864413854212
19359.37	0.357696914428077	-0.0557118363451825	0.362009518245473	8.8527766221443
16500	0.355612548793345	-0.049618384488473	0.359057473029799	7.94316028575051
14112.02	0.353834133987565	-0.0441112588070386	0.356573130687481	7.10620072735726
12011.13	0.352013415408364	-0.0393017251951216	0.354200607326942	6.37059740292265
10236.38	0.350558553561004	-0.0355257425107933	0.352354051850871	5.78662162939146
8750.684	0.349004142591746	-0.0319183938390504	0.350460661717495	5.22548509948977
7449.463	0.347568582212475	-0.0291160891608153	0.348785988808626	4.78853144210474
6363.206	0.346078639886273	-0.026355696184625	0.347080750988741	4.35496683007791
5414.761	0.344867655822501	-0.0243433896959753	0.34572575931567	4.03767598116375
4620.567	0.343037924678547	-0.0216953038383636	0.343723295655682	3.61883008193604
3941.215	0.342187047180909	-0.0209305628962401	0.342826579660246	3.50025130961356
3361.769	0.341358569226782	-0.0201161352842273	0.341950773772087	3.37251896355607
2867.244	0.340479810302671	-0.0171517340888143	0.340911547481156	2.88384784375135
2442.658	0.338727793032146	-0.0146862912796394	0.339046021837713	2.48263013700642
2083.003	0.340272494498195	-0.0133278991244072	0.340533410118735	2.243032365112
1777.843	0.332579742606968	-0.0243450753357315	0.333469590646014	4.18662495437494
1513.548	0.325172125938616	-0.0174773211182462	0.325641471930265	3.07656792772155
1292.065	0.324233759997626	-0.00991817641121052	0.324385420981773	1.75210780229903
1101.762	0.326277141543327	-0.0158033419703927	0.326659637407375	2.7729730619422
939.101	0.33214739614133	-0.00846375112626323	0.332255214927611	1.45969019718709
801.2801	0.329213456721477	-0.0216875816082641	0.329927039332212	3.76902581130943
684.3433	0.332375884338484	0.000433523762175811	0.33237616706473	-0.074731859247165
582.9476	0.322390308726798	-0.0144714730950022	0.322714943401293	2.57017063965108
497.0677	0.337856553757266	-0.00923434366580344	0.33798272739842	1.56562665576001
423.5089	0.332141086401287	-0.00583433597290743	0.33219232494456	1.00634479024116
361.5036	0.324907217521165	-0.0140151211627574	0.325209353522546	2.46996605086065
308.1262	0.323835391506476	-0.0117466484590959	0.324048367596836	2.07740860118912
262.7298	0.33194567614158	-0.00977729507801261	0.33208963761029	1.68713095058443
224.2111	0.320918749405375	-0.0148628160461454	0.321262738301116	2.65166357276812
191.2854	0.30099488943955	0.00817316430910786	0.301105835352871	-1.55541769376637
163.1722	0.336327943353391	-0.0333723925225691	0.337979588234264	5.66666775836066
139.1537	0.334767602098762	-0.021190232179671	0.335437584886941	3.62189540613999
118.6706	0.316947488959795	-0.028260146276652	0.318204881523676	5.09521798814662
101.1982	0.298833712946581	0.00104455687822721	0.298835538536686	-0.200273443879193
86.24196	0.300443725971079	-0.029193323985705	0.301858713044231	5.54985713379396
73.61024	0.307220480505063	-0.0439530784501777	0.310348669639502	8.14187923783573
62.69291	0.250211760749076	0.00530294862921216	0.250267949368905	-1.21413595605449
53.57697	0.293185768233082	-0.0150021719036959	0.293569344203802	2.92924214394397
45.65746	0.308826130049621	-0.037011730076444	0.311036085952542	6.83410307044963
38.96512	0.299579151580088	0.00129795127237955	0.299581963307124	-0.248237116008302
33.18414	0.307206638099373	-0.0097532732867463	0.307361423786598	1.81842995891661
28.30617	0.308387614393628	-0.0098773332113715	0.308545754180415	1.83449684140767
24.17237	0.308329071905848	-0.00989564360630295	0.308487828519546	1.83824398538782
20.61345	0.302651502596464	-0.0292556169898412	0.304062202763438	5.52130607390479
17.55618	0.279391489549632	-0.00965638794909039	0.279558312809663	1.97948094667654
14.98558	0.308577574026949	-0.0244294593947722	0.30954307887381	4.52654935507015
12.76553	0.315362061597016	-0.00366986681282329	0.315383413985492	0.666720619430597
10.8809	0.304479842470008	-0.00650927846302239	0.304549413357947	1.22470301667009
9.278505	0.30505218156955	-0.0180048092624864	0.305583060127553	3.37779647780702
7.923394	0.290857002067769	-0.0162458110340137	0.29131035345144	3.19693260949145
6.75822	0.294181265607166	0.00459677983061142	0.294217177301131	-0.895212177424203
5.761429	0.292866926601869	0.0114284257965525	0.293089825161863	-2.23469582919285
4.919708	0.292557948421448	0.0337119507788092	0.294493885861625	-6.57329841168403
4.191257	0.27972767291304	0.00764478415275926	0.279832117023917	-1.56546851940855
3.564097	0.311050477668908	-0.000984139000654528	0.311052034533819	0.181278689759236
3.051758	0.311955847127204	0.0325143085498605	0.31364570906889	-5.95029848272648
2.604164	0.281748189802147	0.0235679562172226	0.282732189566458	-4.78160323644602
2.214424	0.27991399706416	-0.00262118008402709	0.279926269466564	0.536515387529322
1.892567	0.291704927561014	-0.0138728785038048	0.292034623839978	2.72281633655644
1.607507	0.315767343607443	-0.00990643834406608	0.315922700687313	1.79692742582314
1.376413	0.321610169270466	0.0163403475203107	0.322025011350458	-2.90857899402037
1.17375	0.31433452978402	0.0232532971193642	0.315193452408934	-4.23082177277574
1.001604	0.290893029522605	0.0310579330593133	0.292546320829293	-6.0942426695972
