EC-Lab ASCII FILE
freq/Hz	Re(Z)/Ohm	-Im(Z)/Ohm	|Z|/Ohm	Phase(Z)/deg
6999984	22.6670070246248	-0.273689528647413	22.6686592769065	0.691776063811668
5969734	14.9232648662109	-9.88281247035648	17.8989892617242	33.5141979275037
5091109	12.0688040250541	-5.73383517847589	13.3616202778364	25.4121850930532
4341796	7.1983058892378	-7.31855962658776	10.2653262336351	45.4746116867684
3702781	5.76617500739991	-4.74591271748348	7.46809625928421	39.4564578123645
3157797	3.9849192451945	-4.9576532215151	6.36065302115439	51.2079768891024
2693047	2.76525674896127	-5.17763434380303	5.86979916912023	61.8943387768023
2296687	2.25465776156098	-3.94353413701675	4.54257009979853	60.2418711998655
1958656	1.72245411920629	-3.29323108933914	3.71647940940893	62.3891451286773
1670375	1.47334650622505	-2.82008936011569	3.18176899325569	62.4153292999148
1424531	1.17002228084108	-2.46129300362658	2.72523675803878	64.5750364128809
1214875	0.734591087868076	-1.96979669715289	2.10231374787153	69.5481381872779
1036062	0.794050113769409	-1.8375157194805	2.0017441401226	66.6292619957634
883578.1	0.740233830198325	-1.57630255741084	1.74145797419003	64.8451860132851
753531.2	0.659168886899813	-1.34636459263759	1.49906678896069	63.9140150046385
642624.9	0.60856252566184	-1.18345984875284	1.3307612713218	62.7867205427186
548046.8	0.56179061173545	-1.0203085048702	1.16474810003904	61.1624424893022
467390.6	0.527739716852097	-0.884593731827269	1.0300559592232	59.1801231097086
398593.7	0.496130768941825	-0.767146630089348	0.913597116867304	57.1083535591391
339937.5	0.471698691818841	-0.666592571047958	0.816605970857385	54.7157562911862
289906.2	0.450083120339314	-0.577729770531972	0.73235681397342	52.0794571546523
247234.4	0.431982958210769	-0.501013098853854	0.661531103885274	49.2314673015514
210843.7	0.422033465235282	-0.434675062657466	0.605850357658368	45.8453955943093
179812.5	0.407410061404225	-0.371881824503705	0.551614946796766	42.3896694079132
153343.8	0.399345594354587	-0.323465745780705	0.513913409461055	39.0071099319552
130781.2	0.392884270517379	-0.280614423743645	0.482806902221738	35.5360170174937
111531.3	0.385886561613611	-0.244390554507493	0.456766003076471	32.346991225575
95109.37	0.37933105148191	-0.21332160680307	0.435198982704941	29.3517741374373
81109.37	0.372656534710752	-0.18547579922771	0.416262134912346	26.4601019820357
69171.88	0.36636679457273	-0.161619105998889	0.400431471776853	23.8042019593304
59000	0.357184287622508	-0.135896498762061	0.382162888962527	20.830121284255
50312.5	0.350820629190802	-0.106373341729749	0.366592964603229	16.8679806210546
42906.25	0.380519915509827	-0.106568514149776	0.395161048570955	15.645449114428
36593.75	0.365131042177335	-0.096896809958038	0.377769334040695	14.8623246704653
31203.13	0.358955198244986	-0.084467749321302	0.368759589736327	13.241684899048
26609.38	0.354460079187382	-0.0729484710864944	0.361888694450907	11.6291983170554
22703.13	0.354434189775344	-0.0645320713234916	0.360260993046714	10.3188495691691
19359.37	0.351919788516322	-0.057861119775632	0.356644706579339	9.33678844915902
16500	0.349581779071077	-0.051374779404786	0.353336649977595	8.36038242258682
14112.02	0.347484674167009	-0.0459125022830128	0.350504717010827	7.52678612645099
12011.13	0.345802207858211	-0.0409281694509833	0.34821585548941	6.74996421823467
10236.38	0.343027467524232	-0.0370838177396666	0.345026162796731	6.17013665914022
8750.684	0.340953523485951	-0.0327688117524888	0.342524597950505	5.48979683291937
7449.463	0.343297320742451	-0.029242919658055	0.344540561877804	4.86884350920603
6363.206	0.341132016284937	-0.0266102154790862	0.342168315456692	4.46036069761884
5414.761	0.339566132872474	-0.0261652181542447	0.34057271945214	4.40621102935882
4620.567	0.337557003767745	-0.0248242179104593	0.338468569571125	4.20600697066862
3941.215	0.335844209176321	-0.0221264428423732	0.336572298786049	3.76937359669107
3361.769	0.334947653224655	-0.0204527894196513	0.335571522921341	3.49429312150199
2867.244	0.333650285698619	-0.0194748507312096	0.334218166708175	3.34051010337329
2442.658	0.332453366151844	-0.0186606795160133	0.332976668290275	3.21265342547425
2083.003	0.330578624657959	-0.0178443418149961	0.331059885240659	3.0897768967305
1777.843	0.330298917201702	-0.0161279015454939	0.330692430988189	2.79542956976455
1513.548	0.326729598310442	-0.0157735390755929	0.327110126634857	2.76392491244149
1292.065	0.325463943107474	-0.0143271870399634	0.325779137686168	2.52057942360912
1101.762	0.325066940544721	-0.0133428988082416	0.325340665739333	2.35047856747509
939.101	0.324586089509703	-0.0123650980304123	0.324821528154312	2.18162618637665
801.2801	0.323553353481852	-0.0126815384311557	0.323801781907285	2.24453523340863
684.3433	0.322956759828963	-0.0127376574458898	0.323207853611931	2.25861796305515
582.9476	0.32164678696122	-0.0126824829502281	0.321896724022255	2.25799401201625
497.0677	0.320142231038394	-0.0119177657968065	0.320363982425971	2.13193527567834
423.5089	0.318979026797579	-0.0123610115867594	0.319218442675511	2.2192041963281
361.5036	0.31821624791996	-0.0124089724204214	0.318458102482553	2.23314082173686
308.1262	0.316765235383637	-0.011644262928896	0.316979184185347	2.1052400260876
262.7298	0.315862472391918	-0.0120003018700525	0.316090348967676	2.17574477460963
224.2111	0.314701656322969	-0.0109684235136901	0.314892741749942	1.99614485119013
191.2854	0.31255258242875	-0.0108016888121188	0.312739177692969	1.97933083173422
163.1722	0.312689645787219	-0.0138351124625378	0.312995566932485	2.53342857512272
139.1537	0.310947986638059	-0.0129422086472247	0.311217208969766	2.38337665815591
118.6706	0.307706676421806	-0.00897274539548821	0.307837471524319	1.67027510520947
101.1982	0.312805275923111	-0.0148818222298949	0.313159079827196	2.72381328311997
86.24196	0.304874602456585	-0.010116306406833	0.305042395214793	1.90048324475729
73.61024	0.317673080198107	-0.00989415209233979	0.317827123021588	1.78394076443871
62.69291	0.252090960326794	0.0486459149593816	0.256741654821964	-10.9220996429285
53.57697	0.301325865649284	0.00035226425973615	0.301326071556046	-0.0669814591524304
45.65746	0.28525172180655	-0.00155209475208914	0.285255944358256	0.311751321063499
38.96512	0.308145230030828	-0.0106811248229417	0.308330292410971	1.98522771336171
33.18414	0.29551621750522	-0.00230526268103721	0.295525208814107	0.44694380679671
28.30617	0.297267181550142	-0.0222246463138993	0.298096816706491	4.27566144982267
24.17237	0.297772978916943	-0.00543585388903388	0.297822590614905	1.04581986345229
20.61345	0.302338367501414	0.00063896406653723	0.302339042696272	-0.121089129606066
17.55618	0.297461986227058	0.00394994131260151	0.297488210331971	-0.760775079248093
14.98558	0.288439079396028	-0.00414033696910547	0.288468793655476	0.822383512085125
12.76553	0.291318558666011	-0.0011108120785157	0.291320676449022	0.218470583452548
10.8809	0.301284103382611	-0.00487019056526044	0.301323463585572	0.926092883708369
9.278505	0.294052434983201	-0.0142068168155073	0.29439542823145	2.76603110529639
7.923394	0.289303626494106	-2.99353166578315E-06	0.289303626509593	0.000592860630060283
6.75822	0.289541362428202	-0.00780478312407697	0.289646534929029	1.54407255646498
5.761429	0.299827023415747	-0.00611019604323336	0.299889277010756	1.16747312730344
4.919708	0.288493907350301	-0.00216913222601563	0.288502061886667	0.430788230438965
4.191257	0.289027183624736	-0.0145818231923687	0.28939478647975	2.88820289595214
3.564097	0.293683801801901	-0.00690111814933612	0.293764873449038	1.34611506528949
3.051758	0.288714275935113	0.00070429215658231	0.288715134962091	-0.139767553727331
2.604164	0.284825032653799	-0.00118402305683708	0.284827493646306	0.238178268956986
2.214424	0.278755451734352	-0.00133410785363073	0.278758644198503	0.274212272242117
1.892567	0.280721276046544	-0.0174048318186038	0.281260311803557	3.5478199846387
1.607507	0.300219880707494	0.00314387640002897	0.300236341455928	-0.599974474044627
1.376413	0.279013290410527	-0.0278289123546992	0.280397690055668	5.6958691253473
1.17375	0.295252215988746	-0.00294211386997804	0.295266874336233	0.570919096704189
1.001604	0.274779255078999	-0.0434581921134872	0.278194632377302	8.98727273497331
