EC-Lab ASCII FILE
freq/Hz	Re(Z)/Ohm	-Im(Z)/Ohm	|Z|/Ohm	Phase(Z)/deg
6999984	24.577234521286	84.9800185943147	88.4626701892068	-73.8695004697136
5969734	19.7286596569011	84.3899163466368	86.6653217431875	-76.8417190319547
5091109	15.8922098202783	89.010020281751	90.417620204966	-79.8768483601012
4341796	13.9807939968167	97.4580987565153	98.4557952281942	-81.8363640194487
3702781	15.9352165412971	108.679521673604	109.841565709077	-81.658403328281
3157797	17.903084223125	121.533209472234	122.844785926478	-81.6200151560073
2693047	19.9208811487771	136.910163154654	138.351849574834	-81.7213713899659
2296687	22.6804030304655	156.845173512585	158.476525503991	-81.7718489717169
1958656	27.5148652420567	180.008267902662	182.098995940684	-81.3094147352668
1670375	34.2488496738157	207.59888907394	210.405043781544	-80.6319494383042
1424531	43.3751502125023	239.230901599788	243.13129773068	-79.7232956710062
1214875	55.2535518091729	275.580178862758	281.064743376964	-78.6625789048805
1036062	70.3132627015188	316.362800759684	324.082360853293	-77.4693942965205
883578.1	90.6504574535389	364.06573058486	375.181771442622	-76.0179776098952
753531.2	116.597255115086	417.098810492682	433.089295197633	-74.3820112174581
642624.9	150.115550688641	476.169278238984	499.27132913596	-72.5021939874134
548046.8	264.960598510151	586.092253165832	643.201560930832	-65.6732246188081
467390.6	329.065985608493	647.555637757006	726.369552552537	-63.0618548759404
398593.7	404.056490484996	708.85489159339	815.927021760481	-60.316298417453
339937.5	492.494662164973	767.903106990545	912.26431147268	-57.3259170931062
289906.2	592.81514466618	824.718771995747	1015.67260897779	-54.2910857030132
247234.4	707.258603108003	871.381261940781	1122.28340241304	-50.9354094068028
210843.7	826.991198538353	907.253859722685	1227.60906173	-47.6498173080928
179812.5	964.646162356875	929.678148640671	1339.71776080255	-43.9424767059649
153343.8	1102.27353552903	934.871764267456	1445.33461964772	-40.3022924870044
130781.2	1238.76448079346	922.536659462805	1544.54243286751	-36.6759108213285
111531.3	1369.70411181543	891.910857429542	1634.50124855406	-33.0709864250803
95109.37	1490.91885253955	847.734864444634	1715.07825630576	-29.6225138843705
81109.37	1596.43206072319	792.714106979761	1782.41156299818	-26.4068627437121
69171.88	1690.14680541893	730.255656935012	1841.15983780698	-23.3675508236612
59000	1768.54238235121	667.420381246306	1890.28889947422	-20.6757263472011
50312.5	1840.57287770841	609.836251510035	1938.97106007584	-18.3315612016706
42906.25	1888.77421905021	532.999044103476	1962.538160537	-15.7586999522136
36593.75	1928.34838659248	479.850210909697	1987.15468068892	-13.9736728597953
31203.13	1959.53001254547	432.095123811524	2006.60510965365	-12.4352639911352
26609.38	1988.7265901598	385.950953941207	2025.83108606239	-10.9828331692124
22703.13	2009.88075114209	347.890625724899	2039.76678109993	-9.82003824230621
19359.37	2026.03993532208	314.793503779463	2050.3494262056	-8.83164593865988
16500	2041.97420698364	288.077299834586	2062.19475139145	-8.03016965651907
14112.02	2053.6111548058	265.982354723388	2070.76444535998	-7.37982818157788
12011.13	2064.97391127807	250.658449413646	2080.13146520154	-6.92103222712688
10236.38	2072.442351895	237.690382334903	2086.02828834668	-6.5427196541579
8750.684	2083.03056164069	232.127047266805	2095.92444682578	-6.35864550331622
7449.463	2093.12390435436	230.906882537809	2105.8218508181	-6.29523626412909
6363.206	2100.25589748995	232.072914688143	2113.03872957245	-6.30545783119422
5414.761	2109.14881806547	238.147154909529	2122.55101331828	-6.44206815828727
4620.567	2113.52218796938	247.795075024832	2127.99869319637	-6.68698469739389
3941.215	2134.22323938045	266.239942429194	2150.7655712458	-7.11079584887421
3361.769	2145.58648159979	288.533227166896	2164.90017626751	-7.65904770387899
2867.244	2160.16479313211	312.598149163013	2182.66569504989	-8.23413117242975
2442.658	2172.59427965927	344.00394686273	2199.66011453254	-8.99739689921327
2083.003	2194.70697942405	381.097794338969	2227.54893422853	-9.85084618295039
1777.843	2204.34563984991	426.168316052115	2245.1634981738	-10.9420557629329
1513.548	2224.88567887938	478.539296302779	2275.76715465104	-12.1385291490369
1292.065	2246.9182365083	538.705340486869	2310.59408062572	-13.4823500913147
1101.762	2269.14033752062	608.017269094402	2349.18770448005	-15.0000694539927
939.101	2295.66395141169	690.610874318149	2397.29354847036	-16.7430070667806
801.2801	2322.69919206103	779.280863517189	2449.94085664227	-18.5469417664382
684.3433	2352.28653391348	890.154018200375	2515.07974301988	-20.7276821600636
582.9476	2389.98477887274	1011.22050876518	2595.10966253657	-22.9335868600511
497.0677	2426.36059760247	1152.74183989493	2686.2686944984	-25.4119673690911
423.5089	2469.32436907409	1316.54952044459	2798.36836022102	-28.0648364450601
361.5036	2519.5436582686	1499.61391445253	2932.05425228477	-30.760797676801
308.1262	2569.59172505345	1714.80652242688	3089.23340698319	-33.7170020686682
262.7298	2628.98983980212	1963.59064860288	3281.3527413345	-36.7560275098216
224.2111	2693.57162605613	2248.62455618287	3508.79473599743	-39.8555171870952
191.2854	2764.99429617067	2576.7442613808	3779.52436774989	-42.9816551314203
163.1722	2852.52570572151	2949.1631419816	4102.98259072894	-45.954274764118
139.1537	2941.57434734244	3387.37329588637	4486.33006884549	-49.0291501745128
118.6706	3042.89732577697	3889.7118271171	4938.53037180448	-51.9641493983822
101.1982	3168.64033063363	4461.13988881811	5471.93299049998	-54.6147381023267
86.24196	3306.55892685714	5124.84589068833	6098.9652679847	-57.1698262009787
73.61024	3459.9125627011	5878.79383808261	6821.37903449259	-59.521434068268
62.69291	3645.17874169009	6759.94732250732	7680.11821926871	-61.6650410671909
53.57697	3850.54607521309	7744.86472662807	8649.2563097128	-63.5646253411677
45.65746	4085.01819424187	8898.12590029987	9791.01721910826	-65.3407372102937
38.96512	4365.65830388611	10215.2013566009	11108.9743532961	-66.8596483251855
33.18414	4691.2952257653	11736.5096913863	12639.3793610008	-68.2125162710484
28.30617	5072.08781387166	13451.1900015475	14375.69432234	-69.3398680287478
24.17237	5506.50798465271	15421.1733794973	16374.8043831235	-70.3496488468864
20.61345	6025.67290217551	17704.1611502735	18701.4987623684	-71.2038143278674
17.55618	6608.37171245286	20348.1652754842	21394.3545536753	-72.0080178891131
14.98558	7290.81159745418	23305.7532063853	24419.5427120679	-72.6285884770193
12.76553	8109.01314857204	26757.741765476	27959.4856646472	-73.1404116754096
10.8809	9055.46018459783	30702.8132097041	32010.3748516761	-73.5671506412231
9.278505	10175.576029744	35211.377864677	36652.1960960891	-73.8814752876318
7.923394	11469.1821973887	40255.8523695283	41857.8044129665	-74.0973657848371
6.75822	12941.9211365579	46169.6421170918	47949.2354050116	-74.3411593266653
5.761429	14674.5577041687	52871.7727991448	54870.4565566696	-74.4880084095573
4.919708	16677.668205838	60526.7042669327	62782.3744867996	-74.5948650383492
4.191257	19121.0118797732	69347.7968196902	71935.5963279061	-74.5850674600525
3.564097	21878.1638343338	79540.4341889945	82494.4526846243	-74.6207054349096
3.051758	25166.0239252314	90645.6728523604	94074.2619798979	-74.4837112260938
2.604164	28984.4985361501	103601.9995417	107580.088605794	-74.3700936953194
2.214424	33546.8201832266	118913.016953643	123554.420177601	-74.2455899664375
1.892567	38633.0461134634	135301.879409401	140709.313208903	-74.0642488242786
1.607507	45024.3536197206	155007.248134981	161413.876086454	-73.803209252817
1.376413	52051.6714539743	176310.568321855	183833.60139846	-73.5519672596521
1.17375	60441.2822334092	200544.092917766	209454.247515366	-73.2279023307261
1.001604	70437.4740022947	227824.366776706	238464.630167727	-72.8197271974749
