EC-Lab ASCII FILE
freq/Hz	Re(Z)/Ohm	-Im(Z)/Ohm	|Z|/Ohm	Phase(Z)/deg
6999984	20.6458794203029	90.1637628965926	92.4973322680749	-77.1026440118573
5969734	17.4325758674426	92.3027619241094	93.934522728297	-79.3049218890017
5091109	14.3215716381929	98.4623614177666	99.4984624511896	-81.7242361789416
4341796	13.0480673742031	108.454808535068	109.236887343882	-83.1397857075918
3702781	15.8529138564315	120.210808815269	121.251612087265	-82.4874159620558
3157797	15.8190848330811	133.672406550391	134.605184587851	-83.2508822240676
2693047	15.6520563242823	151.83468172698	152.639305037437	-84.1143869171093
2296687	17.0193404018227	175.576160910786	176.39911062101	-84.4633755101235
1958656	19.5446354296447	201.79379673924	202.738080232884	-84.467901876705
1670375	22.0144978197967	233.533264337514	234.56859053674	-84.6148082553766
1424531	25.9864148479081	268.538746192045	269.793165152573	-84.4727147221841
1214875	27.2832250348187	310.337180672325	311.534171602326	-84.975771666309
1036062	33.6089663792423	371.063101783047	372.582055560834	-84.8245681041739
883578.1	47.4730341920322	417.430259952306	420.12106695481	-83.5118072039702
753531.2	54.1167087083938	489.36381262404	492.346990716269	-83.6895387120198
642624.9	120.319469291798	645.35017482523	656.470580329092	-79.4389940130623
548046.8	150.192110452262	738.764351205384	753.876937340582	-78.5082813706518
467390.6	184.54214011823	843.477262884711	863.429032684737	-77.6588714393703
398593.7	223.918461037458	962.807106304213	988.502403205615	-76.9075518826153
339937.5	270.388548034675	1098.99404781528	1131.76759276882	-76.1778901305162
289906.2	325.861692115476	1256.44909894539	1298.01778902642	-75.4606042667919
247234.4	393.895340990237	1435.726104192	1488.77902521232	-74.6582341704907
210843.7	479.927393723408	1644.06329104625	1712.68047463967	-73.7266620913875
179812.5	581.858580476012	1875.95054295815	1964.11553817451	-72.767817221236
153343.8	717.278681303874	2140.08215388936	2257.08669130115	-71.4706980688394
130781.2	887.554316993958	2435.0990300831	2591.80631065021	-69.9740177163986
111531.3	1105.20778040512	2756.35111644307	2969.67266125156	-68.1508087165129
95109.37	1376.74475002819	3106.14166400204	3397.57886495362	-66.0954945138196
81109.37	1706.85389888554	3457.00456882913	3855.4157779734	-63.7227043968443
69171.88	2148.53841160652	3800.48823912991	4365.7677631676	-60.5191254769293
59000	3301.06151737513	4288.43933794927	5411.81292144931	-52.4124258477146
50312.5	3844.87457099735	4559.72209605553	5964.40492085833	-49.8615547184347
42906.25	4706.00892627459	4665.08730614625	6626.42887143166	-44.749802887194
36593.75	5290.69623614281	4682.03382865315	7064.90675350979	-41.5074175358148
31203.13	6162.6036623058	4850.58191810974	7842.56519532723	-38.2062639033891
26609.38	6364.74824206311	4682.07721729148	7901.38388217693	-36.3391835251301
22703.13	7439.73631233265	4634.38443360849	8765.11240518418	-31.919736597746
19359.37	7679.72249197828	4321.69253434997	8812.2167424124	-29.3682294853135
16500	8209.33484444228	3867.15301976786	9074.58269379225	-25.2236132235197
14112.02	8696.91421889168	3528.39388876796	9385.40784223335	-22.0827101568141
12011.13	9217.86000570734	3210.89754079055	9761.08631773501	-19.204983794146
10236.38	9493.00434853268	2948.12253958304	9940.24939675348	-17.2525670818802
8750.684	9720.345991684	2591.82998055512	10059.9557079617	-14.9299737973364
7449.463	9899.53356285196	2340.39526477736	10172.4242320808	-13.301341264677
6363.206	10079.8934993871	2077.35566376619	10291.7277224365	-11.6449947634671
5414.761	10203.769992788	1851.42793591598	10370.3764380861	-10.2841741634078
4620.567	10303.6968636661	1686.47385563081	10440.8028007452	-9.29555267664345
3941.215	10380.1774212875	1504.44932302776	10488.6343755022	-8.24673051434467
3361.769	10397.8261048354	1352.49874363095	10485.4203806008	-7.41114605465973
2867.244	10552.2054136423	1273.75791178724	10628.8051214397	-6.88287896754911
2442.658	10619.1480284091	1165.82969828822	10682.9520140584	-6.26516170946267
2083.003	10554.4455487499	1008.75367876766	10602.5423755793	-5.4595286185182
1777.843	10625.5637996972	955.922042145235	10668.476602219	-5.14073891201197
1513.548	10718.3871930133	1022.11650043273	10767.0119420296	-5.44731258536821
1292.065	10693.4729918505	1057.99755642412	10745.683945512	-5.65037684937171
1101.762	10735.26529015	1050.61001809077	10786.5519170869	-5.58946971687592
939.101	10768.5956285425	1025.96209180689	10817.3587360728	-5.44234389536884
801.2801	10802.0028942094	1119.10034111447	10859.8182351268	-5.91480947689608
684.3433	10842.4715339811	1173.62710375719	10905.8053138622	-6.17784294148473
582.9476	10913.4574318973	1264.33675000832	10986.45077062	-6.60832332170038
497.0677	10947.8833676503	1377.86863850419	11034.2499616715	-7.17336284010249
423.5089	11026.5988516567	1513.47828699878	11129.9819748539	-7.81541361574814
361.5036	11086.6039719867	1685.20847581335	11213.9518118558	-8.64302823250281
308.1262	11159.4846463323	1865.12419497016	11314.2735442621	-9.48834724512702
262.7298	11221.0886430892	2101.7025222487	11416.2158278517	-10.6085484895432
224.2111	11335.4888481916	2353.52112056027	11577.2349502115	-11.7293398804884
191.2854	11454.2606272168	2643.70534775333	11755.3929956402	-12.9965850134469
163.1722	11544.9725031014	2989.25658181683	11925.688450119	-14.5163899424991
139.1537	11690.7549335497	3383.4403156205	12170.5143394058	-16.1410576072162
118.6706	11850.0474400866	3870.57743846263	12466.1539393447	-18.0885755303336
101.1982	11996.402310426	4350.21350341285	12760.8003635693	-19.9319870220757
86.24196	12183.9095506249	4948.95996537448	13150.6599331245	-22.1064076912207
73.61024	12399.0475134311	5609.92994149851	13609.1033205293	-24.3443006249104
62.69291	12629.2727004281	6394.2833103881	14155.7545893988	-26.8533916717694
53.57697	12907.6392150911	7233.69244023844	14796.4001171542	-29.2671196232068
45.65746	13219.4283608456	8249.46896511929	15582.2663433146	-31.965865429832
38.96512	13578.8400462114	9370.48046481156	16498.2059976838	-34.6087650401658
33.18414	14003.9994382639	10674.9466389557	17608.7048362862	-37.3174917715821
28.30617	14476.522134396	12171.7712699753	18913.5324293547	-40.0569175816616
24.17237	15033.0438745897	13800.976547199	20407.3359797813	-42.5532603175789
20.61345	15652.0371264975	15690.9192310368	22162.8340363812	-45.0710775116577
17.55618	16385.8952036755	17877.1061886687	24250.5358148387	-47.4920820270932
14.98558	17259.1862919773	20285.3308677949	26634.0789192547	-49.6081641335381
12.76553	18246.4143024701	23075.1936006253	29417.6170789499	-51.6652659645522
10.8809	19399.5077579374	26171.0375286327	32577.0487701906	-53.4519890120441
9.278505	20725.4784889199	29692.4154878507	36210.288539279	-55.0847353816725
7.923394	22402.0776883795	33503.8713769601	40303.3805281899	-56.2316708368095
6.75822	24045.8219282993	38087.6447536931	45042.9820847932	-57.734607888373
5.761429	26233.0231460127	43034.8312930442	50400.0814265216	-58.6344954014055
4.919708	28583.4360225135	48542.9255788065	56333.1912694698	-59.5092300672317
4.191257	31286.701305664	54891.5271411357	63181.7808428654	-60.3180172908384
3.564097	34574.515978677	62029.8736793704	71014.8039766247	-60.8653638725269
3.051758	37996.9241754425	69657.613334946	79347.0184840942	-61.3883597479223
2.604164	42212.5100638452	78303.6671450118	88957.0699508872	-61.6714581944964
2.214424	47021.2274569325	88211.9583077099	99961.7197733098	-61.9402326961923
1.892567	52345.437430281	98821.8714603833	111829.365994358	-62.090061159619
1.607507	58510.6773613318	111080.415127997	125548.229737778	-62.2223571145147
1.376413	65137.0829633738	124069.330334465	140128.649128649	-62.3002793746525
1.17375	72955.3840146948	138857.91800462	156856.652550376	-62.2827468661215
1.001604	81448.5472794446	155290.486114985	175353.930471376	-62.3233695737963
