EC-Lab ASCII FILE
freq/Hz	Re(Z)/Ohm	-Im(Z)/Ohm	|Z|/Ohm	Phase(Z)/deg
6999984	9.41744441989184	-1.84133999570084	9.59576950439721	11.0631503929338
5969734	5.81925253337761	-1.73237520284644	6.07164095534798	16.5781212724979
5091109	3.70492108046516	-1.280992963533	3.92012540425637	19.0730545322391
4341796	2.57992230279098	0.736062718599396	2.68286925028974	-15.9236716901656
3702781	2.11722444187485	0.420530193366074	2.15858402217861	-11.2340694327993
3157797	1.9353840586254	0.324569450181999	1.96241096164203	-9.52007764782137
2693047	1.81903666346062	0.268241801672587	1.83870825504714	-8.38858913484111
2296687	1.75932716826253	0.219410790543675	1.77295605698326	-7.108819144481
1958656	1.73927725152921	0.215111176149166	1.75252907987037	-7.05045193389103
1670375	1.72546869914258	0.186493915950115	1.73551785136518	-6.16875583085396
1424531	1.72410210457638	0.135873308743472	1.72944777979377	-4.50606153023186
1214875	1.72178892725637	0.110463012836792	1.7253287186005	-3.67083459621109
1036062	1.70888138588662	0.0927673962154718	1.71139749352112	-3.10727731962497
883578.1	1.71500144965088	0.0719431630977553	1.71650977015021	-2.4021112321411
753531.2	1.69986692491291	0.0633224678952679	1.70104594216418	-2.1333630865038
642624.9	1.68369351734673	0.062511845952993	1.68485358154347	-2.12628992252291
548046.8	1.68201617983182	0.047330494549885	1.68268196785084	-1.61182882644377
467390.6	1.67796929406251	0.0429140711601285	1.67851796812551	-1.46502042355519
398593.7	1.67755502326369	0.0409028177129992	1.67805360360571	-1.39673187578473
339937.5	1.67989304106326	0.040338723459114	1.68037729156968	-1.37556051229685
289906.2	1.68696823940861	0.0336649837202428	1.68730411363876	-1.14323758552721
247234.4	1.68084455339492	0.0265861685088591	1.68105479893825	-0.906180308496393
210843.7	1.68196405972614	0.0269354918245287	1.68217972254164	-0.917473879596216
179812.5	1.68088793922642	0.0256387228215628	1.68108346263496	-0.87386949955558
153343.8	1.68065240244408	0.0245507500015348	1.680831709948	-0.836909711065076
130781.2	1.68139048646926	0.0237334275638716	1.68155798103225	-0.808696696275039
111531.3	1.68245930927889	0.022445607867544	1.68260902549931	-0.76433486602924
95109.37	1.68378465290581	0.0224904198169142	1.68393484919835	-0.765257901037196
81109.37	1.6854313768501	0.0222810994814264	1.68557864647869	-0.757395774172411
69171.88	1.6870018569084	0.0219102911981014	1.68714413316491	-0.74409914262081
59000	1.68884102548234	0.0215375891184696	1.68897835305763	-0.730646666548933
50312.5	1.69083743171071	0.0216995219633715	1.69097666741073	-0.735270435955639
42906.25	1.69321476775089	0.0212362954921179	1.69334793529739	-0.7185658514386
36593.75	1.6952523849661	0.0209879746424176	1.69538230019451	-0.709310864173852
31203.13	1.69763658552381	0.0204496328485364	1.69775974860773	-0.690148290715701
26609.38	1.70006039024991	0.0204907490147342	1.70018387278902	-0.690549934130088
22703.13	1.70258568805441	0.019355095696258	1.70269569944166	-0.651313784319529
19359.37	1.70398196335275	0.0184686841426899	1.70408204723994	-0.620978533856328
16500	1.70702353740817	0.0171152426826237	1.70710933709519	-0.574449204271549
14112.02	1.70829156604457	0.0164957982543441	1.70837120848458	-0.553248791823457
12011.13	1.70976213196146	0.0158847900902756	1.7098359203285	-0.532299334889632
10236.38	1.71141272650603	0.0141742750876192	1.71147142264224	-0.474524677251379
8750.684	1.7128783703344	0.0131935438364007	1.71292918159461	-0.441315298600463
7449.463	1.71425804990601	0.0125266939503548	1.71430381780152	-0.418673209748263
6363.206	1.71516397620165	0.011998277126488	1.71520594212878	-0.400800994540526
5414.761	1.71623244057684	0.0107512813934205	1.71626611576991	-0.35892282174506
4620.567	1.71709966187437	0.0106859204449713	1.71713291206733	-0.356560688643074
3941.215	1.71807688445292	0.00936721464229348	1.7181024199976	-0.312382147595938
3361.769	1.71881203735279	0.00871695435221789	1.71883414122539	-0.290573024786298
2867.244	1.71946585954493	0.00800767229884577	1.71948450558772	-0.266828507840487
2442.658	1.72020605730194	0.00734560490562259	1.72022174079091	-0.244662317732922
2083.003	1.72106770309021	0.00659894496119362	1.7210803539332	-0.219683305921722
1777.843	1.72145951372631	0.00622851731143282	1.72147078157799	-0.207304438166361
1513.548	1.72193385304907	0.00574447013125604	1.72194343496339	-0.191141298765721
1292.065	1.7224551908636	0.00517313929432798	1.72246295922528	-0.172078878330159
1101.762	1.72270772339082	0.00481544059168929	1.72271445361629	-0.160157001712195
939.101	1.72317898865458	0.0041486027868229	1.72318398258738	-0.137940964276454
801.2801	1.72318977490317	0.00398687719896513	1.72319438703839	-0.1325627813409
684.3433	1.72332178013291	0.00361913960448583	1.72332558039737	-0.120326408189188
582.9476	1.72350531391003	0.00306925080711643	1.72350804679776	-0.102033298185149
497.0677	1.72393483393691	0.00283765963719434	1.72393716938097	-0.0943108584308164
423.5089	1.72401132233644	0.00265685871204942	1.72401336956604	-0.088297952849816
361.5036	1.72389737736669	0.00233315688915969	1.72389895623637	-0.0775451966128164
308.1262	1.72407055430265	0.00214132776279094	1.72407188408664	-0.0711623894792795
262.7298	1.72394179903771	0.00192402500702605	1.72394287270246	-0.0639455849791502
224.2111	1.72435035211722	0.00187391434195309	1.72435137034241	-0.062265386244929
191.2854	1.72425332150554	0.0015181194016231	1.72425398981977	-0.0504460748018713
163.1722	1.72451122406006	0.00150573424947862	1.72451188141595	-0.0500270421184024
139.1537	1.72470799114008	0.00133136841912625	1.72470850500724	-0.0442288066345036
118.6706	1.72446931904919	0.00124287267634766	1.72446976693547	-0.041294643929015
101.1982	1.72417868002484	0.00122952926692833	1.72417911841967	-0.0408581933285741
86.24196	1.7244612862466	0.000975828944728333	1.72446156234502	-0.0324222263136537
73.61024	1.72435555090492	0.000978431000296401	1.72435582849476	-0.032510673808488
62.69291	1.72414573908868	0.000689043157119202	1.72414587677439	-0.0228978686711027
53.57697	1.72389176487069	0.000681399630381862	1.7238918995385	-0.0226471996357329
45.65746	1.72420304289319	0.000549555082050579	1.72420313047301	-0.0182618780746268
38.96512	1.72447346806672	0.000480118948122542	1.72447353490283	-0.0159519929939789
33.18414	1.72500322762516	0.000621086231442453	1.72500333943599	-0.0206293053066396
28.30617	1.7261223854542	0.000543520399021563	1.72612247102589	-0.0180412606756117
24.17237	1.72744607410333	0.000224939910044549	1.72744608874864	-0.00746078711802987
20.61345	1.7283104416694	0.000373203930839804	1.72831048196343	-0.0123722042562031
17.55618	1.73741976243098	0.000432852950178634	1.7374198163505	-0.0142744126768815
14.98558	1.73887545695781	0.00027420848970697	1.73887547857819	-0.00903514335875649
12.76553	1.73884032970489	0.000508762611717398	1.73884040413363	-0.0167640174291281
10.8809	1.73877158127136	0.000161742063075365	1.73877158879406	-0.00532970383059289
9.278505	1.73831416939091	0.000235529924688853	1.73831418534727	-0.00776319424229992
7.923394	1.73801006310337	0.00030980151363636	1.73801009071454	-0.0102130128052526
6.75822	1.73798145578208	0.000241203150917126	1.73798147251959	-0.00795170881605386
5.761429	1.73762180613958	8.75169383285019E-05	1.73762180834352	-0.00288575522025134
4.919708	1.73725042538039	0.000262603471200786	1.73725044522801	-0.00866085294950933
4.191257	1.73715079408702	0.000177015840245235	1.73715080310598	-0.00583844566196104
3.564097	1.73694122889889	0.000264208043000892	1.73694124899338	-0.00871532404709242
3.051758	1.73639734327363	0.000151282073521854	1.73639734986379	-0.00499184379683353
2.604164	1.7358615331915	0.000113729186653295	1.73586153691712	-0.00375387222354381
2.214424	1.73553171947333	0.000135389801608522	1.73553172475425	-0.00446967584545208
1.892567	1.73509345568988	8.22392829879254E-05	1.73509345763885	-0.00271568301200707
1.607507	1.73408107909875	5.15556177616593E-05	1.73408107986514	-0.00170344936154755
1.376413	1.73348476024507	2.04787649039743E-05	1.73348476036603	-0.00067687171268693
1.17375	1.73259033206623	0.000104437392029038	1.73259033521388	-0.00345368531072989
1.001604	1.73148504369734	-2.92275194849384E-05	1.73148504394402	0.000967154477054215
