EC-Lab ASCII FILE
freq/Hz	Re(Z)/Ohm	-Im(Z)/Ohm	|Z|/Ohm	Phase(Z)/deg
6999984	5.6961329401931	1.16001391916947	5.81305107194318	-11.5108424253152
5969734	3.88635543120614	-0.264411440233811	3.89533977303547	3.89216819247012
5091109	2.30138970508529	-0.962233477229876	2.49445141050582	22.6902803323488
4341796	1.49721754204648	-1.24616322946809	1.94796898401644	39.7712694728992
3702781	0.895461657399302	-0.918670272551026	1.28288996002825	45.7329583565928
3157797	0.640602581547191	-0.739935800326785	0.97871173288674	49.1154834550831
2693047	0.513945466083436	-0.574959960302233	0.7711801981758	48.2070932483709
2296687	0.458569700868848	-0.408425290000115	0.614082558021821	41.6898702160963
1958656	0.442988687106311	-0.307928665132384	0.539498878325418	34.8037941440503
1670375	0.417948274008201	-0.213095075772493	0.46913779539163	27.0152121418482
1424531	0.406161735406557	-0.17439210270904	0.442018054830056	23.2370482266642
1214875	0.40498084182594	-0.129328931190711	0.425129926832938	17.7106640278212
1036062	0.423031241673034	-0.103964377326269	0.435619126283808	13.8074005076483
883578.1	0.422654210887399	-0.0831920674683874	0.430763858825824	11.1353201568085
753531.2	0.424269764016093	-0.061267140959995	0.428670613897994	8.21705703013485
642624.9	0.417345091003574	-0.0403779749283586	0.419293818037062	5.52614470248467
548046.8	0.420187744658757	-0.031896968997876	0.421396674634085	4.34106744692583
467390.6	0.426205783617312	-0.0258037726010174	0.426986187913956	3.46462880461689
398593.7	0.42186210173676	-0.0238866906818074	0.422537817092725	3.24074325433834
339937.5	0.423463804017784	-0.0200316660093586	0.423937331402087	2.70831878546625
289906.2	0.429895030628228	-0.0152007078548038	0.43016368847002	2.02508437646439
247234.4	0.427475669388346	-0.0170180422248775	0.427814284100218	2.27977271076697
210843.7	0.429240404859941	-0.0126430501166941	0.429426561684975	1.68712923171104
179812.5	0.427570657559906	-0.011358340206073	0.427721497119852	1.52169454386056
153343.8	0.427500187224067	-0.0121933316868588	0.427674043418862	1.6337702452083
130781.2	0.428038016274353	-0.0104896726054241	0.428166529060192	1.40383254173979
111531.3	0.426810025236862	-0.00909542619370356	0.426906927116832	1.22080232000084
95109.37	0.426352684903901	-0.00785847593357454	0.426425101944953	1.05594861135461
81109.37	0.42569223681523	-0.00787188269078312	0.425765013853712	1.05939036882997
69171.88	0.425321326000011	-0.00712975067051259	0.425381080556048	0.960371229717661
59000	0.424790310763761	-0.00551568114126034	0.424826118379302	0.743914077252983
50312.5	0.424085427322428	-0.00553962983673903	0.424121606577612	0.748385439886184
42906.25	0.424150544792762	-0.00428037993199599	0.424172142296449	0.578189472758163
36593.75	0.423237771741804	-0.00331519488269033	0.423250755399299	0.448785063967142
31203.13	0.423387384903409	-0.00285025094390852	0.423396978763183	0.385710317540812
26609.38	0.422844718193529	-0.00216918917627688	0.422850282116315	0.293924197634239
22703.13	0.422662421662342	-0.00213518529997626	0.422667814840142	0.289441547732474
19359.37	0.422918736782209	-0.0015465733475409	0.422921564608118	0.209524248552037
16500	0.422585391405605	-0.00120446544106288	0.422587107903716	0.163305691275337
14112.02	0.422523212257173	-0.000816971197698132	0.422524002085157	0.1107843117733
12011.13	0.422433664018069	-0.000650998672222618	0.422434165634128	0.0882965777511077
10236.38	0.42255562153096	-0.000628972394391515	0.422556089642179	0.0852844813263255
8750.684	0.422289613647186	-0.000443362028272704	0.422289846390104	0.0601548389107851
7449.463	0.42234013898279	-0.000362530275836973	0.422340294577967	0.0491818033198695
6363.206	0.422061181266333	-0.000379535791746261	0.422061351913854	0.0515228458454165
5414.761	0.421934987925177	-0.000318374902977071	0.421935108041507	0.0432330460936119
4620.567	0.422004804526933	-0.00028604502843102	0.422004901471029	0.0388364544526755
3941.215	0.421653551170377	-0.000108517139813269	0.421653565134412	0.0147456933816884
3361.769	0.421480371730577	-0.000138707130090205	0.421480394554496	0.0188557602884358
2867.244	0.421290271708559	-4.14529996572338E-05	0.42129027374795	0.00563763770575477
2442.658	0.421142012425971	-1.00433189086763E-05	0.421142012545726	0.00136637943658767
2083.003	0.420984819991622	3.62337887810839E-06	0.420984820007215	-0.000493139674944723
1777.843	0.420806146640797	5.27574768155269E-05	0.420806149947963	-0.00718330938742596
1513.548	0.420701022766804	2.50030148673E-05	0.420701023509791	-0.00340519073590781
1292.065	0.420408700868582	4.27244127406838E-05	0.420408703039535	-0.00582273515921855
1101.762	0.420365600480836	-7.23309223820885E-05	0.420365606703707	0.00985869570474368
939.101	0.420224693909197	7.38483554342282E-05	0.420224700398082	-0.0100688967310433
801.2801	0.419998976634494	6.06821661466345E-06	0.419998976678331	-0.000827819162687531
684.3433	0.419792359146249	3.11193335782225E-05	0.419792360299691	-0.00424735332403865
582.9476	0.419582921864208	4.68595244081225E-05	0.419582924480872	-0.00639886141095645
497.0677	0.419422220283657	8.26984019129301E-06	0.419422220365186	-0.00112971348973094
423.5089	0.419264509764946	1.07007664983464E-05	0.419264509901503	-0.00146234356473634
361.5036	0.419103631016084	2.36977747822475E-05	0.419103631686067	-0.00323972969199875
308.1262	0.418896988769779	4.32761642843691E-05	0.418896991005205	-0.00591921552234063
262.7298	0.418724545077661	8.98884787941763E-05	0.418724554725935	-0.0122998053092104
224.2111	0.418600422278589	3.46188619719772E-05	0.418600423710104	-0.0047384440446122
191.2854	0.418415856619605	4.95716933201843E-05	0.4184158595561	-0.00678810028907857
163.1722	0.418259726578865	1.40132776848045E-05	0.418259726813613	-0.00191962461877702
139.1537	0.418151315825612	5.96176315518733E-05	0.418151320075583	-0.00816890565703205
118.6706	0.417952279614458	7.06626074545028E-05	0.417952285587872	-0.00968691722818551
101.1982	0.417775875215883	7.74395637807412E-05	0.41777588239304	-0.0106204316342142
86.24196	0.417615171484655	3.28123790639662E-05	0.417615172773703	-0.00450177809775546
73.61024	0.41746876980871	3.91970696931926E-05	0.41746877164886	-0.00537962793511382
62.69291	0.417356580800253	2.95631028709021E-05	0.417356581847292	-0.0040584984133544
53.57697	0.417171501657822	3.78052913810788E-05	0.417171503370835	-0.00519230969723611
45.65746	0.417011885786433	6.3785096017617E-05	0.417011890664637	-0.00876381919487229
38.96512	0.416943225718987	1.09248297914342E-05	0.416943225862115	-0.00150127547395769
33.18414	0.416757678159216	-3.0370232301492E-05	0.416757679265796	0.00417529471397622
28.30617	0.416528973438812	1.03566097200347E-05	0.416528973567566	-0.00142460684547564
24.17237	0.41631907847992	-8.98038553775695E-06	0.416319078576778	0.00123592267621434
20.61345	0.41611358281203	5.09439539710377E-05	0.416113585930514	-0.00701460769422764
17.55618	0.415960992555916	9.49084054205785E-06	0.415960992664191	-0.00130729832058496
14.98558	0.415803476480806	1.64515015635293E-05	0.415803476806262	-0.00226694017502942
12.76553	0.415626122456037	3.8076639687775E-05	0.41562612420019	-0.00524902220571375
10.8809	0.415440010681863	5.07128867384571E-06	0.415440010712816	-0.000699411299389581
9.278505	0.415218036552504	5.12915106199911E-05	0.415218039720501	-0.0070776960770495
7.923394	0.414991436564395	-6.09183778740327E-05	0.414991441035631	0.00841069384657726
6.75822	0.414824931161575	1.22341745068381E-05	0.414824931341983	-0.00168978890179604
5.761429	0.414679030246999	2.12774547488065E-05	0.414679030792879	-0.00293988426203073
4.919708	0.41447717540558	6.43509807116172E-05	0.414477180401089	-0.00889563959479804
4.191257	0.414217284075427	-6.44883705762466E-06	0.414217284125627	0.00089202252137871
3.564097	0.414012888584393	1.66339034769564E-05	0.414012888918545	-0.00230198743039978
3.051758	0.41368363688979	6.52929708350117E-06	0.413683636941317	-0.000904317049746627
2.604164	0.413281659793291	7.76447959048081E-06	0.413281659866228	-0.00107643758210849
2.214424	0.412826662592503	-1.90158157743162E-05	0.41282666303046	0.00263918512494797
1.892567	0.412265008903028	2.89174015006574E-05	0.412265009917201	-0.00401888353844126
1.607507	0.411637364363267	-4.90710020619144E-06	0.411637364392515	0.000683018976870888
1.376413	0.410918053672193	-1.32260180482678E-05	0.410918053885043	0.00184415118025562
1.17375	0.410122687870668	-7.82247098588378E-07	0.410122687871414	0.000109283047758498
1.001604	0.409073609010346	1.73994878073056E-05	0.40907360938038	-0.0024370118103159
