EC-Lab ASCII FILE
freq/Hz	Re(Z)/Ohm	-Im(Z)/Ohm	|Z|/Ohm	Phase(Z)/deg
6999984	-13.5279698894837	30.6203906276503	33.4755775382692	-113.835655807049
5969734	-12.0735552751753	37.4228273234781	39.3222423300805	-107.881020033813
5091109	-10.585147543878	42.7816031667079	44.0716566291685	-103.897187188489
4341796	-8.93742856561392	48.1953932791592	49.0170741956134	-100.505678111771
3702781	-14.7871177417246	48.6433718527898	50.841287122932	-106.908767951255
3157797	-13.6784370730272	56.5966134175081	58.2260791320489	-103.586873246646
2693047	-14.4901530959019	66.2845239853499	67.8498537707127	-102.331178942837
2296687	-13.7689499183818	76.7429499322091	77.9683547739239	-100.17158642143
1958656	-13.3052610430819	89.2083944831471	90.1951640482202	-98.4830225034001
1670375	-12.9397490080852	104.157994105816	104.958681587277	-97.0816823280691
1424531	-12.8235236114953	121.677689447348	122.351554412111	-96.0161527164643
1214875	-11.6869422913581	140.937353556522	141.421081340929	-94.740290298267
1036062	-11.3115548037778	164.937415055904	165.324838295406	-93.9232524824105
883578.1	-10.5977181943916	193.515002913861	193.804974094267	-93.1346333731924
753531.2	-9.55536161135177	225.756729670373	225.958858925658	-92.4236500452146
642624.9	-8.39430918570272	264.318228696891	264.451489782469	-91.819007684013
548046.8	-6.99778796403939	309.000265102635	309.079492800619	-91.2973296115464
467390.6	-5.58746857166202	362.495594047648	362.538653813626	-90.8830811256668
398593.7	-2.29425676375417	420.908382637074	420.914635274488	-90.3123005701575
339937.5	-0.318582651280084	493.411534643676	493.41163749382	-90.0369943495971
289906.2	-103.124786731833	500.151196846709	510.672048721762	-101.650390490663
247234.4	-110.962051277766	603.872353158865	613.982406696962	-100.411999512267
210843.7	-113.692463201091	722.298895241494	731.191951717068	-98.9451702609526
179812.5	-114.71887022229	861.449269851915	869.054235196789	-97.5854268215481
153343.8	-120.199728302025	1016.69515134127	1023.77585703352	-96.7425486091312
130781.2	-113.006938045794	1208.77746133876	1214.04840063609	-95.3409792506822
111531.3	-99.14778583017	1453.07096968445	1456.44963056562	-93.9034281426989
95109.37	-97.7906424831413	1668.05074325464	1670.91480687366	-93.3551648285383
81109.37	-83.4151264249429	1963.99428292879	1965.7648960884	-92.4320152290235
69171.88	-75.6192882524769	2307.90129427845	2309.13980973175	-91.8766472382032
59000	-57.3637960891778	2693.78206819163	2694.39277686319	-91.2199230134242
50312.5	-56.8084238948803	3081.75986014013	3082.28341211452	-91.0560570840168
42906.25	-28.3053517100671	3704.49044567685	3704.59858217412	-90.4377783272911
36593.75	23.3344945319841	4309.72628714227	4309.78945758608	-89.6897819257478
31203.13	-710.837495975675	4686.99447896729	4740.59143900367	-98.6238555294432
26609.38	-697.783121035544	5640.79717834839	5683.7922280169	-97.0518312269428
22703.13	-682.209546548432	6656.13659140903	6691.00621647417	-95.8520003081593
19359.37	-647.650646942927	7913.06909539699	7939.52856717655	-94.678983814188
16500	-643.026389384652	9251.47592830313	9273.79586735751	-93.9759645995625
14112.02	-465.05067940885	10936.3793835386	10946.2626569577	-92.4349373137786
12011.13	-383.309735225103	12719.8408887299	12725.6150573449	-91.7260739296428
10236.38	-301.678206083808	14795.7642598162	14798.8394738263	-91.1680703329649
8750.684	-266.481772910249	17331.1505217925	17333.199097233	-90.8809038860453
7449.463	-24.3966330444576	20319.1186554608	20319.1333016543	-90.0687935072269
6363.206	525.730909124357	23600.7661138377	23606.6209811756	-88.7238896747163
5414.761	368.728847523997	27541.4819541308	27543.9501377836	-89.23296267569
4620.567	23.1165144271735	32181.0499279976	32181.0582306038	-89.9588429063413
3941.215	-6484.32878452905	34332.4998867163	34939.4772178584	-100.695384437739
3361.769	-6424.09752902394	41144.1846261526	41642.6819214774	-98.8742953816949
2867.244	-6572.54250604593	48973.9770059017	49413.0421930118	-97.643696629313
2442.658	-6530.26316710881	57696.3478571538	58064.7301990235	-96.4574448102741
2083.003	-5772.13899863001	68472.6117226054	68715.4723823841	-94.8185563330819
1777.843	-6019.52093932828	80260.4669868981	80485.8819501531	-94.289143330381
1513.548	-4678.13247833182	93656.0184343083	93772.7823648862	-92.8595563357501
1292.065	-5100.7865185678	110333.636014035	110451.479207775	-92.646931697977
1101.762	-3043.60891386291	128747.850787437	128783.821334843	-91.3542243206029
939.101	-3411.85879865826	150830.186656652	150868.770749093	-91.295839921279
801.2801	-4939.54906415884	176646.156076123	176715.204782801	-91.6017420880994
684.3433	823.098629147617	205192.51022729	205194.161088296	-89.7701679044047
582.9476	7241.16260998897	239968.426464221	240077.654386364	-88.27159679124
497.0677	2617.01779291848	276944.586453494	276956.951073673	-89.4585934554126
423.5089	-46470.5899266137	295979.642293944	299605.514603084	-98.9229394985015
361.5036	-58894.1957341467	349903.245397733	354825.037773602	-99.5542243971767
308.1262	-59207.1510787277	420968.188579998	425111.400147283	-98.0058632516151
262.7298	-88973.0368278142	494292.5653609	502236.340235773	-100.204015832635
224.2111	-39210.016877279	632051.90176237	633266.951565409	-93.5498558873237
191.2854	-93215.9465082585	657590.169974158	664164.169712634	-98.0681437639459
163.1722	-29746.3913635475	812142.948115966	812687.526650708	-92.0976370597851
139.1537	-32766.483785298	1062451.70395783	1062956.85034838	-91.7664674541995
118.6706	-141237.519214796	1039274.09869399	1048827.29228895	-97.7390941022022
101.1982	1022871.29716946	385202.735457649	1092999.01096808	-20.635854214238
86.24196	336378.244577397	277353.206795083	435976.059829536	-39.506528594081
73.61024	233346.179848177	-232412.535724351	329341.80787073	44.8851469775598
62.69291	47250.7950756893	17944.9742427577	50543.6418934966	-20.7958469489503
53.57697	79198.4356351079	114456.826595	139186.05304141	-55.3186912381582
45.65746	448196.910279809	101145.27199265	459467.992825218	-12.7169987981569
38.96512	719698.590177954	333777.700945918	793330.709321704	-24.8806578760883
33.18414	676478.723917492	37178.033955486	677499.572045498	-3.14570674485999
28.30617	721476.386366643	425777.664356086	837743.872283882	-30.5468838839889
24.17237	261555.956765476	562589.437534473	620417.918620069	-65.0656028770719
20.61345	380024.940872652	260213.775582378	460575.905457612	-34.4005407182593
17.55618	924812.390390376	512181.772223646	1057169.86582938	-28.9786640212481
14.98558	3758141.61025367	-1050599.95593819	3902228.67476233	15.6184971797451
12.76553	-584975.994713285	1340952.50488837	1462993.68924038	-113.568714770297
10.8809	1769949.39654788	2961847.45457299	3450400.15222883	-59.138182599105
9.278505	1692032.61459967	-1848595.74370435	2506048.80090369	47.5319140530107
7.923394	1986506.07639699	2134885.99835544	2916152.36528139	-47.0618938553531
6.75822	-333048.614471148	1168230.3420808	1214777.14489505	-105.912222458184
5.761429	669361.746576003	46260.3659742812	670958.396056977	-3.95349129232518
4.919708	1172288.1854205	1284131.84080195	1738750.75103877	-47.6069428762831
4.191257	1288805.4638934	365155.534354866	1339536.51985733	-15.8189464643716
3.564097	2136253.88710549	194321.927304608	2145073.81728571	-5.19754194782124
3.051758	-746688.200813154	1961626.52230388	2098933.51067621	-110.839201130073
2.604164	10167065.2025721	6850860.94836213	12259833.2193854	-33.9732230650728
2.214424	950110.650790911	-4285972.98113757	4390019.89104692	77.5008496794732
1.892567	2928421.58258475	-1891884.32741373	3486384.8430232	32.8641715793499
1.607507	2938687.7557318	-1369863.91090117	3242285.12936131	24.9924935081199
1.376413	2710434.40693226	1037754.9563569	2902307.70658894	-20.9505455536356
1.17375	4231051.10790793	12660701.009587	13348975.3738587	-71.5210037632519
1.001604	10397884.2999092	9623788.16255191	14168037.8497508	-42.785881182402
