EC-Lab ASCII FILE
freq/Hz	Re(Z)/Ohm	-Im(Z)/Ohm	|Z|/Ohm	Phase(Z)/deg
6999984	20.9393034469148	90.4539430067243	92.8459489385817	-76.9661081692776
5969734	16.3300526524922	89.3987981593501	90.8780266729498	-79.6481809040645
5091109	11.5366322440928	94.4413649250581	95.1433933199959	-83.0354500930984
4341796	8.66941080330265	103.659540748139	104.021435636082	-85.2192787292396
3702781	9.31834075443513	116.094649386351	116.468017457822	-85.4109904074903
3157797	9.54269640183572	130.349220671269	130.698058073656	-85.8129203007746
2693047	9.32424875709078	147.359375126627	147.65407902457	-86.3794036728205
2296687	8.68191683825015	169.608558384573	169.830617844014	-87.0697032243941
1958656	9.26108018911863	195.759025262996	195.97796707331	-87.2914378911097
1670375	10.3182816226594	227.347784163212	227.58181363977	-87.4013884919953
1424531	11.9062886201613	264.033505619242	264.301819513776	-87.4180615638336
1214875	13.9563679606649	306.938275601922	307.255407171517	-87.3965756465162
1036062	17.0234144834783	357.610451255091	358.01540677399	-87.2745929319329
883578.1	19.1583980256593	416.190149161324	416.630873164526	-87.3643754184299
753531.2	22.7382367374681	485.169373119145	485.701912722972	-87.316705329875
642624.9	79.5801895380756	639.690490038734	644.621539830086	-82.9085972372565
548046.8	96.8876877516771	734.739124313981	741.099726646517	-82.4879316240714
467390.6	115.530288394493	844.914523903071	852.776524207174	-82.2138859106604
398593.7	136.276230238911	970.014809389199	979.540678768622	-82.0029228504932
339937.5	157.515405978162	1115.55104048343	1126.61671700899	-81.9629876921726
289906.2	178.90054772853	1284.01941150131	1296.42248325526	-82.0681254475791
247234.4	204.2787724034	1481.36964577883	1495.38819183833	-82.1485114262359
210843.7	227.892181327136	1710.25147977664	1725.36806809105	-82.4100093639336
179812.5	258.804152101696	1974.13163663553	1991.02368341272	-82.5312472333833
153343.8	290.858604815386	2291.14934586222	2309.53762754367	-82.7650713095762
130781.2	330.172558041692	2656.09010234783	2676.53293457672	-82.9140403363102
111531.3	376.860297642212	3082.80586905051	3105.75525600316	-83.0304080645013
95109.37	428.111325304223	3577.04638780293	3602.57410296412	-83.1751372035513
81109.37	509.717830405375	4143.1909969457	4174.42737435987	-82.9864049058352
69171.88	579.636107557129	4816.31911722862	4851.07285620056	-83.1375511721908
59000	1284.89591472777	6008.43867213104	6144.28944536665	-77.929192927113
50312.5	1353.80837082749	6965.3312320655	7095.67729517836	-79.0009104829053
42906.25	1810.84008537209	7972.94513219099	8176.00121671458	-77.2038856542569
36593.75	2027.06284305093	9075.85438218153	9299.46861579959	-77.409806685827
31203.13	2338.18387798361	10457.8867139535	10716.0859631279	-77.3970297269955
26609.38	2609.95742946196	11988.382312874	12269.1967244492	-77.7179433880483
22703.13	3002.42832593379	13792.5884716295	14115.5967851202	-77.7192038951976
19359.37	3478.5508759748	15916.0029764886	16291.6993264773	-77.6714765108632
16500	4078.1099682385	18342.6266288565	18790.5011257997	-77.4653262961751
14112.02	4790.53513901205	21106.1161189866	21642.9518445672	-77.2120216549478
12011.13	5753.19555238386	24344.3045140512	25014.8839960697	-76.7034643159897
10236.38	6880.22037977374	28042.7259797768	28874.416233945	-76.2149032040816
8750.684	8340.99964373207	32119.6365150799	33184.9864384121	-75.4426706878043
7449.463	10167.8805373986	36868.6579939505	38245.0485278513	-74.5818588963997
6363.206	18459.5248271822	45179.4040218248	48805.046917431	-67.7759224311588
5414.761	21730.0047543507	50656.3928271422	55120.4430396006	-66.7821844312839
4620.567	25573.3622279788	56732.4283504901	62229.9387930512	-65.7355051311389
3941.215	30005.2799775455	63688.6763871719	70402.8715783724	-64.7737381762323
3361.769	35907.6620090592	70872.3861763033	79449.703040854	-63.1308389944741
2867.244	41459.8505944708	79558.9632706116	89713.6993329913	-62.4750315021674
2442.658	51295.2691848433	88514.6404144941	102303.695966728	-59.9072065517296
2083.003	60872.2140009557	97063.4966947328	114572.024630739	-57.9066098184713
1777.843	72039.0085229128	106812.594380662	128835.356433287	-56.0025793920044
1513.548	80510.6848469025	114316.434787039	139822.092807026	-54.8437607921963
1292.065	100719.255031818	120964.985130159	157406.784992592	-50.2181693797021
1101.762	116051.238117879	125940.613594719	171256.906492284	-47.3401794564482
939.101	130055.522734158	133350.465338466	186270.73199953	-45.7166748960552
801.2801	150852.774257814	134651.395554459	202206.720526401	-41.7521449988491
684.3433	171700.006711299	136413.757915045	219293.42364322	-38.4667534353674
582.9476	189911.504675757	137926.263926926	234712.662396067	-35.9896277038987
497.0677	209101.39334362	138481.075117571	250799.523253059	-33.5152177923791
423.5089	227025.331910807	126297.107750351	259791.186831493	-29.0877494558631
361.5036	243434.407639263	119433.791975466	271154.460572416	-26.1334931204993
308.1262	275617.152213747	94462.6419539619	291355.462140901	-18.9181954993712
262.7298	284298.167729243	85429.0741036031	296856.151825094	-16.7250562990592
224.2111	291580.012341025	78300.6972885532	301910.421802007	-15.0315420256792
191.2854	298005.125737492	71583.2331637984	306481.996593603	-13.5070044652392
163.1722	303220.797327222	65362.6063151347	310185.625450412	-12.1646044582933
139.1537	308164.566665509	59790.2800204588	313911.257735472	-10.9801402675753
118.6706	311487.643106559	54668.2750804441	316248.592263033	-9.95443122273209
101.1982	316392.406553025	50852.7909567955	320453.056269573	-9.13088460632285
86.24196	319753.537577745	48032.0359775659	323340.998442252	-8.54285802118009
73.61024	323971.740444455	46116.7758889062	327237.598122522	-8.10152009074672
62.69291	326461.095150413	42242.7943187515	329182.776461137	-7.3728839331009
53.57697	329471.930527559	40982.8012746959	332011.058559618	-7.09056470912814
45.65746	333994.051199101	42174.7657610148	336646.308613928	-7.19687702801466
38.96512	334894.516781146	41889.2309845711	337504.140778386	-7.12963470117811
33.18414	338194.223056849	42565.3399917965	340862.348577315	-7.17356337533079
28.30617	339840.780926921	42827.2959346095	342528.734061962	-7.18264475638361
24.17237	343818.833165849	45444.723171955	346809.188032413	-7.52950194639991
20.61345	347265.137631427	48252.9943117866	350601.522064904	-7.91067930834454
17.55618	350809.656202121	50826.2375534187	354472.454936187	-8.24380270001155
14.98558	352675.54565884	54562.1839621707	356871.226669344	-8.79446670733384
12.76553	356184.948566629	59041.1490912807	361045.114731429	-9.41175997665188
10.8809	360070.798684643	64583.4303747822	365816.893464984	-10.1686257648638
9.278505	363785.055679522	70537.2979345003	370560.49052166	-10.9733850951707
7.923394	369334.48264959	77529.0087237396	377384.031548403	-11.8551384939873
6.75822	372310.383456785	85525.910719308	382007.464631394	-12.9373469070083
5.761429	376149.625318674	94570.1844342943	387855.721127477	-14.1125979363807
4.919708	382477.604287863	106133.971085303	396930.141964703	-15.508838787335
4.191257	388827.893933688	117043.229154847	406061.877786996	-16.752609839427
3.564097	394241.509783462	132421.12841817	415886.671207296	-18.5665999483892
3.051758	401399.038614936	146923.059556819	427443.064782354	-20.1040118704857
2.604164	405422.648332259	165636.289908729	437953.084605498	-22.2225748841835
2.214424	413601.718807324	185638.634816909	453352.053637191	-24.1721783736752
1.892567	417324.633821192	209493.764010583	466955.551582069	-26.6562999198223
1.607507	421641.360489649	234316.492629569	482375.015515713	-29.0620064621279
1.376413	424670.333779003	263345.389766599	499695.594040304	-31.8037642104335
1.17375	427930.985284931	296209.232714333	520446.767414445	-34.6905662245766
1.001604	437028.464468644	332079.621063977	548881.365580774	-37.2296802599004
