EC-Lab ASCII FILE
freq/Hz	Re(Z)/Ohm	-Im(Z)/Ohm	|Z|/Ohm	Phase(Z)/deg
6999984	9.63162552957435	-0.667310308900881	9.65471456803948	3.96330434048238
5969734	5.58213894167208	-1.23750372442154	5.71766478836326	12.4997389318213
5091109	2.83042114402243	1.06721508298087	3.02493502176015	-20.659036086629
4341796	2.16113923546869	0.149255649413882	2.16628715639551	-3.95076859688272
3702781	1.52262413823328	-0.106505653118898	1.52634456151844	4.0012507622961
3157797	1.2506281532823	-0.187900565766409	1.26466493601967	8.54449095089621
2693047	1.0498590399923	-0.198361040410799	1.06843395032468	10.6993737592273
2296687	0.899758878388642	-0.157754128228368	0.913483663900061	9.94455343034404
1958656	0.826209032442331	-0.110397394040266	0.833552007915628	7.61073590259356
1670375	0.799143819134939	-0.0942995757986636	0.804688295961476	6.72982475173582
1424531	0.770911201194842	-0.0563855867370464	0.772970513356981	4.18324908704602
1214875	0.739833295895922	-0.040297506252652	0.740929952644921	3.11772635093477
1036062	0.718205797553911	-0.0395661445184872	0.719294826501697	3.15325202606407
883578.1	0.705843232691508	-0.0382929415793539	0.706881191227492	3.10532869016373
753531.2	0.707279106125731	-0.0214637854285426	0.707604711719004	1.73822045126065
642624.9	0.692019642425621	-0.0238703876536715	0.692431210236526	1.97556592606241
548046.8	0.686590295149301	-0.0183418149880165	0.686835246307482	1.5302556792354
467390.6	0.689734340236311	-0.00928161857960336	0.689796787861959	0.770971436170241
398593.7	0.682398080629482	-0.0125851952041523	0.682514122626871	1.05656339506879
339937.5	0.67973381556528	-0.00675358635361983	0.679767365318143	0.569251159266783
289906.2	0.685213526467952	-0.00583403180001022	0.685238362018423	0.487814834379895
247234.4	0.67966423147989	-0.00779082933213789	0.679708882224465	0.656739121681623
210843.7	0.680919180555218	-0.00495912197436439	0.680937238913211	0.41727673971419
179812.5	0.679620803267227	-0.00792629425013318	0.679667023162173	0.668199996457625
153343.8	0.677242661499761	-0.00806799420703847	0.677290716816497	0.682532535702822
130781.2	0.676556594234384	-0.00420195015610296	0.676569642821154	0.355847413483916
111531.3	0.679005817930841	-0.00436388584515332	0.679019840861517	0.368227770929544
95109.37	0.677686647191941	-0.00437868313577494	0.677700792863825	0.370195537181141
81109.37	0.674784868599875	-0.00591541690081774	0.674810796481844	0.502263397578607
69171.88	0.675487755690543	-0.00527360289648726	0.675508341158979	0.44730499939076
59000	0.67637860420214	-0.00334666544951713	0.676386883663534	0.283492469649851
50312.5	0.674727241659246	-0.00293859538557916	0.674733640764958	0.249534980005833
42906.25	0.67449776975672	-0.00216322900965691	0.674501238669387	0.183756674927398
36593.75	0.674352090417829	-0.00148512126619332	0.674353725752347	0.126181922263866
31203.13	0.674390867880395	-0.000920174539499833	0.674391495647488	0.0781773409481842
26609.38	0.674670372986374	-0.000149111600243105	0.674670389464249	0.0126631694133044
22703.13	0.674336174537003	0.00015240800264091	0.674336191760015	-0.0129495279897328
19359.37	0.674433763609818	0.000626780949724081	0.674434054857303	-0.0532474717270721
16500	0.67505390791066	0.000958872867732954	0.675054588920504	-0.0813851024600036
14112.02	0.675187485341489	0.00146086290481389	0.675189065730621	-0.123967268498347
12011.13	0.675566362127317	0.00168068354315765	0.675568452738218	-0.142540955934662
10236.38	0.675721610210469	0.00168994205147749	0.675723723432562	-0.143293249519669
8750.684	0.676102750430656	0.00180412024177533	0.676105157493821	-0.152888344531606
7449.463	0.676394476618859	0.00192875895845395	0.676397226570023	-0.163380175788704
6363.206	0.676616834233271	0.00200593120821496	0.676619807667397	-0.169861359775664
5414.761	0.676793949808976	0.00186781459357623	0.676796527199565	-0.158124376638189
4620.567	0.677121380166242	0.00193508951946477	0.677124145227214	-0.163740451650282
3941.215	0.677285556502479	0.0018588324864187	0.677288107311124	-0.157249756563922
3361.769	0.677462665453354	0.00176977565236559	0.677464977094036	-0.149676801498339
2867.244	0.677424175156985	0.0016098189368207	0.677426087927038	-0.13615642992774
2442.658	0.677551977883305	0.00145093912540785	0.677553531433439	-0.122695474080495
2083.003	0.67760999223662	0.00144754925835896	0.677611538403655	-0.12239833816794
1777.843	0.677635724778583	0.00133426917694257	0.67763703836968	-0.112815619044377
1513.548	0.677742009102943	0.00120201737798614	0.677743075028193	-0.101617502713222
1292.065	0.677606013361169	0.0010921134647087	0.677606893453008	-0.0923448683483841
1101.762	0.677656737898931	0.00094509661523663	0.677657396939953	-0.0799077307852588
939.101	0.677633571284599	0.000841403129940652	0.677634093660543	-0.071142908914245
801.2801	0.677252033240952	0.000778541513024342	0.677252480730703	-0.0658648790012794
684.3433	0.67726816593625	0.000736081746022595	0.677268565937464	-0.0622712877102189
582.9476	0.677197001848199	0.000591834574291505	0.6771972604643	-0.0500734860772757
497.0677	0.677175571122562	0.000451573174470491	0.677175721687879	-0.038207570247162
423.5089	0.67713375432571	0.000448964189437223	0.677133903165448	-0.037989170194814
361.5036	0.677095117102074	0.000374417523057125	0.677095220624066	-0.0316832024311821
308.1262	0.677063592459102	0.000385816808279045	0.677063702385702	-0.0326493295949097
262.7298	0.677032555838581	0.000298411867579141	0.677032621603246	-0.025253939879616
224.2111	0.677005438549391	0.000351875368585715	0.677005529993462	-0.0297796303709513
191.2854	0.677040683295032	0.000254832302676446	0.677040731253376	-0.0215656386650204
163.1722	0.676923615668629	0.000256418813264477	0.676923664234378	-0.0217036527387115
139.1537	0.676940432042398	0.000210136532604703	0.676940464657795	-0.0177858131722305
118.6706	0.676890814791043	0.000201221842936384	0.676890844700024	-0.0170325283702382
101.1982	0.676743487991649	0.000226730597403345	0.67674352597263	-0.0191959081426711
86.24196	0.67661172352676	0.000129226886581741	0.676611735867359	-0.010942989684139
73.61024	0.676446984909618	0.000153020157381681	0.676447002217086	-0.0129609699569016
62.69291	0.676448095054634	5.7418930261464E-05	0.676448097491579	-0.00486343650649338
53.57697	0.676320048107582	0.000119355204896978	0.67632005863933	-0.010111410199442
45.65746	0.676236697253537	4.52887753841005E-05	0.676236698770072	-0.00383720034047866
38.96512	0.676227664840632	8.89641063630946E-05	0.676227670692665	-0.0075377983752734
33.18414	0.676038665703929	0.000149079575750483	0.676038682141391	-0.0126348251911793
28.30617	0.675768190434622	9.78455582058982E-05	0.67576819751823	-0.00829594758894641
24.17237	0.675684818834244	3.75997655839975E-05	0.675684819880399	-0.00318833251298654
20.61345	0.675527081043552	3.99263323786769E-05	0.675527082223454	-0.00338640803346783
17.55618	0.675520866830279	3.91347747864346E-05	0.675520867963871	-0.00331930149762872
14.98558	0.675451456894235	-4.85838116846422E-05	0.675451458641501	0.00412116567219683
12.76553	0.675462030864441	2.95513355313877E-05	0.675462031510874	-0.00250667946749924
10.8809	0.675271540315783	2.01628991647041E-05	0.675271540616804	-0.00171079181569215
9.278505	0.674877220848009	4.23336511234732E-05	0.674877222175761	-0.00359404564659206
7.923394	0.674440569678429	-5.00429575539269E-05	0.674440571535003	0.00425130157620489
6.75822	0.674103545317177	8.40237716619116E-05	0.674103550553757	-0.00714164389656405
5.761429	0.674053327406609	2.29569756390234E-05	0.674053327797545	-0.00195138538823451
4.919708	0.673722879868391	2.92905266661469E-05	0.673722880505103	-0.00249097011067235
4.191257	0.673508496739653	6.71211632935359E-05	0.673508500084266	-0.00571003837162089
3.564097	0.672967935607132	-4.49254550715798E-06	0.672967935622127	0.000382490581211074
3.051758	0.672180857145596	2.77165374340353E-05	0.672180857717024	-0.00236251984849756
2.604164	0.670888388778256	1.06448250524246E-05	0.670888388862705	-0.000909098382546994
2.214424	0.669553919040717	8.30097549086968E-07	0.669553919041232	-7.10339896373907E-05
1.892567	0.667378991432258	-2.35491017228268E-06	0.667378991436413	0.000202173601110965
1.607507	0.664661472535154	-6.50351180174671E-05	0.664661475716898	0.00560621899210098
1.376413	0.661639436319122	-1.52856971065355E-05	0.661639436495693	0.00132369064310366
1.17375	0.659098817991662	4.62388600743537E-06	0.659098818007882	-0.000401956650413305
1.001604	0.657468254618631	-4.42042469963664E-05	0.657468256104646	0.00385222673161376
