EC-Lab ASCII FILE
freq/Hz	Re(Z)/Ohm	-Im(Z)/Ohm	|Z|/Ohm	Phase(Z)/deg
6999984	9.13076870143856	-1.56090182574566	9.26322576583267	9.70092031669851
5969734	5.21872813848476	-1.64593650154051	5.47213215762522	17.5047716441409
5091109	2.84612892028653	0.755488908729863	2.9446923985546	-14.8660145186659
4341796	2.05749788399192	0.0132404779311773	2.05754048633	-0.368706591758935
3702781	1.46827834875585	-0.195078094207561	1.48118087088136	7.56809638347992
3157797	1.22027313322728	-0.226720333312999	1.24115616632795	10.5252404261312
2693047	1.0323781093172	-0.178962374264449	1.0477748288634	9.83447104916555
2296687	0.930064956668123	-0.134412822440237	0.939727423489614	8.2234397799726
1958656	0.866441883316622	-0.0940255837261629	0.871528741671954	6.19345604140205
1670375	0.824062989910096	-0.0675603987417524	0.826827804816524	4.68688414558617
1424531	0.819579045949129	-0.0538264873524511	0.821344692135761	3.75754832075736
1214875	0.802319375111818	-0.0361780280506036	0.803134627191138	2.58182116345727
1036062	0.781424746821121	-0.0443538308764869	0.782682500927338	3.24863460205067
883578.1	0.780247614908315	-0.027640457292693	0.780737046289891	2.02886818974344
753531.2	0.756966925915232	-0.0191930261425015	0.757210208054582	1.45243311375396
642624.9	0.75605457522133	-0.0185856812854522	0.756282981602753	1.40818759394058
548046.8	0.756444157545286	-0.00577416386544771	0.756466195181742	0.437347279390284
467390.6	0.747211564575942	-0.00560275858093206	0.747232569645986	0.429608453043011
398593.7	0.747838500260989	-0.00297597919371261	0.747844421604365	0.22800397090995
339937.5	0.749441494816083	-0.00132843065790438	0.749442672177251	0.10156014963793
289906.2	0.748382552182372	-0.00182836058642474	0.748384785597246	0.139978058421262
247234.4	0.747045183681199	-0.00291192590431914	0.747050858893656	0.223333505442941
210843.7	0.747069421744885	-0.00651231978967649	0.747097805655511	0.499443528494091
179812.5	0.750022822117832	-0.0046360176067489	0.750037149984483	0.354150369790518
153343.8	0.746697065864637	-0.00225094677767472	0.746700458639376	0.172719788919793
130781.2	0.747045068530614	-0.00541992873028524	0.747064729486911	0.415682541945018
111531.3	0.745221613452609	-0.00217115044121437	0.745224776192491	0.166926727244784
95109.37	0.742024271265185	-0.00318541252418082	0.74203110851202	0.245961728716499
81109.37	0.744734214947948	-0.0028744552416666	0.744739762203599	0.22114377534151
69171.88	0.741712004581946	-0.00385163528717543	0.74172200509042	0.297528503236069
59000	0.741564098201095	-0.00136551025813987	0.741565355419917	0.105503875437595
50312.5	0.74143636924566	-0.00270874973243592	0.741441317276897	0.209322395520812
42906.25	0.741543036160361	-0.00200414728952327	0.741545744431377	0.154851297937725
36593.75	0.741518465284509	-0.00139565433506658	0.741519778703789	0.107839537889445
31203.13	0.74144700116545	5.34019937332206E-05	0.741447003088563	-0.00412667236956583
26609.38	0.742141499188382	0.000866406065425461	0.742142004926988	-0.0668893848347528
22703.13	0.742262107560736	-0.000117386378050613	0.742262116842876	0.00906114418349953
19359.37	0.742043734506207	0.000869505726783599	0.742044243937062	-0.067137532855824
16500	0.74278506889746	0.00115195137599169	0.742785962151262	-0.0888573315452023
14112.02	0.742881609625872	0.000776631004084054	0.742882015582584	-0.0598987267763616
12011.13	0.742823957106923	0.000829025307408695	0.742824419721745	-0.063944668246678
10236.38	0.74331693707315	0.000813407589017151	0.743317382126716	-0.0626984277464889
8750.684	0.743333772081614	0.0012081585402952	0.743334753905762	-0.0931241482455415
7449.463	0.743524714054881	0.00114338428426581	0.74352559319637	-0.0881087621858638
6363.206	0.743686365205487	0.0010012515874612	0.743687039215617	-0.0771393133107457
5414.761	0.743633178636431	0.000732760085824429	0.74363353965933	-0.05645800635462
4620.567	0.743651816359577	0.000802134393587802	0.743652248967543	-0.0618016342055501
3941.215	0.743681263417107	0.000738991034553508	0.743681630582209	-0.0569344093021154
3361.769	0.743771699761919	0.000857328167494578	0.743772193872775	-0.0660434699460217
2867.244	0.744006600616762	0.000757150482602749	0.744006985879947	-0.0583079667539604
2442.658	0.743945204615093	0.000640582136962173	0.743945480405162	-0.0493351440145803
2083.003	0.744086062158377	0.000653964386906459	0.744086349537323	-0.0503562579379066
1777.843	0.744097506113117	0.000603963392434082	0.744097751223278	-0.0465053914080985
1513.548	0.744234348428432	0.000646626687875504	0.744234629338602	-0.0497813234383825
1292.065	0.744166889098311	0.000442733064068262	0.744167020797632	-0.0340874250127983
1101.762	0.744288721343675	0.000529535390049056	0.744288909716605	-0.0407639360416972
939.101	0.744298851422064	0.000377401826189914	0.744298947104147	-0.0290522146134091
801.2801	0.744326123097322	0.000434500423712106	0.744326249917137	-0.0334464112907618
684.3433	0.744354299663154	0.000469597856260275	0.744354447792966	-0.0361467270017457
582.9476	0.744289785549245	0.000399710745414744	0.744289892878857	-0.0307699191648995
497.0677	0.744360981809968	0.000354047214162212	0.744361066009319	-0.0272521130014009
423.5089	0.744306121656433	0.000253200075858745	0.744306164723576	-0.019491032973365
361.5036	0.744355142437834	0.000189269716954228	0.744355166500962	-0.0145687926624418
308.1262	0.74447114380539	0.000219037561779594	0.744471176027897	-0.0168575069525596
262.7298	0.744419418222942	0.000264787541644806	0.74441946531497	-0.020379919696731
224.2111	0.744465450944901	0.00019156972528583	0.74446547559276	-0.0147436479223598
191.2854	0.744350004939306	0.000205688549585352	0.744350033358584	-0.0158327203697665
163.1722	0.744426222323855	0.000190019933916083	0.744426246575805	-0.0146251430615929
139.1537	0.744353008217132	0.00018721944926884	0.744353031761822	-0.0144110172743966
118.6706	0.744315583891209	0.000139992737457967	0.744315597056301	-0.0107763334502693
101.1982	0.744330207307205	0.000146841093037441	0.744330221791573	-0.0113032827344511
86.24196	0.744366640419855	6.4612699375662E-05	0.744366643224119	-0.00497340257723945
73.61024	0.7443255078507	0.000137487938881216	0.744325520548728	-0.0105833784536031
62.69291	0.744289473156062	8.28259470647017E-05	0.744289477764576	-0.00637598320619688
53.57697	0.744413516108812	8.11803041699714E-05	0.744413520535277	-0.00624825945450631
45.65746	0.744315255081548	6.68752669911311E-05	0.744315258085854	-0.0051479134895226
38.96512	0.744407257087461	3.9524913766152E-05	0.744407258136765	-0.00304216639578631
33.18414	0.744335543307899	5.65309745923715E-05	0.744335545454613	-0.00435151361344666
28.30617	0.744367208115591	3.10787750292688E-05	0.74436720876439	-0.00239220994848344
24.17237	0.744355053569413	4.17493639577289E-05	0.744355054740232	-0.00321360396245638
20.61345	0.744367929903294	3.66899474004014E-05	0.74436793080752	-0.00282411298290439
17.55618	0.744410993799961	3.06510408018257E-05	0.744410994430987	-0.00235914741891542
14.98558	0.744308342300286	1.35643645485831E-05	0.744308342423885	-0.00104416516133995
12.76553	0.744377037504835	8.02867210717136E-05	0.744377041834602	-0.00617978526841023
10.8809	0.744282866334707	-4.04055613018147E-05	0.744282867431473	0.00311046812158606
9.278505	0.744337801210837	3.6851502107415E-05	0.74433780212308	-0.00283666305044894
7.923394	0.744269791701719	0.000145950787034696	0.744269806012143	-0.0112356622554698
6.75822	0.74428207833882	6.11672523107991E-05	0.744282080852271	-0.0047087327451879
5.761429	0.744262229053984	1.43176702052208E-06	0.744262229055361	-0.000110222182880497
4.919708	0.744328161533784	-6.24664979301596E-06	0.744328161559996	0.000480845261168365
4.191257	0.744204255277039	6.12673150060965E-05	0.744204257798984	-0.00471692890644724
3.564097	0.744224821642172	-6.82966188142333E-06	0.744224821673509	0.000525796493098015
3.051758	0.74424109628329	6.19268801226679E-06	0.744241096309054	-0.000476747237834471
2.604164	0.744195398206967	2.04044536205074E-05	0.744195398486693	-0.00157094370409882
2.214424	0.744102134376209	5.03660710105258E-05	0.744102136080775	-0.00387818171973318
1.892567	0.743956429091438	-3.4853800735867E-06	0.743956429099602	0.000268426429835327
1.607507	0.743646766692993	1.52809743168951E-05	0.743646766849995	-0.00117735378448047
1.376413	0.743415846256968	-5.47684415719756E-06	0.743415846277142	0.000422105685307332
1.17375	0.743145939852976	3.09001568260826E-05	0.743145940495394	-0.00238236997130987
1.001604	0.742744400419653	-1.53000592943927E-05	0.742744400577238	0.00118025638867061
