EC-Lab ASCII FILE
freq/Hz	Re(Z)/Ohm	-Im(Z)/Ohm	|Z|/Ohm	Phase(Z)/deg
6999984	-12.4076745453108	32.708534361338	34.9828330426394	-110.773769349869
5969734	-13.3398921567639	32.9410920766898	35.5396717761862	-112.046079429737
5091109	-14.380942821203	36.6360606636186	39.3574955678719	-111.431754081798
4341796	-13.9907532383284	42.2991038731029	44.5528378966295	-108.302029421675
3702781	-13.3851321273667	49.2883344944578	51.0734929224996	-105.193275016854
3157797	-12.6897872376138	57.3809806253191	58.7674028493616	-102.470235799715
2693047	-12.7359632128443	66.3126858077451	67.524640376648	-100.87179814286
2296687	-12.2845841908869	77.4635231986388	78.4315525479959	-99.0112322947312
1958656	-12.014484954038	90.0700380479575	90.8678138983839	-97.5978600057025
1670375	-11.649841109219	105.061593833715	105.705521600107	-96.3274406865589
1424531	-11.3148597788497	122.592616298106	123.113669519797	-95.2732556392977
1214875	-10.7254976003233	142.955215696469	143.357001899449	-94.2906903164279
1036062	-9.88086485869787	167.065977878779	167.357917216212	-93.384729450767
883578.1	-8.81374906469266	194.513992221392	194.713572568733	-92.5943914681635
753531.2	-7.66088934152756	227.363768344229	227.492796328128	-91.9298177215913
642624.9	-6.16079796036157	265.33611471803	265.40762838541	-91.3301027974279
548046.8	-4.54394284065525	309.855319870262	309.888635913681	-90.8401665868115
467390.6	-3.0258771353325	360.91653010943	360.929214166254	-90.4803490914694
398593.7	-0.658143262391983	422.787986986055	422.788499243149	-90.0891908047335
339937.5	2.29049337001455	492.223507736723	492.228836953425	-89.7333840139573
289906.2	-107.53174376196	502.655437382792	514.028758579687	-102.075124104193
247234.4	-113.096651269414	605.573182279937	616.043611788163	-100.578672934871
210843.7	-116.453495805306	724.446784052189	733.746931583932	-99.1320690937243
179812.5	-117.560795933778	862.712069094854	870.685164053291	-97.759835174386
153343.8	-113.848840149566	1026.76821865835	1033.06075970885	-96.3271542076614
130781.2	-114.747981385975	1212.00656583298	1217.4263899121	-95.4084163831691
111531.3	-123.73620026054	1431.0021837824	1436.34184553849	-94.9419714421531
95109.37	-101.269584419213	1676.92844427367	1679.98349275894	-93.4558908089222
81109.37	-98.2755510865701	1946.68676036073	1949.16582847769	-92.8900376904511
69171.88	-77.6780512551619	2298.67539767183	2299.98749203307	-91.9354327079836
59000	-55.6984861664386	2697.96807374469	2698.54294913141	-91.1826807567407
50312.5	-26.9808533471889	3125.71880633525	3125.83525201268	-90.4945584447886
42906.25	-17.6124082923229	3715.92631924507	3715.96805785303	-90.2715632709237
36593.75	9.05490674817286	4323.53419310789	4323.54367507827	-89.8800039137313
31203.13	-754.863851106977	4770.3438402853	4829.69976170941	-98.9919809128148
26609.38	-731.953962145265	5636.73475846933	5684.05975866162	-97.398699876115
22703.13	-709.349863426749	6677.9623749174	6715.53115617491	-96.0633644387831
19359.37	-652.637947328635	7920.03353139764	7946.87784156497	-94.7107256760383
16500	-678.836441320002	9240.3443097674	9265.24591563088	-94.2016526750645
14112.02	-670.077201709318	10816.464969199	10837.200648053	-93.5449284502856
12011.13	-403.758461482963	12721.8816107789	12728.287104473	-91.8178044726432
10236.38	-290.419169372462	14930.7126652644	14933.5368880458	-91.1143268917816
8750.684	-341.921143413167	17468.8670900967	17472.2130103709	-91.1213169768822
7449.463	-135.523862131688	20306.9353229204	20307.3875455825	-90.382373308502
6363.206	-86.0434774445685	23614.3835683405	23614.5403256705	-90.2087670965773
5414.761	220.452798688955	27728.1877318197	27729.0640723319	-89.5444798289027
4620.567	585.49833928562	32372.4801507299	32377.7744666724	-88.9638443993171
3941.215	-6871.53100250454	34171.5522290831	34855.6009855423	-101.369927649946
3361.769	-6842.83146675747	41006.1610250428	41573.1834779848	-99.4738384185198
2867.244	-6877.48125974089	48806.4380005249	49288.6207838804	-98.0209320416271
2442.658	-6809.77538387792	57681.7986752832	58082.3806260967	-96.733037509732
2083.003	-6112.5677497423	68038.2118860585	68312.2372723027	-95.1336831204038
1777.843	-5627.51968976331	80015.5909495931	80213.2393864708	-94.0230044345427
1513.548	-4704.25434729924	94839.4521925758	94956.0514193379	-92.839674700259
1292.065	-5215.29636011602	111005.802646639	111128.248152072	-92.6899035326119
1101.762	-4395.02491054111	129575.383716214	129649.898994054	-91.9426519762022
939.101	-3481.08562746794	150834.976118271	150875.140357003	-91.322081388296
801.2801	-3709.29109306122	177573.961634009	177612.69856294	-91.1966609269419
684.3433	2370.09863956086	202574.946829593	202588.811266994	-89.3296779515081
582.9476	7384.58412290034	242008.077878507	242120.717496702	-88.2522308177646
497.0677	3477.6339535425	284121.86053436	284143.142749251	-89.298738230571
423.5089	-70700.5733108913	285267.021886207	293897.677504118	-103.919704429837
361.5036	-72461.085469838	362293.910211994	369469.195311549	-101.310282743473
308.1262	-62005.2141328763	406488.907331613	411190.805300061	-98.672958012486
262.7298	-65444.3939406265	523360.910718923	527436.831826141	-97.1276335432386
224.2111	-90515.3346428825	605566.551965273	612293.944657811	-98.5011852655057
191.2854	-71341.971413276	768064.193153798	771370.392023266	-95.3067163745334
163.1722	81211.7541169464	841086.90707576	844998.540981592	-84.4848614274409
139.1537	-36193.7786539129	963283.512703448	963963.233458383	-92.151781571425
118.6706	276727.444088327	875908.677269997	918582.652366423	-72.4670143787924
101.1982	637518.619664068	490979.704866321	804668.292533637	-37.6013694407577
86.24196	599682.342363748	430170.047679512	738014.35058098	-35.6530035401035
73.61024	248055.028866898	223509.260373234	333897.719097852	-42.0203408131718
62.69291	50474.6091063587	32738.8491516042	60162.4335296637	-32.9682550924133
53.57697	63292.0684097587	111815.332892754	128485.620181805	-60.4883576433308
45.65746	452910.303158896	123272.302341315	469386.624470715	-15.2258320140081
38.96512	651900.540768877	-307605.659776069	720829.769766084	25.2607408886442
33.18414	617682.400395205	1655.01971344326	617684.617623132	-0.153518082444235
28.30617	865924.799884514	-63722.4326276756	868266.265309797	4.20874570892935
24.17237	720897.817015665	39997.3981189606	722006.547362445	-3.17567186458753
20.61345	713418.61211074	302160.5073171	774769.054808039	-22.954545656197
17.55618	1026030.29748776	693996.531853182	1238696.63662539	-34.0740235299702
14.98558	-220463.575293087	3694444.13053881	3701016.29579008	-93.4150389181294
12.76553	2745147.24575222	2218093.08362833	3529273.34284281	-38.9383893740072
10.8809	6100069.64912775	3966800.75181148	7276424.8040354	-33.0354573122042
9.278505	2510101.9688842	420063.58141566	2545007.91877512	-9.50036789966887
7.923394	2211733.17668179	-265140.267311056	2227568.8555429	6.83593653539405
6.75822	2417054.862501	236510.942246145	2428598.69763242	-5.58865096018667
5.761429	-30217.0197813528	-809673.95447562	810237.60764399	92.1372857392082
4.919708	1371920.45736567	-1005168.88275794	1700744.0207754	36.2292214650886
4.191257	618514.466979199	1529059.03688708	1649418.58973051	-67.9763430678955
3.564097	2222534.52648153	-1236778.42567323	2543478.05093993	29.0947166226519
3.051758	-246562.209024843	1800202.51381731	1817009.0846425	-97.7989108960139
2.604164	5486483.96046972	-1393350.18100306	5660647.57562178	14.2496150635083
2.214424	-74577.3433064584	6303966.57350751	6304407.69145164	-90.6777903476714
1.892567	495755.308565741	-4538651.28258721	4565646.59067055	83.7663150565673
1.607507	731111.244571904	-3517137.79753392	3592322.63845847	78.2570966732664
1.376413	2606906.75786682	-1279647.5700963	2904042.13947819	26.1449522764019
1.17375	12473306.8251887	4382090.18224245	13220669.3295235	-19.3572645169358
1.001604	21470393.2131717	-6392879.74436064	22401935.0984254	16.5810720051428
