EC-Lab ASCII FILE
freq/Hz	Re(Z)/Ohm	-Im(Z)/Ohm	|Z|/Ohm	Phase(Z)/deg
6999984	-12.2004515477688	34.3898865892815	36.4899344695644	-109.533086540293
5969734	-10.4815760956793	39.8181852012779	41.1746440199886	-104.747743035361
5091109	-8.73329924204352	44.5514628969331	45.3993762281805	-101.090897203718
4341796	-7.05842250888771	49.5109393204496	50.0115430746464	-98.1135793170997
3702781	-14.6145312142861	48.6167201251561	50.7658349516789	-106.731151034765
3157797	-14.0622839703155	56.6357867165684	58.3554639041317	-103.94416972769
2693047	-13.5905144625329	65.7465711741049	67.1365303281898	-101.679152971978
2296687	-13.5812285800615	76.6019557497323	77.7965898637455	-100.053843594531
1958656	-13.501913700863	89.1600375216212	90.1765710395025	-98.6111358663914
1670375	-13.4920356374677	104.231111881064	105.100712222161	-97.3755523811917
1424531	-13.024607882845	121.8010219389	122.495425856896	-96.1036433717808
1214875	-12.4796837406196	142.096452215047	142.643416386348	-95.0191488571572
1036062	-12.0460307611846	166.199850391591	166.635821860987	-94.1455028111417
883578.1	-10.9789363075964	194.063578563614	194.373891166901	-93.237994959434
753531.2	-9.87534676502246	226.684904193377	226.899908027504	-92.4944676286927
642624.9	-8.45572622768542	265.323831784595	265.458537287648	-91.8253675155389
548046.8	-7.0422431848443	309.282597141689	309.36276130747	-91.3043769924265
467390.6	-5.77479500238453	362.55573550604	362.601723114557	-90.9125311563365
398593.7	-3.73358289354162	421.402135144817	421.418674415163	-90.5076218825176
339937.5	-1.1805263529398	494.42449118612	494.42590054236	-90.1368035975089
289906.2	-119.935214254672	491.988535418857	506.396262428847	-103.700147002743
247234.4	-131.724383331907	598.535073610866	612.858505290198	-102.411679513053
210843.7	-132.177309013985	718.617442738804	730.672204224738	-100.422083569461
179812.5	-136.775971585818	857.221148574969	868.064377778189	-99.0655486937096
153343.8	-134.982081642119	1023.7323981451	1032.59294273027	-97.5112860828582
130781.2	-136.058742838322	1212.06532627535	1219.67796432572	-96.4048472846811
111531.3	-138.348324436663	1439.69107010439	1446.32314377277	-95.489031544944
95109.37	-113.200186429087	1685.16755028261	1688.96535036486	-93.8430383910921
81109.37	-112.4506233055	1975.38092446487	1978.57902026213	-93.2581057780431
69171.88	-91.4696498118889	2326.70785024018	2328.50512501175	-92.2513043404392
59000	-70.5340399206683	2713.52344805429	2714.44000742841	-91.4889839940176
50312.5	-66.5944647064284	3162.01227631939	3162.71346446751	-91.2065158010182
42906.25	-62.9330913556946	3713.89769103131	3714.43086265383	-90.9708009641013
36593.75	16.5293423091399	4349.4319373642	4349.46334585324	-89.782257313882
31203.13	-842.182279806737	4756.09394279063	4830.08287559025	-100.041525001935
26609.38	-804.595507597816	5692.47085711355	5749.05195575181	-98.0451108605816
22703.13	-795.066941686124	6755.62800685283	6802.25265693186	-96.7122391417688
19359.37	-739.552788328689	7915.48643591431	7949.95999007971	-95.3377133912499
16500	-695.859736333604	9266.59620590919	9292.68669524701	-94.2944718378757
14112.02	-680.357643236227	10944.6375179799	10965.7638549571	-93.5571324513219
12011.13	-574.8426782466	12713.4130703368	12726.402319656	-92.5888910733303
10236.38	-440.107300505476	14839.2302112662	14845.7552081029	-91.6988011385945
8750.684	-285.531236703704	17499.9461845581	17502.2754106306	-90.9347619187876
7449.463	-157.51684629938	20333.0760450004	20333.6861638179	-90.4438516799195
6363.206	143.646488967922	23780.9553744825	23781.3892116697	-89.6539147677726
5414.761	390.425558166173	27899.0178721418	27901.7495929298	-89.1982414333051
4620.567	426.851400117561	32501.9982004039	32504.8010167243	-89.2475730994659
3941.215	-7000.86659240811	34356.9275547644	35062.9520155965	-101.517406986413
3361.769	-6869.89936088143	41224.9900719092	41793.4842249083	-99.4610614596884
2867.244	-6556.35663758447	48944.7007209939	49381.8746204197	-97.6296018675527
2442.658	-6605.0802937818	58096.3843541838	58470.6504215265	-96.4862072915897
2083.003	-5987.55333009955	68569.7685858842	68830.6905297521	-94.9904436716211
1777.843	-5513.21285566244	80919.8157858941	81107.4108994664	-93.8976412689681
1513.548	-5331.27125299688	94623.0944867626	94773.1632025851	-93.2247596343665
1292.065	-3971.05711982888	110750.057787843	110821.228086768	-92.05351930956
1101.762	-3982.69803060921	130579.725617298	130640.447893796	-91.746986889165
939.101	-2434.57676239767	151403.472730917	151423.045534666	-90.9212401148225
801.2801	-346.530324628883	176560.152129671	176560.492192672	-90.1124528912158
684.3433	-1650.5293931107	208588.792108265	208595.322192187	-90.4533627793187
582.9476	-1236.99648129179	238861.456223691	238864.659231115	-90.2967161181299
497.0677	-56500.0390668106	238856.33786295	245447.763387346	-103.308358462433
423.5089	-26923.644497441	290066.531256526	291313.362529455	-95.3029348530855
361.5036	-72583.309435306	345649.450480404	353188.164334518	-101.859290902767
308.1262	-67472.1926910006	429899.784018514	435162.40771199	-98.9197309348488
262.7298	-46353.2700353382	487179.224316544	489379.425649095	-95.4351162164222
224.2111	-26223.7602868111	590041.816782613	590624.272406499	-92.5447733231052
191.2854	-22885.7545208935	683581.830457652	683964.821238509	-91.917499128996
163.1722	-48749.9264944035	801828.835559844	803309.427847367	-93.4792101911841
139.1537	-43291.2569183054	942036.197496435	943030.397346294	-92.6311753586109
118.6706	-113532.671428839	1146429.6157161	1152037.55636383	-95.655647671768
101.1982	76825.5735921739	1292769.23708903	1295049.98711305	-86.5990756914736
86.24196	455599.500972257	621719.253514794	770782.547465342	-53.765820914749
73.61024	333117.366697612	-253029.35854824	418319.2994387	37.2195847435502
62.69291	54794.9511198279	11465.9142155572	55981.7278852917	-11.8186869190611
53.57697	136915.558106555	72056.2516578318	154719.01452183	-27.7570435175159
45.65746	243348.150255254	421724.534574184	486898.249426372	-60.0137194058444
38.96512	306417.285632871	389929.376114082	495919.82345066	-51.8387575849178
33.18414	520315.352871455	-157462.984939766	543619.957378211	16.8373846747946
28.30617	899929.044709192	-74670.5982763992	903021.585433125	4.74318756219809
24.17237	207177.492706612	-670928.660430256	702187.852978771	72.839723424525
20.61345	592620.623719164	62959.4294360018	595955.613625878	-6.06429989522366
17.55618	-68527.7631594343	1049877.79289529	1052111.89249923	-93.7345201846944
14.98558	-512768.321849415	8844263.46089264	8859115.50424606	-93.3181517549728
12.76553	1833319.38007278	1364965.5315805	2285648.89074269	-36.6688748996043
10.8809	2980859.04501968	2786770.48358604	4080638.47632475	-43.072646558865
9.278505	4092676.920077	-1206515.14573278	4266811.82723278	16.4254394792514
7.923394	1755352.54651953	594545.630273413	1853307.06280686	-18.71146659731
6.75822	1685420.61394807	1044062.61214773	1982601.67053442	-31.7768523827962
5.761429	577684.504347754	543430.554152515	793117.994846933	-43.2499598077241
4.919708	949684.164006585	-1349334.77316376	1650031.61831335	54.8614823767997
4.191257	1712395.99057886	-452705.986131844	1771226.3374369	14.8084895560348
3.564097	2422132.21276199	-1057638.23029612	2642976.17890953	23.5887698283612
3.051758	1163546.68917935	1307460.76928731	1750227.00274153	-48.3332012590791
2.604164	3755103.06923145	-2910340.90894385	4750882.36718439	37.7769810049653
2.214424	4987045.4530111	3671221.02008463	6192615.4513832	-36.3586984676323
1.892567	3096893.6011467	176594.771090112	3101924.51391064	-3.26365411769223
1.607507	-253728.891424322	-4075381.5775898	4083272.3829426	93.5625755503756
1.376413	2866988.15624686	-2533142.65849759	3825759.11635325	41.4623773235396
1.17375	23968499.6369278	-55740.2605324744	23968564.4505893	0.133244715708664
1.001604	13040805.8870075	-1169072.9442263	13093103.136061	5.12271767048172
