EC-Lab ASCII FILE
freq/Hz	Re(Z)/Ohm	-Im(Z)/Ohm	|Z|/Ohm	Phase(Z)/deg
6999984	35.5142110794936	83.9628795857477	91.1648196231946	-67.0728459207537
5969734	37.3569306298006	71.1050275951113	80.3210135355703	-62.2836063028142
5091109	38.3218134429299	68.8174241580812	78.768009072897	-60.8882248885526
4341796	41.4160542751388	69.5625757755801	80.9582701164901	-59.2313455365933
3702781	48.1947408065056	71.3570817220681	86.1078750945357	-55.9648157437273
3157797	53.316830280177	72.5584477469176	90.0411724188849	-53.691101488686
2693047	59.2499477499454	76.1682469702874	96.4995241174689	-52.1212773441189
2296687	67.7993767479139	80.9677583140426	105.605555601052	-50.0584516647314
1958656	78.4584862474751	83.2207565195602	114.37407214895	-46.6871622686037
1670375	89.8470428742562	84.9406249468224	123.642229353911	-43.3920877183843
1424531	101.714134118807	84.7908618920923	132.420751168171	-39.8152382540975
1214875	113.41976403929	82.9431426588309	140.511948918415	-36.1777641255079
1036062	124.500075539081	79.8379989074619	147.899881266973	-32.6707811347594
883578.1	135.069272433825	75.8514890087762	154.910156996406	-29.3174654246649
753531.2	144.503144552127	70.7010855519757	160.872005904323	-26.0711266644993
642624.9	152.7383895372	65.3192085454119	166.119278361713	-23.1541756111765
548046.8	159.843566214488	57.8981232050063	170.006347913328	-19.9112688682037
467390.6	165.026758825669	51.8639601433167	172.98468571019	-17.4466851828705
398593.7	170.874129232058	47.0627336654252	177.236759564366	-15.3988022427801
339937.5	173.628730185364	41.6170256090039	178.546668314821	-13.4789238036998
289906.2	176.495728555472	37.4847577434226	180.432395265955	-11.9905055026649
247234.4	178.455092015382	32.83684650375	181.451035694287	-10.4261531050412
210843.7	180.325533190436	29.2549257068849	182.683191888391	-9.21503491769372
179812.5	181.631984326337	25.9903235539977	183.482082636873	-8.14336319852512
153343.8	182.804779384341	23.1343058724408	184.262810881516	-7.21255315328944
130781.2	183.81330529769	20.8146735965918	184.988058645401	-6.46054604718023
111531.3	184.517733201937	18.9574113243219	185.489022074355	-5.86600493190683
95109.37	185.058725969062	17.360869098508	185.871277590562	-5.35938934691641
81109.37	185.471893179759	16.3081417538607	186.187482520034	-5.02497049767461
69171.88	186.081355426161	15.4720369909287	186.723471384521	-4.75301779908915
59000	186.063910799337	15.1173944811602	186.677032646876	-4.64498717977503
50312.5	185.255685031316	17.2281875196871	186.05504368771	-5.31304336382607
42906.25	190.588983751766	15.08823948015	191.18529153191	-4.52645882773852
36593.75	189.741970229208	14.8739320776577	190.324063433693	-4.48226773891567
31203.13	189.402556224324	14.8963895358658	189.987448863109	-4.49701911030911
26609.38	190.381959452788	16.221719123564	191.071804975006	-4.87019110594017
22703.13	190.911794277807	17.3737200751504	191.700702512071	-5.19981716322571
19359.37	191.662800162249	18.8640792969424	192.588894938819	-5.62113365646603
16500	192.425351917351	20.6141072678595	193.526374117243	-6.11465142625976
14112.02	193.26691233548	22.7180925820081	194.597561994633	-6.70422499744937
12011.13	194.164159099238	25.2978706453255	195.805267901305	-7.42331567822831
10236.38	195.363622586445	28.0492356488806	197.366928968826	-8.17037815856554
8750.684	196.503980853008	31.3289841869119	198.985727481303	-9.05853149595373
7449.463	197.93589769545	35.5729757241433	201.107076450268	-10.1884157271076
6363.206	199.540264376707	39.900901751966	203.490538031	-11.3079580700594
5414.761	201.38942533114	44.9869683901825	206.352920890755	-12.5921684833318
4620.567	201.707445603417	51.411149830161	208.156191209185	-14.2990842395399
3941.215	204.592306085777	58.1817521809067	212.704320586904	-15.8746379620583
3361.769	209.628612763752	65.1045854199178	219.505722777231	-17.2532832791241
2867.244	209.272913395983	73.5085752665252	221.807716094272	-19.354182003998
2442.658	214.912430744308	84.4267785343574	230.900917759363	-21.4470192126944
2083.003	217.765195878633	93.7701270541657	237.096008536233	-23.2968077246964
1777.843	221.617684478944	110.091643335751	247.456194115595	-26.416522812138
1513.548	223.693146174191	124.46911918591	255.990596069904	-29.0927857548823
1292.065	227.477021582192	138.365764165345	266.253413200591	-31.3105850586967
1101.762	237.133323550802	155.667956445499	283.663049765328	-33.2831985332408
939.101	237.720788916522	178.908690620294	297.522256415485	-36.9651227275767
801.2801	426.892909121206	202.120696308811	472.324392482883	-25.3361192161716
684.3433	436.032480895151	225.72996014223	490.997290523474	-27.3701824142435
582.9476	440.608829992839	261.395130775645	512.311970835033	-30.6789162782989
497.0677	454.861966186318	300.171738820758	544.979340039199	-33.4215506520311
423.5089	464.771422651139	341.029938910508	576.466733252205	-36.2696722854248
361.5036	472.728812081819	391.83249360937	614.007518537375	-39.654443378472
308.1262	490.260603940948	455.940419169257	669.50513486364	-42.9227035038793
262.7298	500.962509472368	523.316057950547	724.44677679299	-46.2502074653031
224.2111	520.628972487783	593.940143840171	789.822398681228	-48.7632290026366
191.2854	541.113831668904	686.932994352011	874.460472264368	-51.7716355792182
163.1722	572.021874738831	820.577957045126	1000.27856558465	-55.1197889395786
139.1537	570.580554756362	883.104376809564	1051.39693256462	-57.1331855499801
118.6706	646.137227334895	1065.75271844335	1246.32346259605	-58.772692821591
101.1982	661.016081894297	1150.64726902929	1327.00090363476	-60.123784598289
86.24196	677.900456027132	1377.51546141369	1535.28429768417	-63.7973607975498
73.61024	727.084995465119	1653.0064251654	1805.84684629361	-66.2574123867235
62.69291	1123.55753235461	1479.09154185583	1857.44268221128	-52.7787234957197
53.57697	1847.96452592859	1867.69836149835	2627.40747860588	-45.3042942525878
45.65746	2137.82431580638	2198.80936978285	3066.76628550301	-45.8056838895288
38.96512	2114.58463018651	2712.23650942501	3439.14161401926	-52.0583780373694
33.18414	2274.81208996786	2965.63438975722	3737.61386159333	-52.5097198109058
28.30617	2525.70959934085	3782.16410224684	4547.96375057312	-56.2652060565585
24.17237	2164.20704121376	4113.52631441555	4648.10615806357	-62.2502601591376
20.61345	2451.68832604562	4246.0314866987	4903.01530021121	-59.9975619960217
17.55618	2281.34112309065	4882.1889188887	5388.90396645033	-64.9543344732575
14.98558	3218.96084881115	5876.49901138993	6700.36936124015	-61.2874618801997
12.76553	3225.70702233021	7167.11930061498	7859.56645516521	-65.768908570595
10.8809	3371.91019324173	7787.87317447345	8486.50381093243	-66.5888684712067
9.278505	3954.27451438426	8565.10605151843	9433.83954754726	-65.2185253125923
7.923394	4744.25889828527	10078.9929692379	11139.7527696042	-64.7932760370462
6.75822	15778.5680592061	11950.5009501225	19793.3747238281	-37.1398576663577
5.761429	15682.7963353697	14136.0933061605	21113.484668741	-42.0307342675755
4.919708	16499.1558607833	14821.6633305748	22178.9054735198	-41.9342596340314
4.191257	17653.2388835408	17580.549241778	24914.1035303688	-44.8817951744583
3.564097	17943.3773920097	20064.4199814282	26917.387343931	-48.1941042951552
3.051758	18231.174477567	23788.3539741913	29971.011121297	-52.5337783087233
2.604164	19052.6426220048	25904.3957032539	32156.506458765	-53.6655762189129
2.214424	20907.810766045	28381.405520395	35251.109632774	-53.6219340236578
1.892567	22611.4475229552	33512.2162580181	40427.0478468009	-55.9915728727599
1.607507	24535.5732101122	38677.7211238135	45803.49838255	-57.6106198215067
1.376413	27271.3509116759	39704.2275916229	48167.9589477814	-55.5162814633871
1.17375	29019.9892480883	54347.0194385128	61609.725675491	-61.8988651433838
1.001604	39764.3655953391	49708.9028030635	63656.7340434946	-51.3421292272543
