EC-Lab ASCII FILE
freq/Hz	Re(Z)/Ohm	-Im(Z)/Ohm	|Z|/Ohm	Phase(Z)/deg
6999984	50.4273047868273	52.7673701650512	72.9884129310887	-46.2990291990262
5969734	49.0316818417434	45.0349141015368	66.5751403480515	-42.5670399525518
5091109	49.3323018497662	41.699314560445	64.5949598700036	-40.2069694986284
4341796	51.3952306201925	37.6667757056281	63.7201359270432	-36.2371168235055
3702781	53.388853022915	32.1466223259643	62.3199402604865	-31.053086366409
3157797	54.9981750821241	29.1453147311513	62.2434625735252	-27.9205656722462
2693047	56.358920918007	26.3343191491591	62.2079121341645	-25.044844661861
2296687	58.0673240904927	23.2444663167149	62.5469371062981	-21.816324889124
1958656	59.4583350047684	20.3809005199444	62.8543929056923	-18.9204930601297
1670375	60.754098677513	18.3809934642561	63.4737853515135	-16.8330531138634
1424531	61.3998425101209	16.112134127151	63.4786698537308	-14.7036554682597
1214875	62.2925549231975	14.1327166611383	63.8756297744577	-12.7826769502128
1036062	62.6713793394462	12.5105553330575	63.9078694923423	-11.2890791107098
883578.1	63.2099929347633	11.2737916930615	64.2074885504126	-10.1126305995457
753531.2	63.4772041574101	10.1917282422014	64.2901763273706	-9.12140788439139
642624.9	63.8988961308088	9.23140199848439	64.5622777602643	-8.2205807205749
548046.8	64.1838577374805	8.42136090585166	64.7339703213988	-7.47489906852394
467390.6	64.4839606966501	7.77295377738674	64.9507505541892	-6.87332203152633
398593.7	64.7508975425027	7.29796658121561	65.1608705342419	-6.43057462491694
339937.5	65.0014646112756	6.95915836921744	65.3729323712709	-6.11089855270165
289906.2	65.2738671123895	6.71691790237423	65.6185546466327	-5.87526392987615
247234.4	65.5160105453235	6.58559807819072	65.8461672371476	-5.74002870149142
210843.7	65.7111178698065	6.55755950582752	66.0375090260988	-5.69889319659
179812.5	66.0420375368803	6.66455811333121	66.3774589515799	-5.76243135128103
153343.8	66.3491852971741	6.85729745388441	66.7026005337858	-5.9006631489343
130781.2	66.6674697570501	7.1707218243658	67.0520005315996	-6.13910526495594
111531.3	67.004526331873	7.57855639239633	67.431751170731	-6.45302311133017
95109.37	67.428821065862	8.06371513985186	67.9092733887554	-6.81953275371945
81109.37	67.8343382954291	8.71570222758675	68.3919652978234	-7.32154118507923
69171.88	68.2497715563734	9.46069194038625	68.9023657756978	-7.89197223633352
59000	68.7242863688472	10.3436440048262	69.498334571455	-8.55930190990034
50312.5	69.2390838155748	11.3855958837899	70.1689569628135	-9.33808333377601
42906.25	69.8051649824497	12.5306837003357	70.9209355002095	-10.1767445768208
36593.75	70.4333583336264	13.8896698642209	71.7898383832284	-11.1557575613608
31203.13	71.1286494965014	15.4612836658483	72.789670089869	-12.2636459427597
26609.38	71.8995184434652	17.2245981373731	73.9339403345729	-13.4721571721393
22703.13	72.7306936936142	19.2494102027633	75.2349227307942	-14.8243948644276
19359.37	73.6536460656875	21.5758822567365	76.7487998207536	-16.3272631610557
16500	74.6713434505767	24.2312801501658	78.504550635169	-17.9785447153566
14112.02	75.8150638160235	27.2031678729524	80.54772649648	-19.7384705267702
12011.13	77.0854590692245	30.6676591833264	82.9618787136463	-21.6946286534382
10236.38	78.5169528773803	34.5816554048877	85.7951209550471	-23.7703974494176
8750.684	80.0858064219608	38.9642803854781	89.0615042328274	-25.9443884002164
7449.463	81.8814165784634	44.0850855163565	92.9949522602185	-28.2980932930358
6363.206	83.8600045987671	49.7978056804898	97.5311325777419	-30.7027169451086
5414.761	86.1284345919583	56.4598928450757	102.984594699104	-33.2460995160061
4620.567	88.6964410726301	63.9048602774161	109.320125439128	-35.7723563784072
3941.215	91.609901083067	72.3945039858158	116.761886691684	-38.317469281846
3361.769	94.9689541149347	82.0166528879182	125.48240353381	-40.8143964347143
2867.244	98.6852018401378	92.9614747943126	135.575089371766	-43.2893105490937
2442.658	103.086365109519	105.452198257325	147.468521348779	-45.649982608702
2083.003	108.056331061251	119.574605983387	161.165309786259	-47.8967334699044
1777.843	113.731641057516	135.508681539976	176.910963341276	-49.9934610620297
1513.548	120.381416893123	153.838872208464	195.340943315957	-51.9562425808094
1292.065	127.97242045295	174.165256926481	216.12606764769	-53.6924536690825
1101.762	136.511760558208	197.377189647635	239.98586575859	-55.3311473406244
939.101	146.436061105341	223.678585778757	267.349265433874	-56.7883623601365
801.2801	157.607741603854	253.426948628644	298.438299326163	-58.1222711325585
684.3433	170.821424030757	286.400658048066	333.474580497916	-59.1863683496755
582.9476	186.094908204454	324.150922196282	373.771501348517	-60.1398847123322
497.0677	203.492081406143	366.480109991551	419.185756216052	-60.9582976268971
423.5089	223.646001442742	413.515090222561	470.119414407765	-61.5936505259177
361.5036	246.541169239602	467.629838336285	528.639966170219	-62.2011576760949
308.1262	272.75274498174	527.803105541123	594.112933804616	-62.6714414343382
262.7298	303.284705201323	595.368934953134	668.165983207977	-63.00541853312
224.2111	337.768018058478	670.183242478159	750.488382669373	-63.2521914554828
191.2854	377.621893834534	753.958382215158	843.238718759806	-63.3958892705017
163.1722	421.871223801021	847.058801955018	946.300133911457	-63.5247474786266
139.1537	474.519598572416	951.502985468548	1063.26232924189	-63.4943234197051
118.6706	533.034446707855	1067.88710554655	1193.52779254182	-63.473983417978
101.1982	599.146499334395	1196.525454211	1338.15159464072	-63.4011031864373
86.24196	675.335173759328	1340.07797380403	1500.6287258317	-63.2540822162068
73.61024	759.616382521306	1497.41276253622	1679.06582062798	-63.1019619215995
62.69291	854.997659803954	1675.25817081657	1880.82719492193	-62.9617018533515
53.57697	962.051905601316	1870.4882911339	2103.39495015561	-62.7817931056805
45.65746	1080.14865076606	2087.21854926545	2350.14943783358	-62.6381525864411
38.96512	1214.34374078647	2326.17013456092	2624.06139709239	-62.4338358366975
33.18414	1361.1956569672	2595.53211617844	2930.80886150224	-62.3257759965358
28.30617	1522.39007873285	2889.0045650425	3265.58094811024	-62.212559536218
24.17237	1701.18452118268	3217.01112699795	3639.11931191328	-62.1297098390421
20.61345	1896.38276053347	3584.06608053576	4054.84860926959	-62.1160161477384
17.55618	2116.92153293292	3998.42558419508	4524.24180708114	-62.1015203155216
14.98558	2356.33205762449	4451.88190210444	5037.01828824097	-62.1082239217246
12.76553	2621.3406902632	4970.15485945721	5619.06276361242	-62.1921049429318
10.8809	2912.36319473427	5551.53496184652	6269.08285243121	-62.3182702494196
9.278505	3229.98947745504	6194.81485832969	6986.31255766965	-62.462369134895
7.923394	3595.95396947168	6926.42623894239	7804.24662565636	-62.5632670026176
6.75822	3979.99412358606	7745.22601182906	8707.97790523684	-62.8029925441003
5.761429	4416.27346130235	8664.09532583889	9724.71177466082	-62.9910945882417
4.919708	4924.17337926008	9700.07076278578	10878.3664339856	-63.0856899202178
4.191257	5449.1259408779	10880.4913571352	12168.7331178	-63.3975508481075
3.564097	6077.28292575055	12238.0465046368	13663.9361096747	-63.5914970617593
3.051758	6726.88024361566	13678.0737498317	15242.7234875459	-63.8120285171052
2.604164	7502.33407923651	15373.2562469491	17106.1984166802	-63.9870671235176
2.214424	8351.8589247438	17299.7616059559	19210.2914897647	-64.2300012286531
1.892567	9317.06214022811	19413.3152697296	21533.3336175983	-64.3621825919898
1.607507	10410.1500244631	21919.9517633701	24266.3451891771	-64.5961785555212
1.376413	11578.5508211199	24563.1105127642	27155.2800976076	-64.761763358314
1.17375	12962.8313486763	27645.4242086042	30533.6613632873	-64.8783029738436
1.001604	14468.7468099613	31133.3627579626	34331.1944282406	-65.0740826524398
