EC-Lab ASCII FILE
freq/Hz	Re(Z)/Ohm	-Im(Z)/Ohm	|Z|/Ohm	Phase(Z)/deg
6999984	43.4346529600162	66.8547401190553	79.7253118786215	-56.9887428898276
5969734	42.0307757857703	63.1738417576583	75.8783262570765	-56.3634110226439
5091109	42.8732246328764	62.7506875234569	75.9984353463123	-55.6578937120316
4341796	47.0457438882097	63.2191909072773	78.8033509247278	-53.3445307775673
3702781	54.2409592289647	62.280435284362	82.5889476703016	-48.9469078125997
3157797	60.8573456543419	60.8485507727613	86.0590648986924	-44.9958596123129
2693047	67.3141908467767	58.9939461919326	89.5069046311675	-41.231223230672
2296687	74.3982310056766	57.3465416223861	93.9346720483021	-37.625221673769
1958656	81.0873351513514	54.3673707429856	97.6266711685533	-33.8410302425802
1670375	87.5427219341248	50.8372609095021	101.233172727206	-30.14432373713
1424531	93.096559516326	46.7789446514396	104.1884785208	-26.6785077639616
1214875	97.7804528432043	42.5680306994854	106.644522577835	-23.5255611244023
1036062	101.729003035682	38.4225690450196	108.743201491648	-20.6913165288066
883578.1	104.866111786522	34.558034410613	110.41358224217	-18.2393436445443
753531.2	107.469300387533	30.8552595551939	111.810990372164	-16.019178025036
642624.9	109.575592672174	27.551850432936	112.986348607861	-14.1139501167772
548046.8	111.231072535348	24.5365325618617	113.90519271536	-12.4396929548915
467390.6	112.606214608993	21.9164415977928	114.719178784003	-11.0137327831038
398593.7	113.671514507534	19.6801648318545	115.362568011663	-9.82235872137649
339937.5	114.594769975711	17.7412081072748	115.959957618532	-8.80048849376066
289906.2	115.376963119604	16.2189114501931	116.5113587052	-8.001819704816
247234.4	115.928809341101	14.9013711964437	116.882589374036	-7.32457786139342
210843.7	116.384454333483	13.9147070273168	117.213311028051	-6.81781388033406
179812.5	116.909280583693	13.1098222841603	117.642030443711	-6.39823115738181
153343.8	117.327627525718	12.6318462768828	118.005659699764	-6.14496662320013
130781.2	117.757968238074	12.3945470538295	118.408462029657	-6.00851099471177
111531.3	118.16889955622	12.4062222263899	118.818362100555	-5.99336772018646
95109.37	118.596743702797	12.5730717854393	119.261350617159	-6.05162606879537
81109.37	119.055211571056	13.0339459409818	119.766552714108	-6.2477552516466
69171.88	119.545370863101	13.6743169403623	120.324904481914	-6.52547362452446
59000	120.048163271905	14.6202466506923	120.935160797367	-6.94365833045659
50312.5	120.634477945917	15.7720047789149	121.661141717601	-7.44872062686441
42906.25	121.230690562534	17.1471434011949	122.437350759848	-8.0506414385391
36593.75	121.893380499507	18.8990785034313	123.349792775977	-8.81330555963774
31203.13	122.888090640113	20.8354147892327	124.641876312145	-9.62286627626784
26609.38	123.544133327941	23.3183508492513	125.725488132204	-10.6885563160553
22703.13	124.527371431882	26.0317261813585	127.219169167681	-11.8073194364057
19359.37	125.663501318824	29.257406952148	129.024460569574	-13.1063121607924
16500	126.927485119707	32.9534844664172	131.135497167212	-14.554061917529
14112.02	128.284023248076	37.047903608454	133.526543363086	-16.1085021452969
12011.13	129.918543792702	41.9324713851472	136.517984814025	-17.8879887358362
10236.38	131.709905478051	47.4658178128864	140.00179663734	-19.8182262518524
8750.684	133.689071086061	53.6763776167932	144.062213095296	-21.8755400772507
7449.463	136.036064601978	60.8910500416583	149.042043892216	-24.1137481377277
6363.206	138.560402186189	69.0536974293481	154.814076177402	-26.490073404299
5414.761	141.532139217789	78.4956639900365	161.842255597234	-29.0133508861654
4620.567	145.011676732204	88.828324028659	170.055454303664	-31.4899609556183
3941.215	148.695667815438	101.530595210844	180.052390683788	-34.3255749203444
3361.769	152.895834814744	115.309674500213	191.503152290093	-37.0225560169606
2867.244	157.748578069512	131.117940577914	205.125640094909	-39.7327838978002
2442.658	163.450947352893	149.26974868578	221.354173358611	-42.4035407161333
2083.003	170.00697004225	169.934642908654	240.375025165757	-44.9878095552913
1777.843	177.482498589164	193.322584496738	262.437914528277	-47.4460792457222
1513.548	186.369065712577	219.953938069496	288.293537088258	-49.7250761716346
1292.065	196.550803228851	249.906448750582	317.939383180244	-51.8150371321994
1101.762	208.128736949971	284.243706839906	352.295410163801	-53.7876907137892
939.101	222.042018084547	323.553723171647	392.415175003838	-55.5397440850977
801.2801	237.634366214344	367.446516200137	437.592315144713	-57.1085139873218
684.3433	255.965023446507	416.8575334141	489.171029796387	-58.4486278926651
582.9476	276.72339562128	472.904209072069	547.918085704653	-59.6656475453024
497.0677	301.820037261127	535.71125266344	614.883632179732	-60.603063793916
423.5089	330.1403444294	608.075515922791	691.916526818613	-61.5012897293426
361.5036	363.144004940651	687.825308392881	777.802817679454	-62.1677542366387
308.1262	401.519968025892	777.887854613535	875.401507354632	-62.6987142253865
262.7298	445.694936199836	878.857364891732	985.410698124703	-63.1090665982592
224.2111	496.608128068708	991.152021385644	1108.6036092133	-63.3872376077952
191.2854	554.527458254534	1116.14538383213	1246.30703272027	-63.5807254552109
163.1722	622.309978244773	1255.36091577356	1401.1426543628	-63.6313749243004
139.1537	699.077302557546	1412.78295309698	1576.28193782475	-63.6727424771089
118.6706	788.904308027843	1585.70264114675	1771.10780963911	-63.5491554806992
101.1982	887.327052739018	1779.14989032135	1988.14577703774	-63.4928910252173
86.24196	1000.62722256261	1991.8653104579	2229.07654725873	-63.3270197435269
73.61024	1129.24753334135	2226.27811285778	2496.30010762871	-63.1042537527801
62.69291	1275.79506575011	2489.25320949988	2797.14758116153	-62.8638979577227
53.57697	1438.26447365126	2775.47384898962	3125.99740604381	-62.6065826119294
45.65746	1623.18288417296	3093.0670133708	3493.10552727435	-62.3103634318468
38.96512	1825.83559245911	3443.78465282209	3897.86202240452	-62.0682314676245
33.18414	2055.37717030021	3834.06794293939	4350.24738414573	-61.8050146565414
28.30617	2307.60947835287	4258.21334244444	4843.28838438884	-61.5458658458037
24.17237	2585.39382508577	4728.27908874327	5388.95948879174	-61.3304337148346
20.61345	2895.39507318411	5256.28416014221	6000.98623577664	-61.1520719532103
17.55618	3237.9342098531	5839.09018270414	6676.7650931487	-60.9904405592039
14.98558	3607.17190298597	6479.97748612022	7416.31966397864	-60.8968765512591
12.76553	4019.32114000698	7203.23960422809	8248.73343140794	-60.8390078139509
10.8809	4474.7366294374	8010.18716338933	9175.31287179658	-60.8109328819894
9.278505	4950.17698870611	8906.4197036914	10189.6302267461	-60.9347490615172
7.923394	5512.92982850398	9897.19724812833	11329.0294669212	-60.881349395011
6.75822	6075.57448060398	11013.7658577288	12578.3800085002	-61.1173507108254
5.761429	6743.8172696364	12281.5435678432	14011.2591787847	-61.2287337061988
4.919708	7453.60116832319	13654.3901422143	15556.3022769625	-61.3709418309503
4.191257	8210.03622765306	15276.7326411312	17343.1039623241	-61.7454843416273
3.564097	9125.53986915815	17097.414526442	19380.3266585624	-61.9094648625938
3.051758	10029.4832955222	19062.3358312851	21539.8046072813	-62.2492861308858
2.604164	11130.3611071818	21335.4266981166	24064.1927096458	-62.4496494718431
2.214424	12319.2709928493	23960.9379898954	26942.3641715212	-62.7905020641664
1.892567	13640.7748232376	26802.5679021633	30074.0483461796	-63.0268471546579
1.607507	15152.3483425307	30214.4739040912	33801.007286683	-63.366553831391
1.376413	16748.6008668667	33795.3663209217	37717.9322837678	-63.6375055727083
1.17375	18642.1566670099	37961.5331595667	42291.9378253377	-63.8452600692228
1.001604	20737.7047971612	42717.5046265209	47485.1303227762	-64.1052110208736
