EC-Lab ASCII FILE
freq/Hz	Re(Z)/Ohm	-Im(Z)/Ohm	|Z|/Ohm	Phase(Z)/deg
6999984	-9.15730789591166	31.2707375661078	32.5839732971428	-106.322116464821
5969734	-10.6602335903073	34.112411414377	35.7392947986335	-107.35418534119
5091109	-11.5895688497846	37.3954898423033	39.1502332901058	-107.219196484657
4341796	-11.7741135366145	42.9993250793643	44.5821904672027	-105.313424266493
3702781	-11.0027738324563	49.7906231332535	50.9918344836295	-102.461011179214
3157797	-10.1344287366214	57.5469606283046	58.4325193995031	-99.9877815607522
2693047	-10.0213964613361	65.5435855225538	66.305278750546	-98.6930115353155
2296687	-10.0539452484949	77.2301006805783	77.8817710776533	-97.4171491171182
1958656	-9.78189778258444	90.1284636827167	90.6577381696439	-96.194227999191
1670375	-9.45504997615771	104.54494186967	104.971628741219	-95.1677741092141
1424531	-9.02103636379374	122.018128016338	122.35114491368	-94.2282952125381
1214875	-8.45898453982734	141.909933168352	142.161821707839	-93.4112573966815
1036062	-6.90032343123873	165.067669564948	165.211833713746	-92.3937416483087
883578.1	-6.81633855891801	193.556788628904	193.67677428046	-92.0169073064512
753531.2	-5.8229431921691	226.095388674235	226.170359347048	-91.475290302714
642624.9	-4.56602985986325	264.308329769506	264.347766803934	-90.9897085713407
548046.8	-2.49338040023988	309.665637813079	309.675675809388	-90.461326892671
467390.6	-0.148188029036674	360.841707869895	360.841738298322	-90.0235298414115
398593.7	1.92055549066387	421.511073893944	421.515449240735	-89.7389417045701
339937.5	2.2759227132074	494.082751288154	494.087993119311	-89.7360769155944
289906.2	-97.1618717324125	500.457105116823	509.801670633254	-100.98707725124
247234.4	-104.010957016833	604.456747651946	613.34023099869	-99.7634685839585
210843.7	-108.088616759926	722.562197967679	730.601997673807	-98.5078315759293
179812.5	-107.086055577383	859.231750179189	865.879104618603	-97.1041422736383
153343.8	-113.29442781976	1021.19010958985	1027.45553057013	-96.3307065459911
130781.2	-105.925165044495	1200.93373805945	1205.59611139019	-95.0405774786951
111531.3	-78.5323889711102	1482.91558343414	1484.99359046069	-93.0314436742893
95109.37	-87.6049660613511	1685.18314680243	1687.45870122666	-92.9758667681617
81109.37	-73.2337495640666	1965.74840513522	1967.1120899346	-92.1335615135398
69171.88	-70.0019753253545	2307.48042167884	2308.54200156303	-91.7376476771044
59000	-51.5277677051269	2690.74313795824	2691.23647145955	-91.0970808621482
50312.5	-7.09006022740789	3095.18084494043	3095.18896544948	-90.1312459068961
42906.25	-9.51325398731946	3712.23031595307	3712.24250564028	-90.1468303589237
36593.75	25.632474814462	4315.66982228427	4315.74594233028	-89.6597016415035
31203.13	140.83297986286	4920.59327456274	4922.60826207907	-88.3605771368238
26609.38	-670.309486093095	5635.70249417291	5675.42574702314	-96.7828848379084
22703.13	-645.716529544101	6640.68730238327	6672.00702072179	-95.5537757757938
19359.37	-603.325866425761	7904.3444538024	7927.33645971049	-94.3648310551178
16500	-603.97767511023	9250.94675836659	9270.64210064033	-93.7354369171666
14112.02	-457.268155989638	10683.3906049707	10693.1720730968	-92.4508655404833
12011.13	-443.989043610325	12602.1409999395	12609.9597165574	-92.0177667431439
10236.38	-418.957880566619	14920.6576616934	14926.5384722359	-91.6083883985229
8750.684	-156.072950951238	17283.9819980842	17284.6866467436	-90.5173621650348
7449.463	-268.844581160918	20432.9061483463	20434.6747240064	-90.7538218470853
6363.206	37.6084116032903	23648.2086690205	23648.2385738592	-89.9088809866059
5414.761	562.465179806452	27684.2945458874	27690.0077931002	-88.8360748110029
4620.567	684.238791095811	32010.3006622603	32017.6128281224	-88.7754558762781
3941.215	618.889640437107	37233.4828697132	37238.626062145	-89.0477254205242
3361.769	-6407.0977433075	40862.1043125035	41361.3644641737	-98.9113084552604
2867.244	-6169.44746072075	48600.5162079709	48990.5323266836	-97.23454746781
2442.658	-6011.87243926783	57985.5593857792	58296.378168011	-95.9192082575282
2083.003	-5676.83498879119	68260.2221852285	68495.8713227791	-94.7540412853502
1777.843	-5442.62012939547	80447.1408643461	80631.0398489369	-93.8704257736994
1513.548	-4641.95717815474	94338.5088647872	94452.644331831	-92.8169855715719
1292.065	-4530.65444564012	110631.818761287	110724.55081027	-92.3450975315021
1101.762	-1468.2087143886	129744.472282994	129752.779256637	-90.6483403170017
939.101	-2203.55951508294	151408.880348123	151424.914471855	-90.8338067552855
801.2801	-181.956617077607	177922.480745401	177922.573786488	-90.0585948584736
684.3433	1846.21896984606	205145.248216651	205153.55563664	-89.4843765561934
582.9476	4385.05725255246	239040.854500313	239081.071704449	-88.9490620882027
497.0677	-55288.4408606432	243699.789340546	249892.775040471	-102.782383206503
423.5089	-66937.6519123415	316835.518688488	323829.268513735	-101.929420936892
361.5036	-52652.8463875283	354720.770341712	358607.232420829	-98.4430300493
308.1262	-34120.8092142988	443195.065930035	444506.575976291	-94.4024170864784
262.7298	-37317.2011034395	509678.858083558	511043.16048212	-94.1875579133043
224.2111	-82367.9521516777	603202.755565465	608800.495945454	-97.7757061053111
191.2854	-1625.91921624669	756707.306725246	756709.053510445	-90.1231099062053
163.1722	-71122.69315639	702120.234302671	705713.299363881	-95.7841621052159
139.1537	-142523.885602595	785666.071761764	798488.7189465	-100.281938092772
118.6706	-155230.230910838	1014013.43591649	1025826.3365735	-98.7035539587459
101.1982	470820.597245489	557611.67181684	729796.41773372	-49.8238540955151
86.24196	143593.602375743	479698.680238776	500729.414420669	-73.3353892130926
73.61024	294380.891474979	-87305.3280839357	307054.277901232	16.518917543527
62.69291	31828.3655383788	-40166.7185895534	51248.5134915837	51.6064690356159
53.57697	104315.350083162	56230.428888557	118505.499433418	-28.3265635658759
45.65746	362178.665320269	61099.0561981548	367296.175152256	-9.57556288070183
38.96512	32215.3195952793	466057.200524661	467169.285139242	-86.0458276444953
33.18414	1003971.54407959	-327359.366849292	1055993.85243737	18.0593031165803
28.30617	713159.934921906	-63535.6178105088	715984.54418261	5.09105602272279
24.17237	991743.469138824	629812.589322963	1174827.223999	-32.417831727365
20.61345	622135.917475058	-214773.039298891	658164.537347779	19.0456385017421
17.55618	795638.44583862	-89299.7162753691	800634.10858104	6.4038805212418
14.98558	1044365.61100616	-603655.811663296	1206275.20425778	30.0284258343309
12.76553	1467857.17822862	-335080.595773989	1505617.38211988	12.8590636834596
10.8809	2465733.19900115	33168.0597765228	2465956.27066779	-0.770673498116773
9.278505	801759.795995552	1226221.24615365	1465072.4606631	-56.8214965094289
7.923394	315900.893095017	1568103.68473962	1599606.99559366	-78.6099813792875
6.75822	891375.206709302	-179210.919399885	909211.918514162	11.3677634047151
5.761429	646962.724744461	-199204.107981029	676936.513895723	17.1139456729263
4.919708	842018.602177788	761508.108493018	1135292.88102853	-42.1256848333846
4.191257	1707324.64654613	779045.756497721	1876664.52500732	-24.5270340545115
3.564097	-295658.124154657	-2221690.08344825	2241276.54546933	97.580270201392
3.051758	-411079.920518523	1252075.62137905	1317831.57600099	-108.175978706746
2.604164	3594949.25639593	4241454.52339194	5559999.69694816	-49.7162354328557
2.214424	2315012.6212894	5031978.91456381	5538961.56633569	-65.2947286993447
1.892567	3796681.29523708	-1024354.33005044	3932440.80071096	15.0990307243677
1.607507	2899372.90615459	-1962670.08594397	3501205.09470705	34.095217238812
1.376413	2200088.21323086	-639419.86598345	2291123.28586038	16.2056471394613
1.17375	9230304.97111096	4994461.59403293	10494911.9326455	-28.4175492637427
1.001604	8438060.00339684	1997167.79303039	8671189.98837203	-13.3160433617
