EC-Lab ASCII FILE
freq/Hz	Re(Z)/Ohm	-Im(Z)/Ohm	|Z|/Ohm	Phase(Z)/deg
6999984	-14.8614025279769	30.6797270680554	34.0896896153211	-115.845763639706
5969734	-15.8231135681989	32.3290408115724	35.9935800218377	-116.078957462324
5091109	-16.785837734895	36.1237996131452	39.8333183020559	-114.923129702207
4341796	-16.6428251715159	41.8960402806415	45.0806146906492	-111.665005200195
3702781	-15.6083666073232	49.4902896330597	51.8932546301804	-107.504357579294
3157797	-13.974652510471	57.3693185685296	59.0468426404481	-103.690120241329
2693047	-14.9752563352545	66.6571500271273	68.3186208295039	-102.661890182187
2296687	-14.543867557898	77.0238295905981	78.3849118666544	-100.69286342344
1958656	-13.7535625382916	89.7310797943185	90.779001776562	-98.7142109737354
1670375	-13.3025774615231	105.323640959192	106.160387678365	-97.1984511267168
1424531	-12.8594398966615	121.879335862526	122.555855448633	-96.0229709142264
1214875	-12.3102556281303	142.768296325919	143.29804195953	-94.9281631592904
1036062	-12.5153250968008	166.685886822599	167.155072397205	-94.2938988800806
883578.1	-10.9417775007521	193.770979633011	194.079661589804	-93.2319216068056
753531.2	-9.67073286681601	226.584014922068	226.790297174251	-92.4439327511622
642624.9	-8.49008043133435	264.672613262463	264.808749245398	-91.8372850376777
548046.8	-6.91459199157309	310.024534340185	310.101634106076	-91.2776771591734
467390.6	-5.20941011306723	360.79554323578	360.833149769429	-90.8272177406415
398593.7	-2.63326342447069	420.73279041342	420.741030807937	-90.358595560004
339937.5	-1.88237619252493	494.361515284755	494.36509902578	-90.2181636044175
289906.2	-93.2954317003325	509.75521862161	518.222365870209	-100.371491396151
247234.4	-99.553340085844	610.062502318173	618.131963464888	-99.2681465700679
210843.7	-99.1442110216102	724.88096314572	731.62967771282	-97.7881965852449
179812.5	-101.919400371893	869.018814813593	874.975008027194	-96.689148942625
153343.8	-97.9810709994735	1034.23651140753	1038.86738893981	-95.4119114257194
130781.2	-102.708604834112	1214.3150800277	1218.65096360264	-94.8346564471251
111531.3	-104.231793860303	1401.92188402567	1405.79132013305	-94.252072961036
95109.37	-75.9224325929034	1676.37673911622	1678.09510672689	-92.5931309610143
81109.37	-76.3685871079985	1959.50599717443	1960.99360377831	-92.2318810711843
69171.88	-35.1538709912904	2303.68277886352	2303.95098478202	-90.8742575756218
59000	-55.7877532372553	2700.45998415436	2701.03617144055	-91.1834828976539
50312.5	-73.9467925914424	3122.21246109318	3123.08801994758	-91.3567453349014
42906.25	-5.34033669124113	3745.83253298695	3745.83633977506	-90.0816850576173
36593.75	25.9863887282225	4342.35619284869	4342.43394860192	-89.6571233314254
31203.13	-639.263219107068	4731.43087311767	4774.42096702775	-97.6946325773001
26609.38	-607.922855829977	5677.21593618714	5709.67170551317	-96.1120085555897
22703.13	-549.417285175578	6703.44310999168	6725.92067171065	-94.6855155330525
19359.37	-536.351116484623	7935.56033773081	7953.66521761638	-93.8666442522515
16500	-502.845809981772	9322.16239378656	9335.71452031094	-93.0875935382121
14112.02	-448.195957341878	11016.4900581467	11025.6035126166	-92.3297422625926
12011.13	-228.112084094775	12567.0051163723	12569.0752530899	-91.0398996741941
10236.38	-63.9341717493946	14914.5449351985	14914.6819678588	-90.2456082828042
8750.684	-429.134403783825	17336.8538223494	17342.1641323689	-91.4179372274214
7449.463	-78.3217233017574	20424.5147402693	20424.6649095602	-90.2197105904643
6363.206	-108.488519924224	23357.4537953159	23357.7057426296	-90.2661201718699
5414.761	122.478929712817	27833.8734611867	27834.1429352797	-89.7478798461741
4620.567	227.853831888269	32735.5538099941	32736.3467817612	-89.6012026506206
3941.215	1417.7708404138	37442.3756690074	37469.2082902082	-87.8315079088
3361.769	-5504.07806207129	41523.9459151607	41887.1455183875	-97.5506482833837
2867.244	-5479.0888669931	49465.7254430459	49768.2469896138	-96.3206224887968
2442.658	-5495.06088627861	58015.3221692653	58274.9800561747	-95.4107655101291
2083.003	-5120.4347588045	68952.1191881139	69141.9814053014	-94.2470309324389
1777.843	-5008.24915944377	80586.4952837595	80741.9703856827	-93.5562157188497
1513.548	-4513.34152011408	93731.4514281276	93840.0513560209	-92.7567677073036
1292.065	-4028.54232868381	109312.802959519	109387.010399593	-92.1105859059551
1101.762	-3481.27190013999	129800.848990066	129847.524630178	-91.5363103078954
939.101	-2602.27381001838	150958.137894926	150980.565721837	-90.9875886274987
801.2801	-2304.44826783069	179552.783756547	179567.571227503	-90.7353153103026
684.3433	5697.28884548287	207413.744464776	207491.976936671	-88.4265818748229
582.9476	1776.56738969578	242089.995340104	242096.513885396	-89.5795448459647
497.0677	-41881.9912554751	254554.342365259	257976.771063856	-99.34320404123
423.5089	-52497.1396477773	301890.996369991	306421.479926692	-99.8647675221376
361.5036	-36761.9918312321	373626.504271417	375430.697649352	-95.6193794433362
308.1262	-67270.860708546	430265.710104255	435492.766865292	-98.8860983122746
262.7298	-45225.9671250112	537370.935871613	539270.721272652	-94.8107641070681
224.2111	683.499907566153	578097.013472924	578097.417533099	-89.9322576646472
191.2854	-75520.1015557348	738766.892173545	742616.864009125	-95.8367596308089
163.1722	-59681.3595735365	681421.66205483	684030.223161311	-95.005397870074
139.1537	-48191.945087576	896672.190247094	897966.302448953	-93.0764208612071
118.6706	-119605.388637016	1120250.95944988	1126617.79727616	-96.0941895681611
101.1982	660178.386196901	866986.870659597	1089725.53218582	-52.7120713154121
86.24196	432818.798248201	63445.2596204559	437444.18282259	-8.33937778981733
73.61024	141299.760854984	280457.955441167	314041.855789822	-63.2602128646147
62.69291	37455.2100538149	-19911.2341422922	42418.7459178673	27.9951647771722
53.57697	95788.6917997253	-29876.7498729809	100339.890670039	17.322840355453
45.65746	-19137.3645945949	-323476.377613442	324041.981227033	93.3857607747982
38.96512	-49331.5465196721	373064.143833563	376311.648632211	-97.5327147043961
33.18414	381306.466146705	128028.154007799	402226.092321138	-18.5600854182585
28.30617	428208.781518804	266614.189665752	504426.294616909	-31.907492489664
24.17237	519742.865659095	206907.181983848	559413.289402411	-21.7072681023988
20.61345	473896.607169808	19148.9109275215	474283.327850311	-2.31391240098984
17.55618	186920.335573061	764381.751463021	786904.488372268	-76.2586771796296
14.98558	-947090.09020302	2853553.16028699	3006616.91566196	-108.360929483015
12.76553	2058068.0354114	787449.438419648	2203569.97993019	-20.9376425440893
10.8809	5697787.36025336	3786996.99237811	6841500.34882289	-33.6097386398418
9.278505	244100.86428238	1927395.8674954	1942791.82157578	-82.7820308603121
7.923394	1771200.2715605	-560592.222070938	1857798.17026027	17.5627950800538
6.75822	1522658.10509047	-283173.290541427	1548765.57860567	10.5351124889413
5.761429	185713.846361824	623509.720045581	650579.744321803	-73.413712543687
4.919708	906000.686621327	-850139.985687465	1242407.03451928	43.1781051706368
4.191257	756650.717203428	476202.363319934	894029.640826272	-32.18448893572
3.564097	1118670.04059346	2251525.29894615	2514117.90326466	-63.5795222438411
3.051758	-146896.767933777	1146166.31172543	1155541.37726161	-97.3034169947847
2.604164	4987333.07227136	4332922.4456443	6606641.21121617	-40.9836367082401
2.214424	5007168.36845189	-848876.46646985	5078614.60689345	9.62199538041924
1.892567	-1392090.53709197	-2005226.59904591	2441075.53692675	124.769581298869
1.607507	96623.3116813376	2600307.68992669	2602102.25522598	-87.8719587291363
1.376413	1191799.73521461	-3391989.66785244	3595271.96685805	70.6407114068129
1.17375	6163233.35074654	-5461841.27915159	8235117.2119405	41.5472782096221
1.001604	8158793.3663046	355926.978684592	8166553.3248863	-2.4979418611235
