EC-Lab ASCII FILE
freq/Hz	Re(Z)/Ohm	-Im(Z)/Ohm	|Z|/Ohm	Phase(Z)/deg
6999984	42.3593898258148	49.5246480518223	65.169077568063	-49.4589888419979
5969734	43.5839489632448	42.7269089241131	61.0340016174606	-44.4310893840745
5091109	43.74094284681	38.3990956855763	58.2044725996031	-41.2790995840331
4341796	45.9055005093108	34.6970660994832	57.5430393090446	-37.0833296502901
3702781	48.2024249782242	29.9328016691539	56.7401655755976	-31.8395053176938
3157797	49.402939307443	26.9817390613551	56.2908931798915	-28.6414497109239
2693047	51.0032273677909	24.5851461495899	56.6194190461829	-25.7355166360014
2296687	52.8571849831285	22.179818306248	57.3221278777998	-22.7637908174641
1958656	53.9657202723014	19.7524934314253	57.4670336912111	-20.1035993408732
1670375	55.1373801800889	17.7618670311535	57.9276670819397	-17.8557426711262
1424531	55.955832711242	15.7291700144753	58.1245387401291	-15.7006593275668
1214875	56.7647606767845	14.0793161220731	58.4847432853893	-13.9299160729812
1036062	57.3355242861524	12.5289472074844	58.6884730019098	-12.3264994128855
883578.1	57.7416773871523	11.2968780013716	58.8363897605882	-11.0698138920912
753531.2	58.1584859387169	10.265523154798	59.0575181693713	-10.0101399091527
642624.9	58.5587433226714	9.41766990577437	59.3112040510445	-9.13632197579864
548046.8	58.8977685364962	8.67509246548501	59.5332207079661	-8.37888895936955
467390.6	59.1847186344007	8.14621710941008	59.7427131374767	-7.83697974715686
398593.7	59.4677638396489	7.76415008478934	59.9724683719737	-7.43849905979928
339937.5	59.7365291533538	7.52394513241516	60.2084933015691	-7.17872572506492
289906.2	59.9811279915312	7.41849685948204	60.4381486380133	-7.05056652545005
247234.4	60.2451281095522	7.45459835568399	60.7045838267665	-7.05379800741459
210843.7	60.4950464420807	7.61425228451096	60.9723501423529	-7.17384985422835
179812.5	60.8007208229198	7.90317221750554	61.3122156155377	-7.40605818943897
153343.8	61.1086653310897	8.34883462078305	61.6763489359764	-7.77974126342329
130781.2	61.4522689859712	8.91577920607495	62.0956720100172	-8.25513580519924
111531.3	61.8233499565542	9.64606438384782	62.5713445432325	-8.86814335020971
95109.37	62.2095825479992	10.5231465797154	63.0933338375339	-9.60105950258516
81109.37	62.825630222559	11.5241315844162	63.8738242289958	-10.3942393558525
69171.88	63.1455830075959	12.8175800234058	64.4333377299794	-11.4742647996741
59000	63.6701972119465	14.2707015617191	65.2498807360735	-12.6331865318852
50312.5	64.3052824854331	15.9660237304912	66.2577034713244	-13.9437128966879
42906.25	64.9814654518494	17.8860561574717	67.3980849664004	-15.3894916786092
36593.75	65.7493241996597	20.1076126008596	68.7552886490792	-17.0048029425318
31203.13	66.5926555148402	22.6769671119784	70.3478969544643	-18.8053801095099
26609.38	67.5370760156452	25.5993479027397	72.2259181304644	-20.7587823091833
22703.13	68.5828607110775	28.950000428132	74.4426712853851	-22.8854412165263
19359.37	69.8054539682997	32.7833412150859	77.1203531173526	-25.1565657023335
16500	71.1385785156489	37.1729445318295	80.2653421994426	-27.588989266626
14112.02	72.6094648317709	42.0499659371496	83.906698293233	-30.0762105144448
12011.13	74.3075852173029	47.8270380440327	88.3687885448934	-32.7667916724894
10236.38	76.1628061699364	54.3842486760701	93.5864282240749	-35.5288321267427
8750.684	78.2182023262448	61.7326999994874	99.6444349894969	-38.2818083886771
7449.463	80.6164537727282	70.3598646373973	107.002444694891	-41.1135778065978
6363.206	83.2609993730489	80.0515657015548	115.501719415207	-43.8741629480515
5414.761	86.308928870555	91.3713679199339	125.689928309083	-46.6320208104003
4620.567	89.8312105671923	104.328881259037	137.674114693829	-49.2702737330156
3941.215	93.6133419794588	118.915144969073	151.341565670436	-51.7891852764831
3361.769	98.0699675222328	135.723267913371	167.447078155746	-54.1491411388475
2867.244	103.219306933964	154.973865707823	186.201837736243	-56.3346657300622
2442.658	109.177593335934	177.024150583476	207.983885857601	-58.3362708690399
2083.003	115.87296292206	202.271558551321	233.11011761637	-60.1933989703974
1777.843	123.766883073315	230.879986607504	261.96146579519	-61.8057595016751
1513.548	132.861151938835	264.055515031844	295.596685896927	-63.2904650361976
1292.065	142.973554433007	301.497806777428	333.680033503366	-64.6291809245208
1101.762	155.473447951627	344.083821353954	377.578692639702	-65.6842827042542
939.101	169.594342214381	393.166218456306	428.184441854629	-66.6667907313445
801.2801	185.918678633389	448.611057581331	485.610580660086	-67.4893289420343
684.3433	204.640183547767	510.932164654698	550.39011764493	-68.1727530000664
582.9476	226.824042971051	583.83722304599	626.350580333239	-68.7685718112229
497.0677	251.9867628258	665.630992907194	711.731654036859	-69.2649251491447
423.5089	281.74788534421	759.434994249913	810.014432826539	-69.6453118293321
361.5036	315.980670857738	864.032939256165	919.998208952254	-69.912310161863
308.1262	356.037380525217	984.407199936764	1046.81428707226	-70.1161112495911
262.7298	402.085162050532	1120.01333181867	1190.00098361	-70.2518449512576
224.2111	455.900554630135	1272.93405535165	1352.11183893422	-70.2950459690104
191.2854	516.984886155735	1446.25446506826	1535.87934104321	-70.3298245071749
163.1722	588.603749422107	1642.45489135188	1744.73850303118	-70.2839305877849
139.1537	672.40883572679	1861.99425542748	1979.68589670392	-70.1441861815525
118.6706	767.94614315222	2111.88922219803	2247.17986944049	-70.0172187341515
101.1982	881.0491454793	2397.53736416647	2554.29696968151	-69.8225849711456
86.24196	1010.23222935312	2716.17354981275	2897.95926643667	-69.5982146985723
73.61024	1157.4675873844	3070.02549882215	3280.97360234179	-69.3424463388259
62.69291	1329.97676729157	3473.20559750172	3719.13905683192	-69.0469147080974
53.57697	1523.31670844695	3915.76653759654	4201.63317903818	-68.742903302001
45.65746	1754.46613709458	4419.75054288242	4755.24408285432	-68.3488802262896
38.96512	2012.61776084271	4980.25818353091	5371.55487972394	-67.9954225624734
33.18414	2314.05763435847	5610.33406608103	6068.83111217984	-67.5856431473958
28.30617	2657.77146084512	6307.6409656535	6844.71209691635	-67.1515130260252
24.17237	3047.87128383558	7077.3777395508	7705.76375391296	-66.7008817201548
20.61345	3493.85776101895	7936.59274347863	8671.59422655777	-66.2398798781925
17.55618	4016.71371878125	8906.52138500404	9770.36909641493	-65.7253064823855
14.98558	4597.53265807233	9959.91892963726	10969.8355332698	-65.2217911720246
12.76553	5261.70028060343	11139.7453431517	12319.8789017251	-64.7169580587348
10.8809	6022.08377739067	12437.1690574912	13818.4176802747	-64.1637100117565
9.278505	6863.42432003708	13861.4343459429	15467.5775583561	-63.657902870215
7.923394	7830.8213918156	15434.8658682585	17307.7106528174	-63.0992117241829
6.75822	8900.27148761592	17133.4819471334	19307.2793574344	-62.5496306070934
5.761429	10112.5246174479	19006.0462759948	21528.8863897728	-61.9839493759608
4.919708	11386.9080010246	21053.3643514343	23935.4512039787	-61.5928483850045
4.191257	12919.0585228013	23382.6486012494	26714.2345711996	-61.0790771301107
3.564097	14559.5728537617	25881.6337341408	29695.79307633	-60.6403060505995
3.051758	16323.8981265054	28604.4460279044	32934.5408744045	-60.2875932319169
2.604164	18280.0944970263	31563.5300280324	36474.8993507962	-59.9226191164186
2.214424	20535.1810035856	35006.4025790638	40584.9957543119	-59.6035962160898
1.892567	22851.0277808714	38620.9433500076	44874.789535848	-59.3882786766796
1.607507	25584.0609602224	42763.7078836763	49832.5083371966	-59.1093628220099
1.376413	28448.1602851656	47204.1956341057	55113.826841124	-58.9242401584031
1.17375	31612.2430246426	52162.6238755603	60994.0426487066	-58.7827768787853
1.001604	35182.0282485477	57621.6134221661	67513.1501639137	-58.593013257038
