EC-Lab ASCII FILE
freq/Hz	Re(Z)/Ohm	-Im(Z)/Ohm	|Z|/Ohm	Phase(Z)/deg
6999984	-11.4991038467982	32.9212060251184	34.8716961937291	-109.253884206726
5969734	-11.3895633011452	33.8386527101447	35.7040133518429	-108.602431193662
5091109	-12.4167808921057	37.3310699907585	39.3419017636091	-108.397770669241
4341796	-12.2151774402862	42.7780572518598	44.4878943325156	-105.936573164477
3702781	-11.5977212322178	49.7167101409895	51.0515269607424	-103.130913433281
3157797	-10.2588313522888	57.8805455232425	58.7826604602314	-100.050806918217
2693047	-10.0729713316483	66.2752084617134	67.0363185750215	-98.6420755873284
2296687	-10.2530888753107	77.2542380842658	77.9316568120134	-97.5600447912238
1958656	-9.94609934173426	89.6918511796958	90.2416370649178	-96.327784461236
1670375	-10.1468465761058	104.577074251929	105.068182408056	-95.5419155494345
1424531	-9.55673661843354	122.143699234601	122.516996688243	-94.4738076277517
1214875	-8.86988033802695	141.572743339186	141.850331102165	-93.5850354959447
1036062	-8.16815948365152	165.435316116923	165.636839646428	-92.8266112625301
883578.1	-7.54887442945597	194.142057487792	194.288764448037	-92.2267244510281
753531.2	-6.1401347102536	226.478694144597	226.561912411821	-91.5529833797338
642624.9	-5.48343809975375	264.789963321833	264.846734488782	-91.1863476866295
548046.8	-1.47967803512994	310.093910734243	310.097441010957	-90.2733967358681
467390.6	-2.12940113571151	360.381473283445	360.387764269464	-90.3385420371745
398593.7	1.08583085372771	421.791226048498	421.792623691001	-89.852501939565
339937.5	5.68088172761963	494.986978389377	495.019576574754	-89.3424549103395
289906.2	-101.003803214267	503.017409631896	513.057777113387	-101.353770240124
247234.4	-105.020039811133	605.677507251095	614.714935195031	-99.8368644775147
210843.7	-110.381261502398	724.727492244423	733.085234407126	-98.660009166316
179812.5	-108.386192742955	866.113619288038	872.86904418334	-97.1329620507333
153343.8	-115.918162072615	1021.29337244946	1027.85075419901	-96.4754356850412
130781.2	-110.010543986211	1209.43475090793	1214.42774033364	-95.1973387314429
111531.3	-56.2223707420446	1467.85551406841	1468.9318449652	-92.1934928989105
95109.37	-125.232413335607	1694.78683811127	1699.40742142226	-94.2260606771371
81109.37	-75.1379759101327	1984.48274938884	1985.90470517741	-92.1683400517043
69171.88	-61.7305825384594	2305.26622157878	2306.0925864268	-91.5339038851559
59000	-61.852493048461	2699.4873034655	2700.1958137268	-91.3125702888969
50312.5	-59.598275380249	3227.49986257148	3228.05007974276	-91.0578905489612
42906.25	15.854917456942	3720.63027564438	3720.66405718779	-89.7558439595264
36593.75	40.4631284993378	4339.86247305336	4340.05109990479	-89.4658127236312
31203.13	-750.72354677732	4709.72925609046	4769.18604264505	-99.0566678478851
26609.38	-656.891647995797	5666.13557392205	5704.08616513386	-96.6129455558726
22703.13	-681.485241348604	6655.43456694225	6690.2340324555	-95.8464426175466
19359.37	-644.342164344257	7851.59211439557	7877.98677046303	-94.6914742941219
16500	-606.234625374122	9173.88986619904	9193.89883010206	-93.7807578787614
14112.02	-578.592397025789	10983.0832186858	10998.3128774587	-93.0155727433642
12011.13	-428.873128431139	12632.6015847105	12639.8795468279	-91.9444281453671
10236.38	-408.381262471395	14800.8886365111	14806.5215255285	-91.5804853539
8750.684	-134.847699360465	17348.5981216671	17349.1221878554	-90.4453413701868
7449.463	-61.4050925534935	20274.5230804176	20274.6160684679	-90.1735301921768
6363.206	-225.201076292936	23611.025747155	23612.0997024318	-90.5464684210274
5414.761	218.042591403584	27602.1060789533	27602.9672782738	-89.5474019136578
4620.567	252.036681981803	32502.0645902029	32503.0417824976	-89.5557098016872
3941.215	651.750501025644	37428.7753626619	37434.4494264867	-89.0024044589294
3361.769	-6587.93028216745	41025.8613962958	41551.4395504028	-99.1226725858841
2867.244	-6809.3866281989	48853.4520043871	49325.7287730983	-97.9349883723575
2442.658	-6376.00841680532	58114.4168556014	58463.1416346897	-96.2611494696623
2083.003	-5828.80280574579	68292.9286410343	68541.2214985819	-94.8783731268935
1777.843	-5188.26596422532	79815.7973340177	79984.2459974496	-93.7191649157849
1513.548	-5189.02746471309	94369.9944825897	94512.5487153614	-93.1472957404648
1292.065	-3455.22081972596	110211.080668449	110265.229574061	-91.7956883017512
1101.762	-4818.15362059927	130472.688026579	130561.621180165	-92.1148830894186
939.101	-3776.44461840264	150835.135966436	150882.403798353	-91.4342092288031
801.2801	-1487.77270819694	174235.096598098	174241.44843917	-90.4892299372939
684.3433	1041.74974231391	208417.958570551	208420.562078797	-89.7136169700253
582.9476	4478.75352438924	238503.90079394	238545.949299202	-88.924195719894
497.0677	-55450.5016178329	248546.18975486	254656.565930133	-102.576691358051
423.5089	-48815.2540368289	278517.807843455	282763.325614557	-99.9411427962285
361.5036	-66873.6684005442	355725.208773672	361956.505235668	-100.646912208271
308.1262	-23979.7036881905	432970.135995557	433633.675875138	-93.1700421649315
262.7298	-46598.0571332535	591820.713493612	593652.369530082	-94.5019971512721
224.2111	-43080.8878192356	623164.096300209	624651.465869528	-93.9547078653631
191.2854	32814.7825868593	674567.748368331	675365.424858974	-87.2150053212393
163.1722	-148610.905411592	681302.528932172	697322.262040031	-102.305052067379
139.1537	60727.7578157383	859588.064737	861730.52725758	-85.958909946974
118.6706	578702.914264365	527854.534576364	783279.945262803	-42.3690028202428
101.1982	866347.139324073	296217.692796384	915588.492359214	-18.8763638507487
86.24196	548550.181744967	318004.741824943	634061.761751633	-30.1016670292825
73.61024	372423.978866247	43423.2184976306	374946.924162954	-6.65044144922044
62.69291	37785.5779365373	44290.2729430605	58218.3663234287	-49.5313476819449
53.57697	90038.9384919952	66730.8517494606	112071.481742564	-36.5433742241588
45.65746	317072.7666739	387724.227076061	500864.46832249	-50.7244176987458
38.96512	489179.504390008	-223299.057156539	537735.117360074	24.5355940439708
33.18414	364669.131444594	-394862.6122511	537494.239952688	47.2764665496296
28.30617	622135.871446031	-357319.972970935	717447.284212479	29.8706447167078
24.17237	542040.334114654	-212373.412732618	582159.935277948	21.3954300928209
20.61345	-295673.406009755	827293.289331731	878542.514392289	-109.666814889677
17.55618	-491398.501994967	723058.387818824	874234.4765325	-124.200462320965
14.98558	1114160.42105728	-865521.709629919	1410844.17059122	37.8414043794498
12.76553	374332.034777234	2500551.57026244	2528415.04263094	-81.4860576235057
10.8809	398601.44041211	-1017581.63483661	1092865.72453132	68.609003065279
9.278505	1273397.73633411	234910.452807611	1294884.05494049	-10.4521482002063
7.923394	-515822.992397499	1461945.37294714	1550276.63111055	-109.434537799531
6.75822	1080924.79707904	81081.2432437196	1083961.52373888	-4.28977970285249
5.761429	685670.676933868	-456156.96501112	823543.231369857	33.6346794926638
4.919708	1021693.800712	598388.313204596	1184029.89649467	-30.3567650284086
4.191257	992828.148587969	-337816.330724915	1048726.65930311	18.7912108632363
3.564097	1023503.17306455	1275021.75433317	1635004.34840279	-51.2448066161734
3.051758	349821.60337571	2925755.03372473	2946594.24956235	-83.1817262181954
2.604164	14223103.7531706	5759223.35046851	15344879.7314947	-22.0440240464869
2.214424	4311433.27491307	1595008.66627354	4597010.93423927	-20.3018828450342
1.892567	2924427.20101761	-134343.050255357	2927511.31666534	2.63021833545417
1.607507	2947832.74998158	-1553599.50127483	3332174.86519321	27.7906245738885
1.376413	2408293.99385369	1385087.66026428	2778191.45982564	-29.9045981956473
1.17375	2626248.35626537	7284897.91436727	7743830.96739199	-70.1754696771666
1.001604	6737501.15422597	2169016.47526627	7078033.2206887	-17.8450226307793
