EC-Lab ASCII FILE
freq/Hz	Re(Z)/Ohm	-Im(Z)/Ohm	|Z|/Ohm	Phase(Z)/deg
6999984	41.0951775076901	71.6496542621246	82.598344839776	-60.1632613903735
5969734	39.8049495746724	67.5741733639941	78.4264172104613	-59.499547080494
5091109	40.6770950102731	67.9338491453426	79.181019936453	-59.0878769046925
4341796	44.9015412872919	69.6454022432787	82.86513418563	-57.1894557350399
3702781	52.7399444916392	70.2780550067842	87.8664142919112	-53.1137204593768
3157797	60.3857634421421	70.3122613295321	92.6836259528227	-49.3432685561153
2693047	68.1544464673041	69.9389942918265	97.6549614500808	-45.7403781600398
2296687	76.9662170598733	69.3788485347481	103.620573210705	-42.0321150958618
1958656	85.8804545207447	67.1923104651971	109.042464454639	-38.0393956751352
1670375	94.5137166593613	64.1803051705081	114.245149606211	-34.1787831332319
1424531	102.316018575086	60.0836581708469	118.653333860657	-30.4229932199478
1214875	109.08546732489	55.5617348068267	122.42036414026	-26.9916234694226
1036062	114.810248383852	50.7039696358154	125.508109980158	-23.8278250092236
883578.1	119.636730646108	46.2235156725041	128.25584088382	-21.1248163966026
753531.2	123.621695933254	41.6976949648066	130.464636859158	-18.6392911038574
642624.9	126.884288118584	37.5493255938243	132.323748525768	-16.4852562730631
548046.8	129.461387193974	33.7954358554205	133.799784225707	-14.6303627071065
467390.6	131.600226355172	30.3905396441189	135.063705252719	-13.003403211209
398593.7	133.363474144461	27.4306045605897	136.155258078562	-11.6226780573468
339937.5	134.80612430425	24.9279006301785	137.091543793776	-10.4766020389025
289906.2	136.022143621593	22.8772464886357	137.932563096301	-9.54709260786178
247234.4	136.957241562723	21.2174332418296	138.591000753446	-8.80626390833558
210843.7	137.962237205158	19.8735364724232	139.386284642977	-8.19710091013044
179812.5	138.649210439811	18.9225827422602	139.934512159155	-7.77160526273244
153343.8	139.431025902692	18.3529542245312	140.633715420751	-7.4985908733526
130781.2	140.178886994696	18.0557721912188	141.336942334596	-7.33958362604789
111531.3	140.922446229772	18.0622880605641	142.075269140572	-7.30388262583329
95109.37	141.680627886741	18.3927498387737	142.869498371811	-7.39667887033268
81109.37	142.067389317961	19.5130799964035	143.401197340076	-7.8206905570413
69171.88	143.377791837736	19.9357199586254	144.757121146194	-7.91584165807867
59000	144.278994674818	21.1784756565076	145.825087469576	-8.35071662458297
50312.5	145.40924326476	22.7252973455619	147.174342758085	-8.88262199369267
42906.25	146.412273238202	24.497252182396	148.447529852355	-9.49856881219215
36593.75	147.604246647698	26.7252733784598	150.004179493732	-10.2628085672274
31203.13	148.686620933166	29.3745120060445	151.560460543363	-11.1754386616236
26609.38	150.408455987338	32.4263349170281	153.864131065841	-12.1661056077166
22703.13	152.044255319224	35.9199558019724	156.22963483409	-13.2922255061565
19359.37	153.696898366415	39.8888299784338	158.788712837231	-14.5489454044185
16500	155.663826022718	44.4775577609385	161.89342135	-15.9461373653127
14112.02	157.735763809032	49.608522854055	165.352885442559	-17.4585683275416
12011.13	160.139288971979	55.6511463963167	169.533601293889	-19.1632151708809
10236.38	162.77340661368	62.5266100552458	174.369604190705	-21.0134219420733
8750.684	165.497564266662	70.1213920308525	179.739960494439	-22.9623951779903
7449.463	168.706484577554	79.1608431740199	186.35535149423	-25.1370163823637
6363.206	172.225506929968	89.2463462921595	193.975605589426	-27.392951757022
5414.761	176.211084878648	100.863408516107	203.036384945155	-29.7868668279038
4620.567	180.636041520877	114.534276068419	213.886605216056	-32.3771918309564
3941.215	185.626569394628	129.033103669819	226.068054151587	-34.8040118680125
3361.769	191.221132202861	146.439339488435	240.852655270298	-37.4453071965199
2867.244	197.679136936967	165.784858087721	257.995465757269	-39.985091592464
2442.658	204.926548876054	188.275522527562	278.285038795254	-42.5751301166191
2083.003	213.153374917462	213.680402473443	301.817288504016	-45.0707451961365
1777.843	222.675910439385	242.534065884669	329.252690504661	-47.4442686990896
1513.548	233.752156781291	275.594576422325	361.375761989243	-49.6962563945395
1292.065	246.304140060167	312.98980608823	398.281744655622	-51.7993839252364
1101.762	260.424730194995	355.456522762658	440.647682022334	-53.7716822729932
939.101	277.272998041041	404.055536845708	490.042031154819	-55.541113454228
801.2801	296.03709775188	458.418545601069	545.697284395255	-57.1464724412492
684.3433	317.530751809731	519.882084566935	609.182370229568	-58.5844761858906
582.9476	343.486847577688	590.742919979738	683.345016785112	-59.8241849672151
497.0677	373.43708691645	670.202804493902	767.22034451397	-60.8734425774382
423.5089	407.762909799505	761.11875699752	863.465316536576	-61.8201980381124
361.5036	445.562973562252	860.757312579217	969.241721433942	-62.6320792338128
308.1262	490.882760647418	974.96365483259	1091.56768592028	-63.2752816546266
262.7298	542.78468291814	1103.46275865796	1229.73382150594	-63.8077886294212
224.2111	602.540804882046	1247.18446838979	1385.10812564963	-64.2138438188304
191.2854	670.399695540415	1408.08559841984	1559.53223892873	-64.540544353614
163.1722	748.316238143375	1590.32578991299	1757.58735496459	-64.8010109672805
139.1537	840.120709068403	1792.44049544089	1979.5569543466	-64.8874130027862
118.6706	943.43655807556	2019.94079745486	2229.40201945186	-64.9645331220108
101.1982	1062.6183643821	2272.63640610106	2508.79134697527	-64.9405834861744
86.24196	1197.88325559848	2555.67202801596	2822.47830971762	-64.8867827492116
73.61024	1349.21244628307	2870.9523488705	3172.1824686941	-64.8286848287853
62.69291	1523.48059406599	3222.51417725929	3564.4902501105	-64.6970191274642
53.57697	1719.51325766199	3611.53497774438	3999.98884232775	-64.5400859873779
45.65746	1942.24077488711	4046.25869688906	4488.26343587188	-64.3585729578805
38.96512	2190.51125157348	4528.15370441922	5030.16058532086	-64.1844510839402
33.18414	2476.03076073388	5070.65903642427	5642.89920092248	-63.973488023773
28.30617	2788.98645591211	5663.09240977289	6312.61127370349	-63.7804585425935
24.17237	3148.81720219829	6328.55529914575	7068.63932784844	-63.5470355368572
20.61345	3541.61946581898	7059.52562057331	7898.09916550804	-63.3580167602435
17.55618	3992.22897683251	7889.99118886213	8842.50265274392	-63.1612057576161
14.98558	4487.62739703711	8794.60227644663	9873.38993737806	-62.966113628374
12.76553	5047.33236466687	9818.83010887452	11040.1534729529	-62.7947419518504
10.8809	5663.07397486628	10943.9710700752	12322.37435024	-62.6402152345036
9.278505	6346.615454255	12204.491979766	13756.0587454533	-62.5245350556667
7.923394	7120.49311673362	13584.6436630404	15337.6649356163	-62.3383810680287
6.75822	7949.24948794684	15152.053802611	17110.6780069886	-62.3170670380498
5.761429	8892.60069174805	16909.7491171606	19105.4432628031	-62.2607452867885
4.919708	9974.55558415653	18849.482920893	21325.9176938875	-62.1136097249989
4.191257	11140.6931125464	20996.130149173	23768.7299675214	-62.0492665646057
3.564097	12464.886102277	23500.2057861664	26601.3732264879	-62.0578036357531
3.051758	13922.726197676	26100.8998384198	29582.0769580277	-61.923674215913
2.604164	15548.8328683953	29153.7807415576	33041.022004413	-61.9272838500223
2.214424	17423.2399650634	32510.0129185695	36884.5527402155	-61.8116036711854
1.892567	19486.418911951	36265.3096246953	41169.0806818303	-61.7495523419728
1.607507	21819.5802350451	40543.6411815353	46042.1646090913	-61.7119663106122
1.376413	24379.2388312153	45040.8836229492	51215.5101851527	-61.5746856228988
1.17375	27327.6677151008	50235.1249317685	57187.1419084513	-61.4540207112443
1.001604	30525.4745170029	55960.6269958396	63744.7752231952	-61.3883597479223
