EC-Lab ASCII FILE
freq/Hz	Re(Z)/Ohm	-Im(Z)/Ohm	|Z|/Ohm	Phase(Z)/deg
6999984	-16.0018927418852	29.8293046792805	33.8503764967562	-118.211277192683
5969734	-16.3613183847703	31.4985115402468	35.4943512201433	-117.448784958923
5091109	-17.7043710230706	35.1279661568262	39.3372439252888	-116.747942983919
4341796	-17.5717997577672	41.5736542170311	45.1346526704741	-112.912162432857
3702781	-16.3229237523745	48.7818457866393	51.4403180217355	-108.500788480806
3157797	-15.0049058923906	56.9418326074642	58.8856476701748	-104.762582642254
2693047	-14.6894474675457	65.9148806991919	67.5318544428515	-102.563341441424
2296687	-14.7559655736985	77.0407253371357	78.4411364048492	-100.842806478426
1958656	-14.3814226787394	89.5363955252504	90.6840197715047	-99.1249644170647
1670375	-14.760574449697	104.4039176911	105.442176510802	-98.0471162128646
1424531	-14.4970353553778	122.507977476368	123.362751993645	-96.7487365533186
1214875	-13.4376898710317	143.324729470332	143.95328960053	-95.3562199280326
1036062	-12.331756527069	166.423060353294	166.879319379002	-94.2378063119373
883578.1	-11.9656856272266	194.082384637377	194.450892667172	-93.5279688995497
753531.2	-10.5493674964023	226.23356049536	226.479387691202	-92.6697927140028
642624.9	-9.80049215361788	265.348232629037	265.529158861709	-92.1152268640956
548046.8	-7.83977121969955	309.369861393347	309.469179646885	-91.4516271457751
467390.6	-6.06862454253178	360.899881412484	360.950900549345	-90.9633525127646
398593.7	-4.07343289897977	422.425043422706	422.444682966016	-90.5524844778763
339937.5	-1.26907522552509	494.057567092767	494.059197013427	-90.1471741336008
289906.2	-93.7130304043443	510.681440945551	519.20869233266	-100.398420412522
247234.4	-98.6150698056372	609.627279486318	617.551902180424	-99.1887346196627
210843.7	-99.7408665495796	724.403011639872	731.237282783761	-97.8395908994682
179812.5	-107.610037141444	868.580944693989	875.221559137505	-97.0624882419322
153343.8	-101.67582021166	1022.70734842474	1027.74913910822	-95.6775919553215
130781.2	-98.5024806599688	1212.3117796929	1216.30694722933	-94.6451793042753
111531.3	-68.2323683804113	1415.22824577564	1416.87213386953	-92.7602627498539
95109.37	-95.4009082395613	1668.6401952855	1671.36514101957	-93.2722005398033
81109.37	-87.8445976485645	1978.71346296015	1980.66242500729	-92.5419658299091
69171.88	-76.2373452283584	2305.00308786118	2306.26350789692	-91.8943516340727
59000	-50.3460266430681	2692.03411517099	2692.50485601107	-91.0714123529263
50312.5	-48.7405427989998	3106.47963578932	3106.86198085562	-90.8988947608124
42906.25	-31.8733306232369	3739.29853418902	3739.43437393854	-90.4883705006012
36593.75	6.17944974856554	4335.45877763406	4335.46318150246	-89.9183347902255
31203.13	-640.890885628633	4800.66655248113	4843.25721755441	-97.6040479498899
26609.38	-631.852362056973	5678.93826710415	5713.98085829983	-96.3487547165378
22703.13	-614.738070993884	6667.7614513718	6696.03955098303	-95.2675260613464
19359.37	-567.970304209201	7847.09696045097	7867.6248622556	-94.1398305289699
16500	-453.3739255077	9362.10867938851	9373.07990155915	-92.7724667508902
14112.02	-506.134896500749	10992.8557819091	11004.5013869465	-92.6361600914286
12011.13	-300.110235098719	12603.2279178835	12606.8005498354	-91.3640791946791
10236.38	-140.685302077063	14985.7335453184	14986.3939039884	-90.5378740541005
8750.684	-85.8698932589646	17282.1159833637	17282.3293135215	-90.2846840044322
7449.463	88.9788936547046	20401.66529075	20401.8593240741	-89.7501143815751
6363.206	198.490533273344	23380.6248398333	23381.4673703947	-89.5135974037451
5414.761	479.200704592329	27494.3022697972	27498.4779691214	-89.0014877264572
4620.567	724.413708899167	32471.7755973154	32479.8550745543	-88.7219989139924
3941.215	241.950794814132	37021.4616322494	37022.2522488195	-89.6255533569137
3361.769	-5692.30122275373	41383.9843918313	41773.633518691	-97.8317986734544
2867.244	-5657.63014166819	49073.7068405287	49398.7599225939	-96.5765054401023
2442.658	-5483.5395266166	58421.3765652912	58678.1598682467	-95.362178689102
2083.003	-5657.50231416438	68630.1549077533	68862.9471856744	-94.7125018452032
1777.843	-4689.79552252329	80445.7977365484	80582.3836549449	-93.3364291086375
1513.548	-3891.17725612751	94648.6442263116	94728.597130526	-92.3542075604447
1292.065	-3420.3001244749	110003.36242554	110056.522741118	-91.7809059906368
1101.762	-3316.29749223839	129587.124344084	129629.55151055	-91.4659510906534
939.101	-454.394849640509	151683.264252706	151683.944862452	-90.1716394314529
801.2801	3313.9094669156	178778.006277956	178808.717697644	-88.9380612985362
684.3433	4213.31724704212	206675.473385822	206718.415583803	-88.8321214022165
582.9476	5661.12922244191	241036.106896592	241102.5781943	-88.6545617815055
497.0677	-53744.6031242498	251187.776933424	256873.08470476	-102.077014864917
423.5089	-70416.7514494563	267822.003699046	276924.438340256	-104.731012667743
361.5036	-72394.9312992277	380679.834092388	387502.467298504	-100.767519824146
308.1262	-87652.1015591163	425145.819810955	434087.386375668	-101.649416462411
262.7298	2169.62910147053	451971.819654244	451977.027128599	-89.7249615343689
224.2111	-58029.8144576724	559298.750503672	562301.121891964	-95.9235054409917
191.2854	19413.8350188585	699359.400812469	699628.807650825	-88.4099088029846
163.1722	-136320.543740545	901899.99673254	912144.119507369	-98.5950930481277
139.1537	35223.5402270592	753956.410799559	754778.753789401	-87.3251851052429
118.6706	572942.55132775	700081.663654473	904642.19606824	-50.7033156631512
101.1982	89249.0786898231	635986.231827615	642217.942073616	-82.0117464005382
86.24196	426736.75656438	638498.960662724	767974.727559745	-56.2434623082332
73.61024	82122.4893754476	219980.591817229	234809.633613016	-69.5285430306844
62.69291	31200.2974954827	37736.6700883354	48964.4241583876	-50.4164013176615
53.57697	81625.3272566803	-18841.5447227461	83771.7008141735	12.9979028163757
45.65746	274379.737434138	-291208.366076096	400108.176356265	46.7042879771002
38.96512	353724.02718785	250950.133444551	433701.11469286	-35.3538622752657
33.18414	486065.777221434	-267547.34836899	554834.681148498	28.8299012593204
28.30617	546383.008385031	461677.407832475	715318.405155906	-40.1968166864987
24.17237	500761.675689974	-29619.7961790388	501636.908695441	3.38507189588959
20.61345	217500.801007551	-465727.743217412	514012.576929116	64.9668249531913
17.55618	265979.983912397	-897419.260319749	936005.705449964	73.4910618460297
14.98558	-200371.651157547	3545476.82902437	3551134.28973565	-93.2346145084427
12.76553	1735813.19920589	-116911.251676383	1739745.87319698	3.85319101958296
10.8809	3725311.94434397	28142.0111251787	3725418.23899841	-0.432819537710043
9.278505	214918.251772049	2129593.13432744	2140410.42155922	-84.2372290683854
7.923394	185188.848040969	1884415.86474637	1893493.61254442	-84.3873440107096
6.75822	667377.909210169	-962551.007123941	1171280.37421322	55.2647701800585
5.761429	488980.493925246	-549228.538714502	735359.715498371	48.3211920636932
4.919708	861137.197330598	1384723.59555345	1630649.16788035	-58.1231878650307
4.191257	927039.546802022	-297277.869974881	973538.110867623	17.7797169012903
3.564097	2455756.62708996	-1060032.16475422	2674772.66357532	23.3475374078772
3.051758	1171378.84796153	88760.3509516297	1174736.90899399	-4.33326376175615
2.604164	9776221.58534393	14995108.9648792	17900497.2376285	-56.8972300707893
2.214424	-1322783.54878335	-2943523.73588353	3227086.65837185	114.198567274484
1.892567	2259223.93305323	1707191.74662878	2831712.63362615	-37.0766661511327
1.607507	2540781.14218128	-1288449.40056602	2848801.62002954	26.889912001631
1.376413	1817.84750522619	-7147683.6200912	7147683.85125486	89.9854281480353
1.17375	7175771.91396259	5456259.34429359	9014569.79524844	-37.2483586840217
1.001604	7802898.68931044	-601474.044701248	7826046.19089945	4.4078376565392
