EC-Lab ASCII FILE
freq/Hz	Re(Z)/Ohm	-Im(Z)/Ohm	|Z|/Ohm	Phase(Z)/deg
6999984	18.1434863091976	2.7969923541634	18.3578120069165	-8.76370460331326
5969734	12.3115429643978	-2.95932427943259	12.6622150651081	13.5157707195047
5091109	12.7345373812109	-5.42006814773651	13.8399993150132	23.0555523859006
4341796	8.97678316316998	-5.91320502528505	10.7493548471352	33.3737774310731
3702781	4.95172297644577	-5.5910708126781	7.46857638829796	48.4703444369217
3157797	3.90958246776573	-5.13611123950702	6.45480237783091	52.7217886796175
2693047	2.53195827819888	-4.23924204635476	4.93781184839215	59.1515325157315
2296687	2.22694048506275	-3.66029625919305	4.2845107805996	58.6834832928892
1958656	1.70065076529402	-3.30340424391272	3.71546667650186	62.7597915263474
1670375	1.38880718677907	-2.84677062010719	3.1674734987928	63.9944009832953
1424531	1.12084812799956	-2.45001942491921	2.69423378876474	65.416596822369
1214875	0.70184048581187	-2.31631761706284	2.42031142017723	73.1432764643853
1036062	0.786955850922513	-1.81666193285163	1.97978789004615	66.5783260477763
883578.1	0.705491574524232	-1.56527633500992	1.71691827605939	65.7382553285555
753531.2	0.646550190731334	-1.35968102557123	1.50557618220838	64.5681609193393
642624.9	0.599920898486736	-1.19109311115021	1.33364458678864	63.2668591750382
548046.8	0.554314758918975	-1.02049123881076	1.16132132523472	61.4898878692195
467390.6	0.522841969636171	-0.883570091899472	1.02667416082819	59.3855857750425
398593.7	0.490340115736184	-0.769022346171137	0.912046488952583	57.4778082045954
339937.5	0.467359560063823	-0.666010188339766	0.813630462406258	54.9414959328898
289906.2	0.446836939723014	-0.577485242799629	0.730172894835446	52.2686077115588
247234.4	0.428502204675704	-0.499213057578597	0.657896508783038	49.3586811208043
210843.7	0.414603865378971	-0.431316896748611	0.598273040181518	46.1318573031409
179812.5	0.405347461033797	-0.370954627109679	0.549466923063278	42.4632601071198
153343.8	0.397089950972888	-0.322402511742703	0.511491748459009	39.0735959545022
130781.2	0.390245801574013	-0.278942484422137	0.479688122910853	35.5566778755861
111531.3	0.384350154625803	-0.24326810294676	0.454867465611902	32.3310916467601
95109.37	0.37805737727292	-0.212299161674053	0.433587724178147	29.316508585147
81109.37	0.368846390046853	-0.183630023291848	0.412028694273542	26.4663987882042
69171.88	0.365349175233326	-0.160264258248653	0.39895444892326	23.685164247814
59000	0.356838301568578	-0.135720624925915	0.381776978741029	20.8239161513338
50312.5	0.350942368338835	-0.10712821881188	0.366929150056351	16.9752669681928
42906.25	0.377814925942755	-0.105419257025448	0.392246527093519	15.5903534928482
36593.75	0.363492015047577	-0.0957840580732106	0.375900293674161	14.7624695859299
31203.13	0.358025596087701	-0.0832106926066006	0.36756815261666	13.0841386941208
26609.38	0.353528354159546	-0.0719547764586919	0.360776644268969	11.5044539458995
22703.13	0.353860719715454	-0.0636440269733709	0.359538553046717	10.1959902291592
19359.37	0.351422965419148	-0.0570267342086012	0.356019871690452	9.21725799393882
16500	0.349173863155378	-0.0509030738656127	0.352864718610148	8.29423444513897
14112.02	0.347313520788736	-0.045472791579488	0.350277684839756	7.45914845873579
12011.13	0.345780736864425	-0.0405188541865112	0.348146658078306	6.68348392526564
10236.38	0.34400423691839	-0.0365356074184393	0.345938962285601	6.06247788943514
8750.684	0.342758585462509	-0.0328644913429834	0.344330542792086	5.47690986619129
7449.463	0.341190429555057	-0.0298657305659011	0.342495067237762	5.00257243154736
6363.206	0.339955503068317	-0.0269022187712816	0.341018289012848	4.52464541631693
5414.761	0.338104658771775	-0.0250352306843891	0.33903026864662	4.23478377592907
4620.567	0.336624206408497	-0.0238236543282948	0.337466180299159	4.0482017888181
3941.215	0.337283262986933	-0.0206698134406965	0.337916026075689	3.50688558792338
3361.769	0.337217470899188	-0.0206235796329081	0.337847531760289	3.49974195013368
2867.244	0.335356313454853	-0.0174034338649088	0.335807588485311	2.97071970464908
2442.658	0.3334963948612	-0.0166520333089001	0.333911868011214	2.85850019089476
2083.003	0.332284249060181	-0.0185206639896925	0.332799995745354	3.19021754413252
1777.843	0.327743403601275	-0.0177947619480971	0.328226129607223	3.10781131629004
1513.548	0.327621047019979	-0.0166018583527298	0.328041418347183	2.90092313196184
1292.065	0.331914981366802	-0.0189645382706518	0.332456325804674	3.27013828105973
1101.762	0.330890104532913	-0.0121227409270379	0.331112099032014	2.09819321816529
939.101	0.324998515286743	-0.0179718498815625	0.325495041938818	3.1651328789039
801.2801	0.320088389759134	-0.0153891976400086	0.320458116861781	2.7525448247146
684.3433	0.327301091179081	-0.00976190531099827	0.327446635472588	1.70836648534536
582.9476	0.317684027446024	-0.0113688201920418	0.317887387870115	2.04954451769632
497.0677	0.318325517405221	-0.0154591683560978	0.318700676054451	2.78032926707388
423.5089	0.322855177076702	-0.0136517484739607	0.32314367640668	2.42127724334602
361.5036	0.316083956157086	-0.0125208629978364	0.316331850040626	2.26844075149487
308.1262	0.320275928290071	-0.0129211501785327	0.320536466512007	2.31027698377973
262.7298	0.314243743292607	-0.0104811601044164	0.314418486917809	1.91031233573276
224.2111	0.317112238360102	-0.0138718530506961	0.317415500605775	2.5047669343791
191.2854	0.316309982344177	-0.0127483174373756	0.31656677735994	2.30795650470946
163.1722	0.315874255463949	-0.0134367063624909	0.316159912611919	2.4357879724655
139.1537	0.311416562807526	-0.0103716026834468	0.311589225957955	1.9075077073256
118.6706	0.31303469969196	-0.0132097299594101	0.313313293967613	2.41638704856458
101.1982	0.30647817675774	-0.0117275008772672	0.306702473262891	2.1913750632608
86.24196	0.30884790888455	-0.00825402521825084	0.30895818447593	1.53087733844312
73.61024	0.315456811085034	-0.0215198794642763	0.316189982245004	3.90256565757836
62.69291	0.260111740365414	-0.00377981966507452	0.260139202183417	0.832536324214843
53.57697	0.292893706759299	-0.0121482291503168	0.293145531998512	2.37507163491549
45.65746	0.301266891080127	-0.0273877997996868	0.302509225047688	5.19441016051306
38.96512	0.302865782118389	0.00183390803903742	0.302871334392807	-0.34693224748746
33.18414	0.299620007078952	-0.0157480125114006	0.300033579020833	3.00869477435256
28.30617	0.318659649838699	-0.0106372704242685	0.318837143315206	1.91189713699409
24.17237	0.290239758217259	0.00376386310922028	0.29026416229965	-0.742976718300149
20.61345	0.297581279812211	-0.0163114169590175	0.298027985964211	3.13743208838271
17.55618	0.284093314184568	0.000237811074502134	0.284093413718937	-0.0479615922923132
14.98558	0.304852414705986	-0.0170244083431711	0.30532740661707	3.19634876549822
12.76553	0.299906000128588	0.00038093240885279	0.299906242053461	-0.0727754948556908
10.8809	0.293712398143478	-0.0120050739722253	0.293957640867305	2.34058014860641
9.278505	0.298449661214486	-0.0130220562605866	0.298733617506124	2.49836413101851
7.923394	0.30220090825526	-0.00649126723760208	0.302270616336841	1.23052254899523
6.75822	0.297917730606441	-0.00314389354944807	0.297934318728713	0.604613713311801
5.761429	0.298169771363868	-0.00318940812332155	0.298186828816026	0.612847689785626
4.919708	0.292684496871747	-0.00685185975731105	0.292764688258679	1.34107189077675
4.191257	0.292689585767688	-0.0100557863009038	0.29286227557504	1.9677078099022
3.564097	0.290313155503535	0.00557625717799734	0.29036670419064	-1.10038664498717
3.051758	0.324284560150816	-0.0237766296754286	0.325155046202471	4.19343799551684
2.604164	0.299984552454516	-0.025043609024428	0.301028095141142	4.77215745423549
2.214424	0.29044808236449	-0.0199939542224096	0.291135444002714	3.93793205044061
1.892567	0.275202984888805	-0.0102897705124225	0.275395283672226	2.14127735252795
1.607507	0.281404160689292	-0.0191946033527583	0.282058033835441	3.90210614542667
1.376413	0.28140597439376	0.00899223495083259	0.281549609685243	-1.83024492161
1.17375	0.287011846800972	-0.0139761638359926	0.287351932931858	2.78784017081025
1.001604	0.259884959769273	0.00569839951643957	0.259947425590879	-1.25610167680105
