EC-Lab ASCII FILE
freq/Hz	Re(Z)/Ohm	-Im(Z)/Ohm	|Z|/Ohm	Phase(Z)/deg
6999984	-9.09282059005514	32.1851020533614	33.4448827246893	-105.775858502943
5969734	-7.09134183982321	39.3294036947002	39.9635974865868	-100.22097538337
5091109	-5.71695562010349	44.2285379445119	44.5964925781317	-97.3651818450999
4341796	-4.40739443825724	49.241578307592	49.4384279681008	-95.1146609216055
3702781	-10.8617560925809	49.5661294566908	50.7422795579007	-102.36022790305
3157797	-9.98251738678104	57.8021209211819	58.6577858119817	-99.7984190094614
2693047	-11.0431459954756	66.6604304275619	67.568957800644	-99.4063439902534
2296687	-9.8587347626498	77.2016283884847	77.8285685141	-97.2773474151063
1958656	-9.79130960183691	89.5862605403145	90.1197415737314	-96.2373717211643
1670375	-9.54508744997546	104.589041558086	105.023694033616	-95.2145274652968
1424531	-9.03277148522105	122.078901015522	122.412617951999	-94.2316756635294
1214875	-8.53233803831533	142.679315224182	142.934207890349	-93.4222581863481
1036062	-7.69047642132581	166.559877275017	166.737326791141	-92.6436085427653
883578.1	-7.25541070917684	193.968469887236	194.104117150962	-92.1421558804668
753531.2	-6.00770872242077	226.450529370764	226.530207293404	-91.5196945318367
642624.9	-4.90981129471744	264.668429306387	264.71396585458	-91.0627606902198
548046.8	-3.06539260265024	308.700174825531	308.715394123975	-90.5689283665966
467390.6	-1.87680858400362	360.389668052059	360.39455496599	-90.2983776957358
398593.7	1.469742628867	420.606523980379	420.609091863517	-89.7997898224129
339937.5	3.37433137952645	493.580677713231	493.592211774164	-89.6083073272802
289906.2	-101.035279915658	499.925360895424	510.032836446885	-101.425619147633
247234.4	-108.536174689461	602.41645105247	612.115742090394	-100.213297748916
210843.7	-111.437892808982	720.733107867102	729.297344523808	-98.789325740677
179812.5	-116.423725279384	858.925663278328	866.780121395297	-97.7191551709317
153343.8	-115.902893504083	1020.56685678903	1027.12715371508	-96.4791599107095
130781.2	-111.275413918431	1207.57050801282	1212.68658340276	-95.2648331597093
111531.3	-91.458766468123	1453.30538782693	1456.18036528813	-93.6009637226494
95109.37	-106.037172787446	1673.53319266818	1676.88915226228	-93.625486316281
81109.37	-93.0528891595788	1966.37902779271	1968.57951861843	-92.7093268018668
69171.88	-61.5160002623155	2344.7448830916	2345.55170164133	-91.5028495726598
59000	-61.6087851762672	2697.8040662022	2698.50744338941	-91.3082158096539
50312.5	-88.2218463932828	3100.90596634875	3102.1606835105	-91.6296451327223
42906.25	-13.0567848007123	3717.0355271579	3717.05845929054	-90.2012613494611
36593.75	4.98893525282307	4314.46633537019	4314.46921979027	-89.9337473549145
31203.13	-732.771936764921	4744.25387024699	4800.51033710622	-98.7802157117344
26609.38	-709.263062268683	5627.74769557391	5672.26570397898	-97.1830958578073
22703.13	-709.968022812642	6636.58035387569	6674.44779639974	-96.1061643860794
19359.37	-667.070316142363	7799.77681690628	7828.25020041049	-94.8882852967493
16500	-538.137351870519	9258.75657544405	9274.38219682619	-93.3264023472227
14112.02	-642.745549429637	10688.197984847	10707.5066194048	-93.4413949767054
12011.13	-393.976817483614	12746.1354862182	12752.2228480271	-91.7704208629859
10236.38	-369.799372776166	14910.208847275	14914.7939793167	-91.4207447206176
8750.684	-380.420938968435	17278.3289071121	17282.5163073306	-91.2612905662327
7449.463	-45.5679058500097	20246.3106615365	20246.3619407905	-90.1289540757156
6363.206	45.2354110055851	23556.0715611473	23556.1149945466	-89.8899733793665
5414.761	299.029315502521	27737.3531582169	27738.9649906981	-89.3823327728806
4620.567	100.82853798187	32076.9084736747	32077.0669423277	-89.819900641022
3941.215	587.929830297503	36574.8302147014	36579.5553105774	-89.0790662119179
3361.769	-6799.51407581069	40928.0644695367	41489.0329230473	-99.4325854572704
2867.244	-6638.48763709724	48725.5686742822	49175.7110852511	-97.7583454841186
2442.658	-6566.88682593363	57631.5627489537	58004.4914422255	-96.5005885322474
2083.003	-6111.98220752615	68219.9974717882	68493.2433277612	-95.1195883586436
1777.843	-5451.39764393264	79672.9964658734	79859.2768695244	-93.9141997492474
1513.548	-5589.92104458817	94556.2762532103	94721.3629344413	-93.3832397604997
1292.065	-4035.42063934327	109905.576710162	109979.636350234	-92.1027936799413
1101.762	-3927.00907572143	129557.435995389	129616.938021156	-91.7361579868371
939.101	-3671.93651277368	151611.329756255	151655.789300025	-91.387398576941
801.2801	-1982.11706432515	176893.522840957	176904.627444115	-90.6419804854757
684.3433	2899.99000965266	204797.604157588	204818.135453734	-89.1887303339059
582.9476	-914.607565782964	241723.624540855	241725.35483099	-90.2167885057092
497.0677	2792.6631030441	267837.557946777	267852.116687735	-89.4026154788283
423.5089	-64067.5287279945	307025.457250604	313638.772534989	-101.786869037463
361.5036	-62000.1414522196	348872.163361899	354338.544204419	-100.077162976793
308.1262	-56283.7112299382	426239.268907753	429939.263744114	-97.5222295767452
262.7298	-80892.3619786156	503410.47912625	509868.301349083	-99.1287459385125
224.2111	-55840.3308718133	600248.716685979	602840.49667805	-95.3148523752242
191.2854	-17108.0788522982	711493.504584904	711699.159356343	-91.3774291113057
163.1722	24632.8362601147	740757.514447509	741166.966231408	-88.0954122692373
139.1537	115161.813051499	978878.935108637	985629.855871223	-83.2901871288136
118.6706	-189437.82838204	867430.87492712	887875.562001192	-102.319376012258
101.1982	495204.973449457	781199.133563527	924932.458079768	-57.6292409498485
86.24196	821065.27877128	383028.362432608	906012.648052755	-25.0091322024905
73.61024	317709.028226555	151566.632052139	352010.611442738	-25.503995850145
62.69291	49749.6226867549	38857.3685928831	63126.2231678536	-37.9919203922306
53.57697	75457.3521633316	115517.066690625	137978.276160805	-56.8468728101753
45.65746	445714.914723036	304487.922738416	539791.330330637	-34.3387414904765
38.96512	436494.060254895	-275654.959878374	516248.701251008	32.2732515573417
33.18414	335208.410027547	726589.353495582	800185.457732346	-65.2339951730608
28.30617	612297.93648476	-878877.064146443	1071136.6191603	55.1357630029068
24.17237	766217.670434615	-433326.763749891	880262.235170976	29.4898970731095
20.61345	-461776.402216781	512786.187180588	690063.127117715	-132.00380371597
17.55618	-863067.197192945	512548.196700153	1003788.14538281	-149.295268902562
14.98558	-1357106.39588874	4624337.38613941	4819360.3341739	-106.355405312718
12.76553	3213617.48620868	2367882.38570189	3991767.06988064	-36.3838169373708
10.8809	3431731.29014756	128471.404600642	3434135.19675302	-2.1439421792331
9.278505	3839070.49526126	3226286.71895452	5014717.16654966	-40.0430978396431
7.923394	1905559.58538072	1211791.24086507	2258228.36419916	-32.4532634374159
6.75822	1503901.82367149	1317308.51824911	1999255.46829166	-41.2159997420554
5.761429	703272.367176626	774924.948208491	1046470.59098197	-47.7751231778879
4.919708	1300900.01333073	-905152.893806365	1584816.26879898	34.8298006983713
4.191257	1072761.37594884	737683.576845747	1301919.36358423	-34.5143301363723
3.564097	1214915.24452211	-2467756.24280053	2750607.19210381	63.7882507686072
3.051758	2336701.16239247	1078041.61979321	2573391.93601221	-24.7663298776479
2.604164	13685306.6204614	-2652049.47514543	13939906.1587467	10.9673002833864
2.214424	-3564286.66490856	1648861.12073389	3927197.78278518	-155.174446134178
1.892567	1979596.41200445	-2575754.6843517	3248586.48467001	52.455919073943
1.607507	4113712.00977872	-2834952.45009633	4995956.55442528	34.5725541075135
1.376413	1318001.5051773	5242326.80388393	5405471.14379215	-75.8874578241644
1.17375	4312056.43097862	6397285.11848523	7714861.47323052	-56.018266976435
1.001604	23802541.5702534	4109185.47936018	24154634.969451	-9.79479372185274
