EC-Lab ASCII FILE
freq/Hz	Re(Z)/Ohm	-Im(Z)/Ohm	|Z|/Ohm	Phase(Z)/deg
6999984	-8.65811201919092	32.5494516695932	33.6812961111659	-104.895680738063
5969734	-7.61489009930565	39.3933845254757	40.1226282239398	-100.940553078275
5091109	-6.31975089881012	44.3143418481424	44.7627093109548	-98.1163295145164
4341796	-4.98383915201082	49.3291436894364	49.5802689567753	-95.7691506109834
3702781	-11.6694758819372	49.8126132334317	51.1612461195246	-103.184771466023
3157797	-11.2631575803945	57.9933196065348	59.0769315187112	-100.990858772688
2693047	-10.6309602914445	66.6535162398118	67.4959890945315	-99.0621109469388
2296687	-10.678161342296	77.8118551304651	78.5411225314268	-97.8139223902463
1958656	-10.0987928741126	89.9226888944873	90.4879859181813	-96.4077693694363
1670375	-9.88556715181351	104.998742197976	105.463075533905	-95.3785079862632
1424531	-9.62852484918307	122.318774341436	122.69715174837	-94.5008512356819
1214875	-8.1165511860637	141.820799376773	142.052868816588	-93.2755236950151
1036062	-8.25062289446621	166.389315526938	166.593748681244	-92.8387579677868
883578.1	-7.3567071436955	193.837914497366	193.977468373743	-92.1734966718604
753531.2	-6.26592103453651	226.683553088348	226.770136938639	-91.5833501428757
642624.9	-4.99890662852408	264.14396694038	264.191264689961	-91.0841893117577
548046.8	-2.25679332371985	310.050115688127	310.058328954935	-90.4170372551074
467390.6	-2.59806380335537	360.95261116161	360.961961209087	-90.4123962969668
398593.7	1.21804054429339	422.148772311845	422.150529535574	-89.8346829521364
339937.5	4.5839775048032	491.495172696002	491.516548687058	-89.4656408362927
289906.2	-98.7993175970897	502.618172715304	512.236598361853	-101.120805600623
247234.4	-103.932722289662	604.979422233313	613.842090515381	-99.7479987234899
210843.7	-106.92155934765	720.71465289496	728.602656288621	-98.4385609784979
179812.5	-111.01606089028	860.493488480525	867.625270201934	-97.3513735622372
153343.8	-112.836204996147	1023.03366578836	1029.23752870477	-96.2940372471028
130781.2	-111.07024118615	1208.2397913298	1213.33424571707	-95.2522853839959
111531.3	-90.6964876911558	1420.30034647503	1423.19321494891	-93.6537904313604
95109.37	-76.5229575944765	1681.59981118566	1683.34003933212	-92.6055068493891
81109.37	-75.0916941057826	1967.59586295733	1969.02824826117	-92.1855860813377
69171.88	-77.6372541479305	2321.88776169726	2323.18538243317	-91.9150927062564
59000	-56.1434712208586	2689.54567752945	2690.13160289197	-91.1958587860287
50312.5	-38.2138637117553	3148.47295973784	3148.70485717226	-90.6953801519819
42906.25	-7.46735677046668	3697.30439473096	3697.31193554371	-90.1157187506481
36593.75	24.3458416871393	4305.65531719629	4305.72414705217	-89.6760309386647
31203.13	-637.311247318756	4763.68319845809	4806.12559565716	-97.6200907681536
26609.38	-694.801128519868	5649.51741126207	5692.08183254122	-97.0112658150475
22703.13	-688.423755320798	6633.500353679	6669.12694504681	-95.9249378354795
19359.37	-634.580233074231	7874.23324201602	7899.76209906846	-94.6074786813557
16500	-633.80789656714	9246.22663396314	9267.9242237062	-93.9213617216865
14112.02	-407.925762483252	10669.6673298619	10677.4624493659	-92.1894821943446
12011.13	-345.373471217357	12692.7076244997	12697.4056277514	-91.5586556619056
10236.38	-386.138343804448	14856.8900427513	14861.9071643904	-91.4888121066791
8750.684	-334.50086442439	17252.8938017953	17256.1361655594	-91.1107172576723
7449.463	-121.142047001687	20299.4709583711	20299.8324275178	-90.3419224881657
6363.206	307.588432627267	23729.9169105234	23731.9103155273	-89.2573706777626
5414.761	465.18766546092	27835.743218438	27839.6300278383	-89.0425688003681
4620.567	946.140270076378	32674.6333811469	32688.3289264382	-88.341383050687
3941.215	524.626023644063	37523.5752061011	37527.2424874599	-89.1989862784388
3361.769	-6479.43794353979	40691.1971567307	41203.8425648884	-99.047500523163
2867.244	-6812.18607128507	48535.1979986116	49010.9306566836	-97.9895912502334
2442.658	-6383.07035554291	57752.0370598496	58103.71220263	-96.3070433890522
2083.003	-5706.80387280718	68372.2269632819	68609.9776297968	-94.7712300192041
1777.843	-5115.62404366482	79964.4444513043	80127.9101547135	-93.660436741784
1513.548	-5413.09094343465	93899.9939942474	94055.8899042564	-93.299301443513
1292.065	-4895.13458194581	111123.917907064	111231.683766773	-92.5223133775361
1101.762	-3392.60780820544	129569.683095617	129614.090920852	-91.4998701921251
939.101	-3415.19902209844	150452.140755509	150490.897539605	-91.3003662878606
801.2801	-2855.34926673806	176309.57691471	176332.696716403	-90.9278291294665
684.3433	2863.45235969127	203236.548381669	203256.719341602	-89.1927983342514
582.9476	-1445.60357200001	243501.122434011	243505.41348461	-90.3401463190008
497.0677	-58092.5254621658	242178.443583781	249048.469281052	-103.488954759458
423.5089	-53229.2616840383	285939.970571783	290852.232362105	-100.545212199635
361.5036	-54336.9232146974	352246.927964494	356413.242577859	-98.7692149220679
308.1262	-44350.0027054252	410050.254956619	412441.673852146	-96.1729712649916
262.7298	-106356.77648961	469211.40759262	481114.444722156	-102.771497008395
224.2111	-40330.2848713355	597059.99421695	598420.561622131	-93.864352421071
191.2854	-29647.6141310588	678256.910944136	678904.572283281	-92.5028901082812
163.1722	-37098.2833414232	978618.864881101	979321.788447523	-92.1709756575619
139.1537	233818.011557316	913638.234821548	943083.075161701	-75.644982085265
118.6706	423449.482869394	739967.389560066	852561.553293776	-60.2194685500759
101.1982	223935.890941821	1099051.56638937	1121633.46456622	-78.4834150023431
86.24196	420455.153505632	-205428.352851007	467956.562369332	26.0394707463183
73.61024	139954.726269357	-226140.923116488	265945.563063398	58.2473478192356
62.69291	52930.2314347401	31985.0547238614	61843.7800059436	-31.1440262276522
53.57697	91734.9807650344	76437.7229403723	119407.002241369	-39.802587345981
45.65746	534595.577263539	63899.6821835174	538400.966392976	-6.81616949146203
38.96512	407641.073925839	-198146.866334219	453247.642894568	25.9235384660516
33.18414	245476.251947177	506560.259019722	562904.864331586	-64.1454326580918
28.30617	450328.596835672	-1127135.45983895	1213766.94219044	68.221626299991
24.17237	562306.949581177	239027.292961231	611001.761313061	-23.0295343724237
20.61345	443568.68167649	449003.025820282	631155.204810979	-45.3488359915812
17.55618	395620.281363865	928843.306200571	1009586.69489055	-66.929491880412
14.98558	1497801.33191909	-619820.307755418	1620983.04858645	22.4807553962474
12.76553	2704602.61047052	325707.334372044	2724144.00284341	-6.86689344506496
10.8809	3115836.78790132	408542.394768112	3142506.28912053	-7.46989714697245
9.278505	1532198.62622009	860906.409180599	1757496.08123574	-29.3306090764852
7.923394	-353852.257971915	1586933.27112922	1625905.47926032	-102.570102343407
6.75822	142098.280413158	1304041.91791343	1311761.1234412	-83.7811546634612
5.761429	310434.914768517	-966480.715745034	1015113.20068964	72.1929113696018
4.919708	363204.494484517	-1217595.0809376	1270612.16975802	73.3903358656457
4.191257	1968068.22789851	638537.860401929	2069063.35060826	-17.9756054418676
3.564097	2058073.15080207	429288.825504966	2102368.66171369	-11.7822582624466
3.051758	1157514.94605458	728864.282532021	1367875.72267756	-32.1978102044568
2.604164	11861405.5044959	18354611.3033598	21853711.2783964	-57.1280117410901
2.214424	45979.2572531159	4263360.67378731	4263608.60385821	-89.3821035897626
1.892567	2197571.73429844	1534545.337412	2680326.64426565	-34.9262638727595
1.607507	894350.284190098	-2752638.9639277	2894284.66059645	72.0006840293354
1.376413	2913890.5777838	2687109.08259536	3963749.93170151	-42.681390869304
1.17375	8183060.43452487	-5787391.15261179	10022792.7459574	35.2694942399327
1.001604	12425854.9554843	-1540959.20573221	12521039.3597522	7.06929078619493
