EC-Lab ASCII FILE
freq/Hz	Re(Z)/Ohm	-Im(Z)/Ohm	|Z|/Ohm	Phase(Z)/deg
6999984	33.0482846768512	71.9478082948234	79.1749722987691	-65.328934279714
5969734	34.9759122366997	66.1129141552602	74.7945977654143	-62.1196830776273
5091109	37.6659390856277	64.0330840730468	74.2896952686447	-59.5348412806741
4341796	42.6550291794275	63.0203329412168	76.0987114103755	-55.9080700036975
3702781	50.0538092901902	61.2494762244736	79.1004561442669	-50.7438925342023
3157797	56.7603979873192	58.9828885467993	81.8579496506174	-46.1000524159332
2693047	63.014648400872	56.4329056506928	84.5902994040423	-41.8461043476726
2296687	69.5210331913399	53.9747224062457	88.0138893290295	-37.8250407048208
1958656	75.6575660224893	50.6435614727733	91.043053634497	-33.7975083684621
1670375	81.2660020152312	46.9969986049882	93.8769458462344	-30.0412543593639
1424531	86.0927552219954	42.8957014014894	96.1873364868793	-26.484773544694
1214875	89.9902312700789	38.8162897318706	98.0048267821071	-23.3324170516637
1036062	93.4295499847121	35.0007934452908	99.7704182217641	-20.5370705607795
883578.1	95.9717730050716	31.4249962563824	100.985699994854	-18.1305160409371
753531.2	98.1656444668825	28.1298190256508	102.116504405577	-15.9898998817048
642624.9	99.9235965843103	25.2493193262005	103.064316233993	-14.1810090971193
548046.8	101.35512530453	22.6994049677857	103.865896286455	-12.6236066775506
467390.6	102.574970854841	20.5131315961358	104.605990333976	-11.3089320983111
398593.7	103.419970157476	18.715106954151	105.099692938079	-10.2573654681737
339937.5	104.183602807394	17.2267883241007	105.598225978907	-9.38892187893797
289906.2	104.816436997529	16.0891985707153	106.044084113659	-8.72672017763757
247234.4	105.4187273536	15.2727540830961	106.519317938745	-8.24348757322423
210843.7	105.946632910589	14.8250165880898	106.978830344738	-7.96562596089759
179812.5	106.383750281194	14.4909121266166	107.366143910233	-7.75672554879289
153343.8	106.84497372469	14.5475992081664	107.83079825797	-7.75349406682835
130781.2	107.33503606265	14.8817349286611	108.361782935947	-7.89359370689374
111531.3	107.792961418454	15.5558042806625	108.909621146061	-8.21176862968579
95109.37	108.306225497548	16.4251988840565	109.544628530597	-8.62349037168885
81109.37	108.829724068554	17.8251803259962	110.279852622734	-9.30186094196784
69171.88	109.445286312628	19.2057673618189	111.117650245177	-9.95308477191353
59000	110.1123494263	21.0881719170899	112.11351609411	-10.8417251234276
50312.5	110.909371291054	23.4164207180322	113.354388531811	-11.9218365109185
42906.25	111.736834728628	26.0512946937662	114.733561743694	-13.1239879087722
36593.75	112.675413831355	29.2191794602511	116.402359642739	-14.5378071048811
31203.13	113.744180706783	32.9033928816116	118.407651390352	-16.1338555277314
26609.38	114.980246906985	37.1939503129341	120.846378177719	-17.9254200685921
22703.13	116.437690581209	42.0324575718067	123.792016210299	-19.8489081417817
19359.37	117.919977470527	47.7116039041327	127.206596659742	-22.0287489916687
16500	119.737933902325	54.2577035730215	131.457488231806	-24.3770451629021
14112.02	121.695855178327	61.4422640294964	136.326934157028	-26.7884698240031
12011.13	124.069794176559	70.0906541887955	142.499170634874	-29.4633748567729
10236.38	126.537332272847	79.7616476413373	149.57812972888	-32.2249053785885
8750.684	129.303124950663	90.668165251377	157.9240776831	-35.0383802541107
7449.463	132.522269030461	103.477997542244	168.136396310658	-37.9839562788783
6363.206	135.986591070491	117.903060845168	179.981901055723	-40.9259341286925
5414.761	139.980174409039	134.701337202113	194.26502379899	-43.8990235867822
4620.567	144.116654861233	154.354105827136	211.174809563277	-46.9644566527132
3941.215	149.010851245177	175.865500609884	230.505765857554	-49.7253912984219
3361.769	154.702466053458	201.177180621165	253.781620701149	-52.4402143007785
2867.244	160.648115210757	230.634075669968	281.069197495757	-55.1408680568614
2442.658	168.068525569791	264.149023664866	313.084231462246	-57.5328694487075
2083.003	176.078053126822	303.009003065445	350.453901007889	-59.8391964614476
1777.843	185.490986557178	347.317000961869	393.746117760039	-61.8947398472589
1513.548	196.216691554856	399.036843189937	444.66998129818	-63.815466263876
1292.065	208.241986144163	458.152030629454	503.25739732582	-65.5569714821761
1101.762	222.640232836561	526.091489334428	571.262573977706	-67.0620743142053
939.101	239.362859413911	604.439349904533	650.108841794832	-68.3960346528288
801.2801	257.798070369721	694.304765513376	740.620653574375	-69.6298419688636
684.3433	279.338377434547	795.713821355471	843.321062587608	-70.6561812672814
582.9476	305.586291348647	916.215915530467	965.833621972	-71.5548655689441
497.0677	335.686190993319	1052.01800730554	1104.27673457278	-72.3027473789284
423.5089	373.257444236734	1206.15566396259	1262.5896425154	-72.804772999022
361.5036	411.499291015728	1387.03335437194	1446.78719673859	-73.4756492813407
308.1262	459.377665629158	1593.1636964056	1658.07068704071	-73.9154516848831
262.7298	514.626099569881	1827.70667014928	1898.77636768174	-74.2744097435325
224.2111	579.180691700263	2095.26426778855	2173.84052439683	-74.547939794928
191.2854	655.057952027991	2404.21574542605	2491.85759446033	-74.7590174466542
163.1722	743.804397910294	2753.50173924396	2852.19508630987	-74.8834638797566
139.1537	845.16779964815	3154.36134777882	3265.62461436141	-75.0006910446404
118.6706	964.820326127061	3614.7375462241	3741.28397609566	-75.0554085140754
101.1982	1105.76845019231	4138.1711968412	4283.36138094917	-75.0394229915912
86.24196	1269.07075845871	4740.12439407524	4907.06835710306	-75.0117491300864
73.61024	1461.00689092799	5418.59690335645	5612.1059805035	-74.9102783045687
62.69291	1685.82156147645	6201.63625196157	6426.6855017795	-74.7924781818898
53.57697	1944.18985728203	7072.32297249524	7334.68652557437	-74.629013322939
45.65746	2249.9430809179	8083.41532841654	8390.70004463572	-74.4459533073947
38.96512	2605.57390154097	9217.14411253649	9578.34855012374	-74.215051315957
33.18414	3020.02248944299	10522.0759451075	10946.8999278951	-73.9855817190071
28.30617	3499.2955184997	11989.5903722143	12489.8097030854	-73.7295268803631
24.17237	4048.67532055369	13639.8946510212	14228.0883446166	-73.4677424637679
20.61345	4708.74356696971	15503.3339227393	16202.6426455513	-73.1051747710091
17.55618	5463.3205828209	17639.4144484949	18466.0990432859	-72.7910793077183
14.98558	6328.66595243692	20025.4701143261	21001.7015033854	-72.4618577586362
12.76553	7332.87834282519	22741.3244384433	23894.3286577634	-72.1282244345315
10.8809	8500.21485261476	25809.4063066891	27173.1320690931	-71.7709279534879
9.278505	9812.35633149831	29243.1776638545	30845.5146926754	-71.4511602080254
7.923394	11346.0553650892	33077.7849400835	34969.598637818	-71.0674503726263
6.75822	13090.7817657829	37423.8956513806	39647.4026004829	-70.7202952445565
5.761429	15114.706143074	42284.8103024516	44905.0055573518	-70.3305693523086
4.919708	17329.3972687797	47786.9863112456	50832.116524992	-70.067409837005
4.191257	19990.7156318425	53959.7433422997	57543.7452121432	-69.6716105921286
3.564097	23014.1467984685	60962.8414210464	65162.2512424879	-69.3179237451943
3.051758	26320.6906394362	68607.2800686899	73482.9070883872	-69.0110475501223
2.604164	30173.1100872315	77175.5495959576	82864.2385337264	-68.6461307304034
2.214424	34656.042522575	87096.4535988456	93738.1113145683	-68.3021841659864
1.892567	39695.6027570045	97853.192704727	105598.239572212	-67.91933376728
1.607507	45548.7956763445	110465.583443958	119487.814915076	-67.5919456831422
1.376413	51777.7011463696	123737.012885093	134133.436151201	-67.2931481929815
1.17375	59297.0520268978	139049.942091394	151165.560809004	-66.9044536247648
1.001604	67742.0655333311	156235.120833228	170289.167079106	-66.5589027785214
