EC-Lab ASCII FILE
freq/Hz	Re(Z)/Ohm	-Im(Z)/Ohm	|Z|/Ohm	Phase(Z)/deg
6999984	18.240644228147	4.16825811119487	18.7108385044438	-12.8719208563823
5969734	16.1155766190868	-3.65279910043361	16.5243684004498	12.7710229886598
5091109	10.1967569736071	-4.75314495854317	11.2501662110268	24.99224140669
4341796	8.81879624009935	-5.38580689915476	10.3333481059806	31.4132075293826
3702781	5.64858673449116	-5.4052095516639	7.81810862002237	43.7386928069707
3157797	4.37353640213064	-4.97707485382611	6.62563919643607	48.693053131889
2693047	3.01656682404076	-5.2405133959463	6.04670621553553	60.0742237490102
2296687	2.78172544111251	-3.78957830957826	4.70094673381422	53.7196118685717
1958656	1.86704989094389	-3.30707787185637	3.79771501640073	60.552586212165
1670375	1.44530667986416	-2.7571753835847	3.1130254568033	62.3365476030843
1424531	1.19177073691365	-2.43960420201644	2.71514017167806	63.9640342201534
1214875	1.05282419563456	-1.85161160044607	2.13000101075563	60.377490309973
1036062	0.821778211645182	-1.81305047022675	1.99059574919776	65.6172466422239
883578.1	0.714450915069333	-1.58606888039568	1.73955586383508	65.7506312169303
753531.2	0.650224809576332	-1.35729440744177	1.5050051200781	64.4028052996646
642624.9	0.601892379472941	-1.18211764795682	1.32652801330336	63.0164193227865
548046.8	0.54849809846418	-1.01894941429625	1.1571983723258	61.7065232115584
467390.6	0.513607885588357	-0.8862279713899	1.02430126301416	59.9058314530213
398593.7	0.479194995155525	-0.767939952225272	0.905184850517206	58.0358118012733
339937.5	0.453022401558826	-0.666668295702538	0.806024759426813	55.8026400398155
289906.2	0.431819233246266	-0.578741653978751	0.722087080795283	53.2721031826848
247234.4	0.413836312945712	-0.501354089490498	0.650089545340754	50.46246712439
210843.7	0.398935363361556	-0.434555622266611	0.589905088114977	47.4471162993314
179812.5	0.38797234052269	-0.372583837191086	0.537904501511827	43.8408798297323
153343.8	0.379453553176833	-0.324151716249559	0.499058447645222	40.5059159578159
130781.2	0.372562804369318	-0.28126957110579	0.466814325861542	37.0513013095423
111531.3	0.365735840593469	-0.245500516286871	0.440492007409591	33.8715230564371
95109.37	0.358907475207195	-0.214423821011963	0.418081512120512	30.8555648961156
81109.37	0.352236578859466	-0.186881433712927	0.3987421193619	27.948480176025
69171.88	0.345679859623639	-0.162752311207565	0.382077060490188	25.2119019661873
59000	0.336510232815999	-0.137189439967646	0.363400714402867	22.1798780692904
50312.5	0.330278462246766	-0.107213912420978	0.347244417724319	17.9842972116197
42906.25	0.358967891527512	-0.107652338797488	0.374762555755343	16.6936754006199
36593.75	0.343827209188989	-0.0978618216384229	0.357482986886201	15.8876784814755
31203.13	0.337955202266391	-0.0855528687260796	0.348615851742543	14.2059041133177
26609.38	0.333342458043886	-0.0737558704387299	0.341404632011511	12.4763450650461
22703.13	0.33324441525515	-0.0653759242689182	0.339596601532998	11.0993326776964
19359.37	0.330401995471766	-0.0586252428541471	0.335562807401882	10.0616201670452
16500	0.3279413528864	-0.0521702897502762	0.332065159367239	9.0391082266988
14112.02	0.326015506744635	-0.0463992869329662	0.32930078114977	8.10007050752504
12011.13	0.324053310072909	-0.0417388350596789	0.326730283446986	7.33942319786526
10236.38	0.322447601766075	-0.037536746488706	0.324625111816154	6.64002507650496
8750.684	0.320956190172819	-0.0339338729036583	0.322745075470552	6.03531396036799
7449.463	0.319392712202595	-0.0307844704615182	0.320872853681526	5.50541222466786
6363.206	0.318166868005144	-0.0281509062523841	0.3194098142184	5.05627404681158
5414.761	0.313530188601642	-0.0249072791985675	0.31451796724775	4.54211833723724
4620.567	0.318132155361721	-0.025020451384573	0.319114542543241	4.49694061509117
3941.215	0.308884347202209	-0.0216142338784047	0.309639653553425	4.0027570683395
3361.769	0.320040483572449	-0.0197499599444461	0.32064929758709	3.53129129816477
2867.244	0.317516193387842	-0.0159663269475879	0.31791737395069	2.87869809908871
2442.658	0.311077830077081	-0.0256088499311229	0.312130148432124	4.70614641370068
2083.003	0.304550767963958	-0.0163862812033193	0.30499127934928	3.07981602546215
1777.843	0.307977985247443	-0.0217740205653048	0.30874673661215	4.04407821156654
1513.548	0.306431585698852	-0.0186692933520043	0.306999770729843	3.48642641097484
1292.065	0.304204121762863	-0.0158275191232751	0.304615590636974	2.97837212896085
1101.762	0.302487030147257	-0.0145332733453681	0.302835961275141	2.75071422455916
939.101	0.302943035368661	-0.0129598693682475	0.303220119537639	2.44961344406201
801.2801	0.301873672482144	-0.0128144045756342	0.302145532984496	2.43072130668316
684.3433	0.300860432635452	-0.0126620428018922	0.301126762765298	2.40993382491802
582.9476	0.29887069320974	-0.0124214501758794	0.299128707556033	2.37991656603112
497.0677	0.298212119470379	-0.0123204195969348	0.298466515606123	2.36578857271878
423.5089	0.297499873583402	-0.0112888548518288	0.297713978553251	2.17308854227141
361.5036	0.296559855589932	-0.0117310814751991	0.296791789340775	2.26528031629693
308.1262	0.296167647939037	-0.0119745970747625	0.296409626464533	2.31531156392555
262.7298	0.295223895906585	-0.0110397131903258	0.295430235388301	2.1415420590293
224.2111	0.293321743159596	-0.0119013636270114	0.293563089414127	2.32346933701262
191.2854	0.291823285461571	-0.0101873204653202	0.292001046977316	1.99933851794019
163.1722	0.290897194004418	-0.0102449687037087	0.291077544416233	2.01703890310516
139.1537	0.289620405026514	-0.0154967526919517	0.290034701978432	3.06281121106046
118.6706	0.284353796520394	-0.00999640409364562	0.28452945311578	2.01339317265475
101.1982	0.287094089401294	-0.00988493551206868	0.287264213084811	1.97197176181356
86.24196	0.28870235015025	-0.0131545994366606	0.289001886617746	2.60885331223154
73.61024	0.2717204296783	-0.0205786329842016	0.272498572546828	4.33100401621216
62.69291	0.230240197388898	0.0264461934358343	0.231754071465691	-6.55247712540897
53.57697	0.275828071587671	0.00370085282766976	0.275852898095027	-0.768705388090498
45.65746	0.265083492238913	-0.0132848377225291	0.265416172775684	2.86901625826659
38.96512	0.279963488584427	-0.0101770252854841	0.280148401359037	2.08185704551052
33.18414	0.27592798983254	-0.0119148212143582	0.276185116430261	2.47254779868551
28.30617	0.291954037001934	-0.016928578735114	0.292444416085719	3.31850623220908
24.17237	0.2722439230571	-0.0117072422842727	0.272495528703542	2.46236003613028
20.61345	0.265331726697243	-0.0049703453246937	0.265378276286488	1.07317172267625
17.55618	0.268449000361062	-0.00242949434364703	0.268459993737651	0.518519241550499
14.98558	0.265945434643495	-0.00337740932997755	0.265966879707793	0.727596239247657
12.76553	0.281510589022375	-0.016703511514281	0.282005707439818	3.39568020946643
10.8809	0.275236106935106	-0.000199600654220688	0.275236179310086	0.0415507732521724
9.278505	0.264010298999607	-0.00970187645480884	0.264188501613159	2.10456393588935
7.923394	0.274430026967473	-0.0142733424640173	0.27480096070877	2.97732017844899
6.75822	0.279148573056246	-0.00582811214294326	0.279209406593849	1.19605741874473
5.761429	0.27636490042827	-0.00279956441318268	0.276379079797352	0.580383901113514
4.919708	0.267298851870769	-0.00370740548508876	0.267324561286206	0.794635166066939
4.191257	0.266156799156942	-0.00474065534387103	0.266199014931608	1.02041663368958
3.564097	0.264330046700778	-0.0089096820737568	0.264480161871341	1.93051826533584
3.051758	0.273774843054492	0.000250341647931502	0.273774957511552	-0.0523916503980632
2.604164	0.272026241742048	-0.00784810413784487	0.272139429217564	1.65255581243726
2.214424	0.269902440087645	-0.00301679010816527	0.269919299398583	0.640387479166384
1.892567	0.270059871935546	-0.00627706218903766	0.270132811667832	1.3314989119357
1.607507	0.288136764831925	0.00591561024579707	0.288197483841182	-1.17614942719511
1.376413	0.282137817849082	-0.0111166846009813	0.28235674055556	2.25637884399178
1.17375	0.278704285560817	-0.0189004631773983	0.279344422350412	3.87960036323393
1.001604	0.256423018384963	-0.0191728444129779	0.257138799718244	4.2760699687306
