EC-Lab ASCII FILE
freq/Hz	Re(Z)/Ohm	-Im(Z)/Ohm	|Z|/Ohm	Phase(Z)/deg
6999984	18.8890184151117	4.32979744765429	19.3789102537821	-12.9104751864167
5969734	16.0369769955078	-4.01251487352574	16.5313310645184	14.0472406406901
5091109	12.1181967297143	-4.13633782358496	12.8046859614314	18.8464554538429
4341796	10.1440566908066	-7.13524607117021	12.4021620148444	35.1222383570061
3702781	5.89054501348507	-4.49631256875814	7.41048900355882	37.3548600789806
3157797	4.06631165873318	-5.02493495908745	6.46412111961159	51.0192904280099
2693047	2.82116750425601	-4.40918961826501	5.23449512148842	57.3873381687442
2296687	2.38682860258144	-3.68989839598378	4.39457631072491	57.1029964037547
1958656	1.8213689870224	-3.18109195263444	3.66561468215123	60.2062332250084
1670375	1.46813558970232	-2.73708539244108	3.10597143503686	61.7914928525763
1424531	1.17873735073907	-2.40641662956308	2.67960122724727	63.9029569191924
1214875	0.763977498570242	-2.11255797764443	2.24645561434691	70.1181738976535
1036062	0.822527403661341	-1.81053183829383	1.98861179400342	65.5676284971655
883578.1	0.726072418462558	-1.55315243907705	1.71448641168808	64.9447087822993
753531.2	0.660854357580627	-1.35073395072298	1.5037322526198	63.9295421608865
642624.9	0.625773870402425	-1.17166064910717	1.32830027235737	61.8937085232277
548046.8	0.557917025087741	-1.00760214062014	1.15175235214218	61.0263650129586
467390.6	0.524391095487558	-0.874665386221913	1.01981643391415	59.0559058597242
398593.7	0.49126823903341	-0.759308484575149	0.904374843430973	57.0973642286285
339937.5	0.466231536948385	-0.659020955623311	0.807267282872232	54.7220874748224
289906.2	0.445414712703651	-0.570662870305191	0.723913239164636	52.0271919445805
247234.4	0.426980644411284	-0.49427769665141	0.653163771277081	49.1779816913759
210843.7	0.412868037014521	-0.427231643244396	0.594127000714098	45.9795192845715
179812.5	0.402733605394995	-0.367215584698381	0.54501526818964	42.3587984419115
153343.8	0.394329195227631	-0.319431315241964	0.507475988955223	39.0096366758318
130781.2	0.38849796429193	-0.277274608864051	0.477296424645823	35.5158030664815
111531.3	0.380980801911468	-0.241318859304919	0.450978007536213	32.3507727470229
95109.37	0.374467301957922	-0.209923138447	0.429294169877816	29.2746139111671
81109.37	0.368086711190306	-0.182043141755012	0.41064282827651	26.3154301387651
69171.88	0.362068207530324	-0.158567692049141	0.395268389662028	23.6510045040683
59000	0.353003205809114	-0.134486282087224	0.37775365435844	20.8557153089635
50312.5	0.34653603810301	-0.104869028048819	0.362056264616475	16.8369091198246
42906.25	0.376325569537342	-0.104221054862991	0.390490668985009	15.4797439904982
36593.75	0.360752486845281	-0.0951210001368526	0.373082244863099	14.7712071923056
31203.13	0.355140108354668	-0.0831275142658861	0.364739194754541	13.174024313021
26609.38	0.350106195530145	-0.0714876586913796	0.357330146354554	11.5404987207912
22703.13	0.350379793312176	-0.0631674322746696	0.356028263009636	10.2196648452541
19359.37	0.347872919201433	-0.0566151523650524	0.35244977428145	9.2436541595605
16500	0.345578052793905	-0.0502494969707212	0.349212259977564	8.27322981236947
14112.02	0.34344769592502	-0.0447123931015515	0.346345951229508	7.41744286082822
12011.13	0.34186000202599	-0.0402211651461951	0.344217958728082	6.71022386556439
10236.38	0.339926236399554	-0.0360182766672231	0.341829142184867	6.04844042345444
8750.684	0.338546142214655	-0.0325321372106797	0.340105616478058	5.48890760242133
7449.463	0.337092181679168	-0.0296738742752949	0.338395741349868	5.03072012914875
6363.206	0.335400919447368	-0.0270045722105497	0.336486290488059	4.60320022186055
5414.761	0.333917199342261	-0.0248674177155196	0.334841879818546	4.25905827883537
4620.567	0.332898423052918	-0.0231375267457978	0.333701521145817	3.97584982436457
3941.215	0.330121723753915	-0.0205776470614765	0.330762440511076	3.56683244315453
3361.769	0.33021754393718	-0.018620406290028	0.330742113820283	3.22739391066958
2867.244	0.325730736947194	-0.0184291656510839	0.326251662277385	3.23822338595535
2442.658	0.325288701636337	-0.0154831655448552	0.325656978779119	2.72512077280846
2083.003	0.323832395991699	-0.0144925074665073	0.324156526182015	2.56245461702405
1777.843	0.324665924652256	-0.0156257162673304	0.325041729073624	2.7554394074956
1513.548	0.317110390233332	-0.0163667316293556	0.317532469990335	2.95453364693664
1292.065	0.320463657183928	-0.0162502237140926	0.320875404707896	2.90289525269268
1101.762	0.32001343154759	-0.0122771987090856	0.320248850082255	2.19705422092614
939.101	0.316898075452882	-0.0108740431542731	0.31708458656999	1.96527674997746
801.2801	0.315494251392779	-0.0112651206574842	0.315695305009938	2.04494939617937
684.3433	0.316881416568424	-0.0137920521370363	0.317181419488219	2.492187645987
582.9476	0.314897879509949	-0.0115677896140417	0.315110279547363	2.10381737188229
497.0677	0.313488718053065	-0.0120710471952944	0.313721032968695	2.20511459118804
423.5089	0.309918527852086	-0.010975260402633	0.310112802455671	2.02818923475621
361.5036	0.308625193354629	-0.0127254695644739	0.3088874350776	2.361125842182
308.1262	0.309834718989803	-0.0105125622291543	0.310013011107779	1.94327631656002
262.7298	0.305997627452853	-0.0110320891437543	0.306196432045919	2.06478233025783
224.2111	0.307276249400344	-0.0115814238436386	0.307494427305258	2.15849015060927
191.2854	0.303511031395517	-0.0140683473276144	0.303836904564441	2.65387518985733
163.1722	0.302832201627038	-0.0136134536366269	0.303138035327465	2.57392924278713
139.1537	0.300766035706059	-0.0114980140038218	0.300985734812085	2.18929981012684
118.6706	0.299209700347355	-0.0129540295179522	0.299489985913897	2.47902394064387
101.1982	0.29855460719956	-0.00834752783728321	0.298671282015994	1.60156142275502
86.24196	0.299046862402384	-0.0098801654748007	0.299210032556597	1.89229854265385
73.61024	0.307067046457739	-0.0228665136492957	0.307917275362641	4.25881247994126
62.69291	0.244905283189394	-0.00834360259599436	0.245047369784613	1.95123756512337
53.57697	0.272345539329292	-0.0148455808071859	0.272749856209065	3.12011042832031
45.65746	0.298980583373212	-0.030036774064975	0.300485602035133	5.73691181108591
38.96512	0.29380495200149	-0.0183152105259261	0.294375265192589	3.56708798233116
33.18414	0.285279726868962	-0.0232442245923493	0.286225115144233	4.65809645412762
28.30617	0.298236140890415	0.0103744247612503	0.298416528400044	-1.99228426156654
24.17237	0.280386732489254	-0.0129758930854698	0.280686824695007	2.64967540921902
20.61345	0.281583131240919	-0.0223323819036904	0.282467334537877	4.53464123801078
17.55618	0.277004801637372	-0.019471699792191	0.277688327487773	4.02091983044515
14.98558	0.28476115037662	-0.00568375281520372	0.284817867785504	1.14345588244715
12.76553	0.290290252205833	-0.00642040329753223	0.290361244149816	1.26701480392491
10.8809	0.283886814636827	-0.011685347204886	0.284127208946878	2.35707789535941
9.278505	0.286121849200262	-0.00451994521873471	0.286157548379486	0.905041841357468
7.923394	0.280259054590109	-0.00935419692091754	0.280415118493595	1.9116496192266
6.75822	0.287861082127306	-0.00735469150839065	0.287955020950646	1.46355708934643
5.761429	0.283221500194769	0.0033412368964788	0.283241208224676	-0.675901695139773
4.919708	0.279347647859562	-0.00579028390224465	0.279407651563694	1.18744987378847
4.191257	0.276932147228287	-0.00819430900677568	0.277053353830211	1.69486416194531
3.564097	0.281120921141512	-0.00721106472574707	0.281213391853822	1.46937834054496
3.051758	0.295724836009678	0.00239381175378739	0.295734524477044	-0.463783552057621
2.604164	0.298748997728856	-0.00287755836958817	0.298762855767189	0.551857421113761
2.214424	0.297600124588606	-0.00628482616566526	0.297666479797586	1.20981298949023
1.892567	0.295624667664135	-0.00943506523246376	0.295775192650552	1.82801382395576
1.607507	0.293168899910781	-0.00838543566875201	0.293288798637541	1.63836995038761
1.376413	0.286721381634622	-0.00536983250005975	0.286771661409466	1.07293279927568
1.17375	0.288638048391196	-0.00557829847589113	0.288691947225696	1.10717619485947
1.001604	0.277413670841582	-0.00872105082157408	0.277550718783494	1.80061383627701
