EC-Lab ASCII FILE
freq/Hz	Re(Z)/Ohm	-Im(Z)/Ohm	|Z|/Ohm	Phase(Z)/deg
6999984	46.6523904934969	53.9448471927619	71.319647204737	-49.1462111816359
5969734	44.5457368788076	48.0886278657733	65.5502769184753	-47.1902650493522
5091109	44.8769067009704	44.818966441959	63.4245733763582	-44.9629890236063
4341796	47.1951777346956	42.0891171459659	63.2366870063285	-41.7268890192397
3702781	50.7347753486227	38.0860994093598	63.4394861099525	-36.8951989582589
3157797	53.5505830426273	34.5028036975978	63.7032841162862	-32.7938066325299
2693047	55.8093296610853	31.2423958444822	63.9591164363846	-29.2403624941741
2296687	58.0292006970773	28.4249500471637	64.6170714186694	-26.097402508984
1958656	59.969646675655	25.5030071312685	65.1671841891334	-23.0383636520467
1670375	61.8078888904753	22.8270110998014	65.8884478861643	-20.2702956817886
1424531	63.1623139379004	20.2657329805355	66.3338362770332	-17.7889243330581
1214875	64.3253663578708	17.9530198750682	66.7837081907623	-15.594261065011
1036062	65.1697799163141	15.938947306923	67.0906122761872	-13.7433667444645
883578.1	65.8669354740957	14.2138442286143	67.3831325815593	-12.1774845495279
753531.2	66.5106780772037	12.6838709771746	67.7093116288671	-10.7969083646925
642624.9	66.9952730330032	11.4339477096584	67.9639740523893	-9.68523846184578
548046.8	67.4284065283046	10.3455078935485	68.2174430810903	-8.72284125336453
467390.6	67.7786056990936	9.47413053847422	68.4375521185062	-7.95727796582253
398593.7	68.1031127801695	8.79284165471339	68.6683918168567	-7.35680100779158
339937.5	68.3865623947911	8.28526474106917	68.8866280783597	-6.90791149361838
289906.2	68.6641513878273	7.92318987621697	69.1197701357943	-6.58227666033373
247234.4	68.9418236032692	7.709143787371	69.3715066845073	-6.38036633332963
210843.7	69.2209479230442	7.67981386985249	69.6456687270671	-6.33086850940827
179812.5	69.4806247273932	7.73040784002974	69.9093442815911	-6.34861301232348
153343.8	69.7705203033246	7.92417978788695	70.2190723999355	-6.47959689386833
130781.2	70.0976056261248	8.2537742260335	70.5818610089735	-6.71547788854574
111531.3	70.4292810800451	8.73584404446879	70.9689974891944	-7.07068880321505
95109.37	70.8200349271317	9.35099272716616	71.4347143345843	-7.52175555700974
81109.37	71.2382654224619	10.1702616573063	71.9605772807528	-8.12487385047625
69171.88	71.7510907748586	11.0817973501636	72.6018268357766	-8.7798333652462
59000	72.2609364775497	12.1544457546478	73.2760089812154	-9.54790047835292
50312.5	72.9038640558864	13.4547833258368	74.1350429191512	-10.4565714343847
42906.25	73.5332767236113	14.8816974219557	75.024047503916	-11.4410160588226
36593.75	74.2805183540828	16.5594405342867	76.1039452181016	-12.5675083798293
31203.13	75.063838970602	18.518617191947	77.3144171788571	-13.8584166697268
26609.38	76.0317222981333	20.6604931385837	78.7888239051068	-15.2021975049589
22703.13	77.0074927134872	23.142619969772	80.4097928929248	-16.7267980907564
19359.37	78.173415344389	25.9860569390743	82.3793543422571	-18.3876079331903
16500	79.4480627589499	29.1907001737077	84.6409573007143	-20.1742736849026
14112.02	80.8196653702835	32.7242715103306	87.1934415907896	-22.0432620126194
12011.13	82.3994223232086	36.9155565662478	90.2907698261253	-24.1327359590584
10236.38	84.1263992726009	41.6313491260238	93.8638390682266	-26.3292727990955
8750.684	86.0114553233835	46.8978615238596	97.9662179649572	-28.6014859047135
7449.463	88.1988838832426	53.0309465598415	102.914160402165	-31.0170415915174
6363.206	90.5584979781885	59.9017196074034	108.577426604196	-33.4834358234832
5414.761	93.3155935190093	67.8196303166508	115.357280871613	-36.0087931421459
4620.567	96.3601594379311	76.7662001686554	123.200364509354	-38.5428995263402
3941.215	99.826396385925	86.9044343234978	132.354411035246	-41.0413851244113
3361.769	103.741342734088	98.5266764003196	143.072611476707	-43.5231861914882
2867.244	108.247825728227	111.747439622412	155.579825289314	-45.9113659548407
2442.658	113.399924290597	126.731306284896	170.059891866922	-48.1776317585452
2083.003	119.329944894245	143.828227079509	186.88551215463	-50.3185286670972
1777.843	126.047369144103	163.051290874021	206.091394104253	-52.2940584968185
1513.548	133.813769497249	185.230184172006	228.508962702687	-54.1549452013121
1292.065	142.591112662883	209.893501320466	253.746935561799	-55.8097790939428
1101.762	152.773539209075	237.984601584667	282.801034074983	-57.3016809783722
939.101	165.078225716884	269.748998005133	316.252023757332	-58.5346288577142
801.2801	178.483383104101	305.82050873742	354.093916367819	-59.7312512128449
684.3433	194.215519211498	345.858721996331	396.658446882865	-60.6837935472499
582.9476	212.354958147952	392.388798982204	446.165437720936	-61.5784098485672
497.0677	233.123547680324	444.066081089591	501.538904629868	-62.3016544733608
423.5089	258.035781391925	502.714080913284	565.069828983134	-62.8292340111173
361.5036	285.695917555605	567.311647611441	635.188682852227	-63.2703542175885
308.1262	317.823041160531	640.589061914713	715.098476950763	-63.6120662466045
262.7298	355.211013091699	723.155910033474	805.685629782469	-63.8399315617281
224.2111	397.312503677661	813.917721818644	905.714791459797	-63.9807645877712
191.2854	445.92714387011	916.104323865363	1018.87101727597	-64.0448212692668
163.1722	500.261252565339	1029.83835867928	1144.91413032833	-64.0910589633339
139.1537	565.311434162252	1156.55610081362	1287.32242733659	-63.9511426697629
118.6706	637.632353016592	1297.04451821989	1445.30256343015	-63.8210812502682
101.1982	718.877742974031	1453.8806528796	1621.8983205371	-63.6897020278448
86.24196	811.90221943371	1627.64909218214	1818.90812885168	-63.4891095037694
73.61024	915.793609796476	1817.51277532416	2035.19793244063	-63.2577491460956
62.69291	1035.13109720322	2032.8534178337	2281.22541779529	-63.0147577451806
53.57697	1165.20051709556	2265.55308517418	2547.630865487	-62.7827098381527
45.65746	1313.7802862266	2528.11215003341	2849.09980232779	-62.5405205781508
38.96512	1477.36471568981	2815.84547914163	3179.87299519455	-62.315749235121
33.18414	1663.09012533043	3139.1595093081	3552.4908430355	-62.0858785677146
28.30617	1867.56189572951	3494.44607028708	3962.18888652795	-61.8782959585386
24.17237	2093.99804077419	3884.58142280727	4413.02624342814	-61.6729478847638
20.61345	2344.62790981741	4322.15768352686	4917.146233006	-61.5216297310697
17.55618	2625.56165773719	4810.98183555526	5480.79558464119	-61.3767860004606
14.98558	2932.98053681959	5347.15518255002	6098.72473355161	-61.2546886943183
12.76553	3278.51701986811	5952.78757986423	6795.90713742843	-61.1560826577762
10.8809	3653.81089934489	6617.45660232064	7559.17098442472	-61.0948334694768
9.278505	4077.58058488279	7366.29498583744	8419.55849463539	-61.0334696896182
7.923394	4528.88940854226	8187.80236107698	9356.86629053039	-61.0518616348419
6.75822	5042.65598298065	9103.14141021707	10406.5154060857	-61.0158798853077
5.761429	5603.59686109019	10132.469941786	11578.7410759036	-61.0559296351874
4.919708	6216.58099821613	11302.0684670456	12898.9391401452	-61.1874807449494
4.191257	6929.60195292616	12588.3894050073	14369.6531286631	-61.1682866588125
3.564097	7686.74719509284	14051.4096556847	16016.4976119355	-61.3193756293885
3.051758	8538.37110733094	15645.9155490933	17824.0975798458	-61.3775881413738
2.604164	9445.39753227541	17439.8817790259	19833.431649846	-61.5601324949025
2.214424	10539.3879658152	19518.22248193	22181.9680720194	-61.6319814024119
1.892567	11664.0559481419	21792.5777126422	24717.7394703264	-61.8429444625791
1.607507	13007.6036292161	24408.1228533295	27657.8056504493	-61.9459049783641
1.376413	14450.3227850585	27267.1489447058	30859.5080998572	-62.0784874121574
1.17375	16046.4150769932	30538.3040358183	34497.4702001064	-62.2802258518229
1.001604	17856.7558723345	34153.0425951734	38539.5128250459	-62.3973957209272
