EC-Lab ASCII FILE
freq/Hz	Re(Z)/Ohm	-Im(Z)/Ohm	|Z|/Ohm	Phase(Z)/deg
6999984	-12.6902323833937	30.8183804054276	33.3288849012111	-112.380629486314
5969734	-12.4396177430796	33.5670730735672	35.7979396658542	-110.334196129445
5091109	-12.8468238276145	37.0655116997059	39.2287272291467	-109.116202448556
4341796	-13.3440260851087	42.550360883217	44.59367941146	-107.411710303821
3702781	-12.7310065514772	49.7758699128083	51.3781641691349	-104.346787170328
3157797	-11.7433547789959	57.6443598968704	58.828382685446	-101.514771380555
2693047	-11.0016828101182	66.7000966359717	67.6013307258253	-99.3661796488147
2296687	-11.2460692149128	77.5131119448742	78.3246870160693	-98.2552144840561
1958656	-10.9432487252867	90.1203491602129	90.7823332230571	-96.9234886808335
1670375	-10.659722155417	105.321611773783	105.859678740577	-95.7792919639572
1424531	-10.2771498705783	122.560944408112	122.991076520497	-94.7932315985371
1214875	-9.75159398623867	141.981042848341	142.315530120837	-93.9290393561413
1036062	-8.90432919606426	167.050965955832	167.288111667292	-93.0511534224418
883578.1	-7.32483729922813	194.243652285164	194.381711317037	-92.1595737974388
753531.2	-6.49504670574182	226.897325891906	226.990268797162	-91.639671894137
642624.9	-5.13172676499202	264.697986868956	264.747726849672	-91.1106599618928
548046.8	-3.67553885048435	309.304631424253	309.326469294715	-90.6808270239856
467390.6	-0.251591375893146	359.07086625885	359.070954400522	-90.0401456174703
398593.7	0.82054574957091	422.237123879505	422.237921174027	-89.8886555764377
339937.5	3.95678982255688	494.939177728626	494.954993748309	-89.5419588146041
289906.2	-101.457346547973	503.104498746336	513.232627399464	-101.401497624458
247234.4	-106.523958795711	605.282078023908	614.58420722831	-99.9813071376672
210843.7	-111.991784680889	724.622552770753	733.225752289166	-98.7856588107882
179812.5	-112.259805301838	863.478408894273	870.745213316153	-97.407408834601
153343.8	-107.922390623113	1023.65277142395	1029.32610908387	-96.0183872518653
130781.2	-110.140972974053	1208.06985351048	1213.08029614222	-95.2093135493611
111531.3	-84.3107252819842	1419.123443325	1421.62570523755	-93.3999701281175
95109.37	-106.077426197977	1674.19502177854	1677.55220225686	-93.6254290205015
81109.37	-91.3996378977105	1970.58888610493	1972.70739134017	-92.6555833606835
69171.88	-89.8398952758719	2286.18377815014	2287.94831109883	-92.250387607967
59000	-64.5571800401103	2701.33828411909	2702.10957489555	-91.3690066317172
50312.5	-139.861870700503	3151.97581945546	3155.07732223915	-92.5407053227598
42906.25	-4.02054541287498	3716.9672188143	3716.96939327264	-90.0619753094648
36593.75	23.1936485319984	4337.3873255812	4337.4493377381	-89.6936207429752
31203.13	-644.141485230788	4708.40564286067	4752.26282424673	-97.7900873459689
26609.38	-727.83796806599	5633.44500313795	5680.26854216756	-97.3618013941086
22703.13	-697.849652191243	6656.05584986793	6692.53865238181	-95.9852702913068
19359.37	-604.11277287996	7860.88975248677	7884.06874292127	-94.3945675646851
16500	-518.191844955839	9189.53758731278	9204.13623632403	-93.2274525360036
14112.02	-477.583757631735	10802.0203701132	10812.5727892068	-92.5315379980377
12011.13	-348.286379023633	12686.3796939067	12691.1596451933	-91.5725785363272
10236.38	-255.862365203779	14723.8390240897	14726.0619704399	-90.995552740851
8750.684	-271.114576981667	17290.5167338527	17292.6421358187	-90.8983218030173
7449.463	57.5895519474382	20412.1689303976	20412.2501699245	-89.8383498820253
6363.206	10.3820542157233	23524.6390242829	23524.6413152223	-89.9747138372664
5414.761	301.117262135967	27679.3839575228	27681.0217996649	-89.3767177864883
4620.567	376.769465687532	32380.0499737613	32382.2419164201	-89.333344881397
3941.215	325.30058916102	36433.6961232311	36435.1483278612	-89.4884445565389
3361.769	-6574.65580868986	40780.1038826174	41306.6940299003	-99.1585397438593
2867.244	-6400.17366722555	48664.9195738346	49083.975186393	-97.4922638840599
2442.658	-6782.33193248745	58157.9984346091	58552.1375217201	-96.6517347986029
2083.003	-6060.59259400492	68434.0101437531	68701.852427324	-95.0609747762017
1777.843	-5977.86723117495	79936.5920587384	80159.8006896145	-94.2767674420062
1513.548	-5640.09341912202	94528.8321419037	94696.9416606926	-93.4145232561138
1292.065	-3423.38425865023	110497.406617085	110550.424824529	-91.7745461591109
1101.762	-2376.06800786923	130641.634136028	130663.239929637	-91.0419623222566
939.101	-3707.55587163617	150202.692454655	150248.443556561	-91.413983818635
801.2801	-1296.82455849473	176036.192140869	176040.968803834	-90.4220792837045
684.3433	1870.51655879748	206400.121622349	206408.59729652	-89.4807669220841
582.9476	-2188.65170131924	238651.001503887	238661.037278978	-90.5254408699461
497.0677	13954.4278365087	275662.07577959	276015.046835054	-87.102075339819
423.5089	-72888.6148276579	298951.008466416	307708.393831858	-103.702209650806
361.5036	-59027.6357765206	361128.138076214	365920.47482446	-99.2831007685208
308.1262	-63425.5343836942	439533.469068364	444086.105212861	-98.21121132539
262.7298	-52129.7699709715	502467.634327574	505164.563745296	-95.9231043705351
224.2111	-59985.4568436484	576177.228560017	579291.337535651	-95.9436162596008
191.2854	-13160.3281597938	724621.051043179	724740.547956436	-91.0404726319892
163.1722	38011.5031321386	778956.090912532	779882.982209573	-87.2062963627533
139.1537	-77897.9676871579	776860.957252132	780756.710040003	-95.7260641847896
118.6706	-62547.7312192176	919966.445563907	922090.277382947	-93.8895052682773
101.1982	-19677.8948020675	1072672.86685232	1072853.3445094	-91.0509577596401
86.24196	218912.894019158	489958.938412754	536640.118234181	-65.9249822739886
73.61024	382716.957703383	-33253.9580276549	384158.945539783	4.96591058111032
62.69291	64483.8436035015	25795.334400898	69451.8924345118	-21.802785896425
53.57697	77466.5689360305	-100777.088047672	127110.545503074	52.4507968312545
45.65746	339984.842320616	-115632.660021959	359110.853458271	18.7837452231658
38.96512	410614.665256791	186505.314696798	450986.292179816	-24.4280269475129
33.18414	426390.252033819	-213084.271281853	476669.228813002	26.5531331392311
28.30617	809812.136701119	467903.611021004	935269.739676703	-30.0190121377569
24.17237	697418.438816958	-88119.0296790567	702963.329195387	7.20117994105609
20.61345	791867.675841041	-80968.64955461	795996.443618053	5.83821647884299
17.55618	-21720.4806944631	-1249637.63597314	1249826.38815242	90.995781923969
14.98558	-506459.654026816	4394253.90481377	4423343.61779955	-96.5746146793783
12.76553	2603580.53839214	-196097.574884993	2610954.97448157	4.30729502264964
10.8809	3711553.91132761	3852628.16535764	5349614.58585553	-46.0684595231096
9.278505	2923323.55893249	-1377767.60031873	3231727.74080642	25.2345853652965
7.923394	3024429.46967812	-891062.881471774	3152961.57220387	16.4161231855026
6.75822	1251035.42522844	785618.480448164	1477256.25129772	-32.127777573158
5.761429	709875.625614244	518888.797713659	879300.283312783	-36.1652106202166
4.919708	1606844.5602806	512988.73317291	1686744.46234921	-17.7057996161405
4.191257	912241.572047298	-784786.764296921	1203359.85938827	40.704881281753
3.564097	2088377.09866404	-160150.578831786	2094508.80020223	4.38523676335247
3.051758	2306583.69693777	23044.9840922953	2306698.81481543	-0.572420761789447
2.604164	10414085.7902564	11873163.4765992	15793200.872175	-48.7456334687482
2.214424	2261538.0573024	-3969614.48031956	4568631.46981565	60.3293045594025
1.892567	-1749384.8342645	2706045.36595326	3222270.75537605	-122.881570772353
1.607507	3054221.80384538	972955.057209975	3205450.41615605	-17.6698350553401
1.376413	-2752998.91371734	-1541850.5636116	3155361.49742597	150.748461758352
1.17375	120221.827069129	11109278.6132206	11109929.0994076	-89.3799836459206
1.001604	15023061.4019123	-1163707.73633342	15068065.2235524	4.42936769160683
