EC-Lab ASCII FILE
freq/Hz	Re(Z)/Ohm	-Im(Z)/Ohm	|Z|/Ohm	Phase(Z)/deg
6999984	-8.80054441740395	33.9378912281943	35.0603771094871	-104.537352932988
5969734	-7.48436577579829	39.6543468452052	40.3544663548631	-100.688279761079
5091109	-6.21818378153719	44.2278821000526	44.6628633721253	-98.0029984626395
4341796	-4.80887871001391	49.3505104806256	49.5842535402719	-95.5655214105939
3702781	-11.5156791826326	49.9576320160858	51.2676883006437	-102.980454716279
3157797	-10.5127928235804	57.7956744076918	58.7440107005935	-100.309153588041
2693047	-10.6275319141666	66.5118541535535	67.3555578815156	-99.078211060982
2296687	-10.4843180573845	77.5143118153703	78.2201346287441	-97.7028831695499
1958656	-10.1659848629785	90.0128824859502	90.5851326745388	-96.4436365274114
1670375	-9.99806614587374	104.721201327107	105.197392239778	-95.4536800489844
1424531	-9.38050942134417	122.11943950095	122.479187868919	-94.3925049166226
1214875	-9.0993421341782	142.490549585172	142.780792645086	-93.6539050229195
1036062	-8.67861824901204	165.776174339928	166.003187901601	-92.9967797276839
883578.1	-7.41191241090865	194.002480469846	194.144015807956	-92.1879352082977
753531.2	-6.25120203636273	226.323134587564	226.409449397414	-91.5821469315059
642624.9	-4.8153786343396	264.600406936237	264.644220080875	-91.0425925758312
548046.8	-3.11490114412754	309.109529670757	309.125223724002	-90.577350846185
467390.6	-1.31904368108928	360.819398015727	360.821809014733	-90.2094546459315
398593.7	0.117788798945866	421.688137459226	421.68815391001	-89.9839957535475
339937.5	2.38334067813648	491.982092730401	491.987865582245	-89.7224405200703
289906.2	-99.3002439703907	501.603451158776	511.338010191862	-101.197811128289
247234.4	-106.936818561928	603.564598221562	612.964686903334	-100.047139988328
210843.7	-114.165919634624	721.580946756936	730.556582290965	-98.9906058141065
179812.5	-115.921634161901	860.945286803142	868.714344382151	-97.6684484060626
153343.8	-109.80385447724	1014.03633196676	1019.96400377987	-96.1801332374308
130781.2	-109.183040249849	1208.40058719239	1213.32308780684	-95.162846672176
111531.3	-141.592121592121	1401.24319451672	1408.3787910489	-95.7700100476761
95109.37	-105.550827585579	1669.50817566863	1672.84145268714	-93.6175794987082
81109.37	-78.2350122708702	1975.4640716306	1977.01264928892	-92.267920116498
69171.88	-63.1639470769146	2293.23203732817	2294.10175476997	-91.5777351564834
59000	-61.9594592275736	2695.44579203734	2696.15782038062	-91.3168101765808
50312.5	-39.8125210767125	3151.3839223335	3151.63539496188	-90.7237988586204
42906.25	-8.71976619401868	3717.37639431571	3717.38662118136	-90.1343971747693
36593.75	20.4886445717614	4332.22162620172	4332.2700750399	-89.7290295347143
31203.13	-713.830449714174	4774.53228216402	4827.59903309766	-98.5031906177887
26609.38	-701.213315569042	5630.81091669067	5674.30451187228	-97.0985845830255
22703.13	-647.920882727866	6679.93098129341	6711.28001093073	-95.5400820844901
19359.37	-661.57600706289	7845.57863076171	7873.42281759249	-94.8200460233492
16500	-626.832398092496	9197.03614386129	9218.37256172636	-93.8990163676764
14112.02	-400.637902694464	10756.8582671191	10764.3165369643	-92.1329885557447
12011.13	-431.137539814998	12590.1448248521	12597.5246095806	-91.961273104544
10236.38	-329.539242280499	14751.4891089602	14755.1695023803	-91.2797398072359
8750.684	-176.330261499368	17305.9000272142	17306.7983206905	-90.5837679734905
7449.463	-29.8693171065405	20282.365028331	20282.3870222065	-90.0843779592544
6363.206	182.637976479721	23498.0210716011	23498.7308361933	-89.554678477656
5414.761	213.649434799734	27680.2470161818	27681.0715283537	-89.5577724497497
4620.567	251.758694171974	32183.973619986	32184.9582943966	-89.5518136886803
3941.215	-6271.22808186292	34175.8885006658	34746.5056727247	-100.398019342066
3361.769	-6383.77380773461	40963.8603744528	41458.2974180801	-98.8576796056361
2867.244	-6173.37835223779	48738.3738701949	49127.7893639717	-97.2188484242235
2442.658	-5998.50877013545	57679.5312452327	57990.6064128938	-95.9372564280748
2083.003	-5942.25153922002	68206.8060696767	68465.1644822522	-94.9790991072775
1777.843	-6044.75733784386	80408.2755047898	80635.1651633926	-94.2991700917958
1513.548	-5170.20374719328	93689.2668544016	93831.8161952691	-93.1586403048084
1292.065	-4864.43823391612	110944.380610984	111050.971848455	-92.5105677427359
1101.762	-4082.00521227374	129328.20156228	129392.605993877	-91.807835007008
939.101	-2404.22062411012	149776.53137107	149795.826465088	-90.9196358329961
801.2801	-796.939714661131	177662.155281942	177663.942690501	-90.2570101429274
684.3433	-213.044773122717	206704.41089334	206704.52068312	-90.0590532247097
582.9476	1026.28652519888	237272.274160745	237274.493676509	-89.7521770296376
497.0677	-55186.9601704296	244412.168627073	250565.178637897	-102.723712328281
423.5089	-63434.9467867599	274074.2816192	281319.576849745	-103.031734438944
361.5036	-58877.2301593382	367244.86951984	371934.567390395	-99.1082340494469
308.1262	-53779.3795792841	407226.778211905	410762.547660787	-97.5230890134379
262.7298	-78847.1136284347	519320.649324497	525272.123896131	-98.6331374457244
224.2111	-60466.3565470338	596951.095380211	600005.658764737	-95.7838756263183
191.2854	-46003.4478960056	700815.747953437	702324.020518916	-93.7556623273347
163.1722	-155933.398454123	934563.018902193	947482.591424788	-99.47263520715
139.1537	-34971.0416741229	1053889.21049959	1054469.2701844	-91.9005395782601
118.6706	4271.80655100632	826528.330127671	826539.369198374	-89.7038766875081
101.1982	1209310.27085823	-396602.069330878	1272683.98772073	18.1572788995477
86.24196	461626.804567253	513610.910159941	690576.189663599	-48.0512086210496
73.61024	246061.709907392	-288841.505371354	379441.405631672	49.5725949136164
62.69291	52963.2120676789	1528.55108489997	52985.2649417277	-1.65313278093695
53.57697	109492.436915143	62505.5067096565	126077.484550761	-29.7205756110071
45.65746	231893.742885006	-241447.364732029	334770.873770791	46.1562653052134
38.96512	505395.96606229	115582.646630338	518444.240699141	-12.881850214972
33.18414	577148.877907953	-43949.4130356297	578819.814948128	4.35462248244304
28.30617	-299847.681228924	709072.670866698	769865.367780884	-112.922189194271
24.17237	590988.10258428	137626.029697477	606801.33606186	-13.1090852765208
20.61345	601524.319817575	-282533.5217624	664572.568085277	25.1592528743927
17.55618	1062625.26566578	-559905.530537673	1201110.5937248	27.7850955311655
14.98558	964474.856244809	7151237.6536456	7215983.07420736	-82.3189663702874
12.76553	-1211347.30637988	2256422.67484793	2561016.51385572	-118.228866996994
10.8809	4475527.97384542	3967950.61765061	5981219.16909812	-41.5598202557575
9.278505	2446569.65152531	-144107.618875199	2450810.08354025	3.37093588116812
7.923394	2097703.22362329	-890785.076165197	2279003.48097983	23.0083979593613
6.75822	1313867.62238206	-145694.778993334	1321920.98771818	6.3276771344894
5.761429	795285.896127183	-79488.9801039993	799248.493609335	5.70776773987878
4.919708	1481060.27616315	-317835.532675251	1514780.17133161	12.1119725552326
4.191257	1292021.28400711	988748.416315959	1626942.66312451	-37.4258380906414
3.564097	2820115.94763963	-477593.462532273	2860270.87416296	9.61198007816035
3.051758	-912079.76202594	1366739.05683038	1643126.63594833	-123.716771350316
2.604164	23232254.230895	-3387318.21210644	23477895.1637281	8.29540900861899
2.214424	1258343.60445359	4465869.8304307	4639765.29247121	-74.2638100243226
1.892567	3443694.40772759	3829655.91774018	5150271.41246912	-48.0375607663696
1.607507	2654938.88916858	-2974543.85880617	3987055.51418352	48.2493889928074
1.376413	-1838151.61128935	1649772.55185219	2469929.31456156	-138.091480289235
1.17375	12428342.6728585	2493665.7437188	12676043.1695144	-11.3453779436594
1.001604	19214399.2011502	-12111019.0243615	22712769.942691	32.2236219531275
