EC-Lab ASCII FILE
freq/Hz	Re(Z)/Ohm	-Im(Z)/Ohm	|Z|/Ohm	Phase(Z)/deg
6999984	35.5495515371577	77.4358578099956	85.206118848724	-65.3409090976323
5969734	36.9423488595736	75.2172092526367	83.799556723275	-63.8423952802471
5091109	39.3046618352718	76.2553026739123	85.7888549164462	-62.731831185945
4341796	44.497226098792	79.6129552715198	91.2043078892221	-60.7983278104966
3702781	54.2339531570621	81.5919970771785	97.9723208977143	-56.3881341515038
3157797	62.4649761815401	83.1804932521013	104.023399805156	-53.0950248465217
2693047	71.1265001377282	86.356693385266	111.876974906721	-50.5238939296059
2296687	83.1767248753069	87.5776703216739	120.781686939512	-46.4763882845089
1958656	95.2130984782213	88.0178695462954	129.663716903736	-42.7512286949525
1670375	107.26073514218	86.510047731006	137.800049570607	-38.8875565584232
1424531	119.198552976615	82.5497153434569	144.992243016668	-34.7041338651653
1214875	129.413109403531	78.0598837249293	151.132717611508	-31.0976968603379
1036062	139.349662251781	73.2741367175381	157.440234633291	-27.7367092453667
883578.1	147.298252778291	67.2934087433333	161.941897394821	-24.5533557356198
753531.2	154.105886238739	61.5801399061917	165.954023163927	-21.7814661368682
642624.9	159.795039232149	55.675957059259	169.216626717555	-19.2094127579023
548046.8	164.547152056433	50.166609907842	172.024573824581	-16.9552478228309
467390.6	168.285651101271	45.0719682205685	174.21694144329	-14.9936351379533
398593.7	171.291299318148	40.535935428253	176.022360179447	-13.3140609277289
339937.5	173.72450125911	36.583734291456	177.534706332127	-11.8918650886552
289906.2	175.756931857063	33.1947944092494	178.864176043389	-10.6953344067717
247234.4	177.229046167416	30.2903141138787	179.798881905671	-9.69874307707701
210843.7	179.650852546817	27.9520405672179	181.812390646704	-8.84379264391665
179812.5	179.634517312409	26.2259258043696	181.53886359223	-8.30627228841467
153343.8	180.707550916156	24.871507908427	182.411104003441	-7.83661305416798
130781.2	181.627413924997	24.1175369639098	183.22165013526	-7.56381638875029
111531.3	182.580006886153	23.691083137136	184.110636126103	-7.39323539398394
95109.37	183.48071103918	23.994643598412	185.043006473787	-7.45055982138678
81109.37	185.055635848191	23.6653897181382	186.562694635583	-7.28757624698387
69171.88	185.232950803545	25.3453613929731	186.958908339584	-7.7913780362424
59000	186.224006898638	26.7090431919323	188.129619501057	-8.16194421982121
50312.5	187.227052930663	28.6551790474136	189.407203229816	-8.70161889663289
42906.25	188.35131207003	30.9863189208062	190.883128428795	-9.34224300736866
36593.75	189.509991155772	33.8731500783669	192.513446398147	-10.1340706802395
31203.13	190.915496825795	37.2215506336666	194.510078812936	-11.0321934832629
26609.38	192.472108126256	41.4679469119473	196.888554841711	-12.1584738098854
22703.13	194.018705568941	46.3610710833193	199.480843748567	-13.4389198904438
19359.37	195.954113161422	51.9477150740718	202.722913273996	-14.8476569509099
16500	198.13771955961	58.4853591559041	206.58918932964	-16.4452981964306
14112.02	200.410701733583	65.7895640124876	210.932965897463	-18.1736483037546
12011.13	203.048085014506	74.565561280837	216.306605902789	-20.1648026925491
10236.38	205.947294982895	84.4909039561477	222.605033999905	-22.3061350490254
8750.684	209.317291956912	95.5769532278799	230.105807620102	-24.5420455487439
7449.463	213.378144362577	108.571984198183	239.41200522185	-26.9680978223546
6363.206	217.438903765099	123.136277334346	249.884412611769	-29.5230025745122
5414.761	222.707241731866	140.665753737778	263.411028232367	-32.277216425284
4620.567	227.577513912391	158.729449755638	277.464525765497	-34.8947798419171
3941.215	234.557853000361	182.036052424191	296.90825314619	-37.8143836898314
3361.769	241.930329137857	206.957048881833	318.373215328534	-40.5450260569115
2867.244	249.604763019063	235.684848722999	343.292711311186	-43.3569940534325
2442.658	259.012901966183	268.474797019077	373.050130705483	-46.0276420097845
2083.003	269.640808506747	306.169731550485	407.978026528229	-48.6299303715995
1777.843	281.812886034856	348.940658338021	448.528801501828	-51.074821497514
1513.548	295.996734893024	398.824323208236	496.663777469063	-53.4181845021314
1292.065	312.024530565921	454.282788780959	551.119006982602	-55.5167398296232
1101.762	329.840365590015	518.161420411177	614.236049393947	-57.5208373350097
939.101	351.222740986297	591.809248301575	688.182824663042	-59.3120179941477
801.2801	375.652893592285	673.960726806341	771.581594999251	-60.8655357598654
684.3433	403.099518857509	768.396014217882	867.710583529487	-62.3185567283172
582.9476	435.742030941804	875.850822571328	978.256500580579	-63.5493273680377
497.0677	473.466350407837	999.025883286273	1105.541993976	-64.6424162495883
423.5089	514.990839075819	1139.44088297948	1250.41636671033	-65.6785531263029
361.5036	566.279464656447	1296.15321420154	1414.45593313351	-66.399849694593
308.1262	623.499519889227	1477.18824242483	1603.38290961961	-67.1161042342861
262.7298	690.180533070126	1681.47890366517	1817.61395012802	-67.6837908177017
224.2111	767.292239352794	1912.28341842346	2060.47694792937	-68.1371723209887
191.2854	856.659647032146	2173.60634054934	2336.32837472166	-68.4896559565532
163.1722	957.605481215606	2475.77994280668	2654.52341915795	-68.8540571142564
139.1537	1078.47184062202	2810.86621946727	3010.65946509346	-69.0092140851778
118.6706	1217.92829225017	3192.67161068623	3417.08960063169	-69.119336573402
101.1982	1377.20331749985	3624.30311696927	3877.14612329814	-69.1936491994305
86.24196	1560.36277517005	4113.53370775582	4399.53310647615	-69.2270526388866
73.61024	1771.57972822306	4655.69486866854	4981.36421511191	-69.1672358450749
62.69291	2021.51785353511	5281.42740011278	5655.08707402665	-69.0551653003473
53.57697	2300.83746227523	5962.01666183956	6390.57866737134	-68.8976019066864
45.65746	2629.69897393575	6736.9809723897	7232.02802233644	-68.6774142260176
38.96512	3001.24498032548	7597.60577332563	8168.9096529953	-68.444736065415
33.18414	3426.81802396498	8575.79925477283	9235.11854972818	-68.2187615110154
28.30617	3915.15105943895	9674.09991772377	10436.3124251974	-67.9666027853783
24.17237	4455.17000859615	10850.8359608768	11729.8414676138	-67.6777747608528
20.61345	5061.66995748971	12199.5805010293	13207.9622637123	-67.466181447111
17.55618	5763.75829364062	13718.1489149255	14879.8023951793	-67.210012016908
14.98558	6520.36715253458	15400.2024515187	16723.6785233277	-67.0524486232471
12.76553	7378.56539495267	17295.6762564478	18803.8199431776	-66.8962603282944
10.8809	8327.53395769727	19424.3917840849	21134.2096610738	-66.7944457280996
9.278505	9363.89885156708	21814.4730142506	23739.2888392185	-66.7684907399802
7.923394	10481.6752228281	24507.3457440304	26654.7464984062	-66.8438346900399
6.75822	11831.5810902218	27517.3317887412	29953.1277142498	-66.7338267933748
5.761429	13328.0496488955	30955.8536500209	33703.1420292668	-66.7056945656339
4.919708	14999.7099526651	34731.5113682413	37832.1183729693	-66.6416378841383
4.191257	16678.3733688619	39122.5743176441	42529.3305786812	-66.9109280478498
3.564097	18823.3097771734	44159.8419485684	48004.2563934697	-66.9136782452664
3.051758	20983.8146302165	49534.5047616785	53795.7957318231	-67.0415051293601
2.604164	23587.3022953665	55814.0613636291	60593.4837707484	-67.0908367955208
2.214424	26442.5695226417	63036.2889596781	68357.7589507422	-67.242842498569
1.892567	29699.9387984845	70917.9866986969	76885.9363084711	-67.2764178253637
1.607507	33486.258576027	80287.8117866664	86991.1618206799	-67.3600696634528
1.376413	37496.5188067654	90222.5063467471	97704.0919005695	-67.4322050498598
1.17375	42293.9204783123	101835.915154885	110269.348981749	-67.446185220061
1.001604	47492.1059324338	114830.704935173	124264.1980693	-67.5308110864018
