EC-Lab ASCII FILE
freq/Hz	Re(Z)/Ohm	-Im(Z)/Ohm	|Z|/Ohm	Phase(Z)/deg
6999984	29.5269272665487	86.276822812869	91.1895256511802	-71.1072709393879
5969734	25.9337622718781	87.7096781881586	91.4633679318919	-73.5282468069337
5091109	24.6577318255518	92.8052825305167	96.0251227770622	-75.1206684069408
4341796	26.5588550863159	101.678660697714	105.090070057911	-75.3611960893367
3702781	32.8452614200302	111.04724570154	115.802858236091	-73.5229755952185
3157797	37.2403723925687	122.20655949571	127.754798421491	-73.0522907665185
2693047	43.7469565265472	137.116125171934	143.925772492285	-72.3046954354318
2296687	53.5994177474087	155.424261217175	164.406808124743	-70.9727977448707
1958656	67.0957969119739	174.037816788107	186.523477438159	-68.9171397675003
1670375	84.0052010665723	194.657714415602	212.01061196964	-66.6572223361658
1424531	104.710711607092	217.048365144839	240.986152999112	-64.2459294553577
1214875	127.885943232376	236.444472060545	268.813695418266	-61.5923327229889
1036062	166.389599763454	254.478012819518	304.046966631824	-56.8214678615392
883578.1	200.838029938029	271.518225845314	337.724830647045	-53.5102129831853
753531.2	239.953401102188	286.979382694829	374.078602425229	-50.0998364062737
642624.9	283.018084448132	295.082503440899	408.86785146504	-46.1955358324917
548046.8	328.711078526925	295.619369960647	442.087983372387	-41.965961388836
467390.6	373.344193163057	289.990274256025	472.736973095672	-37.8378119340743
398593.7	415.58015720392	278.842468924014	500.459778141335	-33.8604878893029
339937.5	453.178649246063	263.724644045128	524.329644412001	-30.1970129359702
289906.2	533.581304450047	217.515502150564	576.213503950077	-22.1783654607112
247234.4	554.247671646971	193.644933328022	587.102070963561	-19.2585668071466
210843.7	572.999489773536	172.686793360686	598.455632342055	-16.7714085846853
179812.5	582.547864928156	150.639009964889	601.709337018759	-14.4983303127966
153343.8	591.230837112137	132.649731924239	605.928918382256	-12.6455853385718
130781.2	598.739306912325	116.432643870472	609.955177206095	-11.0045654583817
111531.3	603.520205166061	102.49134869195	612.161020157588	-9.63816424939783
95109.37	607.430260780068	90.1749395537338	614.087161105703	-8.44406863814363
81109.37	610.328954294006	81.2357977363378	615.711529276067	-7.58160099871115
69171.88	613.162117602001	72.6769601766836	617.454227455521	-6.75962428666057
59000	616.945850766653	66.3159070076595	620.499784287181	-6.1352034223711
50312.5	618.589792683057	61.5622420740051	621.645591362832	-5.68337921837124
42906.25	620.747655015307	54.7659317199695	623.158854935208	-5.04190884897206
36593.75	621.710363349966	52.9366544194541	623.959986920532	-4.86681409269567
31203.13	625.399239980067	52.6973259985728	627.615501350186	-4.81647344785768
26609.38	624.40382240586	48.1525385268111	626.257774723496	-4.40978628600044
22703.13	624.344768690324	49.4024170613943	626.296246996964	-4.52420653064586
19359.37	627.570864424725	50.5562500062219	629.603942403069	-4.6057235279903
16500	628.387814967611	54.3963455720822	630.737828587573	-4.94747165334742
14112.02	631.624367220619	56.7427342935348	634.168021238815	-5.13345489956247
12011.13	632.97168595401	61.326073638449	635.93556476059	-5.5338847893391
10236.38	635.010746726031	65.2537862064833	638.354685948049	-5.86712792918529
8750.684	637.380389605848	71.2404400257098	641.3493286417	-6.37751873308783
7449.463	640.670761363235	79.2266517973718	645.550839842045	-7.04952374226291
6363.206	643.361256757909	87.220693089832	649.246606460278	-7.72053753445243
5414.761	647.697899763287	97.4343482505827	654.985512493818	-8.55495888981325
4620.567	650.919274863272	108.517535876385	659.902991341311	-9.46497629666363
3941.215	656.208407933602	121.710113080334	667.400049646972	-10.5075188415278
3361.769	660.613763703013	137.307043235943	674.732368362492	-11.741618366038
2867.244	667.642191672977	155.226540672122	685.449761128363	-13.088710897326
2442.658	674.204134024996	175.305053084407	696.622620917036	-14.5751696827016
2083.003	682.074369490682	197.900047687386	710.204107556962	-16.179789554167
1777.843	690.490758605862	223.536998579808	725.772882831928	-17.9386553936596
1513.548	700.91926296944	253.794461067258	745.452507990981	-19.9047142310274
1292.065	712.930607744316	287.261474168187	768.628132454153	-21.9460081564739
1101.762	725.37216640893	325.561880874651	795.081956831762	-24.1715194722108
939.101	739.707332260775	369.1341100553	826.696394456073	-26.5204458970189
801.2801	756.875110153348	418.924263918682	865.076569599161	-28.9641739186093
684.3433	776.905860114976	475.146358016098	910.684784663142	-31.4494585690805
582.9476	798.935090470261	539.173309785877	963.849125522341	-34.01403484882
497.0677	824.962771105931	611.473425678883	1026.87064619758	-36.5463364159597
423.5089	856.449771018301	698.814674358968	1105.37240755174	-39.2125038423537
361.5036	889.951988221363	786.403753445635	1187.62174313733	-41.4653395153404
308.1262	929.949516507544	892.465781404679	1288.91476608458	-43.8216972027513
262.7298	975.844228086158	1011.43106300561	1405.44112388308	-46.0259059476653
224.2111	1028.69718127532	1144.83141470066	1539.10911206753	-48.0584737258919
191.2854	1088.79626185767	1297.37442424911	1693.71121993419	-49.9955981946056
163.1722	1160.05185482353	1464.29037528942	1868.11846761514	-51.6127486530505
139.1537	1236.62307715365	1652.60277157877	2064.05730433503	-53.1929261449757
118.6706	1337.16065603782	1870.02224325559	2298.90883036413	-54.4333110164985
101.1982	1444.32781198831	2108.56937254592	2555.80664904872	-55.5896372498977
86.24196	1568.12961074764	2379.18229255273	2849.48045392489	-56.6109459788743
73.61024	1707.32462676509	2674.58097186966	3173.06488371193	-57.4477852161305
62.69291	1868.24798272835	3010.31389197317	3542.92820322049	-58.1756135032852
53.57697	2052.61107974929	3375.49382891274	3950.59120053411	-58.6965467306182
45.65746	2260.05188899107	3791.60060864701	4414.07631520168	-59.2021819848211
38.96512	2492.19346199109	4247.18663507392	4924.39057804534	-59.5961477647531
33.18414	2766.7296403299	4760.00121530416	5505.67021100766	-59.8328939257011
28.30617	3063.32117418416	5327.55149221708	6145.46511815253	-60.1012673569404
24.17237	3403.54013261662	5945.16004635217	6850.4754149675	-60.2093271971021
20.61345	3788.93079896028	6639.670327921	7644.68564839551	-60.2887391475072
17.55618	4220.53622565355	7414.42818267372	8531.51049393249	-60.3500456315862
14.98558	4702.03134673182	8261.65918485139	9506.003959198	-60.3541136319316
12.76553	5237.21444894477	9219.74711100791	10603.4028488582	-60.4015545373685
10.8809	5842.29657141152	10266.0109702196	11812.0028136212	-60.3561762799941
9.278505	6516.39882311201	11418.1072688208	13146.7344699798	-60.2862754289881
7.923394	7279.74771435536	12693.3953520009	14632.7376914527	-60.165438629995
6.75822	8064.24602477996	14135.5486018315	16274.0836369647	-60.2955000494897
5.761429	8989.35863764448	15728.7042896026	18116.3105334932	-60.2509239330286
4.919708	10002.4419577008	17530.6260953548	20183.4510530857	-60.2922341900575
4.191257	11128.8007271484	19399.7501262896	22365.1628786167	-60.1589642069101
3.564097	12381.9218077021	21668.0506660179	24956.2899349476	-60.2547627502559
3.051758	13748.7136266497	23994.4649167215	27654.3210552601	-60.1874975051076
2.604164	15235.9232315347	26737.1595983294	30773.5123134126	-60.3237468687897
2.214424	16949.7747182579	29781.6473112552	34267.2055991102	-60.3542855192702
1.892567	18795.262917836	33140.9613136827	38099.6748666652	-60.4410886252325
1.607507	20853.8281185818	37044.3490761728	42510.7744657363	-60.6230027251865
1.376413	23118.586365579	41141.4020339808	47191.9908126832	-60.6670631796321
1.17375	25668.1077051842	45963.6930621178	52645.1596357492	-60.8191261784598
1.001604	28407.2187428641	51284.1550652126	58626.2282383722	-61.017140392457
