EC-Lab ASCII FILE
freq/Hz	Re(Z)/Ohm	-Im(Z)/Ohm	|Z|/Ohm	Phase(Z)/deg
6999984	17.8721092225807	-21.2850923490865	27.7932985515033	49.9813716525525
5969734	15.6150652916487	-0.0773275753271165	15.6152567579389	0.283732882740688
5091109	10.6281548304587	-4.28809253658539	11.4606026326072	21.9723699446278
4341796	8.13736518076907	-5.31362873470649	9.71860907823189	33.1441875129862
3702781	5.27856017661142	-4.92736376045458	7.22094946429824	43.0291705213705
3157797	4.10794011157436	-5.06998216762328	6.52532689911391	50.9839675799401
2693047	3.01790530461081	-4.32321448907726	5.27237479189081	55.0822716631534
2296687	2.57297218187559	-3.6671046272978	4.47971452173625	54.945122755733
1958656	1.72954572562893	-3.24622012011597	3.67821607376281	61.9518637394334
1670375	1.27576515580825	-2.8146679169522	3.09029646077759	65.6173039380034
1424531	1.11284140373349	-2.43562679765002	2.67781513314389	65.4442706838739
1214875	0.619496443499102	-2.22479873101199	2.30943829469865	74.4401091378844
1036062	0.789761361116003	-1.85068609143076	2.01215357677466	66.8901296798865
883578.1	0.68875339661049	-1.57543933574617	1.71941569783424	66.3859268201714
753531.2	0.629139821597949	-1.36386547751536	1.50198067759825	65.2365161873594
642624.9	0.59485967868714	-1.17453234760123	1.31658052275181	63.1393760656216
548046.8	0.533786386862372	-1.02008380937108	1.15130312469853	62.3779724516722
467390.6	0.495812059348336	-0.883026214682338	1.01270177940569	60.6861426742099
398593.7	0.464464860664643	-0.7675259997321	0.897119706091102	58.8199618396893
339937.5	0.438905904024312	-0.666950729119275	0.798411966130349	56.6519468386938
289906.2	0.417499616127794	-0.578616884336816	0.713514840985455	54.1877584942393
247234.4	0.399621099089899	-0.499905148273308	0.64000170320709	51.3613748795928
210843.7	0.386508180702825	-0.433236809390028	0.580588242010342	48.2625498333616
179812.5	0.37552718271271	-0.371623759166212	0.528322707568936	44.7006660266836
153343.8	0.367217265484339	-0.323157611282983	0.489161897330443	41.3483415335747
130781.2	0.360752239897955	-0.280357679747065	0.45688358165352	37.8524739240517
111531.3	0.353610053462567	-0.244612491344681	0.42997132559236	34.6738473161147
95109.37	0.346790045301945	-0.213051798594635	0.407006639263948	31.5646460042136
81109.37	0.340454141902356	-0.185687937316043	0.387800248585733	28.608602040529
69171.88	0.333459993799299	-0.161256504446303	0.370404141028241	25.8077494252336
59000	0.3248196092488	-0.136465777224471	0.352321851303637	22.788634267461
50312.5	0.318624178078787	-0.106773970679921	0.336038759179859	18.526487173152
42906.25	0.347863202005423	-0.106788606903817	0.363885440590749	17.0656739786865
36593.75	0.332340098267001	-0.0970866340998308	0.346230783491234	16.2846866672996
31203.13	0.326620213036039	-0.0851919155052745	0.337547664828488	14.6186800976638
26609.38	0.321488149261711	-0.0732806145831395	0.329734254498078	12.8407175748595
22703.13	0.321688756818586	-0.0651550181939633	0.328220707237284	11.4498281497117
19359.37	0.318790524457833	-0.0582782565662948	0.324073685560101	10.3598733473005
16500	0.316657201916378	-0.0519205086382717	0.320885529032966	9.31161268364097
14112.02	0.314435983589091	-0.0463411830558488	0.317832492081371	8.38382785556358
12011.13	0.312630849341179	-0.0415005539898795	0.315373340568371	7.56158758292723
10236.38	0.311164522947779	-0.0371939776130988	0.313379565881381	6.81631273091082
8750.684	0.309433868029141	-0.0336732243926032	0.311260670057222	6.21060466821032
7449.463	0.307726279234597	-0.030649709203383	0.309248876482715	5.68793251396915
6363.206	0.306333541396786	-0.0281860291427592	0.307627519613465	5.25703502047865
5414.761	0.305685406995812	-0.026136977730382	0.306800765408227	4.88706700483796
4620.567	0.303690705304788	-0.02503642559529	0.304720965959201	4.71283741483222
3941.215	0.303630028850749	-0.0212313429016916	0.304371424975007	3.99989915485739
3361.769	0.302588084409246	-0.0194971549717696	0.303215579874205	3.68673646685715
2867.244	0.307017451941134	-0.0189254246191458	0.307600207238944	3.52741065501835
2442.658	0.296185586414293	-0.0255159603626232	0.297282636278687	4.92379188063246
2083.003	0.301936621425673	-0.0223592584190732	0.302763372611353	4.23518370047007
1777.843	0.29946875121801	-0.0194761961282609	0.300101408146814	3.72103773117824
1513.548	0.292143146191888	-0.0213953144772681	0.292925549156225	4.18861999341758
1292.065	0.294077605638037	-0.0123325732084941	0.294336084263795	2.40137498137436
1101.762	0.28912628875762	-0.0164058269819399	0.289591370744564	3.24763880140274
939.101	0.292264461265201	-0.0127283928475351	0.2925414967199	2.49370942189087
801.2801	0.28985725190617	-0.0144530456739056	0.290217361665095	2.85455423055969
684.3433	0.288157829527296	-0.0139382635919761	0.288494731164785	2.76925227402062
582.9476	0.288994924838407	-0.0145072250896724	0.289358819050256	2.87377238092397
497.0677	0.285369656576245	-0.0128435641626769	0.285658533978673	2.57695847064999
423.5089	0.28507585771603	-0.0150928033536456	0.285475108136597	3.03058749170451
361.5036	0.282324080429935	-0.0108675220196205	0.282533165177923	2.20440240464869
308.1262	0.281420445344912	-0.0123047942127359	0.281689323579625	2.50359924639262
262.7298	0.280766818684231	-0.0132552904451479	0.28107954247659	2.70298569430917
224.2111	0.279776078399295	-0.012301188992335	0.280046377043364	2.51755821715539
191.2854	0.279718820594095	-0.0100781539306974	0.279900317579674	2.06345077634194
163.1722	0.276736437436969	-0.0122829612398295	0.277008893254575	2.54140815833551
139.1537	0.277075935496066	-0.010198538715313	0.277263564542744	2.10797647251715
118.6706	0.277000715579461	-0.0101168157872875	0.277185400757701	2.09166722887875
101.1982	0.273985539998468	-0.00957493328051814	0.274152795855849	2.00149283924988
86.24196	0.270245781815455	-0.0106815925661654	0.270456796935843	2.26346461304416
73.61024	0.277207573119585	-0.00217933718263186	0.277216139691407	0.450435927262253
62.69291	0.215055794148997	-0.0396150495215261	0.21867406509609	10.4373487003581
53.57697	0.265773301073935	-0.0191147786853248	0.266459794955872	4.11370748057761
45.65746	0.288820006594128	-0.0136196561074844	0.289140953933403	2.69985161516981
38.96512	0.268585633493354	-0.0108228861247333	0.26880360373904	2.30753366185665
33.18414	0.2726027820972	-0.0182247572917264	0.273211307572501	3.82479637717187
28.30617	0.274480859157931	0.0102089825555439	0.274670648903183	-2.13006514143503
24.17237	0.270395896318242	0.00120423176887523	0.270398577880688	-0.255170077216724
20.61345	0.269177644798342	-0.0208404501910468	0.269983201002114	4.42716008522219
17.55618	0.252606843229916	-0.0215597107086204	0.253525222359478	4.87830819902379
14.98558	0.264806263257619	-0.00874437016159961	0.264950601188196	1.89132050369756
12.76553	0.26587724713737	-0.00652599888441587	0.265957325912984	1.40605160728033
10.8809	0.262645846339167	-0.00850479045830524	0.262783507967979	1.85465865326052
9.278505	0.263411498240021	-0.00953262926066099	0.263583930514882	2.07257913993397
7.923394	0.2550495296275	-0.00996683411923104	0.255244197476787	2.23786772354669
6.75822	0.259165188120648	-0.00552893827633335	0.259224157616674	1.22214246828365
5.761429	0.258705944984601	-0.0146001736145221	0.259117600791512	3.23008394751772
4.919708	0.258720115282411	-0.00533463062145384	0.258775107642932	1.18123213579572
4.191257	0.253531065246423	-0.00562418300291664	0.253593439346203	1.27080721157088
3.564097	0.251165673752788	-0.0204288876091442	0.251995109318889	4.64999082019991
3.051758	0.278332059392539	-0.0308455896986452	0.280036043554306	6.32388415388563
2.604164	0.270114088155464	0.00405219894694815	0.270144481595244	-0.859475653826304
2.214424	0.26563493100542	-0.0183370257616733	0.266267089750195	3.94891622433106
1.892567	0.26041191628491	0.0252017090702928	0.261628538740028	-5.52766132176838
1.607507	0.275513823462103	-0.00238628020861735	0.27552415729286	0.496237772334554
1.376413	0.248050927414567	-0.00136883159077488	0.248054704231044	0.316174899016586
1.17375	0.244805433230045	0.0197609099367185	0.245601697267094	-4.61495960764781
1.001604	0.27139479033571	0.0198011187055083	0.272116182031414	-4.17293871152265
