EC-Lab ASCII FILE
freq/Hz	Re(Z)/Ohm	-Im(Z)/Ohm	|Z|/Ohm	Phase(Z)/deg
6999984	41.5882499354709	71.7798504763625	82.9573954937362	-59.9125923550038
5969734	43.4793006135988	67.5178973681858	80.3063885806637	-57.21979957987
5091109	45.1073196335459	66.905999097925	80.6912820558356	-56.0125660463735
4341796	52.5246201578008	67.0127996977761	85.1442954404786	-51.9106580586288
3702781	59.0379109296876	64.1574201666387	87.1874388279662	-47.379616141487
3157797	65.7211543592125	62.6148094715413	90.7738095238095	-43.6134385033772
2693047	73.1389303515534	62.5370178440705	96.2298380638717	-40.531905323403
2296687	81.5081465927326	60.1948380440805	101.326188560191	-36.4463552807093
1958656	87.7824487436865	56.4422712496002	104.362293436142	-32.7401663237497
1670375	95.0871278234522	52.675268928658	108.702556705995	-28.9850696893977
1424531	100.687741430591	48.3852229234163	111.710120722083	-25.6664866808441
1214875	105.445798313506	43.4592098398096	114.050512063178	-22.3988797273232
1036062	109.078185595621	39.1451388512722	115.889570145541	-19.7416561721112
883578.1	112.376118344566	35.1993761464321	117.759874555342	-17.392030738793
753531.2	114.998971992658	31.5026984031266	119.235831720362	-15.3197168783182
642624.9	116.921302893962	28.0149708010311	120.230735086351	-13.4743516004947
548046.8	118.504168583494	24.9576978893641	121.103776388691	-11.8930339225572
467390.6	119.822973525361	22.3239928285014	121.88480479644	-10.5536705919256
398593.7	120.922636161318	20.0384599787973	122.571708866787	-9.40915301868404
339937.5	121.786138350567	18.1633632133323	123.133144431396	-8.48265161606774
289906.2	122.43613043351	16.5715622602257	123.552509935152	-7.70806424325243
247234.4	123.060702884099	15.3541431002192	124.014863240945	-7.11197614193217
210843.7	123.534168502424	14.4541399361782	124.376898774973	-6.67356029625397
179812.5	124.095147923135	13.6889093539592	124.847875341816	-6.2948351936725
153343.8	124.540102940399	13.4467642245249	125.26393219325	-6.16243037679572
130781.2	124.940349171842	13.354876631199	125.65207352454	-6.10118118849623
111531.3	125.403271899123	13.4842198225469	126.126146326716	-6.13725461127767
95109.37	125.863173602911	14.0054872698382	126.640010040516	-6.34949536732798
81109.37	126.138601144976	14.2380274335172	126.939623932045	-6.44006280600431
69171.88	126.738147224022	15.6022906357099	127.69490763088	-7.01817149171336
59000	127.345662341345	16.8676938516669	128.457918452034	-7.5452468266101
50312.5	127.961177502758	18.4023020192853	129.277637925131	-8.18368796814643
42906.25	128.659049616438	20.2019249661389	130.235436116836	-8.92366869013584
36593.75	129.421839044626	22.4704516649217	131.358035992164	-9.84960859411291
31203.13	130.234138660986	24.9704073183873	132.606380368424	-10.8538660991064
26609.38	131.28560820382	28.1495982307964	134.269545325819	-12.1018369318368
22703.13	132.384583879597	31.6541023653394	136.116348193483	-13.4473538291881
19359.37	133.639617427622	35.8333813839615	138.360321507322	-15.0099014097571
16500	135.092737487191	40.4936327385253	141.031138455824	-16.6859404703856
14112.02	136.70642186378	45.7421936010927	144.156144698163	-18.5003259202264
12011.13	138.649481382054	52.0077781206851	148.082705514733	-20.5611978135324
10236.38	140.69273664472	58.9536741757256	152.545015793366	-22.7348679079659
8750.684	142.969436205451	66.8838882083709	157.840787475147	-25.0711090471898
7449.463	145.692941307318	76.14979434181	164.393504509994	-27.5948620840261
6363.206	148.727988675811	86.6351566822529	172.121076538903	-30.2211172704114
5414.761	152.124493402471	98.6481708096648	181.310019295822	-32.9621989285188
4620.567	155.694973953229	112.113395277435	191.860205136269	-35.7570412165433
3941.215	160.606633592635	127.868763996005	205.292258889187	-38.5254415023226
3361.769	165.870598171933	145.59846768475	220.707881893833	-41.2761259330764
2867.244	171.324944265077	166.184027442958	238.682566402729	-44.1273415385639
2442.658	178.277428644612	189.441052319522	260.136029546203	-46.7389175462379
2083.003	186.01249908124	216.076274923326	285.113322030362	-49.275991851811
1777.843	194.609675630717	246.403227568198	313.986427103335	-51.6982626039738
1513.548	205.164082878153	280.863304311845	347.816757233176	-53.8527443418483
1292.065	217.060309955771	319.928349043557	386.612631298864	-55.84446595886
1101.762	231.249677454554	364.771110609616	431.896256592029	-57.6270064144475
939.101	247.489263452487	415.980140429871	484.035549062576	-59.2492791155809
801.2801	266.31327357898	473.674298276763	543.406018123039	-60.6540570376826
684.3433	288.399282496236	538.230046831283	610.627324524827	-61.8163019251055
582.9476	313.672704296757	613.396544351604	688.945488441089	-62.9161517086386
497.0677	344.08447988904	697.39953104149	777.663317379315	-63.739090989785
423.5089	378.957015192101	792.925265842572	878.828138247075	-64.4558038957142
361.5036	419.386415637746	899.238517542823	992.227230554619	-64.9966187585382
308.1262	466.925331457247	1020.00878454611	1121.80086722541	-65.403304201522
262.7298	520.993517395792	1155.74481102852	1267.74615494892	-65.7348175817847
224.2111	585.005507382379	1306.76191104454	1431.73256435149	-65.8830990591646
191.2854	657.511379154811	1477.04792021149	1616.78439265078	-66.0036493792601
163.1722	740.336132068177	1666.87451982702	1823.8882239036	-66.0517778340511
139.1537	838.211793084655	1878.71288074413	2057.22169401844	-65.9553490371306
118.6706	947.813507630323	2120.8036901435	2322.96335256775	-65.9195391749349
101.1982	1073.95126931859	2387.09800274437	2617.5576791309	-65.7771018670654
86.24196	1216.81049659789	2686.14160670311	2948.8954738838	-65.6296798263782
73.61024	1379.59733377326	3014.75677301776	3315.42564444005	-65.4104661739612
62.69291	1564.63137900578	3385.51748920131	3729.5844301822	-65.1957788881256
53.57697	1773.09520263553	3789.81161526255	4184.08158103879	-64.9270616822093
45.65746	2009.48565202242	4248.3832152115	4699.65876729096	-64.6858464504592
38.96512	2278.45436748527	4751.06177862914	5269.15005755799	-64.3791421427257
33.18414	2581.03700477426	5315.90874067787	5909.36864303027	-64.1020024572209
28.30617	2922.95094801848	5943.38506746604	6623.25209430385	-63.8120858128847
24.17237	3301.22499443391	6630.84352206755	7407.17032867615	-63.533169958215
20.61345	3725.20768784091	7399.40532781552	8284.224255949	-63.2771724153506
17.55618	4215.19470801182	8258.37831953323	9271.92962090348	-62.9595819095095
14.98558	4748.95362644185	9204.89376140133	10357.7328457911	-62.7100587897301
12.76553	5363.28249764384	10259.4516679124	11576.7503072219	-62.4010053550365
10.8809	6046.92768562006	11429.8483352111	12930.8455795067	-62.1190528240526
9.278505	6808.85978640918	12715.1816277419	14423.4675240542	-61.8313707151174
7.923394	7640.77507340727	14129.1287997862	16062.8056192979	-61.5962861317753
6.75822	8617.53183340144	15723.9708692859	17930.5637055236	-61.2750286960454
5.761429	9683.75909081797	17497.6905892807	19998.6091038152	-61.0385117182154
4.919708	10911.1223651431	19414.8644098009	22270.8228702507	-60.6640837990974
4.191257	12230.2344761893	21533.6751381514	24764.4462950014	-60.4052214672573
3.564097	13743.4360427915	23957.1441666511	27619.3191603994	-60.158505840674
3.051758	15376.79035013	26442.0511783647	30588.0328231665	-59.8208045162239
2.604164	17209.1661369739	29331.8945721215	34007.5791305412	-59.5996428073034
2.214424	19269.9550678405	32466.1907751192	37754.2674642619	-59.3092105009516
1.892567	21582.5239743572	35970.8059008718	41948.8285684105	-59.0361961115717
1.607507	24126.883511916	39888.2903876577	46617.4025236035	-58.8318793618281
1.376413	26844.691254701	43945.9539769539	51496.4495815466	-58.5810384391198
1.17375	29955.8368230101	48621.6439606872	57108.8121151775	-58.3627415191749
1.001604	33266.8954673751	53704.2857187834	63173.0689344913	-58.2240284369738
