EC-Lab ASCII FILE
freq/Hz	Re(Z)/Ohm	-Im(Z)/Ohm	|Z|/Ohm	Phase(Z)/deg
6999984	35.313181819955	83.5357966327489	90.693164733166	-67.0847061471129
5969734	34.6200009969867	80.6497650572762	87.7663322283961	-66.7679177821851
5091109	36.1681264790419	83.4051180050211	90.909554406759	-66.5563244684433
4341796	41.8453342039876	88.7520182721323	98.1221317645531	-64.7567786254964
3702781	50.9266502534873	91.7297963472984	104.918440914636	-60.9617926694474
3157797	58.9300910636046	97.0678310792729	113.555798897278	-58.7379715792061
2693047	68.051361776416	103.277888900112	123.682295318645	-56.61850902177
2296687	82.3276936778906	108.903216572236	136.520180655096	-52.911770025327
1958656	97.1249500447804	112.480379155521	148.610536692964	-49.1899335909824
1670375	113.845324719274	114.761296136296	161.650589393666	-45.2295690969468
1424531	130.204207640927	113.97710591085	173.043105494598	-41.1979916785544
1214875	146.79481976606	110.492950545982	183.731900416087	-36.9688985194466
1036062	162.12564126573	105.824736019449	193.606813695723	-33.1338055177384
883578.1	175.660571805009	99.8105266818309	202.036575211934	-29.6052850434709
753531.2	187.68285388434	92.3503259156648	209.173220893354	-26.1997327711944
642624.9	197.924472317801	84.3084004549156	215.132524573915	-23.0721853506933
548046.8	206.601299896112	76.3285307077595	220.25017983822	-20.2766727020484
467390.6	213.26404555025	68.1488569408022	223.887962666144	-17.7213611498563
398593.7	218.738335841977	60.9050708148468	227.059215223428	-15.5592246958388
339937.5	223.008250421964	53.9196534161019	229.43410553093	-13.5923006922003
289906.2	225.578342373704	48.5850062030301	230.751145990256	-12.1546750997037
247234.4	228.938935164723	44.9833570288955	233.316391288624	-11.1162234734968
210843.7	228.469028222735	38.0185126082604	231.610673670246	-9.44776464449791
179812.5	232.759510715838	35.9930186513783	235.525979926451	-8.79037005909865
153343.8	234.682946126987	30.8844690078945	236.70643343336	-7.49708972392936
130781.2	235.185625372348	30.072197436486	237.100433235457	-7.2866308666219
111531.3	236.176229883473	28.0633422481817	237.837681497508	-6.77632600638864
95109.37	236.291221864155	25.2554291942749	237.637072515722	-6.10076292930578
81109.37	237.347934887912	26.1549180968021	238.784676929252	-6.28842379594498
69171.88	237.281684658941	25.1648278681395	238.612376955216	-6.05385487461842
59000	239.62088672727	24.7587466530034	240.896585471424	-5.8991333516213
50312.5	239.531892592465	26.3499805197352	240.97686412251	-6.27764645981857
42906.25	240.432002099871	26.388407709617	241.875785673559	-6.26337981071982
36593.75	241.504275880774	28.1956387997785	243.1446263359	-6.65913894855053
31203.13	240.765815956976	31.9313440955434	242.874018514077	-7.55471208938566
26609.38	243.545151030706	33.3840447094742	245.82256819042	-7.80519777826096
22703.13	244.69220823768	36.5885611636734	247.412609986355	-8.5043667165032
19359.37	246.205495330991	40.5190532976615	249.517413443065	-9.34562918793788
16500	247.753988672612	45.2363464816382	251.849887723214	-10.3474115152564
14112.02	249.400765806187	50.5426403451131	254.470627927405	-11.4561994403936
12011.13	251.469053868848	56.8398159747766	257.81281918039	-12.7365996843283
10236.38	253.710200659421	63.9989414642158	261.657658835326	-14.1576266895
8750.684	256.068766442755	72.1699738673518	266.044579489093	-15.7398668294876
7449.463	258.915456176602	81.6765457051376	271.49267313403	-17.5082151204896
6363.206	262.123485292841	92.5545532215267	277.983932744508	-19.4478835218137
5414.761	265.731025304718	105.075645815191	285.751411462789	-21.5748862038338
4620.567	269.421390996153	118.612604737852	294.375331726352	-23.7614650373915
3941.215	274.605393285825	135.113544374916	306.04540822436	-26.198477993623
3361.769	278.894786773874	154.034307497455	318.604566784384	-28.9119831930508
2867.244	284.839898222599	175.244591510588	334.431509390448	-31.6014470833949
2442.658	291.524416140965	200.008787268269	353.539248444716	-34.4532012692098
2083.003	298.675981031068	227.353355501779	375.362344812035	-37.2785363710912
1777.843	307.033484511663	259.439381660837	401.968099938206	-40.1973839147159
1513.548	316.855971444401	296.744722524448	434.114198093182	-43.1227574476272
1292.065	327.913378127418	338.487404623913	471.275828622653	-45.9090569349263
1101.762	340.521157708175	387.423876753762	515.802209306852	-48.6865672496481
939.101	355.140799446922	443.050417845271	567.819214349662	-51.2849996055018
801.2801	371.948396968926	506.3499839426	628.280125617884	-53.7001943288947
684.3433	391.406145742209	577.057684646209	697.276374426966	-55.8517769003259
582.9476	414.490678275875	661.891320292937	780.962638195145	-57.9443104413909
497.0677	441.87473846878	756.140556322115	875.786403988992	-59.698764505861
423.5089	472.223270377972	865.76201069005	986.173755603213	-61.3900786213077
361.5036	510.501365368027	986.541487514214	1110.79959967106	-62.6399860513856
308.1262	553.28716428584	1126.12156618066	1254.70174463123	-63.8341446879972
262.7298	604.020187027538	1284.63392561218	1419.55088291	-64.8176267433393
224.2111	662.57429557483	1462.16023731648	1605.27793753788	-65.6224605581595
191.2854	730.610998408345	1664.86549488157	1818.12253356106	-66.3061710950892
163.1722	811.689824124532	1889.36719337966	2056.34354182531	-66.7511874145673
139.1537	902.885020177449	2151.32689295373	2333.1113903984	-67.2328157371543
118.6706	1012.29435169449	2446.01673043068	2647.21319504481	-67.5175757613343
101.1982	1134.95447657338	2775.14396538993	2998.25710914426	-67.7568429365809
86.24196	1277.63350645523	3147.8625769171	3397.26157073197	-67.9090778227472
73.61024	1440.60020130225	3562.99560626273	3843.21045874925	-67.9853958010586
62.69291	1627.20328425388	4033.11293937488	4348.99879398002	-68.0278519736778
53.57697	1839.66089558362	4553.88569153532	4911.4383944329	-68.0024699433535
45.65746	2086.52853532721	5147.40873100062	5554.22523604473	-67.9345744446305
38.96512	2360.42093217081	5804.9946785648	6266.54212426564	-67.8724085238588
33.18414	2679.4937859507	6553.54607503765	7080.15911590903	-67.7622287398551
28.30617	3023.46577175534	7391.98902308348	7986.41640476896	-67.7544938096209
24.17237	3434.35934016232	8308.02072118584	8989.88500377027	-67.5408378478166
20.61345	3897.58294914553	9357.96262676714	10137.1898161887	-67.3883164827527
17.55618	4425.43769569266	10555.8412327293	11445.9723452857	-67.2545881333692
14.98558	5002.54998413856	11852.3175317618	12864.7944879626	-67.1166771920812
12.76553	5672.94272361353	13344.2940708615	14500.0849444073	-66.9686248978194
10.8809	6421.38388844327	15004.461190582	16320.7851117046	-66.830771252311
9.278505	7280.58293257105	16880.6631950908	18383.7884491782	-66.6695982245407
7.923394	8222.64208301909	18907.5787254058	20618.1564666401	-66.4964503788521
6.75822	9285.07635275426	21275.68325219	23213.5163369102	-66.4227107106188
5.761429	10480.7189996176	23908.6529069272	26104.964174901	-66.3290321111149
4.919708	11852.0424123768	26856.3945801488	29355.3545233135	-66.1875688314971
4.191257	13446.2666391317	30168.9513849764	33029.8003960015	-65.9775225038021
3.564097	15186.2413996392	33949.4521075225	37191.2251243365	-65.90011590568
3.051758	17174.4703822097	37971.4777465826	41674.8791860111	-65.6627967869368
2.604164	19357.1381380237	42618.8664826595	46808.8301195543	-65.5728424131012
2.214424	22001.2232359514	47864.4717446234	52678.8522964389	-65.3138081939226
1.892567	24825.3882702441	53630.7381664751	59097.8508835083	-65.1608284626226
1.607507	28138.517821942	60246.9528419415	66494.1464488031	-64.9649341924674
1.376413	31823.0136099384	67282.2186789525	74428.4968649825	-64.6868777744904
1.17375	35960.5878722147	75417.5167337101	83552.1735827065	-64.5072555057169
1.001604	40653.387292331	84253.4700715024	93548.6243481422	-64.2420906381304
