EC-Lab ASCII FILE
freq/Hz	Re(Z)/Ohm	-Im(Z)/Ohm	|Z|/Ohm	Phase(Z)/deg
6999984	20.9599946764589	1.91671127527278	21.0474501769204	-5.22494766507794
5969734	14.3213869329323	-2.17371735777729	14.4854123460213	8.63054921172486
5091109	12.5362440793572	-6.757812034955	14.2416796452174	28.3274172729906
4341796	6.66160422631993	-8.23128723933961	10.5891954597429	51.0166548221523
3702781	5.58380794489949	-6.23868900684821	8.37258333429362	48.1705328114636
3157797	4.22863493676391	-5.0909307639032	6.61807596445344	50.2862596840754
2693047	3.34212013512917	-3.82878389107698	5.08225865951413	48.882507356427
2296687	2.16503434010858	-3.82528206554667	4.39547000613613	60.4909932491884
1958656	1.68899130722706	-3.26443961014757	3.67549419863357	62.6433665023768
1670375	1.40372627795337	-2.76417697316723	3.10018093059176	63.0772674406294
1424531	1.12119703725439	-2.41818293696076	2.6654627202338	65.1250758962065
1214875	0.893462118254989	-2.18976748646486	2.36502773800548	67.8037108842226
1036062	0.840308436878186	-1.85863659866719	2.03976672072906	65.6717922243203
883578.1	0.745390695205973	-1.57368757649588	1.74129258796938	64.6550213210812
753531.2	0.68609809744118	-1.35479746979177	1.51862002603238	63.1413814179045
642624.9	0.620401155832613	-1.15541287576269	1.31144062299314	61.7663400053701
548046.8	0.582737601504244	-1.01755682797942	1.17260607638476	60.2009620132932
467390.6	0.54797773648718	-0.881623591694986	1.03804612475496	58.1367669647753
398593.7	0.516057350153174	-0.763529779946926	0.921570894458433	55.9458794885982
339937.5	0.491207121982733	-0.663924476712352	0.825881436687089	53.5039677432183
289906.2	0.471550457255457	-0.573441894841544	0.742425377056369	50.5689914376607
247234.4	0.454873265232428	-0.496806681247739	0.673592284661577	47.5229644522508
210843.7	0.439458605072211	-0.432013383496703	0.616246240631359	44.5105185232135
179812.5	0.431790050234618	-0.367906345950024	0.56727218059051	40.4326289262407
153343.8	0.42380143051218	-0.319794896435892	0.530920359649743	37.0377164802198
130781.2	0.418108478462625	-0.276861259359396	0.50146471131716	33.5115565920682
111531.3	0.411486238382134	-0.240833641870611	0.476782725604169	30.3394788917295
95109.37	0.405715244726983	-0.209943548425555	0.45681632340514	27.3599952246461
81109.37	0.399305538887553	-0.181359973557672	0.438561687103558	24.4270013530596
69171.88	0.394413685219614	-0.157329085519164	0.424634662078843	21.7467391649053
59000	0.38556439660126	-0.133289413240496	0.407953393917111	19.0702413094651
50312.5	0.37949531205251	-0.10436169619644	0.393583606750624	15.3763193788992
42906.25	0.40721330585505	-0.102901450421184	0.420013553310106	14.1815705957585
36593.75	0.393361928712725	-0.0930698545862403	0.404222222042899	13.311453969761
31203.13	0.387625709101599	-0.0810981517466211	0.396018434638131	11.8168419949607
26609.38	0.383839931844987	-0.0694321420020237	0.390069116467523	10.2532630903605
22703.13	0.384399660875675	-0.0617229017596453	0.389323536256112	9.12209543374554
19359.37	0.382502649333061	-0.0545844740916184	0.386377718765807	8.12147621075112
16500	0.380517082463291	-0.0485606814575474	0.383603167127171	7.27263923726481
14112.02	0.37892531852913	-0.0430601629355368	0.381364097227883	6.48314350262019
12011.13	0.377229696107903	-0.0384408934689472	0.37918326165108	5.81853537858024
10236.38	0.376524987472826	-0.0352976864038989	0.378175875561728	5.35559407448147
8750.684	0.375082349981916	-0.0333328157473652	0.376560547420471	5.07842001150898
7449.463	0.372510382903663	-0.0312731340837907	0.373820805047627	4.79886416298213
6363.206	0.374592239318721	-0.0277953297649062	0.375622052220785	4.24365946513344
5414.761	0.373423824916538	-0.0238462932954078	0.374184444785226	3.65386244040372
4620.567	0.371080681221967	-0.0234834470525372	0.37182300125413	3.62107378466177
3941.215	0.369550647151925	-0.0203242098739318	0.370109111367724	3.1479298211051
3361.769	0.367037292012366	-0.0201132853665311	0.367587973111209	3.13661562352465
2867.244	0.366196739254774	-0.0185717971851165	0.366667374457442	2.90328830174014
2442.658	0.364882952550756	-0.0179198787557713	0.365322721873112	2.81161161677243
2083.003	0.363174340711789	-0.0173397771173698	0.363588049338702	2.73351403154933
1777.843	0.361482686296604	-0.0165043726980634	0.361859263817255	2.61416291211902
1513.548	0.361584607719961	-0.0168332091415264	0.361976222243948	2.66542315421819
1292.065	0.358983283493345	-0.0141781441209815	0.359263159255689	2.26173714529184
1101.762	0.356647613999114	-0.0133733831192738	0.356898259938762	2.14744065953017
939.101	0.356733188444985	-0.0115070606736076	0.356918730502437	1.84753621490925
801.2801	0.353763829726285	-0.0128788997556429	0.353998182596357	2.08495273647761
684.3433	0.35665853723451	-0.0110764048372851	0.356830490466243	1.77880878146772
582.9476	0.353399982389615	-0.0124094678287859	0.353617791470924	2.01108701752935
497.0677	0.352217336284076	-0.0117539749505657	0.352413404833284	1.91132933581912
423.5089	0.3511171344019	-0.0120449810511351	0.351323673610425	1.96474619105916
361.5036	0.350803638128199	-0.0143084194668967	0.351095319523945	2.33565958706183
308.1262	0.349949471612024	-0.0101579827086368	0.350096868443926	1.66265763132321
262.7298	0.348604418730717	-0.0117296983918787	0.348801700946176	1.92713781434457
224.2111	0.348897529828349	-0.0115212610929008	0.349087704993307	1.89132852510669
191.2854	0.347991326237246	-0.0110393166663324	0.348166382134773	1.81698266752611
163.1722	0.346231134870491	-0.0129516320703417	0.346473294103592	2.14229148782533
139.1537	0.344934792805963	-0.0128675164226273	0.345174715567319	2.13638257408414
118.6706	0.33747267192767	-0.00799722975697217	0.337567415462137	1.35750775808787
101.1982	0.335196354525555	-0.0177171418505665	0.33566425666516	3.025610780296
86.24196	0.343833922227549	-0.00241260085248822	0.343842386446543	0.402024259433131
73.61024	0.347496969544211	-0.0175852936249901	0.347941642225082	2.89701613275684
62.69291	0.294702484388336	-0.0210591540642477	0.295453959652869	4.08735314087498
53.57697	0.329623884833061	-0.0203899726810522	0.330253927211128	3.53970919409083
45.65746	0.345009395845456	-0.0269489286905522	0.346060295294354	4.46634524178898
38.96512	0.340882571317664	-0.00293229920468956	0.340895183020776	0.492850732328638
33.18414	0.33999337483094	-0.015193243055037	0.340332674839577	2.55866736599823
28.30617	0.338406302787664	0.00728779575784287	0.338484767358037	-1.23371048616734
24.17237	0.326437306984621	0.000981897980619773	0.326438783717585	-0.172340720042534
20.61345	0.327630892793819	-0.0199330076988616	0.328236693117631	3.48157403140788
17.55618	0.322067692121889	-0.0184954828574586	0.322598327948008	3.2867328576801
14.98558	0.3281687287683	-0.0105092032730047	0.32833695785707	1.83420062222758
12.76553	0.342632865271364	0.00285466345494486	0.342644756953183	-0.477351708308334
10.8809	0.323112140136843	-0.0152210243624305	0.323470454116682	2.69707047803224
9.278505	0.325919027318233	-0.00178714698771663	0.325923927109408	0.314172984480398
7.923394	0.335729354334311	-0.0171973842166969	0.336169524772294	2.93235330477153
6.75822	0.32053852802101	-0.00898902478438757	0.320664545144065	1.6063536417535
5.761429	0.320863536209189	-0.00626334567628701	0.320924661513767	1.11828756538044
4.919708	0.331331863715136	-0.00277807005958876	0.331343509950326	0.480388327326748
4.191257	0.327931362388089	-0.00840698748073607	0.328039107236027	1.46853723850171
3.564097	0.325280970905285	-0.0130306901647241	0.325541869686917	2.2940307654988
3.051758	0.321152221148146	-0.00685853833230199	0.321225448394805	1.22342474782915
2.604164	0.313823641908754	-0.00756229071739734	0.313914743938173	1.38040429749689
2.214424	0.319376333302515	-0.000302315786997662	0.319376476385776	0.0542351191855848
1.892567	0.312635740830222	-0.00599812724764302	0.312693274591796	1.0991232730489
1.607507	0.321151168597848	-0.0124720617698012	0.321393256644493	2.22399183166421
1.376413	0.341766196984276	0.00380709454548569	0.341787400835627	-0.638218260954019
1.17375	0.306387860776131	-0.0124105195088153	0.306639107462588	2.31954973273613
1.001604	0.345934175120055	0.0151242366342035	0.346264632975648	-2.50337636581032
