EC-Lab ASCII FILE
freq/Hz	Re(Z)/Ohm	-Im(Z)/Ohm	|Z|/Ohm	Phase(Z)/deg
6999984	6.85080903299083	-5.42246122713309	8.73708590814297	38.3618505926569
5969734	3.39863699729766	-3.65626110204877	4.99189129346337	47.0913438860228
5091109	2.52846147968308	-0.612183189965879	2.60151604114177	13.6103603219028
4341796	1.76295085913277	-0.839886464777751	1.95279415336944	25.4735717912235
3702781	1.15120416369853	-0.709336453856846	1.35219422838845	31.6400930866765
3157797	0.961049748396766	-0.54384054682247	1.10425502455803	29.5047309504255
2693047	0.855618677034835	-0.403828515913124	0.946129373159631	25.2660235595153
2296687	0.795849834561004	-0.279107851618886	0.843373079962888	19.3259810213217
1958656	0.76906293949518	-0.199415007514409	0.794496161178227	14.5364320061728
1670375	0.769577710395347	-0.13703323976726	0.781682775260179	10.0964330826773
1424531	0.765158651904398	-0.0950079779843607	0.771034550759453	7.07805704046043
1214875	0.762212252732873	-0.0783523737272675	0.766228825276639	5.869161929358
1036062	0.766673848648595	-0.0598113736462817	0.769003374907486	4.46084370104014
883578.1	0.766476760291076	-0.0494431485261986	0.768069820395572	3.69086749256004
753531.2	0.767641345280276	-0.0343838678776941	0.768411013295582	2.56465420199956
642624.9	0.766049023993254	-0.024413440643469	0.766437944810321	1.82535816457533
548046.8	0.767120174071066	-0.0200851626815265	0.76738306941629	1.49980698312877
467390.6	0.766253903096476	-0.0145627456053654	0.766392273949934	1.08878195780459
398593.7	0.768222076379306	-0.0130068736577376	0.768332179072881	0.969990045182317
339937.5	0.767831899844292	-0.00891152696111105	0.767883612099694	0.664950179843643
289906.2	0.76894667065934	-0.00958259423085732	0.769006377366454	0.713981616119758
247234.4	0.769545054647328	-0.00914099370049096	0.769599343098726	0.68055239356285
210843.7	0.770010208763544	-0.007743830215841	0.770049146812389	0.576192141884337
179812.5	0.769543239830241	-0.00589277633272214	0.769565801462963	0.438733779958721
153343.8	0.76948458701559	-0.00843570497562846	0.769530825096038	0.628096961503033
130781.2	0.770225651959892	-0.00670701952311719	0.770254853310204	0.498911193406635
111531.3	0.768145067660499	-0.00407527058040743	0.768155877931983	0.303970726092961
95109.37	0.767910139319897	-0.00657826038611869	0.767938314957661	0.490809169113028
81109.37	0.764994200785996	-0.00491911285229526	0.765010016213813	0.368421774438975
69171.88	0.764872910029624	-0.00345093647283358	0.764880694918969	0.258504061330811
59000	0.767226235493015	-0.0037484102680824	0.767235392176561	0.279925750079382
50312.5	0.766778954210959	-0.00225392485672176	0.766782266877705	0.168418823934863
42906.25	0.764552262976105	-0.00210330616618177	0.764555156099749	0.157622007243418
36593.75	0.765873156621127	-0.00224950689412186	0.765876460216709	0.16828750200822
31203.13	0.764768516618265	-0.00064412597657153	0.76476878787564	0.0482573359174259
26609.38	0.765849806958476	-0.000979501759235657	0.765850433336713	0.0732797550111854
22703.13	0.765162207797649	-0.000115751138127095	0.765162216552868	0.00866751071908875
19359.37	0.765479682881096	0.000226360462910591	0.76547971634969	-0.0169429693372813
16500	0.765590987487218	0.000397926976090694	0.765591090901358	-0.0297803064611495
14112.02	0.765169841062401	0.000502605784752563	0.765170006131993	-0.0376350249816436
12011.13	0.765665330387632	0.000247773520721745	0.765665370478069	-0.0185412293772208
10236.38	0.765810271063468	0.000671729043335281	0.765810565666347	-0.0502568726787632
8750.684	0.765893490136375	0.000513206540159992	0.765893662079945	-0.0383924981051184
7449.463	0.76582795253689	0.000673762204487317	0.765828248919007	-0.0504078241394684
6363.206	0.765942517293917	0.000772059595717101	0.765942906406582	-0.0577533436082738
5414.761	0.765600248779157	0.00066730783454624	0.765600539596501	-0.0499397863757819
4620.567	0.765785811365039	0.000703147486431689	0.765786134181338	-0.0526091910137184
3941.215	0.765657914541881	0.000855169805618574	0.765658392114929	-0.0639941145043978
3361.769	0.765759484927435	0.00101420231947504	0.765760156552086	-0.0758847649225272
2867.244	0.765681580228929	0.00106201481508746	0.76568231674588	-0.0794702775086764
2442.658	0.765578923484904	0.000920773698932748	0.76557947719914	-0.0689104934570768
2083.003	0.765686986724126	0.00107700530618775	0.765687744174544	-0.0805914413221884
1777.843	0.765651372260086	0.00110567791528362	0.765652170614963	-0.0827408351948422
1513.548	0.765519306973998	0.000985613542013275	0.765519941467239	-0.0737688317851091
1292.065	0.765559960202732	0.000851145321089908	0.765560433351911	-0.0637011038879678
1101.762	0.765783746566748	0.000949606792751873	0.765784335344401	-0.0710493449063002
939.101	0.765700759989095	0.000805995294468356	0.76570118419413	-0.0603109126141788
801.2801	0.765505114333724	0.000683137557781028	0.765505419149996	-0.0511307994740983
684.3433	0.765403249743529	0.000699141949074715	0.765403569051922	-0.0523356437735891
582.9476	0.765388526811016	0.000663722288241971	0.765388814591129	-0.0496851925795155
497.0677	0.765227412649323	0.00057364189459396	0.765227627660555	-0.0429509617823351
423.5089	0.765159891312626	0.000414349501361441	0.76516000350192	-0.0310268162515023
361.5036	0.765171723035289	0.000393241294967661	0.765171824083656	-0.0294457621341506
308.1262	0.764843058222401	0.000403975302964046	0.764843164908362	-0.0302625192006875
262.7298	0.76470816428219	0.000406094179391956	0.764708272109253	-0.030426614313213
224.2111	0.764689843573437	0.000313880269525876	0.764689907992246	-0.0235180496477082
191.2854	0.764455929675807	0.000250207199173382	0.764455970622341	-0.0187529659304114
163.1722	0.764297773410366	0.000235705237154422	0.764297809755465	-0.0176697032750473
139.1537	0.764244595827515	0.000175304339077029	0.764244615933389	-0.0131426491441596
118.6706	0.764058995238398	0.000169385769547345	0.764059014014133	-0.0127020159518142
101.1982	0.763902351624878	0.000189454662208489	0.763902375118109	-0.01420986898126
86.24196	0.763759470022117	0.000159050391525018	0.763759486582976	-0.011931657007527
73.61024	0.76363016447506	0.000218967901143985	0.763630195869145	-0.0164293355922583
62.69291	0.763517028771505	0.000124722416551763	0.763517038958364	-0.00935940882291078
53.57697	0.763151354371152	6.985040419416E-05	0.763151357567818	-0.00524421967347496
45.65746	0.763107546224445	0.000107189368010091	0.763107553752585	-0.00804801156225945
38.96512	0.763010927080045	0.000135427955385967	0.763010939098701	-0.0101695138494463
33.18414	0.762883249936139	9.48385182992949E-05	0.762883255831107	-0.00712277639637039
28.30617	0.762668467092902	8.7914624995515E-05	0.762668472159967	-0.00660462201434383
24.17237	0.762510442050818	0.000108989354525721	0.762510449840009	-0.00818956651512447
20.61345	0.762444646458351	7.38576090377769E-05	0.762444650035625	-0.00555021179466914
17.55618	0.762315820974831	4.21206248802551E-05	0.762315822138487	-0.00316579292628389
14.98558	0.762143981335364	4.18294798278512E-05	0.762143982483248	-0.00314461927096483
12.76553	0.762009086629288	6.95550847075182E-05	0.762009089803732	-0.00522987567507386
10.8809	0.761871189513198	-6.02468538768856E-05	0.761871191895283	0.00453080585853018
9.278505	0.761728646030467	0.00013021454256559	0.761728657160301	-0.00979449005422132
7.923394	0.761370518114296	6.10831274664552E-05	0.76137052056458	-0.00459671777736644
6.75822	0.761296607392151	8.43509792772803E-05	0.761296612065157	-0.00634832080384796
5.761429	0.761153288071301	-6.17008437951686E-07	0.761153288071551	4.64452824058113E-05
4.919708	0.7610780068756	7.3117350375552E-05	0.76107801038782	-0.00550444965557204
4.191257	0.760805684061649	-4.67261136506047E-05	0.760805685496529	0.00351891311795876
3.564097	0.76055030358497	1.04808319087435E-05	0.760550303657186	-0.000789569646200187
3.051758	0.760234706173656	-4.74885626766612E-06	0.760234706188488	0.000357901868249917
2.604164	0.759948832036502	3.81985240949519E-05	0.759948832996519	-0.00287994943891328
2.214424	0.759626209711265	-7.81485213549487E-06	0.759626209751464	0.000589445228643508
1.892567	0.75913278724456	-9.23056125703705E-06	0.759132787300678	0.000696679436622398
1.607507	0.758709080612484	7.85064357973738E-06	0.758709080653101	-0.000592860630060283
1.376413	0.758357006433164	-6.11125633761025E-06	0.758357006457788	0.000461720789403591
1.17375	0.757435416938308	-4.30157420402141E-05	0.757435418159768	0.00325390180306131
1.001604	0.756781267717877	3.42863461802382E-05	0.756781268494557	-0.00259581336577216
