EC-Lab ASCII FILE
freq/Hz	Re(Z)/Ohm	-Im(Z)/Ohm	|Z|/Ohm	Phase(Z)/deg
6999984	-9.62112096417138	32.2284339709807	33.6338806091281	-106.621887983233
5969734	-11.52830022417	33.5748100079683	35.4988672091063	-108.950503054204
5091109	-12.4003770772144	37.3400943846763	39.3452919713864	-108.370956244429
4341796	-12.375998047374	42.6860276768398	44.4439229422487	-106.168506479946
3702781	-11.792475520097	49.8218352042526	51.1984154248136	-103.316437167344
3157797	-11.2603086573066	58.2543815726773	59.3326851193581	-100.940094712039
2693047	-10.147554452336	66.0318853453159	66.8070560915542	-98.7366709193045
2296687	-10.6580424042073	77.4507574313632	78.1806478265673	-97.8352937160047
1958656	-10.3762902961768	90.1478764665339	90.7430825558399	-96.5660203124514
1670375	-10.437372916916	105.0783580034	105.595454798479	-95.6725499267244
1424531	-9.71166642591372	122.802024094186	123.185443890085	-94.5217641952041
1214875	-8.58953544566506	141.660114455373	141.920288002391	-93.4698709791234
1036062	-8.14707899346868	166.301506454431	166.500948781498	-92.8046669789766
883578.1	-6.91587973065418	193.918853912806	194.04213793737	-92.0425185198935
753531.2	-6.10359858730113	226.468562714966	226.550797424987	-91.5438160550117
642624.9	-4.60962124599703	264.625190392691	264.665335845856	-90.9979591635905
548046.8	-3.28031411348091	308.820530211886	308.837951587938	-90.6085770460196
467390.6	-1.69263193326844	360.770974440128	360.774945085356	-90.268813073507
398593.7	1.36220586593391	423.132302720353	423.134495415169	-89.8155461617791
339937.5	3.96278735375823	491.752404383763	491.768371187923	-89.5382918847152
289906.2	-101.255271180069	502.628969015902	512.726545475986	-101.389866581217
247234.4	-107.387631356514	605.150803340242	614.605237653978	-100.062724440355
210843.7	-111.16333332969	723.952075961727	732.436956308365	-98.7296235384244
179812.5	-111.515636603277	860.621928911642	867.816709755366	-97.3830008325284
153343.8	-113.606020560177	1021.89133866234	1028.18686820083	-96.3436553921611
130781.2	-106.996760090497	1207.82491690049	1212.55487981185	-95.0624071706896
111531.3	-75.8243543951743	1421.57776036353	1423.59849026319	-93.0531587747248
95109.37	-94.3635978108087	1679.01574525197	1681.66535356944	-93.2167382252346
81109.37	-117.414758737826	2003.16361641996	2006.60177905785	-93.3545345749636
69171.88	-57.563019322087	2280.71437756982	2281.44067931804	-91.4457829762648
59000	-57.1711718649065	2689.91787019665	2690.52535600311	-91.2175738864642
50312.5	-79.6878518801741	3138.90806504783	3139.91942485147	-91.4542627516327
42906.25	-0.944673215953203	3723.97705664156	3723.9771764607	-90.014534404028
36593.75	14.9539343875166	4345.38079261852	4345.40652333147	-89.8028264987271
31203.13	-692.934750915768	4685.76762539586	4736.72638097607	-98.4119757368039
26609.38	-712.061071361213	5616.12918670793	5661.08982539059	-97.2258958051035
22703.13	-637.075173818754	6652.00607674513	6682.44338712647	-95.4706395997203
19359.37	-566.309308215672	7892.32410055779	7912.61561942807	-94.1041925541128
16500	-606.664309871075	9236.26137754524	9256.16366640117	-93.7579541585152
14112.02	-509.931911659021	10777.6270951984	10789.6837932204	-92.7088684356307
12011.13	-272.713097441392	12541.9358886405	12544.9004885764	-91.2456488184256
10236.38	-376.749570423248	14798.1864874997	14802.981576616	-91.4583880477577
8750.684	-232.739599298418	17174.4495884948	17176.0265017504	-90.7763963842134
7449.463	33.7359026777253	20355.5942580391	20355.6222137532	-89.9050421693785
6363.206	124.75780558287	23712.0139616132	23712.3421581629	-89.6985481800133
5414.761	542.77074285116	27793.3358751364	27798.6352029634	-88.8812238852592
4620.567	141.042967791067	32958.9474218126	32959.2492067488	-89.7548126354952
3941.215	-6414.31404072522	34168.7905128144	34765.6392106005	-100.632072601377
3361.769	-6547.89920588275	40887.5689817464	41408.553237797	-99.0983218795911
2867.244	-6470.09094855312	48536.0036322798	48965.3522960391	-97.5930471602234
2442.658	-6328.30000495429	57673.1924611476	58019.3459943602	-96.2618370190164
2083.003	-5951.602922855	68005.0366598438	68264.9733645157	-95.0016163486262
1777.843	-5712.65636677495	80182.2981835941	80385.5421376734	-94.0752008896792
1513.548	-4921.74703652788	93692.3947537925	93821.5776279213	-93.0070356722168
1292.065	-4851.55402685321	109772.566397762	109879.724744953	-92.5306212655655
1101.762	-4065.08525672467	129970.990561293	130034.546585237	-91.7914484140672
939.101	-1615.17191443468	149371.847086947	149380.579335065	-90.6195205399066
801.2801	298.755463515496	173965.241039484	173965.497569928	-89.9016044226077
684.3433	-4920.71516497723	204235.547333348	204294.816949151	-91.3801793087223
582.9476	-1656.09297225566	237133.955161705	237139.737991266	-90.400135000151
497.0677	-4327.85677630337	277748.368589813	277782.084732941	-90.892706816625
423.5089	111.965223364502	308166.697338256	308166.717678239	-89.9791829080684
361.5036	-51057.4875360822	356329.240651103	359968.602487063	-98.154259320554
308.1262	-71349.2105553779	406130.973782472	412350.673228957	-99.9640611080337
262.7298	-72127.1563333145	529743.808746443	534631.489519574	-97.7534180470805
224.2111	-56640.4312239127	590644.254534119	593353.835298463	-95.4776869806004
191.2854	-79363.7608849026	675477.162705441	680123.521044809	-96.7011237605432
163.1722	-121742.807642546	764014.716089993	773653.538487845	-99.0537457631299
139.1537	15675.4873633818	837924.900453311	838071.512285062	-88.9282637202395
118.6706	11184.3749295207	1202285.46764221	1202337.48837263	-89.467015935001
101.1982	-60615.5204326179	1345154.14346918	1346519.18330547	-92.5801248190648
86.24196	19201.6169003442	778138.973142819	778375.849840775	-88.5864370996644
73.61024	325332.166575099	130579.986960483	350559.768945394	-21.8692604598161
62.69291	56947.8705107305	-12413.4106271858	58285.098602525	12.2968946836111
53.57697	156696.70107001	13817.2582815334	157304.713065574	-5.03921422846156
45.65746	475521.672303844	-200494.500694949	516060.951477208	22.8617780595874
38.96512	410460.282345687	231088.705904952	471041.010295416	-29.379465187676
33.18414	539280.957551663	-542162.076338192	764698.416499719	45.1526437833725
28.30617	639893.287921865	414647.97939789	762493.519150299	-32.9430564085835
24.17237	391699.591237841	609635.099389774	724626.472179889	-57.2786538045859
20.61345	1497250.29979658	-134074.912726222	1503241.34538121	5.11704137760536
17.55618	1078392.30380788	629116.742480195	1248486.21801803	-30.2586001693688
14.98558	1941361.88848195	755194.02151565	2083075.60884938	-21.2561440528246
12.76553	2270427.49442208	56660.5135365849	2271134.39083247	-1.42956980589706
10.8809	7148128.47384507	-576144.323367812	7171309.71022334	4.60811963748954
9.278505	3673245.27984557	902346.43767511	3782454.22701884	-13.8016308226514
7.923394	1781195.36872835	-326671.833717348	1810903.48404425	10.3925720486686
6.75822	1695757.8281367	-27796.1124692979	1695985.62362872	0.939082982839575
5.761429	668633.540022849	351923.720984387	755593.22140619	-27.7593009712287
4.919708	1535476.73217186	122553.071761508	1540359.71462492	-4.56335158016699
4.191257	1639072.20543552	-56299.7353004431	1640038.82723129	1.96725288141286
3.564097	1871075.03824616	1840096.19494406	2624285.77052795	-44.5217370368422
3.051758	1624118.81751024	576976.254467367	1723561.29325592	-19.5578341226993
2.604164	8787963.66034727	9783938.73680088	13151188.6345325	-48.0697208874103
2.214424	5850812.38958109	2229703.31909974	6261276.42811591	-20.8614907235384
1.892567	181319.444292906	-3165390.57998802	3170579.48406211	86.7215740680726
1.607507	5104760.18124875	2875783.97722605	5859070.74472846	-29.394883481943
1.376413	4892693.28683505	978958.661685326	4989670.09533992	-11.3146616762624
1.17375	9374977.89324855	-3382000.24494476	9966350.19230739	19.8367843548367
1.001604	9375268.3386483	16611628.5064813	19074639.1331266	-60.5604930297378
