EC-Lab ASCII FILE
freq/Hz	Re(Z)/Ohm	-Im(Z)/Ohm	|Z|/Ohm	Phase(Z)/deg
6999984	20.0090794216086	3.30305366182411	20.2798772874278	-9.37372130863315
5969734	18.4278937564195	0.150803059227722	18.428510787922	-0.468864541784841
5091109	11.4940758457737	-5.71242196469533	12.8353240804871	26.4268417820283
4341796	9.15615885308203	-8.04273227536092	12.1869104942969	41.295938813632
3702781	5.17087690698676	-5.02165106743851	7.20797804036023	44.1612090738341
3157797	4.32235930321429	-5.06330929955218	6.65731860504022	49.5138438213037
2693047	3.30041747943539	-5.15430070207551	6.12042247446847	57.3676284205917
2296687	2.26623549141185	-3.90824325129026	4.5177636739642	59.8922523532767
1958656	1.77630149778211	-3.23889009065906	3.69400271120534	61.2583556242071
1670375	1.42011735471906	-2.74294528928427	3.08876709403299	62.6278393461288
1424531	1.15119353310701	-2.38403841092082	2.64743001709456	64.2252456789535
1214875	1.14812047250977	-2.10133410432533	2.3945324465116	61.3488256600583
1036062	0.782878578427203	-1.84775352235841	2.00676155732267	67.0380100868098
883578.1	0.700024895374734	-1.55793166040835	1.70797714055169	65.804202770775
753531.2	0.670456846886909	-1.35116118035681	1.50835967820701	63.6090295702903
642624.9	0.60928228097289	-1.15686039769418	1.30749794556652	62.2256229739469
548046.8	0.559089713694854	-0.998327640964254	1.1442199905056	60.750027468367
467390.6	0.5248510393729	-0.877948943571372	1.02286996292241	59.1283850208083
398593.7	0.493075038062983	-0.761609541598739	0.907288315264257	57.0805020807178
339937.5	0.467594639048577	-0.66074504247008	0.809462017401531	54.7138025051048
289906.2	0.448223200947197	-0.572779252703844	0.727310188430855	51.9553659553829
247234.4	0.430958695970536	-0.496103502532291	0.657148448113082	49.0195760497561
210843.7	0.41869127894724	-0.42835654506386	0.59899225100624	45.653746941416
179812.5	0.406266086603078	-0.368211695658754	0.548299175581794	42.1870027766195
153343.8	0.398497711219157	-0.319851233893406	0.5109845767438	38.7520119328291
130781.2	0.392369244613702	-0.276861748938449	0.480214589682554	35.2073798853625
111531.3	0.385797073806997	-0.241339963265824	0.455065226123894	32.0285298238854
95109.37	0.379606506735865	-0.210799069072661	0.434208875402273	29.0438265112884
81109.37	0.372853151466528	-0.182527156688754	0.415133274367886	26.0836744402127
69171.88	0.367311693979967	-0.158837226052586	0.400183888874244	23.3851864645953
59000	0.358181961108479	-0.134349584348424	0.382549510623279	20.5604415092429
50312.5	0.35229028027911	-0.104258826063767	0.367393990684835	16.4858979857936
42906.25	0.383145994527011	-0.103678532252398	0.396925800587596	15.1415040857207
36593.75	0.367444844201766	-0.0947319989461455	0.379459965154155	14.4567736839158
31203.13	0.361689379446861	-0.0827484475678443	0.371034382206749	12.8865312801582
26609.38	0.35711105580156	-0.0708697164524995	0.364075298373513	11.2246729249592
22703.13	0.357609353819504	-0.0627573570516961	0.363074284139372	9.95356032688349
19359.37	0.355064090596786	-0.056262202826944	0.359494010935179	9.00402602090294
16500	0.352930584340342	-0.0500509206889688	0.356461908237933	8.07158877552908
14112.02	0.350635018317186	-0.0446010028523106	0.353460274324746	7.24913077893059
12011.13	0.34928604161549	-0.0396300781635739	0.351527071450648	6.47311101162745
10236.38	0.345986544983256	-0.0353440606139397	0.347787135946878	5.83278483894515
8750.684	0.343890286555662	-0.030987433948312	0.345283579467713	5.14893048960896
7449.463	0.341788087451407	-0.0294211428882811	0.343052037412027	4.91989691354116
6363.206	0.344755954310215	-0.030004960001812	0.346059193862925	4.97405918687267
5414.761	0.341356278019786	-0.0225819878275318	0.342102403846808	3.78481423631205
4620.567	0.342522345845436	-0.0193714272098716	0.343069686209096	3.23692735542277
3941.215	0.339319868618564	-0.0203735135814074	0.339930953717032	3.43603992951324
3361.769	0.338610718980446	-0.0213627385948457	0.339283930666818	3.60997043554993
2867.244	0.338788096443702	-0.0187083048335415	0.339304251316856	3.16073485486847
2442.658	0.336681814445971	-0.0188053210822361	0.337206589911344	3.1969268799135
2083.003	0.334641117424286	-0.0182008949236026	0.33513571884685	3.11320972463576
1777.843	0.332483901464989	-0.0177651738400358	0.332958174753147	3.05850142252549
1513.548	0.329719260930434	-0.0169929616996947	0.330156859349974	2.95028058122338
1292.065	0.329170096177302	-0.0142556574617959	0.329478642687265	2.4798088928232
1101.762	0.328840412667734	-0.0130976123451651	0.329101146234148	2.28086763311346
939.101	0.329200964577302	-0.0129657697232531	0.329456197791365	2.25546153856177
801.2801	0.328756326243603	-0.0133509795499314	0.329027309960941	2.32553599577966
684.3433	0.327283473502588	-0.012522367927403	0.327522948396641	2.19115562042527
582.9476	0.326452280271053	-0.0125768756424462	0.326694458317088	2.20628170621672
497.0677	0.324839393257983	-0.0124605362068851	0.325078292684666	2.19673565639205
423.5089	0.324833929245931	-0.0128448205929373	0.325087789689824	2.26445181932517
361.5036	0.323938521022462	-0.0129487749603895	0.32419721802507	2.28906207549943
308.1262	0.323282539419144	-0.013148124688441	0.323549800612075	2.32897546142383
262.7298	0.321134780808532	-0.0113067664647776	0.321333767931155	2.0164819881283
224.2111	0.320582291044484	-0.012497843531216	0.320825811655267	2.23253520534741
191.2854	0.31867267566677	-0.0130406242393602	0.318939386243171	2.34333263785422
163.1722	0.318715236051227	-0.0117877947017233	0.318933149413979	2.11813902492938
139.1537	0.318352388679667	-0.0104734693855574	0.318524625325924	1.88429317634028
118.6706	0.317283979239369	-0.00960177569644313	0.317429232394393	1.7333789578918
101.1982	0.314294245227159	-0.0141934313164716	0.314614567487656	2.58570295251928
86.24196	0.317810002137535	-0.00893947571337716	0.31793570369603	1.61121175089841
73.61024	0.295665559893619	-0.0172524494071219	0.296168482991949	3.33949253032914
62.69291	0.301914016010682	0.0195050787528407	0.302543420290134	-3.69644237190666
53.57697	0.299214848577601	0.00201690379213764	0.299221646125783	-0.386205181188466
45.65746	0.294060396536855	-0.0207118079110677	0.29478890039884	4.02890915394045
38.96512	0.312089221259799	-0.0125015748924137	0.312339513032435	2.29391044436182
33.18414	0.306339898176578	-0.0126233634228657	0.306599873644693	2.3596550595219
28.30617	0.320519544545102	-0.00402151331694848	0.32054477223121	0.718844308927033
24.17237	0.316072096005049	-0.00567530500094867	0.316123044019063	1.02867696622198
20.61345	0.292372235035688	-0.0159026649732349	0.292804403267803	3.11335525591572
17.55618	0.295134852188655	-0.0144396503154107	0.295487875347959	2.80099700065984
14.98558	0.303844795388788	-0.00531435582212661	0.303891266841709	1.0020218236769
12.76553	0.303947154912217	-0.00578178123035673	0.30400214139612	1.08976744521221
10.8809	0.300971635717681	-0.00454293695298728	0.301005919846662	0.864770356811108
9.278505	0.288450489193299	-0.0165955473613292	0.288927494205857	3.2927930322792
7.923394	0.308639691598398	-0.0206446685161991	0.309329373917347	3.8267696438183
6.75822	0.309504838222429	0.00211497697274865	0.309512064402484	-0.391520109583438
5.761429	0.296344248789999	0.0150759267535939	0.296727479951535	-2.91229863602636
4.919708	0.286641941254787	-0.0035953176803598	0.28666448820099	0.718616844682367
4.191257	0.29019928295869	-0.00696974120883941	0.290282967330597	1.3758131866845
3.564097	0.291191926160723	-0.0172280667054603	0.291701121258729	3.38589810103017
3.051758	0.288123475081038	-0.0130296638582156	0.2884179415935	2.58929425197916
2.604164	0.303596969523139	-0.00889280849991151	0.303727183417372	1.67779918697513
2.214424	0.303241724002523	-0.00503226096210619	0.303283476019405	0.9507294959412
1.892567	0.302532966926601	0.00173290086072386	0.302537929891121	-0.328185125726559
1.607507	0.302032709496677	-0.000628477213705001	0.30203336337152	0.119222318517971
1.376413	0.297858543772288	0.00335940896231919	0.297877487781007	-0.646185239095313
1.17375	0.299792023964659	0.00142822630277507	0.299795426021143	-0.272958296811694
1.001604	0.286356770278604	-0.00190925593067091	0.286363135097034	0.382008379930692
