EC-Lab ASCII FILE
freq/Hz	Re(Z)/Ohm	-Im(Z)/Ohm	|Z|/Ohm	Phase(Z)/deg
6999984	20.7664915643602	6.8643438326405	21.8715886058913	-18.2912536207831
5969734	10.8462093923057	-1.30426471352978	10.9243473317493	6.85693543858559
5091109	12.4160323386318	-3.67256456427978	12.9478024974415	16.4778020921484
4341796	10.3892424878209	-6.37765492726561	12.1906046544878	31.5445581039164
3702781	5.35664187037465	-4.69507078020388	7.12301212680248	41.2344088760129
3157797	4.21145517436628	-5.03327262767133	6.56278812930617	50.0800006074063
2693047	3.52545160445497	-4.25072539409728	5.52245193653848	50.3284866735766
2296687	2.41233352628096	-3.82343887432017	4.52084481791643	57.7508225939752
1958656	1.90077599179379	-3.17211568696776	3.69800855900667	59.0693703679098
1670375	1.35083901689838	-2.79143493138032	3.10110867686143	64.1766015621469
1424531	1.21072068271625	-2.40967837117909	2.69673773735698	63.3231809262996
1214875	1.05807338543676	-2.14148639128617	2.38861534220843	63.7067761701396
1036062	0.846831661299772	-1.80998399539687	1.99829075116024	64.9266606117527
883578.1	0.753011725348752	-1.56230839780727	1.73431086843502	64.2665559359825
753531.2	0.692471339982241	-1.35644353118753	1.52297590591489	62.9554566133846
642624.9	0.619233791417495	-1.17602084638419	1.32908822866034	62.2309514814417
548046.8	0.589290617551002	-1.01509765119429	1.17374898227594	59.8637190550792
467390.6	0.550486107454678	-0.88088162400956	1.0387431780851	57.9976528121176
398593.7	0.52032849531054	-0.762844667465952	0.923403340752766	55.7025042059605
339937.5	0.491530207129913	-0.662904541201841	0.825254127688676	53.4438186338855
289906.2	0.471374287007223	-0.575405929901068	0.743831770373436	50.675561587555
247234.4	0.453209869138162	-0.498280559795044	0.673559723969517	47.7119889584424
210843.7	0.43885524784584	-0.431789926104717	0.61565937729182	44.535052576001
179812.5	0.427578936158078	-0.370447882338375	0.565734372453239	40.905158679041
153343.8	0.419661706966205	-0.322298301473552	0.529142838396708	37.5241003525063
130781.2	0.412966845564099	-0.279762533318334	0.498807267974169	34.1154999447597
111531.3	0.405928561740927	-0.243963468965764	0.473599167468511	31.005909021558
95109.37	0.398983323985753	-0.212671035505513	0.452124609108714	28.0590610304852
81109.37	0.393356259656132	-0.185059350699027	0.434713825742646	25.195223164771
69171.88	0.385584159180419	-0.16058494331478	0.417687284736179	22.6103527199281
59000	0.376195577500547	-0.135830685371287	0.399966358109534	19.8528271731004
50312.5	0.370318776288869	-0.10527289312211	0.384991400031721	15.8692005925825
42906.25	0.399937052451923	-0.106566954677876	0.413891485480492	14.9203251880664
36593.75	0.384592949862423	-0.0967938573562665	0.396586419215012	14.1267328051866
31203.13	0.378378950463521	-0.084671883032286	0.387736970032661	12.6135799161358
26609.38	0.374134256970462	-0.0728154957093	0.381154218990464	11.0134520337842
22703.13	0.373832435643428	-0.0649364971274708	0.379430413380746	9.85422663394166
19359.37	0.371071786654951	-0.057927417737157	0.375566048221871	8.87273847172666
16500	0.368780760993447	-0.0514880318362243	0.372357713900591	7.94808199321068
14112.02	0.367162422723643	-0.0458851620465059	0.370018503262106	7.1234582161466
12011.13	0.365106283896775	-0.0411554430755596	0.367418520267634	6.43133665878446
10236.38	0.363327010552114	-0.0370823890322085	0.365214485163269	5.82762248921102
8750.684	0.361845050441507	-0.0332107591734157	0.363365924453423	5.24401283571092
7449.463	0.360397738762545	-0.0302835091837727	0.361667832456301	4.80316764898136
6363.206	0.358950225613859	-0.0272862319184532	0.359985837111057	4.34707892011235
5414.761	0.360384448789609	-0.0233853571206473	0.361142390002961	3.71271952990853
4620.567	0.360364232456573	-0.0249191191662666	0.36122478117377	3.95569546096305
3941.215	0.351714971101914	-0.0174643680485744	0.352148299795067	2.8426808261712
3361.769	0.3542638232804	-0.0128427538078597	0.354496534271657	2.07617445009841
2867.244	0.353414394772245	-0.0291745075289587	0.354616534191215	4.71909067620827
2442.658	0.34306095387088	-0.0167285901648094	0.343468577601649	2.79168758240455
2083.003	0.355539734824058	-0.0213542339794743	0.356180440714551	3.43713886256431
1777.843	0.344338987142074	-0.0218668233354112	0.345032601399942	3.63361869558616
1513.548	0.341997607576504	-0.0161043487905767	0.342376567010683	2.69601337090023
1292.065	0.346853772939269	-0.0178582493157634	0.347313197087053	2.94735047505908
1101.762	0.345863233725056	-0.0120513870401912	0.346073131537751	1.99562804325892
939.101	0.345437545842065	-0.0121679193458018	0.345651784804584	2.01739012623358
801.2801	0.342334843923786	-0.0108822224425805	0.342507763604874	1.82071892530815
684.3433	0.339731481691177	-0.013465697956172	0.339998242162411	2.26980439104728
582.9476	0.339213215566083	-0.00968474210746223	0.339351440021064	1.63538484027498
497.0677	0.338207189621421	-0.00999585596640135	0.338354873244233	1.69290808403273
423.5089	0.33488336861369	-0.0117704414154703	0.335090157816024	2.01299668586052
361.5036	0.334669225148891	-0.011328275115937	0.33486089661061	1.93867431954953
308.1262	0.333776761958751	-0.012826623757692	0.334023126595585	2.20072229673057
262.7298	0.334014551622595	-0.0124803648872326	0.334247633055736	2.13984610395571
224.2111	0.332545462216415	-0.0122350218727754	0.332770461731441	2.10707750173659
191.2854	0.331231506974108	-0.0121806355916872	0.331455395333605	2.10603357263386
163.1722	0.330298385936935	-0.0127656615283087	0.330544983121511	2.21331590906754
139.1537	0.330485251584876	-0.0114159650463104	0.33068236386759	1.97838373249887
118.6706	0.326358594772455	-0.0115691798022368	0.326563589983862	2.03024443436734
101.1982	0.317804753153297	-0.0158332070760475	0.31819891824634	2.85214895373574
86.24196	0.323327519419939	-0.0127509042036353	0.323578847226238	2.25837445599222
73.61024	0.343056231122898	-0.027698219757609	0.344172586197663	4.61602473618896
62.69291	0.252224452215034	-0.00829310744567586	0.252360753538025	1.88319939990938
53.57697	0.311071416823535	-0.0185111768154263	0.311621709820887	3.40552992692253
45.65746	0.328464046602302	-0.0300715604336452	0.329837730796938	5.23096429488461
38.96512	0.32201232602671	-0.00635713003448065	0.322075070776065	1.13097972645818
33.18414	0.323707475817235	-0.0168075146999061	0.324143521376494	2.97223804280618
28.30617	0.314367416328385	0.0099954402661639	0.314526280738349	-1.82112916308947
24.17237	0.320737786055247	-0.00705767797632603	0.32081542703249	1.26056215323614
20.61345	0.312489067357657	-0.0231671182729074	0.31334666519229	4.24000170256932
17.55618	0.311507547675726	-0.0168888421964753	0.31196503850541	3.10333708886786
14.98558	0.315816877501023	-0.00907220540316663	0.315947155431685	1.64543509295937
12.76553	0.312237988346091	-0.0119743031390447	0.312467510794449	2.19621254592509
10.8809	0.297019985529955	-0.00572555539480431	0.297075165217144	1.10433489715341
9.278505	0.307198325760504	-0.0141450205825611	0.307523808765009	2.63633580583278
7.923394	0.319333600996184	-0.00880251967606705	0.319454899912081	1.57897428055538
6.75822	0.305243556421521	-0.00904364145293078	0.305377497840931	1.6970414015668
5.761429	0.307697134333496	-0.0107301670052652	0.307884171338843	1.99723748170544
4.919708	0.299255669318746	-0.0106536839796796	0.299445248086774	2.03890354552515
4.191257	0.310242984141365	0.0019710678309446	0.310249245474237	-0.364012577726546
3.564097	0.307931438548181	-0.0137691714983169	0.308239129459746	2.56027852331814
3.051758	0.295747101110069	-0.00739842024774535	0.295839626211858	1.43301442816139
2.604164	0.300474091220104	0.00114771354748217	0.300476283158812	-0.218850225287602
2.214424	0.311381620144343	-0.000829677978942037	0.31138272548307	0.152664547216828
1.892567	0.312342308324768	-0.0104622113545467	0.312517480208822	1.91846094149511
1.607507	0.304989082402241	-0.0109882279503382	0.305186961612139	2.06337514591298
1.376413	0.300621601820604	-0.00966171039299187	0.300776821129727	1.84080166898528
1.17375	0.298756136863541	-0.00641101779421276	0.298824916067561	1.22932334833002
1.001604	0.297170377941473	-0.0140456534500712	0.297502124205387	2.70605101851312
