EC-Lab ASCII FILE
freq/Hz	Re(Z)/Ohm	-Im(Z)/Ohm	|Z|/Ohm	Phase(Z)/deg
6999984	21.5592721628664	89.3825951869256	91.9459109397605	-76.4391588850958
5969734	17.2950837935362	88.0708985120955	89.7530115826386	-78.8898139664294
5091109	13.05535716963	92.8660750207678	93.7792633826343	-81.997651638778
4341796	10.4963689253608	101.685727264923	102.226028437055	-84.1065946910955
3702781	11.5946587593523	113.618120988082	114.208202545212	-84.1731723868897
3157797	12.4178017256385	127.246747617122	127.851228303966	-84.426247844999
2693047	13.009759917263	143.514125688539	144.102595831062	-84.820213624931
2296687	13.4328534375076	164.932210477634	165.478323669634	-85.343839753901
1958656	15.6439192369811	189.939110090454	190.5822598015	-85.2915860029851
1670375	18.5217377287357	220.008743108503	220.787005534011	-85.1878233462869
1424531	22.4253048342978	254.843415034645	255.828185475001	-84.9711307081684
1214875	27.7144043146589	295.319866229697	296.617449918986	-84.638757891213
1036062	33.56068603468	342.137828033054	343.779890363433	-84.3977145468015
883578.1	42.2564737692689	397.407421365545	399.647680003055	-83.9305247606518
753531.2	52.4504555090991	461.1351038423	464.108429441613	-83.5109477672775
642624.9	120.363844975998	601.150964033005	613.082324598596	-78.677819582231
548046.8	149.16882376156	686.889174502961	702.899762435417	-77.7475653060566
467390.6	181.647376568559	782.581555365133	803.386370441987	-76.9323036593649
398593.7	220.522849255973	891.215464988412	918.09331338295	-76.1018586311023
339937.5	265.227079026589	1015.27817373827	1049.34988136384	-75.3594772159513
289906.2	317.674554251912	1157.06214504804	1199.87913138046	-74.6475771555013
247234.4	381.457281083288	1317.32028420895	1371.43807314796	-73.8505355666948
210843.7	458.917387565805	1502.05378528631	1570.59566486832	-73.010694030592
179812.5	549.283942998809	1707.08987703277	1793.28433281063	-72.1635759304911
153343.8	664.42631624771	1942.80408276183	2053.27787542712	-71.1196468277627
130781.2	806.700485341389	2204.41850721759	2347.38719175458	-69.9000488650473
111531.3	985.253008630482	2491.95754977541	2679.65966512504	-68.4274900357815
95109.37	1179.13876725445	2795.9592645931	3034.42851978858	-67.1334075596991
81109.37	1463.31383861981	3140.7675194481	3464.92539624108	-65.0187349294302
69171.88	1789.04794195001	3494.86428742208	3926.16465855596	-62.8917437065661
59000	2169.98415439216	3857.83206840681	4426.25117885791	-60.6427697691185
50312.5	3163.74369827624	4360.25152697862	5387.12052648742	-54.0358330052824
42906.25	3845.16570556874	4522.76134967923	5936.38522414391	-49.6294437860493
36593.75	4388.08570563538	4737.3357211865	6457.37143853683	-47.1917661987754
31203.13	5010.27741848561	4929.44518231084	7028.67765768173	-44.5340670885934
26609.38	5673.88868592089	5060.39974826595	7602.6744263102	-41.728974585614
22703.13	6368.96204697245	5125.26816111305	8175.08723372997	-38.8245312009588
19359.37	7087.40982928599	5108.33012947147	8736.49900131201	-35.7826008637841
16500	7786.10730225075	5017.72005436183	9262.88192012116	-32.7995648583709
14112.02	8439.91285558261	4868.4063403633	9743.3828470772	-29.97769615115
12011.13	9078.20660002791	4623.70441504049	10187.859323256	-26.9906150637032
10236.38	9643.26056224686	4359.53326260623	10582.9109671751	-24.326813953003
8750.684	10119.2013746129	4049.32074700755	10899.3226840989	-21.8094150181147
7449.463	10548.7642003141	3718.14345922415	11184.8565899255	-19.4161244712296
6363.206	10893.1750649459	3403.10844496176	11412.3796853999	-17.3491906844511
5414.761	11201.488138802	3096.16832746831	11621.5143090623	-15.4511648556771
4620.567	11430.0982964092	2841.55177479785	11778.011867647	-13.9608615234962
3941.215	11635.2192198578	2580.7617316868	11917.9972063215	-12.5060815746134
3361.769	11838.8969835738	2401.60238785822	12080.0321115897	-11.4672403371058
2867.244	11868.836026233	2122.71797808513	12057.1638552395	-10.1400294413088
2442.658	12005.4235775252	2037.23800914336	12177.049477673	-9.63095644033508
2083.003	12104.1390109955	1885.50950118389	12250.1153984996	-8.85403139971564
1777.843	12220.1859937241	1744.44335857335	12344.0685494079	-8.12414046449848
1513.548	12303.3389088603	1720.94530676778	12423.1155937294	-7.96265803951881
1292.065	12368.3467515659	1671.176023716	12480.7383863782	-7.69504091256911
1101.762	12443.8993770355	1605.70330386051	12547.0679764562	-7.35255539052966
939.101	12541.9653931545	1668.45401180478	12652.4556791396	-7.57755018709958
801.2801	12622.80806648	1706.18793055527	12737.5963485095	-7.69784840576525
684.3433	12687.5470410548	1741.756304289	12806.5438328422	-7.8167486074108
582.9476	12796.1831060409	1855.10526572046	12929.9542779636	-8.24889056523232
497.0677	12885.6267709798	1972.15718031163	13035.6734089516	-8.70164754452264
423.5089	13006.1517270822	2112.58916275806	13176.6086577118	-9.22597841158071
361.5036	13109.9741309037	2285.14972569655	13307.6418264776	-9.88767018044345
308.1262	13223.9997168447	2494.63686085531	13457.2427182781	-10.6829986254425
262.7298	13344.3316370654	2733.19643136975	13621.3637192623	-11.5752715293777
224.2111	13502.1679714415	2997.02692060304	13830.7884913276	-12.514836369723
191.2854	13646.3478254272	3290.83173464989	14037.5347721144	-13.5580779230972
163.1722	13777.5266138632	3685.21172657204	14261.873126114	-14.9749108772085
139.1537	13985.4628478907	4107.27972303629	14576.1077724129	-16.3665680658017
118.6706	14191.9366637011	4570.82937058328	14909.8473299189	-17.8523106539334
101.1982	14419.3024588532	5142.31642309205	15308.8112404292	-19.6276203821463
86.24196	14710.1742351864	5747.10202925601	15792.9860306473	-21.3400365331876
73.61024	14929.2136358933	6487.92469711141	16278.0400128987	-23.4887600452211
62.69291	15228.0517973512	7321.40606630318	16896.643108337	-25.6775103888224
53.57697	15562.125463088	8246.41002374786	17612.0137181602	-27.9192306805835
45.65746	15931.68359832	9319.00273912319	18457.0407793005	-30.3248684679537
38.96512	16348.867162536	10523.2792656626	19442.8615178263	-32.7681782303536
33.18414	16820.7968650278	11935.9210742452	20625.3586408852	-35.3592480785399
28.30617	17369.0351528102	13539.8539905084	22022.9659270463	-37.9378331763703
24.17237	17933.1057205421	15324.3119568655	23588.7858469967	-40.5147624261727
20.61345	18620.4499326996	17387.3087002382	25476.2567802562	-43.0385842179445
17.55618	19396.0116631737	19748.3058066825	27680.3332832576	-45.5156411944777
14.98558	20289.8652967139	22419.3958427415	30237.5254230952	-47.8544663733576
12.76553	21333.2350454108	25503.1051746645	33249.2900834401	-50.0876667827051
10.8809	22522.5470427047	28975.5618047462	36699.4319736902	-52.1422705177325
9.278505	23905.6749346013	32911.6228432993	40677.4656567786	-54.0068585295826
7.923394	25460.0687453805	37440.2977509846	45276.8262602613	-55.7836006522833
6.75822	27292.8039829831	42344.6612228817	50378.2441469942	-57.196623437057
5.761429	29348.3416705886	47997.4869485492	56259.0784868519	-58.5560574792521
4.919708	31695.0774418428	54519.5412519092	63063.1295795177	-59.8283102633401
4.191257	34675.0854267719	61841.0024316907	70899.0206639718	-60.7200617756817
3.564097	37820.1699633014	70169.0350066002	79712.3499202632	-61.6759272652984
3.051758	41487.8143472026	79276.1226790408	89475.9317712326	-62.3754514373737
2.604164	45778.9303085757	89554.3472293211	100576.794380549	-62.9245168924475
2.214424	50965.2789688936	101626.330659836	113689.800526518	-63.3663819440524
1.892567	56447.9151273922	114376.689163801	127547.615212132	-63.7324446793615
1.607507	63352.3370310089	129501.591710447	144167.197596506	-63.9320631751851
1.376413	70503.2172065116	145668.007382957	161832.852077042	-64.1730492238171
1.17375	79212.9271061028	163996.904832655	182125.430995805	-64.2187712558685
1.001604	89335.1087928644	184515.754932519	205004.452345188	-64.1656007724804
