EC-Lab ASCII FILE
freq/Hz	Re(Z)/Ohm	-Im(Z)/Ohm	|Z|/Ohm	Phase(Z)/deg
6999984	-12.2987016541184	30.7141230093494	33.084972640316	-111.822396706518
5969734	-13.2395241062665	32.6632933010383	35.2445134429469	-112.064356783402
5091109	-14.6460897091262	36.8552439396033	39.6587562792309	-111.672625538871
4341796	-14.141995755561	42.2709202254329	44.5738347088874	-108.49798098761
3702781	-13.2864388156115	49.0445406900655	50.8123649115102	-105.157923520895
3157797	-12.5667205093525	57.4184420124523	58.7775462868052	-102.345216408818
2693047	-11.9192807367144	67.2042524714829	68.2530644259393	-100.057338637081
2296687	-12.43230237535	76.8589967091429	77.8579958481348	-99.1882762534266
1958656	-12.0141568157195	89.617599280764	90.4193235146132	-97.6355606286221
1670375	-11.3877308982327	104.4781858169	105.096963450907	-96.220469466208
1424531	-11.2307615982639	121.654855033674	122.172148050779	-95.274401554888
1214875	-10.8630953496437	141.966930551528	142.381937796892	-94.3756599574457
1036062	-9.18402209933911	166.109670120548	166.363363663634	-93.1645990658777
883578.1	-9.08162129067419	193.832590661471	194.045224233436	-92.6825123770547
753531.2	-8.29547962186854	226.330438139903	226.482410378283	-92.0990694542729
642624.9	-6.8541240147692	264.275904017683	264.364771594805	-91.4856608388059
548046.8	-4.78346393881944	308.831507656711	308.868550760305	-90.8873783091303
467390.6	-3.32671403423361	360.856678678478	360.872012731839	-90.5281910673628
398593.7	-1.30459888154766	421.834004335812	421.836021686422	-90.1771971220656
339937.5	2.48465692292826	492.658112009895	492.664377491593	-89.7110386599472
289906.2	-101.954480682086	500.843330743604	511.115210184065	-101.506234309408
247234.4	-107.326927621662	603.741827574343	613.207357877834	-100.080142357327
210843.7	-113.368901248635	721.949368964672	730.796414276103	-98.9243718929894
179812.5	-110.92732153127	861.054106963209	868.169940610887	-97.3408311388068
153343.8	-113.457200425057	1020.62704710891	1026.91387448926	-96.343197025925
130781.2	-111.396580551344	1208.75312998212	1213.87533437339	-95.2654061175044
111531.3	-103.445676539118	1413.34768085436	1417.12831986769	-94.1861255188165
95109.37	-87.4589234607689	1672.56643842612	1674.85150214649	-92.9932846851336
81109.37	-87.0785337778952	1958.67274404554	1960.60745416103	-92.5455754640184
69171.88	-54.1627755340343	2309.42056883119	2310.05562054123	-91.3435100098339
59000	-64.7266318721446	2695.5630135524	2696.34001878569	-91.3755383505817
50312.5	-4.50403945025529	3139.41624059833	3139.41947151124	-90.0822007196329
42906.25	0.925288373024288	3711.14686744548	3711.14698279507	-89.9857146269329
36593.75	5.40249838437684	4317.41379360856	4317.4171737545	-89.9283042558608
31203.13	-752.117831057659	4769.053252398	4827.99649502802	-98.962187107468
26609.38	-698.856644379474	5640.54022483747	5683.6691175158	-97.0628893123888
22703.13	-703.972093095241	6675.05674071359	6712.0756252893	-96.0203353083688
19359.37	-608.784706688881	7815.38751306497	7839.06249486953	-94.4540978795992
16500	-541.667606576084	9266.38471381687	9282.20283448239	-93.345424546021
14112.02	-460.060005267463	10647.9278495261	10657.8620134228	-92.4740130354066
12011.13	-489.762649348113	12669.1434921732	12678.6065590021	-92.2138329006376
10236.38	-334.494066614166	14802.903128392	14806.681846692	-91.2944648225707
8750.684	-199.500411826601	17352.1173155595	17353.2641237106	-90.6587108530936
7449.463	-55.5744105748905	20233.3028612531	20233.3791836733	-90.1573727823541
6363.206	154.718975436279	23352.3139952384	23352.826529	-89.6203967367575
5414.761	-33.8066413457543	27695.0656517215	27695.0862851547	-90.0699394228171
4620.567	138.07032004645	31818.1736387194	31818.4732053092	-89.7513748887244
3941.215	-6422.07414849541	34187.8806276708	34785.8335846741	-100.638833503359
3361.769	-6549.02037923516	41167.1452365153	41684.811560711	-99.0390780435746
2867.244	-6224.87286907484	48763.878583581	49159.5860107709	-97.2746545134692
2442.658	-6299.06213595317	58072.9554465075	58413.5800827568	-96.1905610693021
2083.003	-6480.40979098208	68314.296939037	68620.9798628232	-95.4189588065995
1777.843	-4835.95374745735	80351.2325427649	80496.6273814564	-93.4442024699016
1513.548	-4689.10472994375	94387.147760644	94503.5521319597	-92.8440864752816
1292.065	-4087.2407146184	110178.084227777	110253.869686113	-92.1245087803768
1101.762	-2121.35394082224	129027.067824934	129044.505400433	-90.9419238912267
939.101	-1610.98644505912	151137.520307046	151146.105877356	-90.6106969898616
801.2801	-2803.97813026552	178393.176220854	178415.21127841	-90.9004990426388
684.3433	-67.8555079112083	206452.806052308	206452.817203451	-90.0188315874915
582.9476	-5785.62803215391	240894.294689549	240963.762225156	-91.3758248294793
497.0677	5191.28889915501	265161.641864417	265212.454075347	-88.8784163920631
423.5089	-62875.1735210149	270478.442218015	277690.250368971	-103.086509204158
361.5036	-64222.3382301154	356734.020024992	362468.853518388	-100.205562818681
308.1262	-70242.2126754494	423319.551415893	429107.691672494	-99.4213554844858
262.7298	-90838.6140948942	493391.517812921	501684.007778222	-100.431938443538
224.2111	-38028.1038344223	568063.477687503	569334.920203971	-93.8298603618041
191.2854	-37521.1201801268	626478.287293612	627600.891418989	-93.4274721022838
163.1722	43293.3015916894	682221.469606358	683593.770857055	-86.3689185451696
139.1537	-95492.4929636109	740945.730720059	747073.886630156	-97.343753223562
118.6706	358096.70271306	840418.50408081	913529.698748428	-66.9214704712801
101.1982	-108648.859874585	751231.840383352	759047.991076853	-98.2294886790547
86.24196	425782.604107711	177482.369638451	461292.550875498	-22.6282290031361
73.61024	286332.708839413	-105815.864117957	305259.589940015	20.2820756940565
62.69291	24779.1510428901	63396.6729454745	68067.2055175018	-68.6515165336777
53.57697	66013.270633566	-122104.510317026	138806.568070467	61.6030470337578
45.65746	445738.956336956	-396423.554516931	596518.945023708	41.6486974689382
38.96512	377132.800674568	-226386.069092764	439863.389729035	30.9756396612412
33.18414	380663.233516265	284283.832399463	475101.878248008	-36.752813216591
28.30617	113735.006568659	617321.533079064	627711.340444204	-79.5609194318661
24.17237	834756.091906954	114926.056093811	842630.245923471	-7.83898509943982
20.61345	831766.644999419	-24747.2073875528	832134.710252536	1.70419477963901
17.55618	74545.6321449153	-1187379.92263584	1189717.66900832	86.4075931963409
14.98558	1151956.5380753	637492.255549906	1316586.58716415	-28.9601231069977
12.76553	1973833.29630412	-929850.000324619	2181888.83875931	25.2245815221935
10.8809	838592.30730679	583562.467146663	1021656.60127874	-34.8334160620586
9.278505	1172432.81078967	729390.610563569	1380800.26020945	-31.8864534794268
7.923394	939482.394330591	-1392174.116864	1679516.5795321	55.9872986076082
6.75822	1161396.83929514	-94637.9799653258	1165246.3111191	4.65853075613633
5.761429	411929.025531697	1077818.47417953	1153853.62388745	-69.0837558943244
4.919708	1341446.5378248	371361.960380056	1391901.04513915	-15.4740545195926
4.191257	1193187.26582991	231768.392522699	1215488.55984382	-10.9924244827029
3.564097	751986.462041133	1135170.08562707	1361651.48345519	-56.4777619393961
3.051758	2598293.92745729	-252644.543734971	2610547.94994087	5.55368391890763
2.604164	3469499.69262526	7148553.47459595	7946020.6956869	-64.1107114157069
2.214424	6773505.50263672	444862.760621609	6788098.38393919	-3.75761191907262
1.892567	607868.623933459	-2778300.61110879	2844021.54521555	77.6586422562523
1.607507	2795108.5007181	2263563.78359541	3596714.13003471	-39.001603807544
1.376413	1926850.85510747	2424054.06590541	3096577.51917515	-51.5192419408852
1.17375	1121929.0480578	-6341695.23379932	6440172.60849962	79.9674329875114
1.001604	4224888.2259794	5375543.65199086	6837115.62550163	-51.8345578042795
