EC-Lab ASCII FILE
freq/Hz	Re(Z)/Ohm	-Im(Z)/Ohm	|Z|/Ohm	Phase(Z)/deg
6999984	23.7760453535231	85.2928807153517	88.5447673969275	-74.4237798407232
5969734	19.8479576508895	84.086126438902	86.3968638459205	-76.7188195848992
5091109	16.4712677404807	88.3557384569203	89.877912632895	-79.4401399286525
4341796	15.4450582670682	96.4623207481709	97.6909880643866	-80.9033022500781
3702781	18.2178573511352	107.146247529431	108.683985416916	-80.3503979777769
3157797	21.0876506706011	119.405197033777	121.25300033187	-79.9845071298063
2693047	24.5948735286339	134.326097746649	136.559175230857	-79.6241739724486
2296687	28.7842874886609	153.096612817166	155.779036016786	-79.3519044282024
1958656	35.869391383088	174.850226914597	178.491498649878	-78.4069824324726
1670375	45.2269209135147	200.373254393608	205.414009871778	-77.280719294584
1424531	58.0086783453088	229.360350633692	236.582284218788	-75.8066707750509
1214875	74.3992531816175	261.708979941283	272.078736868373	-74.1304827453957
1036062	95.3272751456128	297.551858348024	312.449032312551	-72.2359977957956
883578.1	121.768371249049	336.973204061107	358.299422957747	-70.1322113636343
753531.2	155.34431870089	378.906830470114	409.514643852392	-67.7073393830816
642624.9	197.06065817709	423.03742841504	466.683585356501	-65.0228029297756
548046.8	319.340686311442	498.567676222502	592.071112036188	-57.3597788987984
467390.6	386.860109138155	530.109116583514	656.259414810438	-53.8789858088653
398593.7	462.118764211194	555.705746557593	722.746586981365	-50.2534635798822
339937.5	542.348146856876	572.992633594591	788.962654726289	-46.5738312167268
289906.2	625.229383040207	581.235271326266	853.666341172331	-42.9116167705435
247234.4	710.291970513127	577.803145072097	915.626101545073	-39.1274138801989
210843.7	792.201318474303	564.604032003435	972.810691731418	-35.4775753223903
179812.5	869.969343031418	541.915040186252	1024.94808092634	-31.9193068793996
153343.8	940.893330001833	514.140899039091	1072.2038623819	-28.6539172725459
130781.2	1003.84853820126	479.594807642587	1112.53002978191	-25.5364252613494
111531.3	1057.96690007274	442.014455881317	1146.5909213218	-22.6749823592188
95109.37	1103.52150936435	403.413041858626	1174.94757498852	-20.0808357276727
81109.37	1136.88412684541	369.403378768537	1195.3929789482	-18.0003343003055
69171.88	1171.50438108576	330.770815005404	1217.30515769977	-15.7668703303721
59000	1194.88235890973	299.678575361643	1231.88924021783	-14.0794695166662
50312.5	1219.83433696019	273.913435676205	1250.20973435302	-12.6558240943708
42906.25	1233.25095763223	240.450553969621	1256.47299748347	-11.0327148748565
36593.75	1244.82700975197	220.39937466564	1264.18755276305	-10.0402946779104
31203.13	1254.55092833366	204.718987222282	1271.14432520944	-9.26790173345044
26609.38	1264.19215486466	190.754407552938	1278.50265874664	-8.58065031734692
22703.13	1270.79350067571	181.4846725148	1283.68719231651	-8.12757248169132
19359.37	1278.30622888654	175.023631079363	1290.23257060358	-7.79636849863799
16500	1284.78465319052	172.516243022636	1296.31533940647	-7.6477260578472
14112.02	1290.2520141332	172.46771917964	1301.72784180635	-7.61358350283536
12011.13	1296.13157273024	176.330660514138	1308.07092914166	-7.74717434234806
10236.38	1302.55748064162	183.587562582795	1315.43163391738	-8.02264672066901
8750.684	1309.24781182808	194.637761432187	1323.63654035084	-8.45587729830128
7449.463	1316.00830168462	209.067257612515	1332.51152651992	-9.02684120030504
6363.206	1323.34815111657	227.149749653796	1342.70150734682	-9.73977831436428
5414.761	1333.208386659	250.093398045866	1356.46279344626	-10.6245053641376
4620.567	1342.09646699846	275.249773339498	1370.03115455568	-11.5900423813362
3941.215	1354.11052682341	309.923118146648	1389.12478129782	-12.8915733087553
3361.769	1365.5696440675	346.926485324877	1408.94940967322	-14.2545711484361
2867.244	1376.45344540237	390.188573618334	1430.68906836614	-15.8266470171381
2442.658	1391.04213403601	440.884514208877	1459.23862802924	-17.5857764172165
2083.003	1407.6141578677	499.963300524755	1493.76735782423	-19.5542703252136
1777.843	1424.3861904806	567.743171291673	1533.3650342238	-21.7316302678477
1513.548	1445.10384893143	645.722641104473	1582.80853656764	-24.0767522528961
1292.065	1466.125917307	734.577526363371	1639.85650214811	-26.6123827048255
1101.762	1492.69653144227	836.783967978874	1711.24233936817	-29.2743560801593
939.101	1521.55203216185	952.859278415006	1795.28866510024	-32.0565130825996
801.2801	1553.32302842278	1086.92909014761	1895.84473985546	-34.9821902831423
684.3433	1586.03171778501	1238.97671071556	2012.60028309539	-37.9962519531618
582.9476	1627.55228053983	1417.51755959345	2158.30545976378	-41.0542537564899
497.0677	1673.14435702869	1621.57040197387	2330.00055965973	-44.1031913674991
423.5089	1729.74069638588	1855.81982613966	2536.94109191099	-47.0138628033873
361.5036	1777.03900087859	2123.96023395293	2769.30942403642	-50.0820231484231
308.1262	1837.85848393308	2436.80773243398	3052.17229720323	-52.9761303744541
262.7298	1907.25767939185	2795.72864535506	3384.33605217597	-55.6980294055805
224.2111	1986.60750375955	3210.04726607781	3775.05136712699	-58.2478061854717
191.2854	2071.55580625944	3686.37232415389	4228.5558256614	-60.6662037429394
163.1722	2180.81362040631	4242.3214775162	4770.03559373983	-62.7940544024962
139.1537	2290.06623025096	4879.85130002371	5390.4871810699	-64.8597964370609
118.6706	2419.98865614151	5618.24434816057	6117.2718307667	-66.6966418324708
101.1982	2579.50737697964	6468.11919189029	6963.5066014467	-68.2577226410843
86.24196	2752.28054619536	7454.5019481103	7946.36064493336	-69.7353234989471
73.61024	2962.18158785822	8584.25780207467	9080.96920884143	-70.9619115467632
62.69291	3211.46374334129	9900.10119109825	10407.9538319874	-72.0276130457065
53.57697	3479.24397600061	11384.3957456313	11904.184354154	-73.0060530724515
45.65746	3810.64063941009	13128.9048633783	13670.7397383741	-73.8147257044991
38.96512	4179.27573491892	15106.0927399327	15673.5568246627	-74.5352774276556
33.18414	4652.24449968511	17420.1695579259	18030.6873499525	-75.0475016965026
28.30617	5168.90656204987	20040.0273521746	20695.9003506276	-75.5369795408828
24.17237	5769.44266413584	23049.3931707381	23760.4922969626	-75.947160026417
20.61345	6478.35165193235	26557.927677471	27336.65236725	-76.2913930697316
17.55618	7316.94526741288	30599.2556218466	31461.9155910353	-76.5518596833981
14.98558	8264.46194940112	35179.3966857998	36137.1177944501	-76.7796104069626
12.76553	9415.72145037507	40510.7947444677	41590.6275651071	-76.915344108629
10.8809	10711.8242786906	46589.1575933576	47804.7360063442	-77.0515361765316
9.278505	12283.8568486554	53582.461812921	54972.4781414427	-77.087976292302
7.923394	14149.957187494	61360.8745619226	62971.2491174498	-77.0144658071867
6.75822	16213.8397024086	70663.1664365584	72499.4599203066	-77.077032798415
5.761429	18760.9504962067	81113.259764165	83254.6345442104	-76.9768797758261
4.919708	21716.08296645	92915.0697347269	95419.0675033816	-76.844984891387
4.191257	25151.6320168641	106682.60011929	109607.398296484	-76.7341175580292
3.564097	29356.3027560674	122627.876721417	126092.777987912	-76.5371346680632
3.051758	33872.7935796716	139831.898540723	143876.078603755	-76.383009021173
2.604164	39345.1714979634	160210.509885068	164971.058061217	-76.2021262452502
2.214424	45670.9070447971	183645.94512144	189239.702255741	-76.0344214986154
1.892567	53144.5711843234	209598.164532795	216230.74717043	-75.7722360115636
1.607507	61971.7409419103	240623.718341039	248475.895216496	-75.557548725728
1.376413	71345.8540289127	273173.735950665	282336.892559861	-75.3628003711631
1.17375	83135.9145672635	311496.998466751	322400.310708179	-75.0565544296656
1.001604	96121.158504396	354771.178871898	367562.057985293	-74.8403201577833
