EC-Lab ASCII FILE
freq/Hz	Re(Z)/Ohm	-Im(Z)/Ohm	|Z|/Ohm	Phase(Z)/deg
6999984	-13.5143545240691	31.4131825015619	34.1968684688914	-113.277995985048
5969734	-13.4184333066456	33.412554574259	36.0062932774638	-111.880322739606
5091109	-13.8714848237733	37.2346073330544	39.7345451020006	-110.43251568709
4341796	-14.0789395390737	42.3279283906083	44.6079596079596	-108.39794255658
3702781	-13.1151588279286	49.5566165061414	51.2627118929399	-104.823488055877
3157797	-12.1647804634644	57.5291194631038	58.8012029632418	-101.939562289865
2693047	-12.0323026475362	66.369525117844	67.4513911744601	-100.275692852805
2296687	-11.9318740748718	77.0646663814395	77.9828982753345	-98.8011859670362
1958656	-11.8077177524687	89.4128396654668	90.1891240425609	-97.5228598303198
1670375	-11.6455378467058	104.456310267812	105.103469526483	-96.3614743795897
1424531	-11.0277474476745	121.98600702482	122.483456530379	-95.1655968695926
1214875	-10.9709023797834	142.823847752909	143.244588679548	-94.3925049166226
1036062	-10.049382334773	166.618708943148	166.921491292139	-93.4515363296793
883578.1	-8.94540407663074	193.793704730374	194.000052183543	-92.6428636976316
753531.2	-7.89978431175609	226.291020708026	226.428868842408	-91.9993747979202
642624.9	-6.80371913775564	264.701841262629	264.789265949229	-91.4723682179589
548046.8	-4.54544887700373	309.514694847056	309.548069662467	-90.8413697981813
467390.6	-3.25270292791101	361.053715797306	361.068367165249	-90.516158953665
398593.7	-1.20309224356951	421.593115722586	421.594832339801	-90.163503430762
339937.5	3.69553830600595	491.528072158042	491.541964355814	-89.5692316056523
289906.2	-103.540094126035	500.666623155309	511.260812730028	-101.684309592135
247234.4	-109.850516063015	602.059535641895	611.99903622199	-100.340322492096
210843.7	-115.310919760157	722.033472170661	731.183248680352	-99.0736846944005
179812.5	-118.791337800049	859.601848062911	867.771121396361	-97.8680669018862
153343.8	-117.994073235904	1023.18078259746	1029.96189987569	-96.5783389050467
130781.2	-113.960011269487	1209.14716196764	1214.50555513878	-95.3841229726555
111531.3	-120.881234705724	1410.19191602057	1415.36338546458	-94.8994006779748
95109.37	-99.121150295885	1678.53523384846	1681.45934643294	-93.3795155348313
81109.37	-91.3334760243822	1964.15465080354	1966.2770140842	-92.6623442626661
69171.88	-87.8855541555656	2322.6357117744	2324.29785531868	-92.1669649529959
59000	-64.4712633151872	2700.79625106273	2701.56564487113	-91.3674596456704
50312.5	-72.7823748810643	3140.98666738423	3141.82980423492	-91.3274098957908
42906.25	-11.4789159015743	3720.05676131316	3720.07447141883	-90.176796051609
36593.75	7.81991022348924	4329.17329278618	4329.18035544479	-89.896505098231
31203.13	-707.878518642793	4843.73979773729	4895.19225621834	-98.3145156158521
26609.38	-691.885274024398	5628.96762173234	5671.32980163584	-97.0073697020406
22703.13	-674.519859209285	6644.7821048139	6678.93002365819	-95.7963088104726
19359.37	-651.1874544715	7848.44213397585	7875.41040398712	-94.7429831999041
16500	-581.522585845011	9261.38899908579	9279.62794029131	-93.592885017738
14112.02	-567.930549547321	10928.386336491	10943.1336018854	-92.9748927399099
12011.13	-467.852720988756	12684.64714066	12693.2722042659	-92.1123047793405
10236.38	-457.445995756509	14775.1202099858	14782.1999059194	-91.7733429477411
8750.684	-276.144838703029	17439.9964347301	17442.182535891	-90.9071453530623
7449.463	-156.298537598424	20341.2427259449	20341.8432023419	-90.4402420458102
6363.206	-59.837459274576	23663.5290066074	23663.6046613377	-90.1448823024203
5414.761	300.966016054895	27564.1187739782	27565.7618129591	-89.3744259553078
4620.567	1473.79533636887	33558.2477940808	33590.594929272	-87.485326808982
3941.215	-6631.48137621846	34205.9556716863	34842.8464488265	-100.97177927811
3361.769	-6825.73245963663	41086.6422321108	41649.7634269393	-99.4324135699319
2867.244	-6707.22284904057	48991.6149364109	49448.6114306989	-97.7956450365816
2442.658	-6275.66873069892	57829.2346974879	58168.757969503	-96.1935404498368
2083.003	-6385.8130970237	68546.8876518181	68843.6955404131	-95.3223008265609
1777.843	-5219.27778803574	80113.4172196644	80283.2515487552	-93.7274728038143
1513.548	-5108.72027278806	94437.4297659428	94575.5103799233	-93.0964743840367
1292.065	-4491.37534612764	110279.586502269	110371.009108421	-92.3322059811117
1101.762	-4665.57824002509	130058.032976781	130141.69033059	-92.0544933378118
939.101	-2146.43042907123	151470.44980543	151485.657168744	-90.811862471732
801.2801	-50.8652802513349	174991.288931191	174991.296323778	-90.01665434787
684.3433	-853.780348617657	202764.560735995	202766.358233669	-90.2412538035613
582.9476	-4220.47885021106	239344.357377169	239381.565393025	-91.0102204604063
497.0677	-58571.6889053327	249579.976703539	256360.698065367	-103.207231411592
423.5089	-72750.0673576045	291961.719753308	300889.046164604	-103.991839816244
361.5036	-63852.9900596493	358503.070367339	364145.102675248	-100.099049964567
308.1262	-43717.1632340023	453884.204961441	455984.716711764	-95.5016366164368
262.7298	-54990.0312911753	459790.327551587	463067.002550818	-96.8200697988124
224.2111	-17112.997676012	565702.178392937	565960.960957532	-91.7327202400663
191.2854	-58914.1732452302	695576.460381099	698066.968166713	-94.8413027575486
163.1722	2745.90795408606	709107.049747426	709112.366280542	-89.778132017757
139.1537	-501626.613152118	1033539.503958	1148839.92151396	-115.889537615254
118.6706	665.504398278135	918790.091132224	918790.332153569	-89.9584991316642
101.1982	179171.605657676	736777.229308339	758250.057633511	-76.3319584816268
86.24196	-160286.775016039	904236.166750874	918332.671478782	-100.051952833807
73.61024	295898.246269124	354600.351933978	461841.078442406	-50.1565019322122
62.69291	71783.3066299619	-991.550597382208	71790.1545012845	0.791382484663981
53.57697	161253.456802396	-41193.3531773475	166431.876984897	14.3301442816139
45.65746	245680.296040701	307334.557449027	393463.261391754	-51.3614952007297
38.96512	475369.402846121	320799.367021001	573487.840362246	-34.0131410346596
33.18414	-48062.085528916	719884.50983817	721487.125020489	-93.8196044172713
28.30617	807519.804943367	345198.420030961	878208.508594426	-23.1457302132763
24.17237	737099.818297767	276894.480999525	787392.339143961	-20.5888888637711
20.61345	806691.777689551	835347.009329257	1161273.54666644	-45.9997676130514
17.55618	1274168.32529856	46744.604659333	1275025.48180767	-2.10103165108237
14.98558	980291.53664156	833201.094727435	1286544.03774844	-40.3629515287749
12.76553	7292.75783508152	1516366.4104681	1516383.94712973	-89.7244458723532
10.8809	1876779.82545145	-5349.03029441284	1876787.44810025	0.163298873077574
9.278505	2212636.35293292	-445389.085703022	2257018.18069409	11.3811706171212
7.923394	186785.137483383	2602618.25502032	2609312.25976304	-85.8950251528169
6.75822	1326222.61899119	584070.744039606	1449139.42364661	-23.7687759788574
5.761429	990139.581493167	304296.969797522	1035844.11793832	-17.0836247464079
4.919708	1253407.41993992	1550797.43571386	1993991.68678737	-51.0536736252957
4.191257	1829618.38470384	-1102358.77200461	2136047.35337534	31.0692781536994
3.564097	1213937.89735602	-3144637.25464644	3370814.24613512	68.8917004413965
3.051758	1726327.82936904	413528.422928348	1775165.77564565	-13.4709310424578
2.604164	5865021.66995444	13696414.9399738	14899337.6160477	-66.8186245470542
2.214424	4787318.29790512	-4254256.60363955	6404460.61234417	41.6259338557376
1.892567	2576359.56352976	1441723.83132669	2952320.47826901	-29.2312581948095
1.607507	3484012.34778181	-1697340.22897434	3875474.9247532	25.9744056591033
1.376413	2451170.77589813	7156922.84963243	7565036.87024775	-71.0942075016589
1.17375	-1652568.26630363	7286907.97122619	7471948.18343339	-102.777742248362
1.001604	2421481.11565108	11564429.1091662	11815227.0995688	-78.1736740182954
