EC-Lab ASCII FILE
freq/Hz	Re(Z)/Ohm	-Im(Z)/Ohm	|Z|/Ohm	Phase(Z)/deg
6999984	-7.77014968436618	33.1396483951827	34.0383830678514	-103.195600368351
5969734	-10.5528964655804	33.9455573461996	35.5480588409183	-107.269272995952
5091109	-11.3767091903364	37.4025240502913	39.0944793715699	-106.918164459096
4341796	-11.7440256325484	42.836297509381	44.4170071298163	-105.331529732819
3702781	-10.9455826854452	49.7784172338883	50.9676034617578	-102.401194385402
3157797	-10.052205894846	58.0740389958177	58.9376013139331	-99.8201914056764
2693047	-9.90400834624879	66.3783819600167	67.1131803221427	-98.4862310670528
2296687	-9.88583189422555	77.1718246799469	77.8024433849821	-97.2999219522345
1958656	-9.64866625469526	89.8184865373598	90.3352494010859	-96.1314318248447
1670375	-9.27996109182009	104.455476414861	104.866888153131	-95.0769030029064
1424531	-8.8147369739038	121.903216951896	122.221495209068	-94.135819824404
1214875	-7.99515449936973	143.02399231713	143.247285746708	-93.1995494913807
1036062	-7.26049470195604	165.138966099312	165.298496386588	-92.5174432362775
883578.1	-6.80056768374827	193.786635509	193.905925187239	-92.0098599255711
753531.2	-5.77146232712467	226.081689653039	226.15534522484	-91.4623414565441
642624.9	-4.18801904323786	264.345100630834	264.378273939127	-90.9076610150779
548046.8	-3.53260263827172	308.277229138516	308.297468829572	-90.6565336134721
467390.6	-1.2317837976282	359.993171939489	359.995279322352	-90.1960474335254
398593.7	1.86744068860604	421.320120572316	421.324259132793	-89.7460463812297
339937.5	3.66146422544472	492.565023569013	492.578632061741	-89.5741017469109
289906.2	-98.4429994228883	499.949539142855	509.549375256734	-101.139369433186
247234.4	-103.951274479064	603.57899412119	612.465076237143	-99.7718910635469
210843.7	-107.636688666474	720.274569359649	728.272690695808	-98.4992945047818
179812.5	-109.673736958148	859.878419832186	866.844406725603	-97.2685811608408
153343.8	-103.281470917503	1023.61242151476	1028.80972570937	-95.7615875680877
130781.2	-108.369345020131	1205.90707634119	1210.76661322892	-95.1351155148917
111531.3	-71.9798837030655	1425.52714058978	1427.34324260704	-92.8906106482462
95109.37	-73.1182893315482	1678.82778835272	1680.419301002	-92.4938373751181
81109.37	-67.4120638144396	1966.16315603921	1967.31846494506	-91.9636795272835
69171.88	-78.1225174688846	2313.54172449338	2314.86034972037	-91.9340003134958
59000	-59.6152097339121	2687.99623826817	2688.65723925075	-91.2705151867343
50312.5	-50.2164190493625	3128.54389935969	3128.94688656789	-90.9195785372166
42906.25	10.6452161607452	3700.9656979001	3700.9810074709	-89.835198614152
36593.75	43.0534798541367	4292.18677428036	4292.40269632694	-89.4253046075155
31203.13	-657.955408861456	4739.69121136633	4785.14138758232	-97.9031892147277
26609.38	-694.301545480549	5602.5818313354	5645.43867320035	-97.0643790026562
22703.13	-659.28421627251	6674.94464092545	6707.42436686732	-95.6408080648741
19359.37	-611.555775015541	7850.55604274206	7874.34001337184	-94.4543270627172
16500	-595.082134212856	9129.86332390303	9149.23641948382	-93.7292489729792
14112.02	-423.933952100041	10761.3748473709	10769.7218441969	-92.2559452985798
12011.13	-383.874933967538	12563.3353692178	12569.1986842586	-91.7501381570383
10236.38	-339.730234634684	14708.3504105208	14712.2733943804	-91.3231700081068
8750.684	-115.613754920315	17264.0986239923	17264.4857392064	-90.3836911114308
7449.463	-106.762460760808	20179.18334451	20179.465767814	-90.3031332454354
6363.206	-41.3636063090433	23627.2331869913	23627.2693940792	-90.1003061859591
5414.761	262.156251764538	27477.9159792499	27479.1665168916	-89.4533795394769
4620.567	269.931982309338	32098.3624440113	32099.4974238256	-89.5181810661062
3941.215	1051.61349254537	37656.3606190228	37671.041743063	-88.4003404078059
3361.769	-6477.08387559692	41217.679672898	41723.4913825431	-98.9306171329563
2867.244	-6604.24379959338	48824.2273868693	49268.8666004119	-97.7033988315656
2442.658	-6023.17354054304	57516.9525263905	57831.4658937723	-95.9782229104267
2083.003	-5690.96058309122	68334.9252308832	68571.4885259806	-94.7606302999942
1777.843	-5225.68980873206	80461.1320539478	80630.6492928087	-93.7159563521321
1513.548	-4876.56062874591	94078.4884781324	94204.7920113192	-92.9672724012347
1292.065	-4470.31231208147	110731.922052591	110822.11987518	-92.311808683605
1101.762	-3765.14781417253	130129.993379688	130184.451894457	-91.6573189942271
939.101	-2902.95186214802	151281.861252052	151309.711100772	-91.0993153975492
801.2801	667.504691664468	175781.943275127	175783.210643376	-89.7824292012205
684.3433	114.267619444176	203566.992492826	203567.024563565	-89.9678383437248
582.9476	4447.52161293699	244633.719895869	244674.145259747	-88.9584585960429
497.0677	13916.0902074436	281722.510396458	282066.003677763	-87.172090782384
423.5089	-26069.2419459989	287770.873855146	288949.271006164	-95.1763111803616
361.5036	-62212.959089783	359504.966506439	364848.287951996	-99.8178995744959
308.1262	-85985.5476387613	425058.248174518	433668.108977278	-101.436104275284
262.7298	-44237.8186108368	458554.621445604	460683.541538621	-95.5104028707024
224.2111	-37427.9797128471	554836.139076371	556097.10922694	-93.8591958009148
191.2854	-107872.5101692	661929.314872317	670661.536348655	-99.2559425690316
163.1722	-156100.894903512	989237.487827775	1001478.05603193	-98.9672864318447
139.1537	-314541.219765187	785108.961754392	845773.173349942	-111.83270994683
118.6706	-233856.458174815	945088.010765187	973591.388171735	-103.898333104079
101.1982	435447.041879903	510627.183632654	671084.381390727	-49.5434829280458
86.24196	474199.216852863	-71726.5523092963	479593.156300261	8.60125960923777
73.61024	250189.46869811	47494.9016555932	254657.683824221	-10.7488830423046
62.69291	43447.6182612482	-5505.9217646588	43795.099121405	7.22233927243027
53.57697	118170.369752833	-60995.2561269413	132983.674026222	27.3011409999303
45.65746	-185720.127626016	343454.14313198	390451.935889613	-118.401957546903
38.96512	117214.336193402	621268.631546798	632229.320067719	-79.3156361997706
33.18414	278437.693791164	431028.410958945	513140.371026813	-57.1381645532198
28.30617	789195.637718876	449367.84229255	908163.648403285	-29.6571778309759
24.17237	-43886.7816648892	1381810.57237952	1382507.3263982	-91.819122275572
20.61345	-105675.649763614	-795426.133980255	802415.152880189	97.5676651298991
17.55618	453735.674857038	-963091.315358853	1064622.44216324	64.7737381762323
14.98558	641413.540059227	1628502.03933783	1750265.75739194	-68.5021464364871
12.76553	132797.265511288	1476697.02666352	1482656.13757343	-84.8612946988418
10.8809	4220523.96912732	1289375.16363415	4413084.05614201	-16.9879751720888
9.278505	437162.595135155	-1685503.14195047	1741273.09061796	75.4598021258787
7.923394	1673842.32171002	-1060738.16689085	1981644.15994561	32.3630283142607
6.75822	1632092.32294973	615648.824651636	1744347.67919884	-20.6672007352096
5.761429	678806.292336986	188563.774167791	704509.956952127	-15.5246180450129
4.919708	378763.418459923	-1282190.85947745	1336964.89381396	73.542685343371
4.191257	1408518.33614509	1176609.47405958	1835302.08894985	-39.873783081604
3.564097	2547669.58302364	1106319.39941454	2777510.20120265	-23.4727802523149
3.051758	-314888.450437321	1208703.91874938	1249047.59693893	-104.601982572279
2.604164	145062.057164954	18140699.9809348	18141279.9658326	-89.541844223045
2.214424	4446804.82972474	2137867.91262759	4934019.90323366	-25.676616574662
1.892567	3938976.17071981	1565960.38742429	4238840.07819126	-21.6805510804118
1.607507	1555833.16911166	2677240.20434368	3096487.03563606	-59.8377067711802
1.376413	-1049220.95720496	1834439.01742414	2113298.63618139	-119.767717043156
1.17375	5984079.75995409	-7774527.88018593	9810835.55734579	52.4144025521078
1.001604	8428415.49341895	-4044187.94684336	9348456.76457337	25.6329858385628
