EC-Lab ASCII FILE
freq/Hz	Re(Z)/Ohm	-Im(Z)/Ohm	|Z|/Ohm	Phase(Z)/deg
6999984	-12.1341444321263	30.6427347935946	32.957770809481	-111.602953870983
5969734	-13.8702519170049	32.6307175685897	35.4562775440718	-113.028759344166
5091109	-14.6545592865234	36.9007466923992	39.70417124609	-111.65973398848
4341796	-14.771970901261	41.9408862341672	44.4662688159807	-109.402738641901
3702781	-14.1063322425115	49.2835258229281	51.2626035904863	-105.972612209791
3157797	-13.3650606633389	57.2757927365052	58.8144648885784	-103.134694954729
2693047	-12.3799879856819	65.6854001850982	66.8418723555986	-100.673554745744
2296687	-12.6044486909161	76.8017118862514	77.8291402718847	-99.3201138420862
1958656	-12.632782856686	89.4440453323831	90.3317466239061	-98.0390948037327
1670375	-12.3389957454926	104.441383653605	105.167739518765	-96.7378503552111
1424531	-11.8150071321042	121.78874607095	122.360504506421	-95.5410561127418
1214875	-11.2067509194596	141.586356963349	142.029179200345	-94.5256030124315
1036062	-11.0827491841019	164.940219317771	165.312138931393	-93.8440697151234
883578.1	-9.99108446341515	193.684393748056	193.94191437208	-92.9529484563564
753531.2	-8.78684749020913	226.155017210812	226.325651437125	-92.2250055776427
642624.9	-7.69521298351502	264.441372000811	264.553313206493	-91.6668300936262
548046.8	-5.9572773860223	309.14683390853	309.204227121044	-91.1039563556897
467390.6	-4.20750045053288	361.214647760711	361.239151832876	-90.6673625158
398593.7	-1.11663625190557	421.741490030099	421.742968274905	-90.1517005001823
339937.5	-0.725713128788224	490.123408688293	490.123945960383	-90.0848363254905
289906.2	-102.021528676982	501.786213323072	512.052532651383	-101.492540618104
247234.4	-107.61605584573	604.3756586164	613.88203443642	-100.096357062929
210843.7	-113.172167818933	726.125424839436	734.891877875302	-98.8587109296674
179812.5	-113.678619408467	860.906952819117	868.379876507345	-97.5221149851862
153343.8	-121.722939956818	1022.49260779886	1029.71239048341	-96.7888435989778
130781.2	-109.732816008689	1208.37722851253	1213.34942094057	-95.1888016602954
111531.3	-109.584696456628	1430.5351068953	1434.72627973333	-94.3805300987044
95109.37	-71.4994400584405	1679.79634692989	1681.31732194957	-92.4372864407387
81109.37	-78.8388086968824	1978.15314365031	1979.72357097913	-92.2823013571558
69171.88	-81.1620198645016	2319.97974188923	2321.39899117857	-92.0036146856041
59000	-62.5478142781143	2689.55018263353	2690.27738606543	-91.3322227412698
50312.5	-27.7858576208402	3255.56495289552	3255.68352522252	-90.4890007541758
42906.25	-7.84142242262618	3701.09494514665	3701.10325185555	-90.1213910328199
36593.75	43.9169079411328	4335.8994146543	4336.12181895327	-89.4196896211232
31203.13	-694.356936654471	4860.78955778311	4910.1330613878	-98.1296221353634
26609.38	-720.347030450615	5641.78043345433	5687.58176236502	-97.276201499516
22703.13	-662.547950042502	6690.40966631403	6723.13552512618	-95.655533080209
19359.37	-687.758350638998	7845.64266738655	7875.72983368462	-95.0098096450966
16500	-461.74873885818	9250.50294373605	9262.02011495907	-92.8576082792466
14112.02	-638.030653464778	10794.9858590814	10813.8246153952	-93.382494915366
12011.13	-322.20480056381	12729.2912843735	12733.3684677674	-91.4499655681692
10236.38	-254.458123537257	14923.9454960368	14926.1146352731	-90.9768170209502
8750.684	-214.254671157488	17311.683111998	17313.0089018157	-90.7090738432856
7449.463	-87.2023255213572	20215.2041877114	20215.3922691705	-90.2471552688511
6363.206	20.0672390150438	23767.1413104189	23767.1497820732	-89.9516236381226
5414.761	105.541242144419	27561.1698662008	27561.3719424009	-89.7805957362761
4620.567	383.974458932385	32022.1512100521	32024.4532272536	-89.3130048796698
3941.215	398.46714105709	37261.7390931268	37263.8695831063	-89.3873175056983
3361.769	-6461.82290840657	41223.2427946319	41726.6210206958	-98.9087301451823
2867.244	-6467.89022899223	48833.3892091514	49259.8569391626	-97.5448041138734
2442.658	-6201.16361008264	57945.3577619951	58276.2294274829	-96.1083989214804
2083.003	-5717.44952067201	68111.0854241499	68350.6341351511	-94.7983309229138
1777.843	-5602.12226554555	80276.1587015427	80471.3951025667	-93.9919501220466
1513.548	-5424.29593029451	94097.640490527	94253.8536730668	-93.299186851954
1292.065	-4331.29015006529	110543.686234681	110628.507360064	-92.243798593323
1101.762	-4053.98867585741	131446.12698499	131508.62756313	-91.766524749979
939.101	-2921.7801778334	152001.564923511	152029.64361796	-91.1012061582731
801.2801	-1037.98734641593	179870.837874044	179873.832825238	-90.3306352196017
684.3433	399.978950059496	206458.946785848	206459.334230938	-89.8889993511148
582.9476	1440.29632750588	242131.844800888	242136.128490137	-89.6591859794878
497.0677	10857.6954589918	259271.024256094	259498.272767825	-87.6019810160706
423.5089	-58734.5665603562	286578.433478126	292535.378790001	-101.58243769616
361.5036	-53383.1478511474	359099.286202545	363045.53133963	-98.4555778250133
308.1262	-71539.0151195298	414239.811308057	420371.802047672	-99.7983044179024
262.7298	-5828.97879196176	581675.858285241	581705.063675424	-90.5741422825323
224.2111	-51808.8897568706	604249.715883719	606466.718133315	-94.9006038893446
191.2854	-74046.3680765155	686356.0444935	690338.67372333	-96.1574441087436
163.1722	-162201.293370504	926346.213922026	940439.56085372	-99.9316889926089
139.1537	24414.0721212651	639163.922524416	639630.023352829	-87.8125430057812
118.6706	-204339.074643082	956512.305328386	978095.214010688	-102.058794807032
101.1982	-164478.824706925	827478.449871974	843666.918149276	-101.242215357412
86.24196	675958.780101456	151789.750190516	692791.744075482	-12.6560991141125
73.61024	278701.373597019	56698.7597571716	284410.275839089	-11.4992744074315
62.69291	36622.9804593597	-26680.5744920973	45311.0996661414	36.074087412479
53.57697	138570.854358259	-38756.7004156013	143888.71917104	15.6257049888078
45.65746	271098.145360554	104357.800463186	290490.541903598	-21.0539472469229
38.96512	256265.531426472	270160.636418226	372369.161004497	-46.5119804227425
33.18414	550646.71897002	59988.078084337	553904.665646265	-6.21734838145901
28.30617	919505.245297379	13942.2022747604	919610.940090245	-0.868693398834368
24.17237	655974.911492881	309893.032566395	725490.714028299	-25.2867990091668
20.61345	772406.579153449	-172491.955901063	791432.497671221	12.5885989562681
17.55618	1035696.50094382	129393.276012787	1043747.98775595	-7.1212695173692
14.98558	954795.596930692	478393.816497306	1067939.73405857	-26.6128468006396
12.76553	538966.219342698	-1266822.96253524	1376708.03150091	66.9528112626738
10.8809	685996.126934222	-1560150.83678287	1704306.69765833	66.2649754296193
9.278505	1110288.47930771	1426629.34724376	1807764.31032936	-52.1078071063554
7.923394	1450318.07180542	1439543.27960457	2043454.76173564	-44.7863747832572
6.75822	631421.2037946	-1022991.87678936	1202166.84223881	58.3158735715332
5.761429	701299.175470049	156803.792296191	718615.309323033	-12.6034901293636
4.919708	665490.704915019	1105414.91229567	1290279.04216643	-58.9508826958767
4.191257	857116.743063755	1723237.82906931	1924629.2439781	-63.5548277628709
3.564097	-964328.828875524	-1333008.4473026	1645248.19124062	125.882838294808
3.051758	1087713.88983932	1489366.63358628	1844270.71640513	-53.8586057000925
2.604164	8027591.9361833	555104.300740488	8046761.65165688	-3.95567999110258
2.214424	4922970.81608707	4403519.37281208	6605045.38385439	-41.8121279504213
1.892567	2121307.83742901	158863.160887541	2127248.09202522	-4.28284347578464
1.607507	1523888.08718776	-2501679.80806774	2929272.39504397	58.6524862761726
1.376413	1689072.27185225	3198423.84053662	3617026.43109684	-62.1616808840104
1.17375	6818323.69446065	-1561167.76989243	6994768.24549565	12.8965122049494
1.001604	4710460.79761439	-5025832.55953444	6888209.77049469	46.8552394378053
