EC-Lab ASCII FILE
freq/Hz	Re(Z)/Ohm	-Im(Z)/Ohm	|Z|/Ohm	Phase(Z)/deg
6999984	19.7941984656915	86.3887504324411	88.627459030358	-77.0946226027255
5969734	18.9323207488417	88.3560080576386	90.3615898975805	-77.9059308406307
5091109	17.1867688149448	93.4616795848852	95.028788128262	-79.580228109562
4341796	17.7219238531399	102.488966818219	104.009878879472	-80.1896833162427
3702781	21.9254115004518	112.372176954102	114.491177925936	-78.9594856343173
3157797	23.6527085154502	124.182245185045	126.414716862063	-79.2161707265359
2693047	26.1884801528145	140.527162573002	142.946563139983	-79.4435203796438
2296687	30.9227846478058	161.126846150676	164.06730070565	-79.1361285225561
1958656	37.6339351990745	183.799030236415	187.612357254033	-78.4282964624515
1670375	46.079407177194	210.662213209738	215.642945259581	-77.6616789325665
1424531	57.2976816881963	241.676334662457	248.375673250667	-76.6623259462993
1214875	71.3189579994664	278.295876572212	287.289033357046	-75.6261317738052
1036062	91.3112413318186	320.27589617845	333.038124644112	-74.0870525445248
883578.1	105.995044236536	357.755760397184	373.127503006777	-73.4966195366425
753531.2	149.605511322087	409.586280643336	436.05358651109	-69.9347701074322
642624.9	180.785702465488	467.742810287198	501.464661557827	-68.8681518760166
548046.8	303.795429224614	565.46698822883	641.906985157781	-61.7532192718616
467390.6	373.221182352206	614.2847493192	718.776602431194	-58.7183764226126
398593.7	453.413992054095	659.280366437059	800.146767636921	-55.4821102604855
339937.5	543.22776281138	699.887786829677	885.968010958861	-52.1826697718671
289906.2	642.340312879291	731.715107972825	973.657063234046	-48.721534863885
247234.4	747.618668604308	750.92121098804	1059.6302839941	-45.1262705360627
210843.7	854.059291709282	760.462285789609	1143.55592861185	-41.6821639337518
179812.5	969.215518762978	753.260669954809	1227.50982020991	-37.85384902276
153343.8	1077.37244847969	734.499380734471	1303.92512555072	-34.2842360154257
130781.2	1177.29562739132	705.819181504594	1372.66372839619	-30.943777478254
111531.3	1270.9656300861	662.703018543553	1433.36280251962	-27.5382996904908
95109.37	1352.52627913971	618.176356737007	1487.10098641355	-24.5629184012205
81109.37	1421.64111838353	567.387725193381	1530.68360551058	-21.7573159658034
69171.88	1481.37478613358	515.415671833753	1568.47842566105	-19.1843515839433
59000	1524.75505169144	464.533004391116	1593.94757750285	-16.9439204472212
50312.5	1575.81072478838	422.998195105613	1631.59643092914	-15.0258124477279
42906.25	1608.58201621893	362.062029647303	1648.82534436346	-12.6848272179603
36593.75	1630.73792205424	337.735400820918	1665.34422009188	-11.7008696076483
31203.13	1643.94674299533	278.763025304787	1667.41408116941	-9.62406375805966
26609.38	1655.82768108733	278.130027865066	1679.02400871913	-9.53498600965067
22703.13	1677.92236586438	242.798643733424	1695.39807929192	-8.23366134703774
19359.37	1694.05795884044	223.715342040464	1708.76590619515	-7.52288428386615
16500	1711.61314772913	211.240863672448	1724.59916211399	-7.0356524340428
14112.02	1714.92395219991	199.741022410063	1726.51690923153	-6.64343417538599
12011.13	1730.9292087686	193.169558065138	1741.6745976018	-6.3677899097265
10236.38	1737.43165351276	189.426155789325	1747.72738695862	-6.22218414524991
8750.684	1747.5677225428	188.020953083052	1757.65321484976	-6.14083559749723
7449.463	1761.46256243172	194.916868870356	1772.21413622021	-6.31444753899983
6363.206	1774.25967822111	198.422489357649	1785.32038862613	-6.38109971930739
5414.761	1786.46765948113	209.407031492325	1798.69897515132	-6.68561532826352
4620.567	1800.5953160697	221.955456677239	1814.2237229738	-7.02727579107798
3941.215	1815.2700818217	239.715641704243	1831.02950790932	-7.52267228948195
3361.769	1832.11599888621	261.642327860216	1850.70412035607	-8.12738913519687
2867.244	1848.21586864668	284.828426735633	1870.03452636418	-8.76092575800688
2442.658	1864.29701028789	316.424006602983	1890.95941112522	-9.63291595599443
2083.003	1888.30758631136	352.004572950918	1920.83647401318	-10.5594631952343
1777.843	1906.62660308657	391.379613064868	1946.3820295924	-11.6001550864202
1513.548	1928.30271536373	440.039383336648	1977.87411656213	-12.8547951478859
1292.065	1958.09117621811	486.427653787499	2017.6057386795	-13.9509722719522
1101.762	1982.58860709568	556.740850040849	2059.27607646226	-15.6855447009313
939.101	2013.53951580245	629.529333666502	2109.65602969882	-17.3617556488983
801.2801	2039.26107346936	715.568749371602	2161.16273354059	-19.3357728700405
684.3433	2070.28664699703	818.626577970879	2226.26060354454	-21.5746856686055
582.9476	2110.83048598152	921.585619166483	2303.24236544995	-23.5860139013666
497.0677	2146.46288801794	1051.12817587899	2390.01534969234	-26.0911057028155
423.5089	2191.06975536697	1201.13616814606	2498.70261682187	-28.7313868960256
361.5036	2241.05272916724	1366.23938142469	2624.67662432225	-31.3682303424648
308.1262	2300.29329217837	1562.02103653242	2780.51415184505	-34.1785825980036
262.7298	2357.64775922561	1785.19676488847	2957.26739507096	-37.1327873671658
224.2111	2426.50276029332	2038.56187230605	3169.17184023382	-40.0344060698909
191.2854	2501.28984965086	2332.89562738848	3420.35859527253	-43.0049630545262
163.1722	2579.93285723828	2664.93994916667	3709.17220960717	-45.9285489591166
139.1537	2676.19334325418	3047.32326125284	4055.63680191541	-48.7100356009367
118.6706	2780.41367966034	3493.91857746843	4465.21749257764	-51.4876948846853
101.1982	2897.03092456592	4009.48343812616	4946.58929147137	-54.1502068403464
86.24196	3033.53862644003	4598.04049532104	5508.56905146117	-56.585329035854
73.61024	3183.38198152826	5269.33494892374	6156.28229082032	-58.8624180123085
62.69291	3357.20688902594	6052.92315612736	6921.61229986959	-60.9853985306068
53.57697	3547.54201104208	6928.7952388331	7784.16712190744	-62.8875611146616
45.65746	3778.89225605376	7951.23347387284	8803.52999875045	-64.5801930330371
38.96512	4038.24487133183	9122.33133054106	9976.18917949178	-66.1221370512932
33.18414	4342.61435890518	10472.674131123	11337.3366769653	-67.4780989692498
28.30617	4676.23827791654	12029.9529225603	12906.8575474772	-68.758086683572
24.17237	5065.31302732617	13783.7966095443	14685.0415402233	-69.8224703795865
20.61345	5541.12596894582	15830.4934433466	16772.2568446696	-70.7084923139768
17.55618	6080.81486733739	18190.4794129437	19179.9335432519	-71.5159617346547
14.98558	6696.64507021451	20858.2722665517	21906.9070647143	-72.200531708277
12.76553	7407.39613887887	23950.3118596023	25069.6421141284	-72.8141122110826
10.8809	8248.53560212076	27495.4650955626	28706.0784573712	-73.3009544496053
9.278505	9247.31230356961	31567.3606061469	32893.9362265793	-73.6726321713066
7.923394	10384.9700674118	36171.4150213261	37632.6835071066	-73.9809980566461
6.75822	11635.4966915744	41404.1920877116	43008.0446625484	-74.3034587037457
5.761429	13225.3177981125	47492.800279892	49299.8489783365	-74.4390778138531
4.919708	15015.8197835814	54402.4582555732	56436.7106414112	-74.5697694869225
4.191257	17190.1187667085	62283.3640107029	64612.0547243567	-74.5705716278357
3.564097	19617.9877942135	71542.0580524216	74183.0945395915	-74.6655107344888
3.051758	22522.5757702872	81523.8503182539	84577.8019934391	-74.5561330913984
2.604164	25942.3872955349	93147.4787904873	96692.6070783895	-74.4370151657907
2.214424	30144.2028356226	106710.901087601	110886.831389137	-74.2258229225055
1.892567	34604.3408703892	121673.887847354	126498.993636173	-74.1241229138697
1.607507	40181.4610743913	139106.302306145	144793.346378076	-73.8884080769529
1.376413	46597.8494266233	158023.45688455	164750.637318736	-73.5703019090963
1.17375	53959.5223256859	179656.479097208	187584.862212338	-73.2824479128226
1.001604	62705.8272121887	203789.301778623	213218.433269226	-72.896904612479
