EC-Lab ASCII FILE
freq/Hz	Re(Z)/Ohm	-Im(Z)/Ohm	|Z|/Ohm	Phase(Z)/deg
6999984	18.9346173467658	1.05997386365166	18.9642631984496	-3.20411578136901
5969734	12.241701070008	-1.29791803730028	12.3103142250304	6.05213600123303
5091109	11.3118402500928	-3.93057272035876	11.975271677655	19.1610207425256
4341796	8.30340953790674	-4.27872323105458	9.34098937169756	27.2619220388536
3702781	5.88721443796139	-4.99580378773903	7.72122719029357	40.3174472206856
3157797	4.17481718337682	-4.82087847003679	6.37730097592098	49.1078688459858
2693047	2.87430655474011	-4.03784475468819	4.95639268355372	54.5551504916331
2296687	2.24031478890008	-3.76108769220621	4.37776095530917	59.2195999017931
1958656	1.78006476310042	-3.22518261254021	3.68380692288066	61.1045164562145
1670375	1.33492226510937	-2.74092756818136	3.04872127094316	64.0323880851125
1424531	1.17469388998638	-2.41801078520026	2.68824885241603	64.0890536110509
1214875	1.16056349106754	-2.16860848411344	2.45962809671862	61.8458665473342
1036062	0.839429198277634	-1.84200485555315	2.02425869562228	65.5005351393557
883578.1	0.71013545769223	-1.5744616289517	1.72720056429849	65.723014651205
753531.2	0.652365764151739	-1.33929572077146	1.48972954522424	64.0294660003573
642624.9	0.584694899587338	-1.1748250403838	1.31228122028636	63.5410767757878
548046.8	0.558182427044603	-1.01684096071254	1.1599711898337	61.2359529744175
467390.6	0.524492861663536	-0.880595766415853	1.02495934834779	59.221490662517
398593.7	0.490544268597712	-0.765542443214845	0.909224346252022	57.3490645880295
339937.5	0.464022513332044	-0.664041659547086	0.810103831920968	55.0547181227856
289906.2	0.443746414965132	-0.574901418520059	0.726238612172875	52.3366980159322
247234.4	0.425601803017077	-0.497708079210574	0.654866571786089	49.4654747242387
210843.7	0.411667827181917	-0.430168160821474	0.595411661391688	46.2589393421009
179812.5	0.401051435829005	-0.370035292611751	0.545681566445826	42.6965799804529
153343.8	0.392466022895366	-0.321380488196669	0.507262256944902	39.3131782565362
130781.2	0.386085322891023	-0.27902382466116	0.476357188756932	35.8556357939295
111531.3	0.379335679559987	-0.243089314974302	0.450541865803737	32.6529277698631
95109.37	0.372781246880848	-0.212325550161199	0.429008155257328	29.6646033640008
81109.37	0.36610968163426	-0.184745038981594	0.410081733822234	26.7762715525448
69171.88	0.35973065899942	-0.16025391789265	0.393811458980184	24.012162720651
59000	0.350323634272912	-0.135583506957789	0.375645492571326	21.1576125007959
50312.5	0.344492015555668	-0.105192408742889	0.360194657981955	16.9803204559459
42906.25	0.373882146248337	-0.105763448651492	0.388553427927125	15.7950999609382
36593.75	0.358474420858417	-0.0961402344847727	0.371142634436633	15.0130183001626
31203.13	0.352382016316467	-0.0838250882725393	0.362215033988318	13.3808964545309
26609.38	0.348184145718356	-0.0719736606663999	0.355545225195535	11.6792003438365
22703.13	0.348028150598917	-0.0640602129370368	0.353874701682447	10.429476260253
19359.37	0.345388083090586	-0.0573190336495206	0.350111981456654	9.42266909307117
16500	0.343160149325845	-0.0510031824721522	0.34692969418547	8.45386621644037
14112.02	0.341206338166096	-0.045330265018647	0.344204297084416	7.56759791019816
12011.13	0.339486280280241	-0.0405746037485722	0.341902373445796	6.81552777873149
10236.38	0.337688968428849	-0.0365516462119221	0.33966139350733	6.17767678372415
8750.684	0.33514708341914	-0.0335728354691115	0.336824439145666	5.72043182602456
7449.463	0.335674063620789	-0.0317647239909435	0.337173656559813	5.40578288550375
6363.206	0.333449702770237	-0.0246811529120773	0.334361875199055	4.23317777522931
5414.761	0.332167932301261	-0.027640159266115	0.333315936693029	4.75670363658523
4620.567	0.329742819994073	-0.0219654915349805	0.330473614916557	3.81107117318951
3941.215	0.328428429440888	-0.0223161577601057	0.329185728977096	3.88717658415894
3361.769	0.328320687260211	-0.0210576513696983	0.32899528623405	3.66977863499466
2867.244	0.326700590674183	-0.0194984004519415	0.327281932845436	3.41552001903843
2442.658	0.324586220359413	-0.0196048380698515	0.325177742354784	3.45643608110431
2083.003	0.323351151659971	-0.0166739425992331	0.323780770957189	2.9519026247414
1777.843	0.319979274656731	-0.0134166626587105	0.320260430035847	2.4009933914828
1513.548	0.32674092718952	-0.0149005410581615	0.327080509392555	2.61108097213901
1292.065	0.312463333836472	-0.0115495039687778	0.312676711691369	2.11684585918577
1101.762	0.312568142937315	-0.00900260965129848	0.312697762959403	1.64978097783544
939.101	0.3278004025289	-0.0109851377493252	0.327984416016189	1.91935876636008
801.2801	0.306885756106605	-0.0138021984594332	0.307195976509192	2.57514448627061
684.3433	0.315616112659432	-0.0229508488074735	0.316449477849521	4.15909146752992
582.9476	0.324843707273176	-0.011692971544486	0.325054087404729	2.06151074124763
497.0677	0.311045533122718	-0.00272350061421378	0.311057456318269	0.50166643285186
423.5089	0.302179752049603	-0.0134510074051897	0.302478978028183	2.548739726282
361.5036	0.301304856209681	-0.0124898541290448	0.301563613242216	2.37369710916497
308.1262	0.307700789241125	-0.00153900140806284	0.307704637964632	0.286569138418145
262.7298	0.300153673970699	-0.017769450863737	0.300679200115517	3.38802320149231
224.2111	0.311394356182492	-0.00246709769347103	0.311404129120566	0.453930282263197
191.2854	0.297155667518417	-0.0125507226789649	0.297420596761691	2.41851787860467
163.1722	0.294850976063926	-0.00923002066379066	0.294995409061402	1.7930026649265
139.1537	0.302519561026441	-0.020100233209844	0.303186583111326	3.80130224278253
118.6706	0.310056986431569	-0.00494138720628834	0.310096359447429	0.913047207671036
101.1982	0.294684765795615	-0.0122998218005554	0.29494134469135	2.39007625365438
86.24196	0.298115672175842	-0.0151164235733443	0.29849867714699	2.9027863907116
73.61024	0.293074773725905	-0.0305391273630958	0.294661604717326	5.94889473612841
62.69291	0.230064446959946	0.0334375657060821	0.232481656384615	-8.26946547965546
53.57697	0.288608217675258	-0.01206364985421	0.28886023429592	2.39353577282137
45.65746	0.324154399627744	-0.0346090037855937	0.325996714616964	6.09421402170744
38.96512	0.285504542288716	-0.0217927149566339	0.286335059139935	4.36495348444704
33.18414	0.290943521480554	-0.00559985577523281	0.290997407335888	1.10264868236234
28.30617	0.303494540746826	-0.00205261859367672	0.303501481884715	0.38750149819995
24.17237	0.283901934928013	-0.00429910352320913	0.283934483546773	0.867558942400009
20.61345	0.287375169289896	-0.0333495395101494	0.289303784472197	6.61949599870543
17.55618	0.296734374958455	-0.0102597358345725	0.296911689667787	1.98024068871289
14.98558	0.278995572277011	-4.19793480950371E-05	0.278995575435243	0.00862106676021544
12.76553	0.278857614422315	-0.0168024769682994	0.279363369741945	3.44817001899396
10.8809	0.290841071247531	-0.0165106125970848	0.291309335677287	3.24910843814725
9.278505	0.297524868499047	-0.00167537399407736	0.2975295855094	0.322631331226797
7.923394	0.294606125212986	0.0134521530651412	0.29491308793456	-2.61439438706825
6.75822	0.283783429863712	0.00677557778992636	0.283864304764794	-1.36772703332182
5.761429	0.260663126521577	0.00421463050120505	0.260697197219812	-0.926327796404373
4.919708	0.272277896889949	-0.00873771886263105	0.272418062664237	1.8380583470622
4.191257	0.265656376518366	-0.00601861124872469	0.265724545471869	1.29784967358546
3.564097	0.269572350583507	-0.0199845806406257	0.270312107872546	4.23983153410417
3.051758	0.286879470814968	-0.0205494423529749	0.287614516942547	4.09715186508731
2.604164	0.280160560245937	-0.0136464662688512	0.280492719261916	2.78864173876564
2.214424	0.277718861761638	-0.0182117632336116	0.278315350813168	3.75187088196541
1.892567	0.280446935568432	-0.0229931877159033	0.281387935688549	4.68706348137605
1.607507	0.29185780851843	-0.0214694009047207	0.292646400231385	4.20716663724597
1.376413	0.298767119690688	-0.0136778527075331	0.299080048587262	2.62122690877518
1.17375	0.298671242006012	-0.0104836548104468	0.298855178672879	2.01031295154812
1.001604	0.290584926473713	0.00235702758261781	0.29059448562001	-0.464734260927081
