EC-Lab ASCII FILE
freq/Hz	Re(Z)/Ohm	-Im(Z)/Ohm	|Z|/Ohm	Phase(Z)/deg
1513.548	0.337643891794267	-0.0125484260493211	0.337876990430385	2.12839955312459
1292.065	0.334007952222595	-0.00942101374608551	0.334140790158782	1.61565389268406
1101.762	0.333303852805669	-0.0209228263670551	0.333959912202481	3.59197383120487
939.101	0.331000811457114	-0.0159743725479911	0.331386055475438	2.76299786672897
801.2801	0.331382634375023	-0.00984976509900557	0.331528985516856	1.70251486738369
684.3433	0.333459495868505	-0.0087139988889951	0.333573334008453	1.49691870288351
582.9476	0.336900978481224	-0.00919610511945307	0.337026464318418	1.56356687248651
497.0677	0.335676643747976	-0.00910039489235622	0.335799979668109	1.5529425160914
423.5089	0.331937944536905	-0.0144112708642664	0.332250633936654	2.48596704320526
361.5036	0.33425868948285	-0.0102237106915442	0.334415005278018	1.75191528847987
308.1262	0.328790198006568	-0.0144910514053546	0.329109381324858	2.52361266217654
262.7298	0.329091471704242	-0.00895542938796198	0.329213299342519	1.55878152898158
224.2111	0.326804926130173	-0.00992935788476276	0.326955733840151	1.74028997481666
191.2854	0.330798221109345	-0.00837794889603431	0.330904296008395	1.45078929783973
163.1722	0.327546474641225	-0.0124229272346948	0.327781973529621	2.17202857035041
139.1537	0.325289886798662	-0.010724895027181	0.325466640113592	1.88837320879941
118.6706	0.323782703884123	-0.00862624173048394	0.323897593972087	1.52611720508117
101.1982	0.327002370547986	-0.000447691704176333	0.327002677010241	0.0784423339284322
86.24196	0.317643963846177	-0.0116238668657268	0.317856574650932	2.09574726133788
73.61024	0.312748589864105	-0.015398256927896	0.31312742897805	2.81869623990923
62.69291	0.297558020636385	-0.0143820787697719	0.297905387387981	2.76716326989957
53.57697	0.318637711345104	-0.00997416903969052	0.318793781525422	1.79291786717282
45.65746	0.310920966181276	0.0130995206437017	0.31119679409048	-2.41252187527863
38.96512	0.307878254826033	-0.00939240764392838	0.308021488075221	1.74737402499566
33.18414	0.31763996171619	0.00480290432560041	0.317676271019766	-0.866280100601277
28.30617	0.296633344282587	-0.0164102768810913	0.297086920155678	3.16647531901789
24.17237	0.307866671662337	-0.0157072619098307	0.308267101061968	2.92068043561133
20.61345	0.324968495255586	-0.000166144967209453	0.324968537727624	0.0292933152536001
17.55618	0.321407042680634	-0.00374874352967812	0.321428903745078	0.668241249418874
14.98558	0.31210799175985	-0.0058406216638756	0.312162636107826	1.07207737328755
12.76553	0.303384231743998	-0.011709292551409	0.303610111167185	2.21026720063965
10.8809	0.320956411035306	-0.0202952898879846	0.321597444915693	3.61821186047509
9.278505	0.330263952728568	-0.0202492377544227	0.330884133952555	3.50854315482469
7.923394	0.324091709373742	-0.00945369653466035	0.324229561365035	1.67083373905973
6.75822	0.317231562587872	0.00221804150671805	0.317239316620857	-0.400598052889491
5.761429	0.312554925766615	0.0127894396593607	0.312816481963106	-2.34317965812292
4.919708	0.30052290410809	0.00020329325733681	0.300522972868479	-0.0387585894883172
4.191257	0.301867908740714	-0.0016096341107521	0.301872200193165	0.30551232633654
3.564097	0.293767734667072	0.00136385059577556	0.293770900566872	-0.266000354643405
3.051758	0.300504881740493	-0.00424341394874247	0.300534840761946	0.809016979682518
2.604164	0.290854298534203	-0.00736082450261771	0.290947426029483	1.44970927239591
2.214424	0.296588991666598	-8.35298132176019E-05	0.296589003429054	0.016136491133589
1.892567	0.306035087733327	-0.00803320570248383	0.306140502576519	1.50362861162229
1.607507	0.294279502282348	-0.0319637696710738	0.296010317447098	6.19899654328096
1.376413	0.268563838667889	0.00679782706940675	0.268649857422068	-1.44994819579648
1.17375	0.325268829996273	0.0204207312482209	0.325909217469921	-3.59237662053485
1.001604	0.308498499917023	-0.0214170735901075	0.309241031385257	3.97130684200698
