EC-Lab ASCII FILE
freq/Hz	Re(Z)/Ohm	-Im(Z)/Ohm	|Z|/Ohm	Phase(Z)/deg
2083.003	0.331483869983339	-0.017067171033822	0.331922949472055	2.9473957387249
1777.843	0.322216446931721	-0.0158260664821927	0.322604871404015	2.81189465792323
1513.548	0.329471491628824	-0.00990473390073033	0.329620338495316	1.72193527184965
1292.065	0.325397970518366	-0.00769403014617091	0.32548892042182	1.35450545924138
1101.762	0.326929389488199	-0.0200347792491536	0.327542696591893	3.50679563354954
939.101	0.319348093703942	-0.0180470295895872	0.319857624935453	3.2344642098615
801.2801	0.324480326002073	-0.0129398534767069	0.324738235769073	2.28367111560504
684.3433	0.323245958372303	-0.0109016308724402	0.323429737593357	1.93159657190628
582.9476	0.322748707788613	-0.0129043535263771	0.323006579993587	2.2896184175185
497.0677	0.319757401013042	-0.0118961713868907	0.319978615529665	2.13063466148339
423.5089	0.31799695575868	-0.0127614475493935	0.318252915800223	2.29808787964612
361.5036	0.318089883903895	-0.0115722332285476	0.318300315463069	2.08352377973655
308.1262	0.317800346436216	-0.0114767673902488	0.318007509950172	2.06823153618451
262.7298	0.315859978919742	-0.0102800908279396	0.316027224382031	1.8641107380068
224.2111	0.313554693409983	-0.0123005893123169	0.313795873549763	2.24653199132466
191.2854	0.3147970471765	-0.0103412401730922	0.314966858827022	1.88151834173846
163.1722	0.312418158358304	-0.0104346762856516	0.312592367375118	1.91295137933713
139.1537	0.312651562845057	-0.0117796173369394	0.31287339154051	2.15768399899152
118.6706	0.3066523581941	-0.0096302480357309	0.306803537240418	1.79875115048504
101.1982	0.310110493512596	-0.010734920361604	0.310296240231485	1.98258408609497
86.24196	0.309238744964109	-0.0122755167298317	0.30948229302815	2.2732152088017
73.61024	0.303152240959704	-0.0237088725765135	0.304077937111096	4.47187485746979
62.69291	0.250353019378908	-0.0434696026394871	0.25409887970192	9.8502445772655
53.57697	0.28675532221968	-0.00207333904756399	0.28676281759691	0.41426086176796
45.65746	0.29077892827378	-0.0254417958161523	0.291889825280703	5.0003785761498
38.96512	0.304484344788363	-0.0128621065381282	0.304755885924779	2.41886509102852
33.18414	0.291465041647855	-0.0167323232557304	0.291944928272988	3.28560986040165
28.30617	0.319561667569258	-0.0127909399639181	0.319817553496998	2.29212682674558
24.17237	0.301802284382393	-0.0132873324324248	0.302094640901822	2.5209111661725
20.61345	0.286792639162655	-0.00772230613725796	0.286896587449134	1.54239894674541
17.55618	0.291122315035755	-0.00178646335946809	0.291127796273582	0.351589420333622
14.98558	0.294021186622516	-0.00922118258144264	0.294165749860708	1.79633899816754
12.76553	0.291462358428138	-0.0115119878499246	0.291689616278587	2.26185517459764
10.8809	0.299476170662268	-0.0119156496653242	0.299713128677211	2.27850017150398
9.278505	0.29232817293011	-0.00182260002920099	0.292333854624336	0.357221595459758
7.923394	0.286773645373936	-0.00742308098481046	0.286869701802688	1.48275919689244
6.75822	0.294874796850776	-0.00274242676589557	0.294887549283372	0.532853098598626
5.761429	0.290999425026967	-1.02681911657919E-05	0.290999425208128	0.00202173601110965
4.919708	0.29217476201596	-0.0169013000029307	0.292663194646802	3.31067332619185
4.191257	0.280258072791119	-0.00263711907927513	0.280270479647126	0.53911501163739
3.564097	0.291317787419248	-0.0202458098025147	0.292020454902402	3.97551177926544
3.051758	0.275119882043986	-0.00175545539293158	0.275125482497593	0.36558179453585
2.604164	0.299170498610597	-0.0281259935326097	0.300489698244564	5.37077688309464
2.214424	0.29600447763128	0.0199412976671853	0.296675422187983	-3.85409170923691
1.892567	0.25793294168794	-0.00138219745313697	0.257936645084784	0.307030664493636
1.607507	0.301722077251219	-0.0329751261194412	0.303518649910321	6.23708677750126
1.376413	0.295932742479212	0.00515402104602899	0.295977620782738	-0.997773341626006
1.17375	0.296635215545009	0.035753090558222	0.298782085450079	-6.87264021175013
1.001604	0.273927231266397	-0.00719584923342939	0.274021729568048	1.5047682246768
