EC-Lab ASCII FILE
freq/Hz	Re(Z)/Ohm	-Im(Z)/Ohm	|Z|/Ohm	Phase(Z)/deg
6999984	21.4367925992121	91.5243109831729	94.0012530655107	-76.8178266918978
5969734	22.1625417730664	88.7819683473465	91.5063722451729	-75.9837720295259
5091109	20.8985564969468	93.5955103144977	95.9003087309281	-77.4131298410387
4341796	21.9440159266238	101.729920675515	104.06976792342	-77.8273210311388
3702781	27.1284527977001	111.433943961669	114.688608056988	-76.3175772409691
3157797	30.4808272993386	122.805160988542	126.531373177856	-76.0606056698529
2693047	35.3072711914274	138.483979077292	142.91401561801	-75.6968347657243
2296687	43.081998704284	157.646658314868	163.427437996808	-74.7153007668857
1958656	53.8983068537784	178.172019408197	186.145899717665	-73.1690595651662
1670375	67.6118565350495	201.909207152215	212.928840406724	-71.4862252250874
1424531	85.6180639031754	227.545120165635	243.119794705659	-69.3802615533046
1214875	108.007822885626	254.825480616714	276.770148997381	-67.030332452355
1036062	135.036008888192	282.749063663283	313.339682611244	-64.4716748266393
883578.1	168.62713820267	310.46260758037	353.301772489221	-61.4914921510458
753531.2	209.05499091537	347.182142662111	405.264641203844	-58.9458406672796
642624.9	269.045932180111	360.025678782737	449.448776842963	-53.229366260746
548046.8	304.776551539655	392.749878291023	497.132993539975	-52.1882962174153
467390.6	440.383575321189	405.772774682798	598.823211045172	-42.6577047940533
398593.7	506.633873847523	394.52887824354	642.129985203817	-37.9088128640469
339937.5	557.261272722473	381.33441727652	675.245187969447	-34.383873375999
289906.2	618.128555009499	377.213208645034	724.135840360366	-31.3936467502568
247234.4	668.579407021114	328.94575890424	745.11994725265	-26.1975096949493
210843.7	708.997231846031	301.899682004854	770.59749075634	-23.0648973275392
179812.5	722.456032433506	290.815761644865	778.791709008671	-21.9266421829984
153343.8	760.291769346163	250.330393564086	800.442927682836	-18.2244238235591
130781.2	776.959537396503	226.35296297252	809.260024094744	-16.2425169735779
111531.3	787.401809295278	190.0856202162	810.021081388907	-13.5720237158306
95109.37	801.006187148005	171.859813418777	819.235440711473	-12.1095031071356
81109.37	811.08186520581	155.701267707537	825.891443733055	-10.8667232720291
69171.88	814.652135973857	144.625085710159	827.390184896726	-10.0668283534029
59000	819.117079918854	126.640900896936	828.84902629778	-8.78871994064868
50312.5	826.57182218263	119.406142758516	835.15196470749	-8.22005359940338
42906.25	829.939143322305	101.987666581623	836.182076914666	-7.00570965966926
36593.75	835.471156524047	99.9350738633871	841.426807495286	-6.82103963272065
31203.13	841.57160767856	85.7515682688331	845.929135513868	-5.81804836445438
26609.38	841.318015274962	86.1182165453351	845.714106567432	-5.84450182585557
22703.13	845.746273839094	87.3906346031331	850.249306220858	-5.89941410094091
19359.37	845.429861491657	87.8953425390204	849.986612801551	-5.93544741667669
16500	848.549808212962	89.2959470929399	853.23533868768	-6.0073307016538
14112.02	852.196281667769	92.946157370419	857.249958097577	-6.22445305811863
12011.13	854.769483826571	98.1675193740914	860.388128893702	-6.55153174504701
10236.38	858.724821448531	106.015114617184	865.244198766514	-7.03792134691152
8750.684	862.089692960409	116.505329648239	869.926508703475	-7.69649049579079
7449.463	865.858693881272	126.842620816462	875.100181822271	-8.33417533303754
6363.206	869.688417814071	140.743843199134	881.003276655885	-9.1926208087482
5414.761	875.208504670289	157.243854758428	889.221882606637	-10.1853504029037
4620.567	882.500015663175	177.489642157473	900.171567379626	-11.3716996247677
3941.215	885.353476390284	197.797058947236	907.179394984552	-12.5936581735991
3361.769	892.59445700539	223.305992260493	920.103489209877	-14.0457509504228
2867.244	900.309896171123	252.200754656488	934.966913742385	-15.6489728048681
2442.658	909.083404449242	288.429223774541	953.742131486393	-17.6029193144468
2083.003	919.465724793329	327.885405692165	976.179316691169	-19.6264515482442
1777.843	930.89043259912	373.440353662143	1003.0028391026	-21.858912842036
1513.548	944.76954394628	424.416541130293	1035.72143530655	-24.1909312823098
1292.065	959.94544023887	483.229305598533	1074.71196607493	-26.7203394125841
1101.762	975.921276751904	551.772885177735	1121.10465846612	-29.4832393035301
939.101	996.349957113066	630.307269018308	1178.98282023808	-32.3181141527004
801.2801	1018.33158871551	718.970377765176	1246.56232442652	-35.2231534134625
684.3433	1043.87821595645	820.122264491427	1327.50979599511	-38.1549268849454
582.9476	1072.9070127763	938.934964739323	1425.73781813999	-41.1901994525406
497.0677	1104.52088400032	1071.35843069236	1538.75770354154	-44.1268258765483
423.5089	1145.81948852154	1224.96315771342	1677.33033062393	-46.911990907413
361.5036	1188.44369366849	1402.25496902419	1838.12877981208	-49.7179485766631
308.1262	1238.16275037148	1603.38309392437	2025.8046160205	-52.3240012711921
262.7298	1298.19478199215	1836.76998091604	2249.22956916051	-54.7480424629418
224.2111	1364.61486843354	2101.65262911346	2505.81673563919	-57.004109617893
191.2854	1451.67440026606	2403.16921711475	2807.59342684723	-58.8652255055047
163.1722	1539.6290738801	2754.64013628358	3155.70910661318	-60.7982132189375
139.1537	1647.1614134849	3150.81012418967	3555.38256180255	-62.4006042845799
118.6706	1773.41369235042	3607.1291168463	4019.49954469662	-63.8193623768829
101.1982	1922.08911248581	4122.79433107478	4548.83058078434	-65.0045828718905
86.24196	2093.42056926966	4715.32829183234	5159.14048845307	-66.0606586798756
73.61024	2295.00028964485	5379.10296712124	5848.22836937499	-66.89442686335
62.69291	2536.00989534448	6147.07015285089	6649.64793454175	-67.5811167808143
53.57697	2804.02580031914	7004.31642965914	7544.73388103572	-68.1823786910246
45.65746	3128.14304862538	7987.04372243101	8577.77047703469	-68.6120970373727
38.96512	3497.11005225781	9093.61265736035	9742.87277345378	-68.9648671518347
33.18414	3940.12119784596	10364.8593112632	11088.501413446	-69.1860861565347
28.30617	4448.53035651967	11775.3943268865	12587.6659427611	-69.3043446454497
24.17237	5006.37729262932	13352.343415156	14260.0451707705	-69.4467819533193
20.61345	5692.50564976137	15160.4297707525	16193.9263739985	-69.4196237538301
17.55618	6479.15321397715	17214.8972120164	18393.8063594918	-69.3752195247074
14.98558	7362.31992151944	19481.9776931095	20826.6946360102	-69.2982139970418
12.76553	8366.05316602872	22066.0665042395	23598.7740475292	-69.2364491467267
10.8809	9530.33166971339	24964.0247762266	26721.3351979799	-69.1050126285237
9.278505	10867.0199020767	28219.5042710171	30239.5856925005	-68.9388548679358
7.923394	12246.7137372825	31850.2491905292	34123.6043064292	-68.9677892365899
6.75822	14013.3218794415	35933.6907319773	38569.460972617	-68.6953478050052
5.761429	15981.4776782902	40561.7644449994	43596.609543327	-68.4953855345045
4.919708	18186.3287834521	45613.6511437528	49105.4755122461	-68.2626500781224
4.191257	20529.0482988325	51534.1283508428	55472.5897082238	-68.2797242204173
3.564097	23422.3564886033	58207.8786008322	62743.6364477581	-68.0805640908298
3.051758	26383.6368197666	65336.234731947	70462.1874538779	-68.0104913524853
2.604164	29971.3842605228	73636.1646612463	79502.0038773243	-67.8526987757063
2.214424	34077.8758700976	82986.6813321849	89711.1526085101	-67.6748526760977
1.892567	38407.5084298825	93447.2498569082	101032.29785376	-67.6569763928896
1.607507	43600.5333043305	105632.708291877	114277.18742382	-67.5713192025175
1.376413	49281.4258043832	118559.102646964	128393.612573859	-67.4288245988685
1.17375	55952.0684619474	133610.364645661	144852.902994441	-67.2775064451745
1.001604	63263.8316892416	150361.787981335	163128.721214103	-67.1813641271515
