EC-Lab ASCII FILE
freq/Hz	Re(Z)/Ohm	-Im(Z)/Ohm	|Z|/Ohm	Phase(Z)/deg
6999984	19.9955650532342	-1.73534711259088	20.0707262299922	4.96007787075589
5969734	16.9834158924475	-1.69984521359697	17.0682714158765	5.71561554279869
5091109	11.4181639862639	-4.85692150493767	12.4082293387227	23.0433483848643
4341796	9.92748649733185	-5.18070779493368	11.1979784519882	27.5580266273772
3702781	5.95044483477568	-5.86041055363069	8.35177858834959	44.5632420995215
3157797	4.44541608782962	-5.2899446381659	6.90979293964693	49.9579147604198
2693047	3.1203840908032	-3.59125021006644	4.75750721969394	49.0131073562491
2296687	2.24425635340182	-3.59680943855811	4.23954298446013	58.0375879704382
1958656	1.77080972634947	-3.23761742319348	3.69024845584953	61.3236155170725
1670375	1.40656674061423	-2.72731118853351	3.06865708656119	62.7183093819799
1424531	1.1563029302397	-2.40548983115752	2.66897317226741	64.3267165044712
1214875	0.931788535901882	-2.01419597880119	2.219282613066	65.1742356750287
1036062	0.797392603068584	-1.84109806552832	2.00635915287383	66.5822221607832
883578.1	0.712216234970162	-1.56577897882237	1.72014992831355	65.5409286639124
753531.2	0.651201337449469	-1.35295548277348	1.50151647352362	64.2976675442581
642624.9	0.630226633997842	-1.16572516178746	1.32517952105541	61.6029897379783
548046.8	0.551292415333866	-1.01723235357787	1.15701555234587	61.5443761555364
467390.6	0.511542806420316	-0.885123504243642	1.02231094123311	59.974930163114
398593.7	0.482535738874574	-0.767147818802274	0.906287214510013	57.8301199528213
339937.5	0.454351305037345	-0.665677114478254	0.805953552712085	55.6848972129161
289906.2	0.434530170886383	-0.576270075740334	0.721736565239921	52.9822782115958
247234.4	0.415545088985237	-0.499830837421476	0.650006605364286	50.2608318171275
210843.7	0.403406431190046	-0.431281540106219	0.590542560330652	46.9127300229688
179812.5	0.390624817906708	-0.371716059339756	0.539222196441992	43.5791527089166
153343.8	0.383043297638498	-0.323402079312303	0.501309358350007	40.1742822564162
130781.2	0.376149580077651	-0.280783101186244	0.469390729035372	36.7401107422729
111531.3	0.369542048371482	-0.245080147062502	0.443424857217961	33.5523225391917
95109.37	0.362652651590103	-0.213701923552776	0.420934030265419	30.5097562188644
81109.37	0.355965163130753	-0.186208880895501	0.401727450751201	27.6145088068212
69171.88	0.349078469281834	-0.16180158482512	0.384753857119157	24.868224691934
59000	0.34050695285383	-0.13686776624484	0.366984700469451	21.8978052171695
50312.5	0.334068893072746	-0.106655778027402	0.350681451327954	17.7063496556238
42906.25	0.363203934497626	-0.107298898488646	0.37872173379862	16.4583673637376
36593.75	0.347716876305391	-0.0974730770089508	0.361120515630407	15.6594120958954
31203.13	0.341114269419368	-0.08515105143732	0.351581635416855	14.0160831957909
26609.38	0.337015898247797	-0.0734757012725153	0.344932448965385	12.2990833823885
22703.13	0.337233004234545	-0.0653229447660447	0.343501362818205	10.9625848407325
19359.37	0.334259706188425	-0.0584043450539469	0.339323766780862	9.9110926951084
16500	0.331774327281144	-0.0520954419181805	0.335839454667712	8.92376036338306
14112.02	0.329588790464801	-0.0466099182354053	0.3328682250951	8.04930071729849
12011.13	0.327910136801449	-0.0416612680355251	0.330546092204208	7.24068538103036
10236.38	0.326058838455431	-0.0376633402925967	0.328226893073832	6.58908339893988
8750.684	0.324627968943282	-0.0338905155756634	0.326392226111813	5.95997573988624
7449.463	0.323224740304102	-0.0309152093009529	0.324699835095086	5.46350208082743
6363.206	0.321959788334623	-0.0282165404297697	0.323193871319213	5.00860223938331
5414.761	0.320264516393893	-0.0257965221655722	0.321301760058754	4.60509270145786
4620.567	0.318816169179847	-0.0240652494115584	0.319723139543814	4.31668007133389
3941.215	0.317655115644983	-0.0224950945514693	0.318450626902047	4.05070103072046
3361.769	0.316465928925971	-0.0209045418632454	0.317155614866724	3.77925196203692
2867.244	0.316069107468918	-0.0196708601821808	0.316680633188241	3.56126386634365
2442.658	0.314122619405078	-0.0209703611319149	0.314821816378583	3.81931431698806
2083.003	0.312592941534276	-0.0155173088288985	0.312977849009067	2.84186550722873
1777.843	0.308473221025736	-0.0142334832517089	0.308801425086526	2.64185167052651
1513.548	0.311669346635163	-0.0152272256478807	0.312041103114511	2.79707510455217
1292.065	0.30663743812751	-0.0106096729616597	0.30682093087297	1.98164672714214
1101.762	0.302458570796409	-0.0147904184203915	0.302819985346503	2.79957033574996
939.101	0.308510605784941	-0.0149175031637753	0.308871050411709	2.76828340238905
801.2801	0.307414307795536	-0.0112949673088007	0.307621736754598	2.10420583726739
684.3433	0.303385001371729	-0.00896802580232293	0.303517519336389	1.69316362320936
582.9476	0.299863735943593	-0.0149505553935062	0.300236205745781	2.85427978377583
497.0677	0.29827072029872	-0.0111874797964242	0.298480455460174	2.14803195197474
423.5089	0.302067495455738	-0.015237874722068	0.302451590567726	2.88785281873931
361.5036	0.301511057154633	-0.0141030039273817	0.301840706841009	2.6780247879643
308.1262	0.296533694031535	-0.0141594129840868	0.296871555848724	2.73378332171304
262.7298	0.299602534558036	-0.0100444753319998	0.299770862824082	1.92017924192271
224.2111	0.294003532480632	-0.0105526075115683	0.294192852796228	2.05562302694486
191.2854	0.293448911062467	-0.00828311579539363	0.293565790600723	1.61684564489793
163.1722	0.294305138924479	-0.0100429646024321	0.294476443769892	1.95442149159091
139.1537	0.301024208062442	-0.0164183440210932	0.301471617005674	3.12191066171261
118.6706	0.293396715304461	-0.00630558186962136	0.293464466186558	1.23119176369994
101.1982	0.296943477447724	-0.0100982372055265	0.297115134574807	1.94772246905024
86.24196	0.284939281643347	-0.00460912670699203	0.284976557408549	0.926725429114194
73.61024	0.30427475236737	-0.00164002606501277	0.304279172165494	0.308818464701783
62.69291	0.252863492263061	-0.0437190967727967	0.256615091415334	9.80923798786799
53.57697	0.290058974405176	-0.0200653053636976	0.29075217129425	3.95722525827605
45.65746	0.303324733212936	0.00291095365574339	0.303338700844262	-0.549840552379121
38.96512	0.283603947849746	-0.00877890384800918	0.283739789928614	1.77301331336997
33.18414	0.288112788009818	-0.00658725884085526	0.288188081977425	1.30975229882151
28.30617	0.2714883977572	-0.0133850428424954	0.271818155185902	2.82253677600999
24.17237	0.283084833405708	-0.00161833775552891	0.283089459219923	0.327544616207382
20.61345	0.286423657154331	-0.00194441715178287	0.286430257018566	0.388952456520339
17.55618	0.289548598771666	-0.00278121429797356	0.289561955725552	0.550328827012131
14.98558	0.277097323599861	-0.00843492202362186	0.27722567459698	1.74356156382686
12.76553	0.282930952967362	-0.0022517623011198	0.282939913374696	0.455990237424031
10.8809	0.278076335158468	-0.0133379238143982	0.278396027965277	2.74608587149009
9.278505	0.275014789694142	-0.0115181784283548	0.275255886376332	2.39826210167341
7.923394	0.275924149607685	-0.00879098576859103	0.276064155165983	1.82483505410837
6.75822	0.270884038314588	-0.00719222216492054	0.270979501573991	1.52089870548312
5.761429	0.265638099442357	-0.00327587961815885	0.265658297936692	0.70654233210778
4.919708	0.277896476812346	-0.0081982445063933	0.278017379020991	1.68979692320517
4.191257	0.270345013342529	-0.00195769870332774	0.270352101570129	0.414899136751736
3.564097	0.275251123019697	-0.00532382227187338	0.275302604069026	1.10805912282176
3.051758	0.268173419394645	-0.00607818806706593	0.268242292042092	1.29839455644863
2.604164	0.271578010466838	0.00100388997231174	0.271579865903573	-0.211793276012314
2.214424	0.272971077657897	-0.00479771221862386	0.273013236456122	1.00692118578306
1.892567	0.267408441362078	-0.00490913014881293	0.267453498893759	1.05172763127789
1.607507	0.264764370624134	-0.00468329104907516	0.264805787638873	1.01337211759844
1.376413	0.271101823974534	-0.000288378709781287	0.271101977352803	0.060947124949892
1.17375	0.257824980390413	0.0156013310946412	0.258296577687823	-3.46282112277325
1.001604	0.322865199463764	0.00347449298467864	0.322883894188417	-0.616561029255869
