EC-Lab ASCII FILE
freq/Hz	Re(Z)/Ohm	-Im(Z)/Ohm	|Z|/Ohm	Phase(Z)/deg
6999984	-9.55443946887366	32.7570345337616	34.121996204947	-106.260695389183
5969734	-11.4359844208844	33.9121739489431	35.7885076752033	-108.635318971103
5091109	-12.9767783407464	37.2247388690287	39.4217954940188	-109.218876485443
4341796	-12.5652919921185	42.6740285513797	44.4854951152752	-106.40697151428
3702781	-11.5983067591393	49.7014722656745	51.0368206793361	-103.135439799862
3157797	-10.7413894561369	57.6617852911354	58.6537205163441	-100.552259580515
2693047	-10.6266312510647	66.0967775527617	66.9455696413539	-99.1335014882121
2296687	-10.5490711344718	77.2634948000459	77.980321431223	-97.7747320770594
1958656	-9.9495328352512	89.8630877685938	90.4122101651416	-96.3179868829393
1670375	-9.90417634410692	104.434260940654	104.902848232428	-95.4175264121117
1424531	-9.60731528807682	122.085225204043	122.462658472559	-94.499533432753
1214875	-9.01601553714161	142.444365525994	142.72941464978	-93.6217047948331
1036062	-8.3924517566207	166.287729037422	166.49937559916	-92.8892355495379
883578.1	-7.29444153592538	193.540396310108	193.677809470251	-92.1584278818485
753531.2	-6.34642636116652	226.496278788338	226.585174785382	-91.6050079475316
642624.9	-5.10689418764994	264.262534377133	264.311875336068	-91.107107623563
548046.8	-3.20217445276825	309.268021667328	309.284598949331	-90.5932217771101
467390.6	-1.03399656204778	360.443191596582	360.444674696715	-90.1643628674547
398593.7	0.75134786525338	420.139689475251	420.140361303189	-89.8975364222623
339937.5	4.32371319543359	492.587579433632	492.606554877299	-89.4970962192453
289906.2	-99.3989279026303	502.745847681575	512.477837793263	-101.183830958088
247234.4	-104.749587808366	604.279281424331	613.291061490976	-99.8342861674366
210843.7	-111.324207241741	723.129333137964	731.648215717471	-98.7518543008755
179812.5	-110.54114951971	856.78541003569	863.88690497493	-97.3516027453553
153343.8	-110.199695898395	1020.8584712458	1026.78916593934	-96.1611110386324
130781.2	-107.697557207255	1210.70805252631	1215.48868866825	-95.0833201302118
111531.3	-117.458930852503	1425.39567133972	1430.22705201342	-94.7107829718178
95109.37	-89.070249372044	1681.2637333743	1683.62146888274	-93.0325895898796
81109.37	-82.5630870825549	1964.03843586948	1965.77303901575	-92.4071488607148
69171.88	-91.1581388251509	2286.91396469982	2288.73006014539	-92.2826451318329
59000	-55.9359308735368	2696.92321093484	2697.50322224864	-91.188181151574
50312.5	-66.6453455261011	3113.84062987366	3114.55375139558	-91.2261109576116
42906.25	8.15357943080601	3695.53876581267	3695.54776054671	-89.8735867864258
36593.75	45.8480151686543	4324.98910420253	4325.23210844985	-89.392646013193
31203.13	-638.936769743668	4790.81380871906	4833.23257722445	-97.5965422027737
26609.38	-689.234423024406	5612.08219612139	5654.24713519886	-97.0015828283098
22703.13	-686.808875938297	6646.42104836255	6681.81256727427	-95.8997276924938
19359.37	-592.622382533902	7824.7418602733	7847.15148752676	-94.3311411367641
16500	-638.4103889999	9215.83991150095	9237.92580069773	-93.962729274495
14112.02	-483.592341148539	10672.3479430607	10683.2987494579	-92.594448763943
12011.13	-358.338566804225	12733.63833861	12738.6793611809	-91.6119407368527
10236.38	-353.047588308046	14970.3995962595	14974.561985958	-91.3509584611706
8750.684	-203.839272678892	17316.7545431111	17317.9542196949	-90.6744098966802
7449.463	-178.430419995866	20216.6773035538	20217.4646929532	-90.5056738260141
6363.206	-234.220362426764	23471.3156229607	23472.484236885	-90.5717358597927
5414.761	401.425284910814	27594.3870155902	27597.306698762	-89.1665568672344
4620.567	507.68724011595	32721.1430887408	32725.0813806112	-89.1110945526657
3941.215	-6538.72142736079	34134.52422922	34755.1524562882	-100.844066985575
3361.769	-6552.36549977752	41043.7265767756	41563.4573267407	-99.0703615391887
2867.244	-6241.62180884807	48929.364547779	49325.8609438714	-97.269612484872
2442.658	-5812.26056365857	57815.427116317	58106.8497296319	-95.7407319043449
2083.003	-6009.37403600353	68333.8995838065	68597.6268440414	-95.0257378718012
1777.843	-5697.31930524304	80008.7902980408	80211.3830589011	-94.0730809458372
1513.548	-4668.41683463928	94493.1629396405	94608.4137805904	-92.828387431695
1292.065	-4350.03835617951	110840.852555882	110926.180088449	-92.2474655232118
1101.762	-2834.7548263719	127139.764489087	127171.362929184	-91.2772760887168
939.101	-535.218937290564	151034.439676676	151035.387998172	-90.203037518626
801.2801	-1810.62958384589	180467.239096321	180476.321899962	-90.5748298318864
684.3433	-1063.84339568341	201572.450007658	201575.257323066	-90.3023884003017
582.9476	4275.60890742841	234725.713169909	234764.650777436	-88.9564532437599
497.0677	8743.54702236359	275944.196978242	276082.685912208	-88.1851374599548
423.5089	-73115.7582891312	283624.342671005	292897.049943755	-104.455591855623
361.5036	-49243.8443880901	363098.6606605	366422.697964479	-97.7233950586156
308.1262	-52534.1841947923	405849.761184036	409235.713449048	-97.3754950854122
262.7298	-45876.8526281215	507183.410142711	509254.059513572	-95.1685762501273
224.2111	-70132.9701396835	597856.504844056	601956.006602613	-96.6906386328923
191.2854	-46792.5004481284	640165.03135992	641872.888876166	-94.1805678282037
163.1722	-125930.118423262	918206.044137219	926801.345605528	-97.8092814321057
139.1537	-293465.259220809	975092.351816056	1018296.10278136	-106.749772163107
118.6706	-439640.620279001	988306.254947791	1081680.69621688	-113.981530861689
101.1982	596531.156668708	754636.79796191	961938.728669717	-51.6740608667075
86.24196	228705.962656926	427210.099187612	484577.017823504	-61.8377305466434
73.61024	156233.895730657	241193.869614435	287373.472879392	-57.0667568232126
62.69291	39825.3477735123	-28369.9553783345	48896.9599612276	35.4645233438173
53.57697	118300.985629002	-40833.5459803164	125149.916812278	19.0429627888389
45.65746	406159.279677341	98549.3699396932	417944.181420829	-13.6385211975335
38.96512	612537.17819601	-124095.437651175	624981.177571106	11.4526872091094
33.18414	502755.104193328	-108658.733316356	514363.116016652	12.1955613679643
28.30617	-315709.158230516	752424.554234835	815974.866283338	-112.762391265209
24.17237	325823.423062652	965761.401257098	1019242.84995007	-71.3569086507264
20.61345	204637.79865754	-957874.750535016	979490.003191418	77.9407666745747
17.55618	160509.543049176	-1305903.57591107	1315730.77146777	82.9928793289202
14.98558	-383806.743095425	3397768.79260941	3419377.19242495	-96.4447251472222
12.76553	1779382.13829667	1290611.10522641	2198153.27468832	-35.9539095149503
10.8809	1030134.97664765	-781373.687745402	1292951.24038523	37.180892903645
9.278505	1671856.07734797	244925.515517505	1689701.52734643	-8.33449618940281
7.923394	-49487.1514644034	2000554.54978218	2001166.53100491	-91.4170204949492
6.75822	948375.913954873	-1005600.66836283	1382262.48534115	46.6775022001778
5.761429	219454.492567327	900907.135249593	927250.743138883	-76.3097850149553
4.919708	1129899.52142126	227452.010586257	1152565.54938439	-11.3816920087148
4.191257	682028.781371605	975052.937613386	1189912.38743352	-55.0280297486884
3.564097	2663105.52622435	-1464499.53984456	3039225.22133711	28.807349640504
3.051758	1184908.45711198	-546947.55431766	1305051.60009464	24.7778004927064
2.604164	34978257.7944884	-424451.20929599	34980832.9970394	0.695233864105282
2.214424	946505.147207418	5648941.19978127	5727687.89934267	-80.4881943275058
1.892567	1959837.68892028	1650114.07796473	2561999.26565364	-40.0961938385178
1.607507	2992983.46266369	-1304356.55975335	3264857.73698486	23.5478033460093
1.376413	-2126914.71210497	495270.35722262	2183817.51053333	-166.891776819281
1.17375	8726411.39062015	23706438.5233018	25261541.5843419	-69.7911868839724
1.001604	-434597.017421164	-12306181.1696108	12313852.7499249	92.022579588623
