EC-Lab ASCII FILE
freq/Hz	Re(Z)/Ohm	-Im(Z)/Ohm	|Z|/Ohm	Phase(Z)/deg
6999984	-12.405281743442	31.6175739524611	33.9641281026545	-111.422758644414
5969734	-13.2053930304822	33.5276891260616	36.0345437493433	-111.497758819797
5091109	-13.6676899148021	37.3510913505621	39.7732293469517	-110.098825067205
4341796	-13.5964252409404	42.6153840426741	44.7317978225455	-107.695267116632
3702781	-12.9573081564975	49.9616166083524	51.6144840987725	-104.539071806374
3157797	-12.1292268559877	57.5577364186223	58.8218595911385	-101.899913610442
2693047	-11.6220682721595	65.3233211187851	66.3491428197129	-100.088278358018
2296687	-11.6601611735505	77.4768047060513	78.3493115863362	-98.5587102281369
1958656	-11.2817815195222	90.0459671471918	90.7499575411877	-97.1413272345422
1670375	-10.7954051347757	104.985267644221	105.538842112052	-95.8709652111782
1424531	-10.438617120081	122.666991711103	123.110339057414	-94.8639918862358
1214875	-9.71261241271627	142.684565384217	143.014754619104	-93.8941462264178
1036062	-9.43927608940564	166.836724741036	167.103538727964	-93.238224142552
883578.1	-8.24690146230198	194.217635584816	194.392647381235	-92.4314422712283
753531.2	-7.34523480119636	227.006343120098	227.125146760645	-91.8532705601618
642624.9	-5.52758442841234	264.810903470654	264.868587768646	-91.1958014902492
548046.8	-3.45266558593333	308.959537884939	308.978829290493	-90.6402616120904
467390.6	-2.68396774968392	363.051196860746	363.061117754162	-90.4235689739719
398593.7	0.528593965118686	422.426572643001	422.42690336494	-89.9283042558608
339937.5	3.44458827056479	492.193653799898	492.205707026287	-89.5990254109991
289906.2	-100.803994929697	499.658392913184	509.725372139128	-101.406081286819
247234.4	-105.970843220525	606.240270432149	615.432437483201	-99.9151305123296
210843.7	-114.616808779311	726.874639086071	735.855796879564	-98.9608693045392
179812.5	-114.374194630565	864.017556875053	871.554814676465	-97.5406788177484
153343.8	-114.200316309192	1025.99442812187	1032.33050850115	-96.3512757308363
130781.2	-104.818998411943	1212.11282765679	1216.63656422048	-94.9424298083892
111531.3	-97.9816899777201	1440.51999814507	1443.84842577979	-93.8911668458831
95109.37	-94.4528136630435	1675.01223694085	1677.67318864863	-93.2274525360036
81109.37	-92.5689365922664	1952.71957623544	1954.91246643806	-92.7140823515664
69171.88	-89.0037426307127	2297.22398682625	2298.9475226399	-92.2187603376758
59000	-54.8416118995149	2692.07654598804	2692.63509073447	-91.1670390089336
50312.5	-69.1721092637222	3188.5253221903	3189.27554641312	-91.2427840294499
42906.25	3.47710918469273	3705.64731085374	3705.64894218622	-89.9462378348484
36593.75	10.2045406130873	4330.69035629518	4330.70237891698	-89.8649924194988
31203.13	-639.619367148486	4611.56608236627	4655.71204724502	-97.8964856085247
26609.38	-727.203564613311	5636.42957390754	5683.14731165803	-97.3516027453553
22703.13	-714.110442197841	6639.83103918096	6678.12173837277	-96.1385365015043
19359.37	-581.771542418375	7838.2077581434	7859.76838000887	-94.2448536928174
16500	-582.892346173304	9200.23570007098	9218.6821413957	-93.6251998373834
14112.02	-450.375877106775	10683.6501743276	10693.1388973532	-92.4139097626973
12011.13	-490.324720090093	12718.9399073398	12728.387592215	-92.2077022522298
10236.38	-266.892945686028	14773.5132992319	14775.9238982555	-91.034972237156
8750.684	-210.965427891686	17408.8786110894	17410.1568317867	-90.6942915321712
7449.463	-228.78624823049	20151.7664705417	20153.0651522449	-90.6504602608437
6363.206	-13.6886882505494	23737.3379099475	23737.3418568975	-90.0330409408107
5414.761	322.97402889145	27768.7353200476	27770.6134879696	-89.3336313602945
4620.567	-24.2622477714365	32363.7593835024	32363.7684778814	-90.0429531106665
3941.215	714.150549597587	37457.4724162883	37464.2796650955	-88.9077518311738
3361.769	-6561.23768193485	41297.9737529225	41815.9356706976	-99.0274470003334
2867.244	-6375.71617405893	48762.9494112847	49177.9929645331	-97.4491201620865
2442.658	-6403.7436321374	57892.425157547	58245.5219148075	-96.3120854176494
2083.003	-5911.20627394744	67877.15074446	68134.0586843269	-94.9771510507741
1777.843	-5696.99731577254	80614.1186409301	80815.1712407384	-94.0423704080182
1513.548	-5648.09127559324	94324.9425839825	94493.8925461801	-93.4267272571501
1292.065	-3843.84185011205	109286.469412013	109354.04664077	-92.0143862921526
1101.762	-3654.76790526808	129674.664702657	129726.157709954	-91.6144044553718
939.101	-1596.51815040736	149878.590891998	149887.093767194	-90.610295919405
801.2801	-1165.48865609104	175584.350628195	175588.218708809	-90.3803106604395
684.3433	1652.06068542981	203142.877481489	203149.595067201	-89.5340519970313
582.9476	6265.06892908511	239377.848640879	239459.820238431	-88.5007799092923
497.0677	-55495.1961092078	244463.827653345	250683.624958081	-102.789831657839
423.5089	-49197.8398778608	278987.491923961	283292.160319818	-100.00095959004
361.5036	-63216.9342012026	359480.059292645	364996.292856301	-99.9738586863305
308.1262	-92858.0524358017	420503.981469136	430634.666897088	-102.452531403846
262.7298	6251.50017685953	532683.350223778	532720.032343528	-89.3276153034456
224.2111	-53769.9526856116	589933.266262492	592378.651248461	-95.2078811548733
191.2854	-91745.1671431525	714688.043299455	720552.687129352	-97.3151053338054
163.1722	38573.9597525152	873583.830259245	874435.051253895	-87.4716904134579
139.1537	131869.251054201	905039.611429498	914596.193754409	-81.7100268256223
118.6706	-154175.63351154	921518.819060532	934327.062570384	-99.4979599416948
101.1982	37043.8681474523	811867.873602742	812712.552109025	-87.3875229133532
86.24196	660071.373927456	231253.494029957	699408.605308472	-19.3077151268129
73.61024	285838.39304312	135190.418766612	316196.199002716	-25.3123242789399
62.69291	57240.7535897258	46490.2634309724	73741.7687976151	-39.0830955947455
53.57697	94298.1635667494	83057.6669615581	125661.130399016	-41.3735459469825
45.65746	416358.641942074	324027.748836115	527587.434209391	-37.8915496456796
38.96512	256743.461660933	-455854.566998816	523183.133672442	60.6111997946068
33.18414	405245.181010917	279670.215870932	492381.037792749	-34.6105641276425
28.30617	522201.123747154	524162.992427075	739892.462640955	-45.1074259541808
24.17237	747698.958996592	-26476.543209554	748167.588595573	2.02803625502491
20.61345	592940.332871948	551745.72873367	809939.249278701	-42.9389468573712
17.55618	-646586.967224009	-564970.250916935	858642.00375074	138.853915227215
14.98558	837633.797483924	1488514.05317297	1708011.84573783	-60.6321700499086
12.76553	2156498.15048839	-1965888.58459167	2918081.93854931	42.3526620639257
10.8809	445647.261344753	1467717.6308992	1533882.82655372	-73.1099876164882
9.278505	-1112665.68575014	2898432.67641952	3104663.73508988	-111.001061707198
7.923394	1207843.34331679	1615244.85043987	2016903.93149183	-53.2116962423442
6.75822	1598385.66614748	260925.75672759	1619542.83310741	-9.27137385768893
5.761429	890585.502153783	-616822.633306517	1083334.06556135	34.7066090428402
4.919708	1461464.33504812	939921.837040407	1737622.24386172	-32.7465719918993
4.191257	1302303.15473474	411327.283638324	1365717.26250251	-17.5285150151711
3.564097	387221.482509084	-2515065.32671972	2544699.21094503	81.2474207018337
3.051758	2365290.3543273	-732243.612760993	2476041.02726571	17.2014134099309
2.604164	11056422.7886475	2206739.95034088	11274492.7198413	-11.2872857528111
2.214424	2159925.82005757	6321080.91666128	6679920.92042494	-71.1346010262156
1.892567	716864.85201425	4109907.75182901	4171958.40638393	-80.1058022950355
1.607507	2632595.0979173	-4183010.04510835	4942482.16861281	57.815566824825
1.376413	3850307.69396422	2052284.82736122	4363111.54462239	-28.0584365064885
1.17375	11354083.8161591	2881542.9163111	11714030.4286317	-14.2403904430067
1.001604	9075648.68548534	-10070729.1201418	13556805.8211964	47.9751140962783
