EC-Lab ASCII FILE
freq/Hz	Re(Z)/Ohm	-Im(Z)/Ohm	|Z|/Ohm	Phase(Z)/deg
6999984	22.1925545404375	-5.98666998467457	22.9858585773013	15.0967732706548
5969734	20.3272472087173	6.49605819481684	21.3400035415825	-17.7225242541804
5091109	11.32077543675	-3.81740824016313	11.9470733722275	18.6343006414618
4341796	9.74908721284055	-4.39473945251599	10.6938503981995	24.2651235872013
3702781	5.46539262829814	-5.40219187591855	7.68467264401653	44.6667984914134
3157797	4.26470213062868	-5.04575448584693	6.60661203601614	49.7953036085837
2693047	2.41656974641062	-4.79175444403075	5.36663022679554	63.237351848589
2296687	2.38504757578898	-3.83206122307605	4.51366205604496	58.1021603139494
1958656	1.79249848342426	-3.28649265650498	3.74353907343565	61.391339128457
1670375	1.40157685919746	-2.67769149339794	3.02232516881514	62.3712115496897
1424531	1.12516753451655	-2.46156242645685	2.7065275834682	65.4351033591518
1214875	1.10108117252508	-2.28547506004749	2.53688312671047	64.2764681058382
1036062	0.808181618507495	-1.83996270535229	2.00963187812612	66.2870916005113
883578.1	0.700900752960558	-1.58158006611441	1.7299298745993	66.0987603732518
753531.2	0.660791876498276	-1.3592795508383	1.51138572223417	64.0740421168185
642624.9	0.588347560716049	-1.15346090309173	1.29484551478611	62.9751663615371
548046.8	0.548333579419753	-1.01586243280429	1.15440296114586	61.6410914313545
467390.6	0.513575565818976	-0.88184739924319	1.02049727944677	59.784077921556
398593.7	0.480787009202813	-0.765214618307692	0.903719846130411	57.8587105467984
339937.5	0.453441152183747	-0.664907826137783	0.804805129054852	55.7075405049797
289906.2	0.433364622001551	-0.57855040542816	0.72285923057234	53.1648626721702
247234.4	0.413758108091504	-0.500435878951361	0.649331841936988	50.4162122415891
210843.7	0.398822306281054	-0.431633252986267	0.587678906436879	47.2625551343638
179812.5	0.387791566411426	-0.372084467807558	0.53742827443619	43.8158301149292
153343.8	0.379930369535567	-0.323453401057154	0.49896812358193	40.4093840284923
130781.2	0.373002499539199	-0.281369753049018	0.467225644194917	37.0286179104331
111531.3	0.366097937548918	-0.244859773501824	0.440436157186187	33.7760625581903
95109.37	0.360342378998886	-0.213233362102854	0.41870645662118	30.6150142954079
81109.37	0.352625985529581	-0.186221926591676	0.398777747140214	27.8385524934512
69171.88	0.3457903220757	-0.16164861247325	0.381708292752127	25.0549516373671
59000	0.336932095887116	-0.136870275703675	0.363671155867612	22.1082239674313
50312.5	0.330719523706878	-0.106812762390658	0.347540457458448	17.8989436888791
42906.25	0.359803238732342	-0.10734191003656	0.375473908883933	16.6116851401366
36593.75	0.344326548357467	-0.0973763101285873	0.35783085065157	15.7910205014369
31203.13	0.338516963499885	-0.0853817275096936	0.349118567208509	14.1560510555634
26609.38	0.33384153324979	-0.0735663146216315	0.34185109619479	12.4272540411593
22703.13	0.333654162594723	-0.0652794749898698	0.339980161291418	11.0700889118329
19359.37	0.330934714469897	-0.0583348986933502	0.336036821861587	9.99700771648826
16500	0.328834070894096	-0.052042279374348	0.332926786280799	8.99321430730882
14112.02	0.326693865493951	-0.0466278312371361	0.330004600569839	8.12275963621222
12011.13	0.324891996203865	-0.041687145397674	0.327555533137114	7.31171495889273
10236.38	0.323357494408409	-0.0385328636165207	0.325645283657807	6.79560030661684
8750.684	0.321179262128912	-0.032139974414662	0.322783358271531	5.71448738890008
7449.463	0.321323877136319	-0.0323315513529605	0.322946378259311	5.74575254986478
6363.206	0.319255503233333	-0.0305293232054729	0.320711889271591	5.46239168862047
5414.761	0.319341464881347	-0.0260459232866134	0.320401874701782	4.66280043762565
4620.567	0.314777309234563	-0.0233672835427514	0.315643444964598	4.24552673458777
3941.215	0.315342511848619	-0.0215440263568182	0.3160775930854	3.90834279102667
3361.769	0.313383050129181	-0.0207732261648814	0.314070793028524	3.79241795921123
2867.244	0.312388179885573	-0.0196426763213125	0.313005127218844	3.59796811565753
2442.658	0.310882812736453	-0.0190406462597198	0.311465358370584	3.50481778324075
2083.003	0.309221616193673	-0.0182192476086594	0.30975788755874	3.37195230829668
1777.843	0.30728237587538	-0.0174184051872406	0.307775664019892	3.24435861802561
1513.548	0.305339693031158	-0.0162068480921524	0.305769504799684	3.03829950362697
1292.065	0.304362531904006	-0.0150729841222028	0.30473553399196	2.835149868912
1101.762	0.303570311501795	-0.0136241675297415	0.303875882501681	2.5696973765123
939.101	0.30314072702547	-0.0130653343442244	0.303422153678759	2.46791486195408
801.2801	0.302420461614899	-0.0128832939217111	0.302694755266162	2.43935979136035
684.3433	0.301310090174875	-0.0128930005847757	0.30158580852764	2.45018067227919
582.9476	0.300338511775093	-0.0128194546741777	0.300611975931467	2.44409242274813
497.0677	0.299045940885551	-0.0123276447489366	0.299299925802163	2.36058153227663
423.5089	0.297725994380257	-0.0125024427475116	0.297988387029373	2.40461563066361
361.5036	0.297052320998529	-0.0120575201292055	0.297296931034075	2.32439179906278
308.1262	0.295564479778692	-0.0112939832826746	0.295780181495039	2.18829713398536
262.7298	0.295098438592021	-0.0123890142724978	0.295358385921397	2.4040168897677
224.2111	0.293184169506245	-0.0116039325435472	0.293413715595474	2.26652592654354
191.2854	0.290625286258115	-0.011868468028388	0.290867525767233	2.33852838674205
163.1722	0.29010664672713	-0.0116036913748002	0.290338616323736	2.29049676181843
139.1537	0.291147745755276	-0.010605807781342	0.291340853669844	2.08622412982501
118.6706	0.289422886353061	-0.0127945620756489	0.289705553905417	2.53123529268296
101.1982	0.286474172000601	-0.0116302217564848	0.286710155525637	2.32480604754866
86.24196	0.284246791548132	-0.0139424418406974	0.284588527860643	2.80813490887158
73.61024	0.286542226956184	0.00250408835357284	0.28655316834314	-0.500694238065082
62.69291	0.248373097666228	-0.0196899110795643	0.249152339428388	4.5326742739001
53.57697	0.275384141390685	-0.0139280456873409	0.275736134349768	2.89536945205363
45.65746	0.290744773687772	-0.0256901453029461	0.291877554793855	5.04952861468951
38.96512	0.273712058621409	-0.00188981800547316	0.273718582574993	0.395586792125938
33.18414	0.283250318584294	-0.01460306776291	0.283626501875604	2.9512907058162
28.30617	0.282963824642306	0.00456314472359014	0.283000615451575	-0.923885850281525
24.17237	0.267108212211686	-0.00877000415611911	0.267252146864756	1.8805254058795
20.61345	0.277163344169032	-0.0193108995126456	0.277835257285588	3.98554828096275
17.55618	0.272311596852751	-0.0191285246119011	0.272982611597009	4.01814098513877
14.98558	0.277179496961864	-0.00820373639329845	0.277300874190549	1.69529960986961
12.76553	0.26651698050441	-0.00928749461312523	0.266678755159419	1.99581654637352
10.8809	0.268898556523976	-0.00922917598892014	0.269056892478361	1.9657425646649
9.278505	0.270779924345086	-0.00435053771564978	0.270814871465261	0.920474459569317
7.923394	0.278023016692033	-0.00507620775765974	0.278069354111052	1.04600320994673
6.75822	0.273192298159102	-0.0118420688916474	0.273448836839885	2.48204686597098
5.761429	0.279335193955464	-0.00229724073468878	0.279344640000716	0.47118742727786
4.919708	0.265861125452266	-0.0105400645300324	0.266069973854704	2.27030229137125
4.191257	0.273929612985706	-0.00548701514063726	0.27398456198416	1.14752388279258
3.564097	0.265478178214313	0.00064317895744368	0.265478957334027	-0.138811287167258
3.051758	0.265530775409338	-0.00160861175425249	0.265535647929351	0.347099264684741
2.604164	0.271086175425767	-0.00873412318549019	0.27122684125062	1.84537387219043
2.214424	0.274373585596988	-0.00268825491053859	0.274386754760159	0.561354081976495
1.892567	0.271223607343796	-0.00333258638453331	0.271244080695952	0.703970897523232
1.607507	0.267013893610548	0.00101926961047997	0.267015839027582	-0.218713574853463
1.376413	0.265598896423956	-0.00261998940919493	0.265611818498589	0.565173533230396
1.17375	0.264945141534275	-0.0035860103450028	0.264969408598071	0.775446236550212
1.001604	0.248529295990969	-0.00377516699936021	0.248557966783686	0.870257573615076
