EC-Lab ASCII FILE
freq/Hz	Re(Z)/Ohm	-Im(Z)/Ohm	|Z|/Ohm	Phase(Z)/deg
6999984	23.3092257858806	86.0726983602242	89.1730307309744	-74.8472529471043
5969734	19.2256339709915	85.0864798214848	87.2314968918823	-77.2675985610755
5091109	15.6426060103662	89.5082634508547	90.864846606282	-80.0870092793552
4341796	14.2768166354089	97.8352551417904	98.8714551420192	-81.697593641468
3702781	16.5237796288415	108.874715915066	110.121474103868	-81.3701482615507
3157797	18.9335189310544	121.628547905872	123.093386519356	-81.1519659331649
2693047	21.5659456451731	136.62738025438	138.318946810426	-81.0301551059201
2296687	24.8570107684762	156.393651353459	158.356702314779	-80.9690205091796
1958656	30.7357212435359	179.107734661915	181.725796672028	-80.2626208435628
1670375	38.4968618229093	206.207432954387	209.770145101371	-79.4251857301996
1424531	49.2201165414154	237.006724264576	242.063642910239	-78.2679255755944
1214875	63.1207149659511	272.055667109547	279.282134523914	-76.9376894626392
1036062	81.2604464740258	312.785131766964	323.168375333409	-75.4367119267349
883578.1	103.549003373437	356.2026271428	370.948389514046	-73.7907187728831
753531.2	133.18462746808	405.390187105785	426.707568242555	-71.8128684640915
642624.9	170.760956082593	459.464487645525	490.17029645788	-69.6123094603326
548046.8	290.664995141223	555.918478016114	627.320885671918	-62.3969373546911
467390.6	357.083827653477	604.885095828843	702.42069952951	-59.4452306815156
398593.7	435.724889396096	651.623008408037	783.880554884468	-56.2302900085232
339937.5	523.897803979419	692.726320237435	868.526720236145	-52.9003681652039
289906.2	619.738718012199	725.232467806204	953.959229193617	-49.4848521568701
247234.4	725.559384201412	748.556329356619	1042.48405178333	-45.8937704209522
210843.7	841.442943547034	757.990224056347	1132.50845780952	-42.0132189477784
179812.5	944.884526281718	755.031182551935	1209.49528921464	-38.6273878828102
153343.8	1052.00290736509	737.70166263218	1284.87892820876	-35.0394975218112
130781.2	1154.28295430431	708.03506362728	1354.13544002185	-31.5248770036536
111531.3	1246.83716473057	668.139808128381	1414.57192060326	-28.1854211426234
95109.37	1328.59640832314	620.111066307097	1466.1876246803	-25.0204137414766
81109.37	1406.09639975373	579.031120967041	1520.65253245071	-22.3818857991196
69171.88	1457.64366074374	520.111848922932	1547.65673748944	-19.6372575322604
59000	1504.40663732358	471.253898221073	1576.48963428619	-17.3931136290258
50312.5	1550.02778672733	427.693798170041	1607.9515305568	-15.4255937492804
42906.25	1578.16152846349	371.681125521835	1621.33915914943	-13.2525252605318
36593.75	1601.67860895393	335.29575607101	1636.39775434331	-11.8235685194756
31203.13	1623.27948353659	301.479747929898	1651.03795234474	-10.5212469102991
26609.38	1637.79112878708	271.086018678305	1660.07451972991	-9.39834703466787
22703.13	1651.97619486236	247.338440037934	1670.3896707991	-8.51522999629888
19359.37	1661.68452102244	227.149358747027	1677.13812149887	-7.78398688068522
16500	1671.78379306584	210.320405271032	1684.96163862297	-7.17048086239298
14112.02	1678.15534611876	197.504996247386	1689.73772794764	-6.71236099814023
12011.13	1686.66862442725	189.045760669728	1697.2299043602	-6.39515437402195
10236.38	1693.6537522199	183.582159517058	1703.5743135248	-6.18637428305423
8750.684	1699.25028478962	182.157797225456	1708.98595472509	-6.11867931955953
7449.463	1705.73425587645	184.04430474031	1715.63447673964	-6.15824205531331
6363.206	1712.2494606813	188.92033424432	1722.64015635721	-6.29623894027057
5414.761	1718.8021830799	198.222998956036	1730.19458497458	-6.5786441079126
4620.567	1729.57006534976	209.253034761635	1742.18237952027	-6.89843477168692
3941.215	1733.72175118078	224.923158597937	1748.25099393394	-7.39194050936695
3361.769	1741.67756776145	243.476436589895	1758.61352355142	-7.95804572926801
2867.244	1750.91779456298	269.630023004898	1771.55679350759	-8.75441122787624
2442.658	1760.71527116712	297.577025776074	1785.68484128382	-9.59286047653683
2083.003	1774.54810605775	333.577517733452	1805.62868304931	-10.6461574392156
1777.843	1785.24354329632	372.30949678204	1823.6526177634	-11.780092481981
1513.548	1799.6484131863	419.067661107384	1847.79655689418	-13.1083461609651
1292.065	1816.15353378116	475.613879856379	1877.39772583697	-14.6750534151268
1101.762	1834.1402306219	535.157765866705	1910.618805506	-16.2659681361327
939.101	1851.90170035495	603.327447509525	1947.70221458413	-18.044990630858
801.2801	1877.5598613246	687.895745540413	1999.60785895381	-20.1216990776214
684.3433	1903.3882153495	775.83394790545	2055.43304757268	-22.1761423844661
582.9476	1930.60290703263	888.142972065488	2125.09423872735	-24.7040379061613
497.0677	1965.35554387093	1012.55457223497	2210.85711333368	-27.2576019370783
423.5089	2000.15786307979	1157.40783381309	2310.89254856469	-30.0561741803491
361.5036	2042.06746601111	1317.46564930671	2430.1759756948	-32.8285966298502
308.1262	2089.8120856505	1505.10120507975	2575.39204605113	-35.7617681183532
262.7298	2144.99895241097	1716.35785807833	2747.16304627726	-38.6656500043691
224.2111	2205.40360276934	1963.02980341516	2952.50589503292	-41.6722804117858
191.2854	2276.07710821089	2244.80268467235	3196.82124862086	-44.6036470832341
163.1722	2354.91813650703	2566.8521305533	3483.44216110671	-47.4656629431598
139.1537	2447.2215568176	2938.58784697774	3824.15897715537	-50.2128637905192
118.6706	2558.57856056778	3363.07930647842	4225.71019738227	-52.736685582291
101.1982	2687.11259011201	3848.22259644153	4693.54782906296	-55.0744164117822
86.24196	2835.10188018956	4406.25905773033	5239.55356446377	-57.2417152155338
73.61024	3011.99522230033	5039.03797828329	5870.60635418024	-59.1318800633586
62.69291	3211.47142684063	5763.35661325745	6597.71385989057	-60.8724685491865
53.57697	3450.59693162229	6579.54498513119	7429.47046537545	-62.3255468134178
45.65746	3729.12346485545	7527.77462205065	8400.81856586162	-63.6470166721075
38.96512	4053.98070813402	8590.33158669067	9498.87131985786	-64.7362667364307
33.18414	4438.47062987474	9816.00423315135	10772.8343827196	-65.6690993226832
28.30617	4897.03156419683	11189.7140474054	12214.3611623139	-66.3640398323974
24.17237	5405.84468586328	12755.4897108816	13853.7242116365	-67.0325096919765
20.61345	6024.84501402738	14507.6102511301	15708.8991543566	-67.4474457272102
17.55618	6749.31272097215	16524.7385842866	17849.9357837637	-67.7830844035979
14.98558	7576.16359117753	18769.2290562739	20240.6080473676	-68.0186273531762
12.76553	8553.10233554326	21327.2604228873	22978.4158876962	-68.1471990824035
10.8809	9701.92661564235	24226.7827888194	26097.2102791073	-68.175732380601
9.278505	10984.0407153297	27421.2121595544	29539.3301673432	-68.1705757604449
7.923394	12462.4990531711	31011.3666615802	33421.8303638394	-68.1063471916107
6.75822	14233.4904013155	35028.8845578046	37810.2499643727	-67.8863313982804
5.761429	16221.6076138489	39556.7713184158	42753.698210975	-67.7022400587049
4.919708	18495.4545257428	44595.3012756168	48278.5949876014	-67.4742601520224
4.191257	21158.8022499346	50190.1327419683	54467.828461471	-67.1410278983743
3.564097	24102.8215562438	56541.6012591772	61464.6132333387	-66.912188554999
3.051758	27450.9488259842	63345.9997595987	69038.1798499199	-66.5705338217625
2.604164	31112.2968740019	71013.8404963095	77530.2557638715	-66.3410069290331
2.214424	35590.8251091321	79639.2739144716	87230.2744554496	-65.92011213273
1.892567	40141.9713400043	89131.6305709559	97753.9023839923	-65.7547565130553
1.607507	45550.0643109589	100085.02349381	109962.813198321	-65.5290684375532
1.376413	51231.1897849785	111684.821337275	122874.464897811	-65.3584989019428
1.17375	57662.5376958564	124926.780585589	137592.400811258	-65.2233381580714
1.001604	64856.2343399846	139662.519306952	153986.851490404	-65.0908703158372
