EC-Lab ASCII FILE
freq/Hz	Re(Z)/Ohm	-Im(Z)/Ohm	|Z|/Ohm	Phase(Z)/deg
6999984	24.1589408030022	-10.246305837162	26.2419740879307	22.9828039346529
5969734	11.7296134964629	-17.6363302517454	21.1807454430913	56.3728189896399
5091109	11.4732318664891	-4.13135779554475	12.1943907882694	19.8032720533995
4341796	7.9250136978636	-6.57517273796839	10.2975112840651	39.6815901188053
3702781	6.02562339339551	-5.60771654798638	8.23131958810952	42.9426367055719
3157797	4.33800309985428	-4.86211099018614	6.51601060275642	48.2604757261432
2693047	2.82279701444576	-4.72925271157553	5.50763235834677	59.1678618128928
2296687	2.25804851352066	-3.83745075373383	4.45250619053418	59.5264188010856
1958656	1.75121506013864	-3.33002777743263	3.76242464181401	62.2607452867885
1670375	1.33171287002418	-2.84790755497512	3.14388877186717	64.9386927254504
1424531	1.18738573549036	-2.44139606116049	2.71482957334267	64.0637861722857
1214875	1.11180688450319	-2.27018469830324	2.52781587795449	63.9070249195379
1036062	0.795695040501636	-1.85536851836011	2.01879244510194	66.7873983472195
883578.1	0.735612906220859	-1.56669862520759	1.73080066155119	64.8485091684968
753531.2	0.650628642948053	-1.36924282466668	1.51596290981198	64.5841464418235
642624.9	0.573018250920821	-1.16812195617936	1.30109908169849	63.8698972544134
548046.8	0.544671934426959	-1.01982998702036	1.1561663887946	61.8941668894638
467390.6	0.52529978031224	-0.877615202779759	1.0228139143296	59.0972161167531
398593.7	0.483156579931946	-0.771710551047132	0.910481990667033	57.9499254277832
339937.5	0.462090675604468	-0.66901236484729	0.813083843646618	55.3669400140862
289906.2	0.430383384835575	-0.572264187379769	0.716042008613987	53.0542302515084
247234.4	0.412250008309896	-0.497359803718833	0.646000653023467	50.3454519538904
210843.7	0.4046332985256	-0.447481692089991	0.603297580826766	47.8786795697798
179812.5	0.391381278148736	-0.347328745564186	0.523274844016536	41.5872420158325
153343.8	0.398078126983551	-0.306709658647794	0.502530605924234	37.6133900952995
130781.2	0.380520472485849	-0.262545545649067	0.462305087059423	34.6042902397858
111531.3	0.370496786218055	-0.228425998514336	0.435254299686033	31.6554827330537
95109.37	0.380794827233044	-0.213123707312697	0.436378751849986	29.2349193951204
81109.37	0.351235821523275	-0.194421058632303	0.401455041518767	28.9660303018655
69171.88	0.344383644464994	-0.153336690253235	0.376977764798944	24.0010015028019
59000	0.346697710542071	-0.146618958455393	0.37642585122924	22.9235715577922
50312.5	0.333624141926442	-0.0976340513282723	0.347616852374747	16.3119479991919
42906.25	0.377294448823332	-0.0965433584112141	0.389450537509217	14.3530625934191
36593.75	0.362539071080184	-0.0919683395730054	0.374022397114796	14.2344316819373
31203.13	0.349591653578942	-0.0950950492863086	0.362294621338524	15.2172605653929
26609.38	0.334353428122012	-0.0802269723674975	0.343843833727168	13.4928409485436
22703.13	0.331776901825897	-0.0655172643243157	0.338184009837445	11.1706945710799
19359.37	0.342214502009132	-0.0673543006642813	0.34877982625624	11.1345753116749
16500	0.334938049447539	-0.0443598426325724	0.337862831051462	7.54445614485282
14112.02	0.335147692428104	-0.0520215796961761	0.339161053916821	8.82303438299906
12011.13	0.32660688017336	-0.0425782649375465	0.329370555486776	7.42750399971072
10236.38	0.332767006632746	-0.0414382592781598	0.335337158745227	7.09829390978445
8750.684	0.33077707715561	-0.0388726811658104	0.3330533892826	6.70261498604506
7449.463	0.331089017157751	-0.0355065849907925	0.332987469524295	6.12110866061088
6363.206	0.322091090313478	-0.0325346318224884	0.323730092402838	5.76792028695839
5414.761	0.321869968246189	-0.020313251406043	0.322510317108597	3.61115416635467
4620.567	0.316515712039147	-0.0227724982472055	0.317333866210443	4.11519430605598
3941.215	0.326674248240931	-0.0242658602329761	0.327574260949519	4.24821562552032
3361.769	0.318302292398391	-0.0174224459842838	0.318778749244905	3.13298880068147
2867.244	0.317995778970117	-0.0225225651125864	0.318792379742776	4.05130091753196
2442.658	0.317066092936106	-0.018959136317878	0.317632422998168	3.42195719986672
2083.003	0.316652879462717	-0.018589739216637	0.317198083973047	3.3598067489555
1777.843	0.315423447434555	-0.0174293681754013	0.315904628118192	3.1627791682815
1513.548	0.312818859867653	-0.0155667974116817	0.313205945458503	2.8488584571183
1292.065	0.306185217839271	-0.0120363339593118	0.306421704450683	2.25117409538081
1101.762	0.311998218058395	-0.0148403147577053	0.312350961281891	2.72324319011382
939.101	0.309269273244303	-0.0120594341369331	0.309504302594912	2.23302107355768
801.2801	0.31285338326361	-0.0115077409908579	0.313064957352623	2.10657100704569
684.3433	0.307437701888541	-0.0129247981425823	0.307709263671951	2.40731884554104
582.9476	0.306598274335155	-0.0122444747577247	0.306842677910664	2.28697994687192
497.0677	0.305965400452683	-0.014445977890357	0.306306239817898	2.70317935404393
423.5089	0.305223950514948	-0.0132431226728303	0.305511113162973	2.48440344138235
361.5036	0.303420997218584	-0.0123957961990668	0.303674097210363	2.33942964935379
308.1262	0.302309221735211	-0.0125699834249304	0.302570438128797	2.38098054865667
262.7298	0.301278704403692	-0.0121909030818584	0.301525249100499	2.31714502886997
224.2111	0.300039844242119	-0.0122118893603332	0.300288258802412	2.33070292917615
191.2854	0.299666249260959	-0.0131731585313851	0.299955651808437	2.51706948415615
163.1722	0.298132557919017	-0.01093699691257	0.298333102408703	2.10095430178002
139.1537	0.295946103128229	-0.0117128706392012	0.296177796763017	2.26645316090356
118.6706	0.295228869927318	-0.0121853868092077	0.295480235024698	2.36350590886298
101.1982	0.294491453762861	-0.010646315703157	0.294683831211375	2.07042825637105
86.24196	0.292453600080071	-0.00953108937655217	0.292608868396872	1.86661399061372
73.61024	0.302243391519152	-0.0031531295332512	0.302259838455017	0.597711863711655
62.69291	0.256400864418239	-0.0409064273657804	0.259643484559601	9.06462776689392
53.57697	0.287481767182885	-0.0236893560758752	0.288456152740558	4.71070028225638
45.65746	0.310060503916986	-0.00888348944603978	0.310187737465544	1.64112243963542
38.96512	0.287423720633892	-0.0115256316108454	0.287654715530719	2.29631858597476
33.18414	0.295190373930511	-0.0115087719533082	0.295414638589742	2.23269563353005
28.30617	0.280920003106265	0.00624318800783138	0.280989369090229	-1.27313628500808
24.17237	0.285952690345116	-0.00385766144474659	0.285978710164642	0.772905168728807
20.61345	0.285512957671771	-0.0203810112084873	0.286239470751961	4.0830668436096
17.55618	0.279578358257944	-0.0196039177442275	0.280264824758887	4.01099104481333
14.98558	0.281770274774124	-0.0085067058158097	0.28189865517615	1.72924678627331
12.76553	0.282233702731569	-0.0105924076409483	0.282432402633274	2.14933772278985
10.8809	0.27977088152937	-0.00790580137404987	0.279882560812722	1.61864072167008
9.278505	0.278665108388292	-0.00697710549037805	0.278752439691713	1.4342491522099
7.923394	0.27562027434799	-0.00559807991454448	0.275677119345061	1.16356555514065
6.75822	0.278059827886875	-0.00430972182803104	0.27809322463288	0.88797113680934
5.761429	0.267334255824545	-0.0200462361763352	0.268084792411096	4.28833642216656
4.919708	0.271642037193749	-0.00594905305676557	0.271707172527783	1.25459651667324
4.191257	0.278391458988486	-0.00761254275570416	0.278495521050061	1.56634800962408
3.564097	0.264397135439687	-0.00969025733773334	0.264574651688297	2.09897301372446
3.051758	0.275755970674537	0.00897812825289899	0.275902087976118	-1.86479083890962
2.604164	0.283884015080904	-0.0198914448459933	0.2845800477836	4.00810219161028
2.214424	0.260528922687845	0.0153520215860563	0.260980850109099	-3.37233217931485
1.892567	0.278118783017038	-0.0281471578451791	0.279539478359747	5.77897264282646
1.607507	0.273769975674133	0.0267398781124982	0.275072755215936	-5.57854398468057
1.376413	0.258295157238117	-0.00292742051206573	0.258311745848922	0.649341090630894
1.17375	0.283693431437917	-0.0366585506387664	0.286052114790216	7.36289727873177
1.001604	0.293262337055471	0.0151918083288651	0.293655562480157	-2.96543073124223
