EC-Lab ASCII FILE
freq/Hz	Re(Z)/Ohm	-Im(Z)/Ohm	|Z|/Ohm	Phase(Z)/deg
6999984	9.76659333519929	-0.421954345171539	9.77570410991292	2.47385929907856
5969734	5.64995598867328	-1.05822368339783	5.74820320083146	10.608456816296
5091109	3.12743879957243	-0.990451215172678	3.28052847186365	17.5728504893584
4341796	2.18351400163237	0.225672633134738	2.19514499126381	-5.90073763344766
3702781	1.43901516158078	-0.105289169604266	1.44286189377061	4.18473304773541
3157797	1.17706351841515	-0.220500017356297	1.19753863571827	10.6102788220845
2693047	0.960528380697824	-0.211744765021342	0.983590674843925	12.4317975964746
2296687	0.849679560048776	-0.181606494200829	0.868870688595602	12.0646004047312
1958656	0.779542914122465	-0.139723266874959	0.791965748163868	10.1616471389191
1670375	0.70464217283093	-0.0873675744031834	0.710037805182928	7.06795006495432
1424531	0.682226499942189	-0.0650221029237787	0.685318080231363	5.44433950736928
1214875	0.646345790269233	-0.0602308118725887	0.649146078550576	5.32382814840382
1036062	0.632864394226742	-0.0462911902339709	0.634555132177858	4.18347884312187
883578.1	0.627612256682724	-0.049328558487679	0.629547815039377	4.49404832414135
753531.2	0.616976058579262	-0.0243361624437615	0.61745583296499	2.25881849828344
642624.9	0.612889928815907	-0.0217010447130324	0.613274000904657	2.02786665951755
548046.8	0.607176485137413	-0.017833290190599	0.60743831813843	1.68234216933272
467390.6	0.596421212204865	-0.0185447899175184	0.59670945325259	1.78094935179033
398593.7	0.595825625922011	-0.0088799308876424	0.595891793598406	0.853848635320324
339937.5	0.592675792588993	-0.00817073118372868	0.592732111471167	0.789839509321694
289906.2	0.595842445826225	-0.00681537030197303	0.595881422365668	0.655332510294577
247234.4	0.592767273472987	-0.00728354981951898	0.592812019613783	0.703978918932364
210843.7	0.594862618965337	-0.00845786259202616	0.594922743624687	0.814586702408984
179812.5	0.590895838267745	-0.00759589391771778	0.590944658395818	0.736489690143677
153343.8	0.593098375527873	-0.00769272748184867	0.593148262334058	0.743107925635234
130781.2	0.591978812615915	-0.00705602303668952	0.59202086284796	0.682898082776116
111531.3	0.58920495096277	-0.00769055705816995	0.589255139058545	0.747806752513101
95109.37	0.589268227662842	-0.0079955522994337	0.589322469442223	0.777376531362008
81109.37	0.588050556123739	-0.00635329840908258	0.58808487564136	0.618999537631946
69171.88	0.587174722970279	-0.00414475435750654	0.58718935130323	0.404433260482758
59000	0.587783739969547	-0.00443263879697631	0.587800453605893	0.432075036351049
50312.5	0.586028145878605	-0.00323475702176397	0.586037073413368	0.3162579206011
42906.25	0.585954488289077	-0.00362407393549017	0.585965695461777	0.354364541414338
36593.75	0.586632181264837	-0.00267730226954739	0.586638290638263	0.261487624457395
31203.13	0.586101216531211	-0.00236812437486229	0.586106000679417	0.231500617742074
26609.38	0.586376592771075	-0.00144882399284257	0.58637838265132	0.141566583908262
22703.13	0.586143271898724	-0.00101058116700511	0.58614414307953	0.0987846847825365
19359.37	0.585968259698688	-0.000884533237135321	0.585968927310447	0.0864892969779266
16500	0.586109788165911	-0.000605742923408032	0.586110101182686	0.059215016239432
14112.02	0.586140690292876	-0.000313668765683534	0.586140774221605	0.0306614009585017
12011.13	0.586256813480808	-7.5785711829219E-05	0.586256818379236	0.00740665406554591
10236.38	0.586205446341357	-6.08647151630779E-05	0.586205449501097	0.00594892338401817
8750.684	0.58629814089285	9.54237755809937E-05	0.586298148658265	-0.00932525480874303
7449.463	0.586403500674603	0.00020624128626995	0.586403536942691	-0.0201512350519604
6363.206	0.586378329979352	0.000218138905787663	0.586378370554335	-0.0213146315845515
5414.761	0.586524329953015	0.000254547704120407	0.586524385189028	-0.0248659901565329
4620.567	0.586568035597306	0.000430213182395694	0.586568193365327	-0.0420230795514326
3941.215	0.586564435336196	0.000454350086971804	0.586564611304903	-0.0443810357910919
3361.769	0.5866876184911	0.000398094187192667	0.586687753553575	-0.0388777818984383
2867.244	0.586706710983795	0.000516436688234983	0.586706938275214	-0.0504334353529107
2442.658	0.586810654678704	0.000573712460807866	0.586810935131952	-0.056016863229837
2083.003	0.586843353516546	0.000477080101723108	0.586843547440005	-0.0465791597242215
1777.843	0.586899100188128	0.00053053322035359	0.586899339978444	-0.0517930699303341
1513.548	0.586968881862789	0.000520136975906405	0.586969112319998	-0.0507721049760346
1292.065	0.587015465319163	0.000429859116061701	0.58701562270755	-0.0419564903964825
1101.762	0.587045580084957	0.000430920357117673	0.587045738243314	-0.0420579153853765
939.101	0.587127460217807	0.000352193263700044	0.587127565850819	-0.0343693431663144
801.2801	0.587222402342634	0.000343402532478518	0.587222502752027	-0.0335060676563908
684.3433	0.587175976395713	0.000352588118578126	0.587176082256967	-0.0344050327073731
582.9476	0.587153565195559	0.000316512088388901	0.587153650505349	-0.0308859660367253
497.0677	0.587081950420616	0.000232850099215142	0.587081996597446	-0.0227248124986613
423.5089	0.587232701636543	0.000241246423548801	0.587232751190863	-0.0235382005733629
361.5036	0.587103366845705	0.000124662947534738	0.587103380080896	-0.012165933720378
308.1262	0.587097962122234	0.000163476903389771	0.587097984882232	-0.0159539582392162
262.7298	0.58708001396436	0.000145065713162974	0.587080031887012	-0.0141576152303441
224.2111	0.587116099979578	0.000199638621672133	0.587116133921398	-0.0194824328768601
191.2854	0.587112087477756	0.000115051777781442	0.587112098750656	-0.0112278070040985
163.1722	0.587049372435159	0.000132073019825196	0.587049387291901	-0.0128902726945604
139.1537	0.587141001402608	0.000148594469804876	0.587141020205856	-0.0145004960932622
118.6706	0.587102658361731	0.0001277912911786	0.587102672269532	-0.0124712457406694
101.1982	0.587156110277413	0.000122532318689136	0.587156123062913	-0.0119569301758702
86.24196	0.587091078089407	6.44717592542001E-05	0.587091081629409	-0.00629197040469684
73.61024	0.587045295648149	0.000129136406379227	0.587045309851663	-0.0126037479603714
62.69291	0.587074067507015	3.08457521463042E-05	0.587074068317356	-0.00301040619928661
53.57697	0.58704735118593	6.07584030841926E-05	0.587047354330125	-0.00593001577677885
45.65746	0.587045965835453	6.01909384753689E-05	0.587045968921198	-0.00587464513545741
38.96512	0.587044938164788	1.87505910401202E-05	0.587044938464241	-0.00183006386694674
33.18414	0.587085138948175	-7.06814695134278E-06	0.587085138990724	0.000689806234912008
28.30617	0.58709944001958	4.64963383186089E-05	0.587099441860759	-0.00453763666136373
24.17237	0.587083759322102	5.10721717327043E-05	0.587083761543562	-0.00498433117422378
20.61345	0.587049710120328	2.58508338003085E-05	0.587049710689501	-0.0025230293911411
17.55618	0.587072772789129	3.53771814529265E-05	0.587072773855048	-0.0034526608621922
14.98558	0.586943539094904	-2.44052297583388E-05	0.586943539602292	0.00238236997130987
12.76553	0.586984529308391	4.30602577117495E-05	0.586984530887807	-0.00420312785774809
10.8809	0.586964884516748	-4.04996027342171E-05	0.586964885913951	0.00395331367540869
9.278505	0.586914736020532	7.57789683391185E-05	0.586914740912599	-0.00739769300563006
7.923394	0.587013525088507	0.000119241585226476	0.587013537199433	-0.0116386406615191
6.75822	0.586930727688875	3.28183021046129E-05	0.586930728606395	-0.00320370038696754
5.761429	0.586899438075393	3.70108880811292E-05	0.586899439242378	-0.00361317040483573
4.919708	0.586930823743644	6.74208027130571E-05	0.586930827615961	-0.00658157192224572
4.191257	0.586945592713219	2.58256941378869E-05	0.586945593281386	-0.00252102289294255
3.564097	0.586880801315181	2.46754737315333E-05	0.586880801833922	-0.00240900792512109
3.051758	0.586907731900559	3.58220073222325E-06	0.586907731911491	-0.00034970570699057
2.604164	0.5868834908085	2.24298067043854E-05	0.586883491237117	-0.00218975874932074
2.214424	0.58681817116876	-2.30988708700106E-05	0.586818171623379	0.0022553286123533
1.892567	0.586849740764043	5.99277457745034E-06	0.586849740794641	-0.000585091322358309
1.607507	0.586852021574914	2.26804515429119E-05	0.586852022013187	-0.00221434723309878
1.376413	0.587050406779933	3.27515128420719E-06	0.587050406789069	-0.000319652867424589
1.17375	0.587014008575668	3.34492557534218E-05	0.587014009528672	-0.00326483040004564
1.001604	0.587152925949278	2.67097451511467E-05	0.587152926556794	-0.00260640047991058
