EC-Lab ASCII FILE
freq/Hz	Re(Z)/Ohm	-Im(Z)/Ohm	|Z|/Ohm	Phase(Z)/deg
6999984	21.9275492222082	-0.868236298930677	21.9447316949455	2.26748104718803
5969734	16.0745699302107	-5.55819967165532	17.0083915180485	19.0741546112058
5091109	11.9377869178341	-5.82377915249775	13.2825886073716	26.0051620335459
4341796	10.1570969545865	-5.46417762025661	11.5335968201851	28.2787616970281
3702781	6.15386563761793	-5.20080829038832	8.05719983364113	40.2021108165257
3157797	4.2370954242091	-5.21521730572063	6.71948429418074	50.9079188917924
2693047	4.2270774699841	-4.32374380469139	6.0467300606075	45.6476965070994
2296687	2.36861865234526	-4.08894391674923	4.72544354262734	59.9174052004829
1958656	1.81253433983128	-3.19129972122733	3.67010553578139	60.4051068756983
1670375	1.38392732476556	-2.72259929684859	3.0541450148009	63.0552658612964
1424531	1.1156067795616	-2.40481506884503	2.65098359141431	65.1131583740678
1214875	1.40026685673384	-2.40123047236462	2.77968614262108	59.7515912145721
1036062	0.831186311373283	-1.83791142760155	2.01712396741566	65.6653750970148
883578.1	0.727391274543823	-1.55130475643326	1.71337226358283	64.8785894527412
753531.2	0.656243045762689	-1.33763375092156	1.48993925604918	63.8674335358943
642624.9	0.5874317729342	-1.13794548815313	1.28062329428317	62.6962505068674
548046.8	0.561677969737601	-1.00786802538973	1.15381111898419	60.8693745770928
467390.6	0.527540752895109	-0.873882058077971	1.020768875601	58.8816693942249
398593.7	0.494373072144717	-0.756011424356112	0.903303940110284	56.8184139964911
339937.5	0.467011800663007	-0.65656795010443	0.805717999713819	54.5760462624215
289906.2	0.446888336088287	-0.569402569180321	0.723829034179279	51.8738569794475
247234.4	0.428450493863317	-0.493505554003353	0.653542315021664	49.0362147441267
210843.7	0.417162092712473	-0.423846686132937	0.594701794971331	45.4553946823197
179812.5	0.403851431049849	-0.365897745389665	0.544956088544986	42.1772281166346
153343.8	0.396145353544682	-0.31751166721298	0.507685729513256	38.7122773097368
130781.2	0.390940595219718	-0.275570286072864	0.478302761393897	35.1796429985003
111531.3	0.383562983140701	-0.239366328743419	0.452124763059818	31.9666389228554
95109.37	0.377159444744454	-0.208612979978036	0.431008842339994	28.9476899228434
81109.37	0.372505058316613	-0.180931506074391	0.414121031054703	25.9065674561598
69171.88	0.364720670213434	-0.156937697857046	0.397052399929287	23.2819967656922
59000	0.35619029050759	-0.13266746160621	0.380094959741532	20.4284664107124
50312.5	0.349940523016023	-0.102909143436272	0.364758360358628	16.3873492450311
42906.25	0.380043748875242	-0.102730951785776	0.393683755715116	15.1263149745718
36593.75	0.364599332548419	-0.0937130397913616	0.376450271777947	14.4147185817532
31203.13	0.358945898368581	-0.0815612486378992	0.368095633273476	12.8016303940757
26609.38	0.354392875487553	-0.0699058591176695	0.361221731538006	11.1586395390703
22703.13	0.354989511326373	-0.0622944503652964	0.360413861689657	9.95306758317968
19359.37	0.352324017270603	-0.0555734237947573	0.356679994642211	8.96363249634621
16500	0.350073745877333	-0.0493758637816577	0.353538687383392	8.02827889579514
14112.02	0.34812826615954	-0.0440797703902663	0.350907845248445	7.21635186347116
12011.13	0.346694798981245	-0.0393954922064376	0.348925906815234	6.48280545752107
10236.38	0.345022463624424	-0.0356900580936783	0.346863489938329	5.90582549866842
8750.684	0.343496742910149	-0.0320572571660968	0.344989391325145	5.33175559245725
7449.463	0.342102518394809	-0.028915149715441	0.343322325191848	4.83126435333899
6363.206	0.340712617427263	-0.0263510399177578	0.341730105461728	4.42250652201014
5414.761	0.339168721401272	-0.0241693959014438	0.34002879477364	4.07604639174587
4620.567	0.338103833302011	-0.0227496065462634	0.338868332382245	3.84939345531684
3941.215	0.336535014001394	-0.021243464012668	0.337204834502971	3.6119511506477
3361.769	0.335199164648818	-0.0209987655282518	0.335856261122189	3.58464627396294
2867.244	0.332904339631653	-0.0189439293940316	0.333442906367001	3.25690524782339
2442.658	0.334332175462856	-0.0183075561766606	0.334833048194003	3.13430545769468
2083.003	0.328126885021618	-0.0188530984622422	0.328668057461655	3.28841276993543
1777.843	0.325466439919898	-0.0165781518571857	0.325888383703888	2.91593176140529
1513.548	0.325713664080906	-0.0124316525996662	0.325950819841534	2.18577153602442
1292.065	0.327596095677539	-0.0178172250142716	0.328080257574844	3.11312320800869
1101.762	0.328176627085753	-0.0117343183868867	0.328386346843753	2.04780158008353
939.101	0.323964786035647	-0.0105249072601386	0.324135706555074	1.86076008082087
801.2801	0.32325082712322	-0.0101661068010102	0.323410647572611	1.80133519014108
684.3433	0.321227973631783	-0.0105562971158475	0.321401379045547	1.88219500489451
582.9476	0.324272653779596	-0.0123940138489427	0.324509422927208	2.18883456839719
497.0677	0.319628398757193	-0.0103280530315514	0.319795218806519	1.85073675715285
423.5089	0.320638935597015	-0.0111882985727278	0.320834077126696	1.9984544440623
361.5036	0.3167919385032	-0.0146190850763895	0.317129074588071	2.64216966210281
308.1262	0.316946236865987	-0.0148156400432121	0.317292326181079	2.67634086500441
262.7298	0.313868847248981	-0.0132362110234848	0.314147816410782	2.41479823659868
224.2111	0.3127153538873	-0.0122492058211841	0.312955165479193	2.24315555103795
191.2854	0.31397555831855	-0.0119699457692378	0.314203645464472	2.18327630482663
163.1722	0.311157626598451	-0.0219871536823689	0.311933492138041	4.04194050603291
139.1537	0.305268780859856	-0.00443773619799068	0.30530103516075	0.832858326495706
118.6706	0.307620031764398	-0.0174707888343841	0.308115745143323	3.25053051939476
101.1982	0.315278852776686	-0.01229041421261	0.31551831846931	2.23241259237925
86.24196	0.316964449808843	-0.0144486992319605	0.31729359803204	2.609998654864
73.61024	0.296704691670367	-0.0265126099966428	0.297886878777903	5.1062113293618
62.69291	0.254770293214458	-0.0474270503728496	0.259147115383618	10.5452538419151
53.57697	0.284686394299107	-0.00111828607812017	0.284688590678971	0.225064296350472
45.65746	0.28540738920409	-0.0217026678447894	0.286231346298543	4.3484608943142
38.96512	0.304375409224063	-0.0118248834569024	0.304605019014929	2.22480313990212
33.18414	0.293549152038945	-0.0185177105390569	0.294132640600107	3.60955790593743
28.30617	0.31848780926975	-0.011894506590842	0.318709842867277	2.13882108246022
24.17237	0.305207170316466	-0.00780743064603397	0.305307013980807	1.46534987428739
20.61345	0.281684281728524	-0.00992760800098279	0.281859170462016	2.0184821837911
17.55618	0.28709646377012	-0.00526840655690944	0.28714479904215	1.05129676701595
14.98558	0.29790029527433	-0.00841249072892245	0.29801905295601	1.61756184214185
12.76553	0.308759794637476	-0.00177791165405315	0.308764913412171	0.329918953310404
10.8809	0.293330353388225	-0.00114349169573573	0.293332582220454	0.223355392430715
9.278505	0.286481947837783	-0.0117483570323478	0.28672274121508	2.34833054870114
7.923394	0.299860912084321	-0.00626292986996522	0.299926309093746	1.19651234723406
6.75822	0.287553078399533	-0.0135284046538181	0.287871135457387	2.69358746759564
5.761429	0.291470741387068	0.0024629053514764	0.291481146881745	-0.484133408658841
4.919708	0.292796324943599	-0.00974286888958101	0.292958378263325	1.90582779507027
4.191257	0.284912659369747	-0.00475128773587777	0.284952273555223	0.955392799435769
3.564097	0.291855127248153	-0.000310708793996047	0.291855292638304	0.0609970295738479
3.051758	0.293548700811657	-0.00481406951988264	0.293588172468773	0.93954134907568
2.604164	0.289178139917599	-0.00919044383448673	0.289324144972515	1.82031900076715
2.214424	0.281792000650245	-0.00753286512399399	0.281892666962878	1.53126637678601
1.892567	0.279614100601594	-0.00202729675005728	0.279621449798386	0.415406490879324
1.607507	0.284785003124481	-0.000212710999084398	0.284785082563289	0.0427952318536186
1.376413	0.284426527456895	0.00207509472347383	0.284434097005439	-0.418006229578951
1.17375	0.287412870592026	0.00290211500097991	0.287427522087617	-0.578517204616978
1.001604	0.290509093378723	-0.00746211445748736	0.290604914769012	1.47139515198382
