EC-Lab ASCII FILE
freq/Hz	Re(Z)/Ohm	-Im(Z)/Ohm	|Z|/Ohm	Phase(Z)/deg
6999984	29.6538825414228	85.0494240059877	90.0708458577512	-70.7780493903057
5969734	29.3085651467323	84.7412738524998	89.6664680084178	-70.921575317986
5091109	29.4830875275075	89.1130256056695	93.8636446274668	-71.6931775806887
4341796	33.1395748021621	96.4674566638663	102.000988295521	-71.0408078351527
3702781	41.0053869727233	103.475201907033	111.30390456082	-68.3824555530842
3157797	47.4857558833601	111.9554564137	121.609708628111	-67.0158366201382
2693047	55.9538260682597	123.148484436492	135.264111539913	-65.5648210039694
2296687	68.9394141233004	136.439518703991	152.867213894414	-63.1936924646
1958656	84.7584767014527	148.193751237408	170.720201729513	-60.2328757624819
1670375	103.584825785042	159.821792864603	190.454250693897	-57.0516364669991
1424531	125.51305155199	169.770710271436	211.129392022903	-53.5241415871849
1214875	150.078110357907	176.991708338673	232.054959070566	-49.7041001867548
1036062	176.872624432286	180.885962818029	252.989440131737	-45.6427175038597
883578.1	200.758962367468	180.638193814301	270.06354443974	-41.9801363646875
753531.2	225.627145936626	175.854434516822	286.063613769278	-37.9329515759558
642624.9	259.808742342362	171.073170915595	311.073323196696	-33.3632292780647
548046.8	278.248225014972	158.951590887118	320.449189372556	-29.7375237025871
467390.6	297.432180345908	148.49408280199	332.440061563773	-26.5308278922666
398593.7	318.706810468978	136.793756312424	346.823532657996	-23.2297372851983
339937.5	331.327859987432	128.473889990005	355.364167035754	-21.1940296982544
289906.2	337.18191530714	114.322543181282	356.035514927412	-18.7293829875638
247234.4	350.188682288172	93.5375683881458	362.46570858868	-14.9549261093143
210843.7	359.243057861686	96.4887179346504	371.975331588652	-15.0341948202707
179812.5	362.247314268386	76.7484546119607	370.288322770221	-11.9622243058972
153343.8	373.590007040189	72.7306261859072	380.603779993949	-11.0165631946118
130781.2	375.061287880885	65.4573996972442	380.730404409725	-9.89981115612227
111531.3	378.22355366684	58.4998268698059	382.720898687504	-8.79226654940054
95109.37	379.286451122734	52.999388775935	382.971470498653	-7.95468819658854
81109.37	381.940722021118	47.7617551685323	384.915445773214	-7.1278470728573
69171.88	383.375125187025	43.224135615852	385.804111579834	-6.43272321664868
59000	384.592917428673	41.5877792637416	386.834920244266	-6.17167218603118
50312.5	386.659424715461	40.0730314699431	388.730444617452	-5.91695806862782
42906.25	388.033177231579	38.6065585935741	389.948987687971	-5.68182650274644
36593.75	389.392713378467	38.4342211822686	391.284902072816	-5.63700573330674
31203.13	390.956049146008	39.0307917530379	392.899522866501	-5.7011884655173
26609.38	392.20698726417	40.014403333695	394.242911582426	-5.82537076507615
22703.13	393.853891850797	41.9045051525837	396.076855771834	-6.07319792978204
19359.37	395.351565605803	44.9234383587839	397.895684496495	-6.48266221807228
16500	397.157830384903	48.2579532668338	400.078957569062	-6.92794782771411
14112.02	399.376519593303	52.2534265329684	402.780368174637	-7.45409497098274
12011.13	401.470902020297	57.1667833396136	405.520562100603	-8.10405829377915
10236.38	404.164374568871	63.398942844117	409.106670227214	-8.91501129785141
8750.684	406.614445945639	69.9124256440187	412.580967703443	-9.75592426503107
7449.463	409.594853530843	76.5850015704864	416.693180295171	-10.5907295021146
6363.206	412.936189991548	85.8212414083337	421.760100627837	-11.7407417406115
5414.761	416.572413741993	96.6207557922364	427.630852886801	-13.0584128891195
4620.567	420.270894686206	109.637550606747	434.336295309742	-14.6210865204034
3941.215	426.028446406092	123.175745975761	443.477735116289	-16.1259372510027
3361.769	431.836754065883	138.916893261332	453.630780917188	-17.8323831818188
2867.244	438.236218680882	157.361023162122	465.632338840793	-19.7521011927164
2442.658	445.076741043893	178.306517154663	479.464826111445	-21.8320124735546
2083.003	453.411727025369	201.728429745595	496.262585303135	-23.984867011291
1777.843	462.224061741096	228.563162325451	515.647362472307	-26.3117345609865
1513.548	472.763916614066	258.697301359226	538.915591333946	-28.687561354276
1292.065	483.994026566702	293.733399192553	566.153272138792	-31.2533408453852
1101.762	497.029438501431	333.083870143615	598.316912084973	-33.8279839935851
939.101	512.043221727101	378.521827289136	636.762934419848	-36.473221271723
801.2801	529.475847357429	429.34394729571	681.675067766402	-39.0380725712041
684.3433	550.250809719958	486.056236184573	734.184321768984	-41.4553127539256
582.9476	571.474453084609	553.737103190447	795.743570491211	-44.0968888317527
497.0677	598.22714114488	628.764979410363	867.88312101071	-46.4257044379517
423.5089	627.235646714614	715.026521428602	951.150609974986	-48.7421097783081
361.5036	662.05966740919	809.242957208185	1045.56069503449	-50.7126376864779
308.1262	701.755420276274	919.087914926686	1156.36640614098	-52.63701384425
262.7298	747.451123370085	1042.86290100009	1283.06126592206	-54.3696955125051
224.2111	799.574251788949	1181.804201548	1426.87776453359	-55.9188645285578
191.2854	860.947533793867	1339.82470114965	1592.59564414715	-57.2759207959031
163.1722	928.50286390942	1513.15861843046	1775.3215406845	-58.465931218078
139.1537	1011.09632535898	1713.24411952638	1989.35195283443	-59.4523926539547
118.6706	1106.50621148946	1933.04036678238	2227.33047742694	-60.2124211691958
101.1982	1213.94500870478	2190.32033310363	2504.2295513324	-61.0033894053739
86.24196	1334.63030120204	2476.67077814304	2813.38518233716	-61.6806255192185
73.61024	1480.66949401547	2788.26381931183	3157.02348369337	-62.0300724784688
62.69291	1645.51970890603	3147.99944369956	3552.13113636461	-62.403068003099
53.57697	1828.0449411904	3534.9050144466	3979.61075586188	-62.6546537709409
45.65746	2046.56955017272	3978.58411531171	4474.10085786014	-62.7788710209253
38.96512	2292.09754159817	4466.60877492032	5020.38893796044	-62.83479170173
33.18414	2575.17515381726	5015.50045658113	5637.97586929948	-62.8220720386781
28.30617	2898.4444677658	5624.41496179366	6327.32360442948	-62.7364721440856
24.17237	3256.21548315101	6278.09426045923	7072.29855251625	-62.5858988355252
20.61345	3663.54429663384	7012.76117161098	7912.03994324176	-62.4169335817411
17.55618	4141.61194168081	7844.08661083297	8870.32379531447	-62.1663218421509
14.98558	4660.91535842753	8733.8518792047	9899.71214865933	-61.9129026093646
12.76553	5261.8114925062	9734.38259919912	11065.4807744743	-61.6070577383237
10.8809	5927.41958318975	10832.3402995517	12348.032202763	-61.3126720231855
9.278505	6665.05399655102	12043.5003404535	13764.7682591261	-61.0391992675696
7.923394	7507.33745593826	13346.4755729491	15313.0181837762	-60.6424259944415
6.75822	8397.72815124756	14806.8031643673	17022.4339637601	-60.4401145969808
5.761429	9414.9810392485	16436.3883463712	18941.9304676724	-60.1953470269009
4.919708	10569.775774291	18187.7547669397	21036.0305994531	-59.8370765176056
4.191257	11824.991308174	20128.9026048548	23345.3023007654	-59.567327987658
3.564097	13188.0987301122	22364.5524802038	25963.4195697519	-59.4726753599024
3.051758	14680.6753427255	24638.8293041695	28680.9019732384	-59.2120368588974
2.604164	16306.697825459	27304.7460006372	31803.420384137	-59.1538816426916
2.214424	18216.1914682572	30217.6864801721	35283.6818915229	-58.917078185964
1.892567	20164.657066381	33494.6272017494	39096.0796754473	-58.9509399916562
1.607507	22370.354786041	37199.9065335945	43408.13079783	-58.9791868109562
1.376413	24772.5257356965	41089.3922240847	47979.3308068216	-58.9144998758859
1.17375	27462.6582332607	45645.9360410805	53270.5272576055	-58.9669828099199
1.001604	30354.3548403564	50644.4345716944	59044.4375945855	-59.0631251279429
