EC-Lab ASCII FILE
freq/Hz	Re(Z)/Ohm	-Im(Z)/Ohm	|Z|/Ohm	Phase(Z)/deg
6999984	19.8526887500112	7.26011877498516	21.1385566023727	-20.0874419310506
5969734	15.3951897902715	-1.81981599075816	15.5023739768688	6.74146725413288
5091109	12.7532582255405	-4.60265962637651	13.5583948535066	19.8445479329607
4341796	8.6016423649871	-5.74203018175404	10.34210626436	33.7251094214693
3702781	5.53158314657866	-5.06567005156581	7.50062831893728	42.4825859735495
3157797	4.0602623032835	-4.91731856555488	6.37697042855114	50.453288340512
2693047	2.87966916315213	-4.28690156172186	5.16430242037612	56.1092927813475
2296687	2.0316255264028	-3.88050213374879	4.38015971050833	62.3658257464155
1958656	1.70985106158226	-3.16632978778559	3.59850454742138	61.6304917121446
1670375	1.45206711159422	-2.76312700608334	3.12143712868298	62.2773610628473
1424531	1.14374191303464	-2.43141868834114	2.68699505054376	64.807657277704
1214875	0.833816998875018	-2.46121978133332	2.59862532883049	71.2845440812014
1036062	0.77367239207289	-1.8045101790506	1.96337106950088	66.7930706293913
883578.1	0.697823717818716	-1.53432079755743	1.68555576916565	65.5435069739905
753531.2	0.64085289099794	-1.33599927355133	1.48175115550152	64.3738709310105
642624.9	0.554967358109883	-1.17272183611061	1.29740713481086	64.6750748439107
548046.8	0.532707168416735	-1.00854514612784	1.14058767267606	62.1572691089878
467390.6	0.496459586718357	-0.879316069521763	1.00978654742662	60.5510392261181
398593.7	0.46510773038555	-0.761165907056319	0.892019472281444	58.573131621547
339937.5	0.438059302269738	-0.662611076215099	0.794323228055167	56.5308808565827
289906.2	0.417173259304289	-0.573608118135859	0.709267087541728	53.9723836590496
247234.4	0.398960829871549	-0.497168073579044	0.637452615617892	51.2541171803443
210843.7	0.385561811784205	-0.430131901960966	0.57764293797369	48.1275724359846
179812.5	0.372743454819729	-0.369722445821151	0.525007019053004	44.766871299911
153343.8	0.365910111020062	-0.321185179084623	0.48687794015578	41.2757134034639
130781.2	0.359749222868195	-0.278715675624487	0.455084531920262	37.7667307900104
111531.3	0.352863334006313	-0.243022885986395	0.428453796341224	34.5558351990516
95109.37	0.34632005573243	-0.212128838177283	0.40612341103285	31.4884082399935
81109.37	0.340531686394732	-0.184496616479636	0.387299407346919	28.4483858522766
69171.88	0.333914648477245	-0.160548684194512	0.370506238090901	25.6785990086331
59000	0.32511926142792	-0.136263063031572	0.352519724977457	22.7393942745474
50312.5	0.318400582885242	-0.106186825469533	0.335640541479958	18.4435801801966
42906.25	0.34859454436955	-0.105433644152892	0.364190073565402	16.8281256768253
36593.75	0.332640966012445	-0.096601803276089	0.34638406525977	16.1937525356344
31203.13	0.327239623691957	-0.0849154825160706	0.338077521413345	14.5468541084662
26609.38	0.322099508779484	-0.0726087988992601	0.330181966850975	12.7034769941918
22703.13	0.322700121505454	-0.0646962443513053	0.329121516241036	11.336600230238
19359.37	0.319794993740031	-0.0581701151296607	0.325042459250148	10.3092811739905
16500	0.31759224306029	-0.0517425937957812	0.321779627796387	9.25341163081158
14112.02	0.315393204354811	-0.0462622511640495	0.318768049270878	8.34470629731204
12011.13	0.313894816636003	-0.0416409663240043	0.316644794663273	7.55667733462296
10236.38	0.311551080476291	-0.0376227283416184	0.31381450800403	6.88566354243345
8750.684	0.310251527318752	-0.0325280875762853	0.311952058311833	5.98526609696331
7449.463	0.308621539340417	-0.0334772499688982	0.310431926209803	6.19086627216806
6363.206	0.307465095400363	-0.0257983978616283	0.308545526983914	4.7962680912124
5414.761	0.306542822029385	-0.0282673087510205	0.307843373295194	5.26853027272236
4620.567	0.304181848060707	-0.0258397660702705	0.305277398770681	4.85552854300498
3941.215	0.304687313637831	-0.0229242564555524	0.305548491447558	4.30274917550308
3361.769	0.303159548039082	-0.0216231934881327	0.303929718954704	4.07977634699217
2867.244	0.3020016747612	-0.020578253502295	0.302701959154172	3.89808226283146
2442.658	0.300635074456106	-0.0198348561568312	0.301288681353931	3.77470554193256
2083.003	0.299212757740007	-0.0190842832458345	0.299820753553498	3.6494758755242
1777.843	0.29756367719266	-0.0184853786123379	0.298137302608813	3.55478485959631
1513.548	0.29577770295345	-0.0171900420167958	0.29627680825363	3.32618100187486
1292.065	0.294637686498348	-0.015551372562625	0.295047812216394	3.02134453655346
1101.762	0.294059525413201	-0.014456462787491	0.294414663022348	2.81449130265076
939.101	0.293806397388331	-0.014111589624304	0.294145093632436	2.74981639969419
801.2801	0.292956058752154	-0.0137262809286028	0.293277450799966	2.68259756412724
684.3433	0.29205985769513	-0.0131929445940725	0.292357682067637	2.58640998243847
582.9476	0.291087399550581	-0.0135181140547968	0.291401121454119	2.65890862408755
497.0677	0.289537513686487	-0.0131433620359597	0.289835677233429	2.59911933225006
423.5089	0.288783089349929	-0.0133338081972429	0.289090752421328	2.6436060672952
361.5036	0.287730585579927	-0.0127987982624631	0.288015102234468	2.54694522246765
308.1262	0.285910984269281	-0.0127744500747729	0.286196222023531	2.55826343075267
262.7298	0.284730765975392	-0.0129372062088545	0.285024525957722	2.60153778710331
224.2111	0.284770941451919	-0.0122188099177865	0.285032960219023	2.45691178045639
191.2854	0.28182982386399	-0.0129040536124746	0.282125086121105	2.62155292176061
163.1722	0.281816846965377	-0.0119651524719288	0.282070735999294	2.43115790052305
139.1537	0.282234363969425	-0.0122171711478546	0.28249866455628	2.47863375638539
118.6706	0.279126363192482	-0.0122807550238597	0.279396391481739	2.51922437842363
101.1982	0.277017222132089	-0.0153628990929079	0.277442895072695	3.17427384756742
86.24196	0.279911329107812	-0.00907922294344823	0.280058537545561	1.85779846197784
73.61024	0.279003616035924	-0.0233777826776988	0.279981318098274	4.78963954248053
62.69291	0.249974846445581	0.00223534865559057	0.249984840818606	-0.512342068969635
53.57697	0.262694280000046	-0.00477484979661006	0.262737671328881	1.04131927997154
45.65746	0.26766020718977	-0.0292202275796711	0.269250456290566	6.2302571205833
38.96512	0.273448761028827	-0.00269815699031124	0.273462072250147	0.565327085919491
33.18414	0.268036626248878	-0.0166221695954801	0.26855153980743	3.54862728217204
28.30617	0.285714593511987	-0.00502589513321917	0.285758794383673	1.0077640066997
24.17237	0.264426150791603	-0.00840075326389532	0.264559562060917	1.81966067226055
20.61345	0.26034914586687	-0.0124610935423002	0.260647187987668	2.74025717184023
17.55618	0.259966575536583	-0.0072165934328352	0.260066721471611	1.59010513164138
14.98558	0.267626795656951	-0.00850856644377588	0.267762016455911	1.82097159969581
12.76553	0.266658771491741	-0.00749374196085921	0.266764046644334	1.60972320654666
10.8809	0.262943731358573	-0.0093991375118857	0.263111667637026	2.04721257947014
9.278505	0.266454268280288	-0.0135185370527343	0.266796978860013	2.90440671535623
7.923394	0.265191714111722	-0.0120754601137809	0.265466498772393	2.60715277349559
6.75822	0.267377785732188	-0.00844435839605393	0.267511097885244	1.80892115134862
5.761429	0.269844332736869	-0.0036563068201566	0.2698691025104	0.776292495213621
4.919708	0.265263994497018	-0.00256965316539898	0.265276440518008	0.555015679072081
4.191257	0.2606171224568	-0.00776579981857845	0.260732798405733	1.70677939225285
3.564097	0.266157585064803	-0.00408704049472221	0.266188962933351	0.879748619491418
3.051758	0.259302392463218	0.00347947386252323	0.259325736238247	-0.768782737392841
2.604164	0.262884078955759	-0.0109814414417905	0.263113342543774	2.39202259128443
2.214424	0.26368389866169	-0.00206314025674577	0.26369196984578	0.448289856544811
1.892567	0.258495300020864	0.00527323667203734	0.258549080752332	-1.16865685810818
1.607507	0.256120856350501	-0.0025382187503553	0.256133433218193	0.567796247537608
1.376413	0.261566520567323	-0.00500893879038633	0.261614476184904	1.09706692752218
1.17375	0.260549961985498	-0.00379649983753899	0.260577620108982	0.834803518210175
1.001604	0.274900998283767	-0.0104913498703823	0.275101121916132	2.18558131403644
