EC-Lab ASCII FILE
freq/Hz	Re(Z)/Ohm	-Im(Z)/Ohm	|Z|/Ohm	Phase(Z)/deg
6999984	26.5181444096385	1.49481963593716	26.5602422555674	-3.22633107395962
5969734	13.9475422134991	-4.93252348113506	14.7940434530013	19.4760501270224
5091109	11.7790021216545	-5.51629396462992	13.0067055815896	25.0944398886075
4341796	9.56777953091899	-6.48122210913163	11.556324899386	34.1137466939066
3702781	6.2908039035193	-5.44643755233306	8.32093118370759	40.8852827731279
3157797	4.13358168240506	-5.11554435861207	6.57687552033961	51.0602855582515
2693047	2.68470420752984	-4.28446040245244	5.05610894088639	57.9281530315682
2296687	2.52676608542473	-3.84438904473102	4.60042106526137	56.6846512696399
1958656	1.71794322031447	-3.23339012924028	3.66143969444983	62.017696590094
1670375	1.31089020159983	-2.80151564585497	3.09304429884549	64.9240823016746
1424531	1.19329840297771	-2.38163666154086	2.66386078205012	63.3872376077952
1214875	0.911762415046727	-1.94873392025416	2.1514819528504	64.9263168370756
1036062	0.812614515572009	-1.82339859699671	1.99627773479742	65.9794132645261
883578.1	0.719722101717243	-1.5608311592844	1.7187768358613	65.2448813711683
753531.2	0.655340787958134	-1.3498167168986	1.50049215845352	64.1032629643702
642624.9	0.593239240519458	-1.1746327235662	1.31593876444333	63.2042921838099
548046.8	0.55728235493035	-1.01888412556228	1.16133048028523	61.3233863339544
467390.6	0.521871703900686	-0.881936440610174	1.02477410223344	59.385757662381
398593.7	0.489268857628903	-0.765004583914115	0.908083712250748	57.3985108457493
339937.5	0.463890760855527	-0.664282844483246	0.810226101456792	55.0721245806016
289906.2	0.442308261787985	-0.574971114375311	0.725416005345826	52.4299812745574
247234.4	0.423493316492951	-0.498688214559535	0.65424500338541	49.661598177512
210843.7	0.409929701526339	-0.428371904853165	0.592912176516052	46.2602743337635
179812.5	0.398033201686867	-0.37042524963515	0.54373274245015	42.9424533590774
153343.8	0.389969401078896	-0.321743536775741	0.505564078267825	39.5242730969962
130781.2	0.383667397812659	-0.279114441752897	0.474452888851325	36.0355388120226
111531.3	0.376741676657106	-0.243572667793204	0.448622263632006	32.8836521443843
95109.37	0.370266283938958	-0.212654339954402	0.426988277735358	29.8699628969316
81109.37	0.363485158030238	-0.184775770965774	0.407754271153918	26.9462681303601
69171.88	0.356455315012236	-0.160113838868943	0.390764421356169	24.1888285272017
59000	0.34727471334464	-0.135349255280395	0.372718590136794	21.2931972334357
50312.5	0.341980078913046	-0.105237655600109	0.35780628631926	17.1047210524247
42906.25	0.37084684913922	-0.105945348673942	0.385683552179933	15.9438398045542
36593.75	0.355558054354738	-0.0961272091959948	0.368323187383495	15.1285781578626
31203.13	0.350730139723167	-0.0831524022280885	0.360452428076902	13.3376381409985
26609.38	0.345376581571656	-0.0720546553340752	0.352812778188992	11.7843782062886
22703.13	0.345387164339046	-0.0639206064212659	0.351252241580648	10.4850646255366
19359.37	0.342740217188346	-0.0572966687866943	0.347496424056949	9.49050729601466
16500	0.340435985833602	-0.0509448767926715	0.344226728947531	8.51092708325745
14112.02	0.338391976831159	-0.0454304392135873	0.341427964277736	7.64645982111996
12011.13	0.336670238880177	-0.0404867923780418	0.339095901043787	6.85726202452882
10236.38	0.335334764852252	-0.0364973095565538	0.33731507248177	6.21153285983843
8750.684	0.333730976526413	-0.0329530708491168	0.335353946706551	5.6391869836328
7449.463	0.332399291227843	-0.0297790816668787	0.333730553761106	5.11936357554903
6363.206	0.331039171661517	-0.027215725991469	0.332156030978795	4.69988856866226
5414.761	0.329849444935742	-0.0248269112097095	0.330782453955212	4.30438840775494
4620.567	0.328210207404477	-0.0234282120864343	0.329045318103839	4.08294652247263
3941.215	0.327013216497349	-0.0221946707202896	0.32776553688929	3.88275965251628
3361.769	0.326525209041388	-0.0197809677855448	0.327123827970472	3.46675390507903
2867.244	0.324777037928848	-0.0208372386910582	0.325444795444795	3.6709852841112
2442.658	0.323427258801975	-0.0204788043722362	0.324074949918496	3.62302413299639
2083.003	0.321573514886558	-0.0155707465743277	0.321950265763793	2.77212451144761
1777.843	0.322591165835675	-0.024094893883568	0.323489759013296	4.27158943877268
1513.548	0.31716124636263	-0.00877968859820297	0.317282743190011	1.58566241689794
1292.065	0.311220208476	-0.0176948472546715	0.31172283487613	3.25412582955921
1101.762	0.324092887066405	-0.0161730945544449	0.324496176301824	2.85684147807786
939.101	0.308812157964443	-0.0158311002088147	0.309217678408719	2.93467034609504
801.2801	0.32247493423995	-0.0106674283454064	0.322651324560375	1.8946459507405
684.3433	0.3067712001638	-0.0133485386369123	0.307061480380851	2.4915402036785
582.9476	0.311645092027024	-0.00664199713223444	0.311715863424428	1.22094269466064
497.0677	0.311794955911176	-0.00634842059877192	0.311859578938584	1.1664314900319
423.5089	0.315861879954714	-0.00952047275929545	0.316005326869796	1.72644387673953
361.5036	0.314635924117753	-0.0145547855182043	0.314972390102551	2.64856501701206
308.1262	0.30339949923878	-0.0144275275355886	0.303742340955509	2.72252985765888
262.7298	0.307709207359476	-0.00565121326296286	0.307761096477675	1.05214359863715
224.2111	0.310588783319038	-0.00922856789476917	0.310725857934271	1.7019367529684
191.2854	0.300194714214258	-0.00991310051359972	0.300358345986878	1.89134743271393
163.1722	0.300482245806609	-0.0143840535133973	0.300826330364314	2.74065079384548
139.1537	0.304164177123381	-0.0153253004069128	0.304550014739296	2.8844064776016
118.6706	0.30647823426874	-0.0106440790945561	0.306663014562004	1.9890997621412
101.1982	0.295718487223398	-0.0112207405637374	0.295931290512669	2.17298827465726
86.24196	0.295453893881863	-0.0061858231449205	0.295518642081909	1.19940807593065
73.61024	0.302160220758405	-0.00479936353591228	0.302198333713338	0.909981310509291
62.69291	0.25907891295829	-0.0161629847729726	0.25958259806162	3.56984734707251
53.57697	0.296219255803458	-0.018548053680664	0.296799389831069	3.58295261072053
45.65746	0.303325038511643	0.0014129828774582	0.303328329551827	-0.266899726494422
38.96512	0.290036284708416	-0.0156083289281954	0.290455962891782	3.08040617199113
33.18414	0.293367116379565	-0.00640369834902917	0.293436998903354	1.25046950167491
28.30617	0.279541480131381	-0.0181652275113067	0.280131066832262	3.71797985542563
24.17237	0.296201077708848	-0.0181935471615067	0.296759302456049	3.5148605874738
20.61345	0.291549575564544	0.00210707363022616	0.291557189537746	-0.414078202822872
17.55618	0.308724399312608	0.000664306469607559	0.308725114031911	-0.123287625961763
14.98558	0.278828673471613	-0.00621180223514126	0.278897858788747	1.27623598667974
12.76553	0.293522114483282	-0.012199894382172	0.293775542061746	2.38006037843769
10.8809	0.275843768646745	-0.00724663127117845	0.275938939560946	1.50485875200843
9.278505	0.289578818192941	0.000927263213370924	0.289580302788514	-0.183466758283061
7.923394	0.286120930340445	-0.0151792927600658	0.28652329348166	3.03680981335963
6.75822	0.275486851188284	-0.0127012595495235	0.275779490121691	2.63973974809366
5.761429	0.283345513988181	-0.00213609984293605	0.28335356574387	0.431936208677289
4.919708	0.288186243893431	-0.00468463788218776	0.288224317158513	0.931294767530362
4.191257	0.287573326651657	-0.00518181247708911	0.287620008660817	1.03230665385413
3.564097	0.281192671192555	-0.00975878412799593	0.281361959404716	1.98765075187731
3.051758	0.27984805054255	-0.00377748685878662	0.279873544300696	0.773351502851214
2.604164	0.273930325671732	-0.0079518795471072	0.274045718286115	1.66276305555751
2.214424	0.273734615617219	-0.00355185941901378	0.273757658326556	0.743402998899726
1.892567	0.277510361284644	-0.00674410746313956	0.277592297454033	1.39213847314117
1.607507	0.276387345499167	-0.00120577674138917	0.276389975667762	0.24995891147845
1.376413	0.268718717668519	0.0121237272415654	0.268992070492126	-2.58325012019832
1.17375	0.292848304591486	0.0177127294455765	0.293383486731139	-3.46127929334655
1.001604	0.295930064485241	-0.0226011271962313	0.296791869863006	4.36738397141399
