EC-Lab ASCII FILE
freq/Hz	Re(Z)/Ohm	-Im(Z)/Ohm	|Z|/Ohm	Phase(Z)/deg
6999984	20.0865536317593	90.6156647611049	92.8152376331521	-77.5014799330479
5969734	18.5611287952373	90.9995912351671	92.8732529155778	-78.4715547759839
5091109	15.3826645034795	96.9624804556295	98.1750934979689	-80.9854071021204
4341796	14.8043056409222	106.714500710317	107.736493944076	-82.1018726617123
3702781	18.1098917052102	118.033139429181	119.41436337846	-81.2770999156215
3157797	18.6119731757903	131.130174516101	132.444434439955	-81.9216774351436
2693047	19.887273117066	149.101289362839	150.421734206509	-82.402675504156
2296687	22.0833935616278	171.995782710942	173.407685935622	-82.6835394153291
1958656	26.4307970620009	197.412971333063	199.174466947652	-82.3742567975175
1670375	31.6967077410584	228.269395472248	230.459536992696	-82.0946533934936
1424531	37.3788918522597	261.09036686056	263.752462023551	-81.8526360208304
1214875	48.7884002431213	298.496904031785	302.457781706544	-80.7172628539991
1036062	56.7964978719493	355.440459280316	359.949666292276	-80.9213504206247
883578.1	77.9400236465102	407.55557870887	414.941197066212	-79.1735999623577
753531.2	95.3362902006463	470.121977667366	479.691236229199	-78.5364135983927
642624.9	182.261530035049	608.944136015473	635.635293323418	-73.3371653822576
548046.8	230.445484884157	689.043994510879	726.558151750431	-71.5078830297434
467390.6	288.640251309894	775.031337407505	827.034925888807	-69.5734629218227
398593.7	360.028688011286	867.612122005031	939.346288884563	-67.4632593623559
339937.5	445.834716666925	967.346364495939	1065.14204850292	-65.2557675692758
289906.2	543.271015645545	1072.62420066007	1202.35854564361	-63.1383447415904
247234.4	670.595887169983	1178.65338506926	1356.06882053402	-60.3622496326225
210843.7	824.404629405626	1287.98433073028	1529.23073118223	-57.3777697735655
179812.5	988.774989707701	1379.66697831644	1697.39711067513	-54.3717180535219
153343.8	1181.52855989161	1464.83088975644	1881.95092216141	-51.1104480132152
130781.2	1395.63188238491	1526.37552981569	2068.23852810777	-47.5619599597874
111531.3	1633.22254776711	1576.3025119349	2269.83380441546	-43.9839817686442
95109.37	1873.41339532249	1536.84654906639	2423.13331559595	-39.3635928129297
81109.37	2080.74135890692	1507.22781382096	2569.28400248422	-35.9184663457435
69171.88	2341.02123468774	1456.88056454327	2757.33229782027	-31.8951166012892
59000	2497.49595529272	1349.11086698342	2838.58876523463	-28.377270330745
50312.5	2657.33066550834	1330.6805030057	2971.88776149614	-26.5998005516445
42906.25	2831.58539365053	1131.10978610958	3049.14499323464	-21.7748140968667
36593.75	2943.82691520953	1029.03064669656	3118.49658947269	-19.267350250146
31203.13	3028.41504736365	977.325633503111	3182.21040991963	-17.8858516032604
26609.38	3149.15743948261	869.656291885	3267.03147286093	-15.4377691024269
22703.13	3200.06447410325	758.166041702573	3288.65145389545	-13.328871886733
19359.37	3248.84083909321	676.165970187676	3318.45856038609	-11.7568647729664
16500	3287.53844288789	605.943146196684	3342.91431387172	-10.4432730839598
14112.02	3322.05210441731	543.307224538139	3366.18670377904	-9.28824746475553
12011.13	3344.37675191103	482.122549538919	3378.94924665892	-8.20319718107063
10236.38	3365.50432638684	447.090086108294	3395.07126818052	-7.56714527354
8750.684	3385.77626327417	401.645862710842	3409.516139276	-6.7652335434749
7449.463	3398.49668352196	371.391572559518	3418.72950203405	-6.2365997633754
6363.206	3417.60817931745	353.466543706234	3435.83821866763	-5.9048285521049
5414.761	3425.95742839665	332.754985622318	3442.07933982393	-5.54759968008114
4620.567	3442.44561888161	331.287378221443	3458.34977495423	-5.49699146395283
3941.215	3455.82875428631	323.679563847607	3470.95388027623	-5.35082248196362
3361.769	3462.15989458697	321.639786080642	3477.06820290838	-5.30762833970429
2867.244	3487.18693362104	341.280811101679	3503.84721442639	-5.58957055744786
2442.658	3496.04633763464	354.026177941135	3513.92580023486	-5.78233017550593
2083.003	3491.64579566242	375.922884335341	3511.82408120539	-6.14499527108988
1777.843	3530.80586015817	386.400001803202	3551.88611635013	-6.24541185426451
1513.548	3537.08958487418	427.892686364868	3562.87733194253	-6.89773003359891
1292.065	3561.39483034419	476.313725583845	3593.10560696202	-7.61773744685006
1101.762	3585.59726997014	521.805127994414	3623.36699411178	-8.28001936224177
939.101	3608.6417424913	591.50090877205	3656.7975813174	-9.30870778761965
801.2801	3630.84095164945	656.245984640022	3689.67001350132	-10.2451557375594
684.3433	3662.34486374308	743.696612258782	3737.0917237968	-11.4787281408981
582.9476	3690.25169945208	836.661784903264	3783.9081050716	-12.7742659297802
497.0677	3729.26642342161	948.878117151997	3848.09014162476	-14.2754726488025
423.5089	3778.48035824486	1074.61597355586	3928.32194559759	-15.8759786832989
361.5036	3822.9604073768	1215.79920172269	4011.6323330136	-17.6419950360747
308.1262	3873.55440283827	1383.22037423019	4113.11588888925	-19.651306457397
262.7298	3932.70138826105	1568.67279749094	4234.01400030969	-21.7460286972394
224.2111	4004.48247835017	1781.70181837113	4382.96033395245	-23.9855660198011
191.2854	4076.58269090343	2033.99129974859	4555.83659092667	-26.5166815643048
163.1722	4166.47873603027	2303.1626405758	4760.68306094162	-28.9331138765352
139.1537	4262.37405763683	2606.96297036825	4996.40756304834	-31.4508852339904
118.6706	4387.62577912934	2980.00548695835	5303.93181328552	-34.1837220294259
101.1982	4519.34251731053	3388.36583019753	5648.49358572893	-36.8606381440566
86.24196	4669.7234357559	3850.93565622811	6052.76981181814	-39.5110492310846
73.61024	4847.76124613148	4377.41584538141	6531.65818019363	-42.0813035225738
62.69291	5056.19067545816	4981.98947146035	7098.25916970716	-44.5764831541669
53.57697	5288.47709191694	5655.77866700873	7743.11450786577	-46.9221895561664
45.65746	5568.42735473737	6425.16783794453	8502.36231589458	-49.0858787258087
38.96512	5893.05726235511	7282.29873047924	9368.03067337719	-51.019164377295
33.18414	6256.72401942197	8269.66121782913	10369.8549706772	-52.889298620602
28.30617	6697.30139728218	9368.45241703397	11516.1515575416	-54.4398541945189
24.17237	7178.19384244713	10593.9091538044	12796.7721710909	-55.8793189815379
20.61345	7752.39463958388	11991.6794998533	14279.3557233879	-57.1180938416564
17.55618	8415.44739740683	13566.6187320785	15964.7392311965	-58.1884477578961
14.98558	9159.76388956664	15318.7319748831	17848.3843479155	-59.122884625975
12.76553	10048.0676025783	17296.5238085422	20003.3346821336	-59.8464157296662
10.8809	11050.3734824418	19486.8765652479	22401.9890271079	-60.4438388226491
9.278505	12204.1380519078	21947.962828538	25112.8265615981	-60.9238055676302
7.923394	13465.8825003205	24687.5331671199	28121.2426003916	-61.3896202550716
6.75822	14961.2698904158	27680.0926430881	31464.6964940678	-61.6084901328115
5.761429	16657.1322690037	31099.4284728779	35279.3779248831	-61.8260995034022
4.919708	18599.0417873688	34848.3571505778	39501.0424103278	-61.9105534824045
4.191257	20777.5743836602	38941.3506270266	44137.6980134393	-61.9173716801666
3.564097	23220.2869190385	43755.0865588875	49534.7284677953	-62.0456569304964
3.051758	25918.6517824369	48708.7399767589	55175.3374284447	-61.9818867278983
2.604164	28923.4740142734	54451.102242711	61656.2234044587	-62.0235407596043
2.214424	32464.3441825822	60796.098628828	68920.9638041383	-61.8983494813682
1.892567	36269.8368394894	67816.3702844692	76906.184035638	-61.8610499289052
1.607507	40577.9577423087	75774.4354166495	85955.4286665397	-61.8305112784247
1.376413	45294.5856947172	84215.9437805929	95623.8708697367	-61.7269205090651
1.17375	50659.7381877328	93962.8193096469	106749.334826344	-61.6688225886388
1.001604	56643.3628915601	104698.935351146	119039.227246015	-61.5860874830219
