EC-Lab ASCII FILE
freq/Hz	Re(Z)/Ohm	-Im(Z)/Ohm	|Z|/Ohm	Phase(Z)/deg
6999984	47.5222544530226	52.9616723152287	71.1568928686707	-48.0985234757715
5969734	45.5709057038951	46.4366614231984	65.0620547693206	-45.5391152753442
5091109	45.4194912010888	42.7456062952864	62.370802772751	-43.2628570876925
4341796	47.462943315466	39.5743911032279	61.7969531559476	-39.8211970151669
3702781	50.4956242563271	35.233366833212	61.5727066762527	-34.9054425864845
3157797	52.5726205389949	31.5927980874551	61.3350252411447	-31.0031874720311
2693047	54.2340064704944	28.3190538045731	61.1824833283836	-27.5719495017988
2296687	55.9753358751493	25.6043233932748	61.5533882313815	-24.5803764252382
1958656	57.4789505451946	22.9086252402011	61.875963557531	-21.7300890113788
1670375	58.8952420961324	20.4993691599918	62.3608344838302	-19.191215618329
1424531	59.9888738500047	18.1398712140303	62.6715239439203	-16.8246478230088
1214875	60.9621863311944	16.2257605949162	63.0845739397739	-14.904368313472
1036062	61.4408736349288	14.4346984398441	63.1137185726885	-13.2210985254689
883578.1	62.036618986657	12.9877244666947	63.3815673687424	-11.8244222265903
753531.2	62.5143171510155	11.731850190771	63.6056299218587	-10.6288770321144
642624.9	62.9248810280758	10.7188710273296	63.8312999123315	-9.66719602087711
548046.8	63.2933192291452	9.89981667342946	64.0628646659669	-8.88970375204048
467390.6	63.589081898037	9.27968781833457	64.2626169918484	-8.30268557261715
398593.7	63.8605879403882	8.83461156173866	64.4687913143938	-7.87642789135162
339937.5	64.1383046633949	8.55568859061592	64.7064288332625	-7.59807926489912
289906.2	64.3591693603609	8.4400618360242	64.9102251155512	-7.47113473580993
247234.4	64.6365427112696	8.51550059847456	65.1950642618626	-7.50517415841865
210843.7	64.888823681157	8.72856779688231	65.4732566358895	-7.66119629561073
179812.5	65.1869397273011	9.08022626378791	65.8163172778026	-7.92999944519635
153343.8	65.4952749258391	9.61457899188901	66.1972141921586	-8.35126093448834
130781.2	65.8232725458665	10.3373506588189	66.6300534840759	-8.92523286491654
111531.3	66.1880011770743	11.2337469728662	67.1345557136321	-9.63272115034409
95109.37	66.5797930414364	12.3361115604674	67.7129861243233	-10.496901933584
81109.37	67.0881650342222	13.5977820154871	68.4523305914396	-11.4577922630641
69171.88	67.5472613034268	15.1681288603021	69.2293625762664	-12.656156409892
59000	68.1201479520322	16.9686257537536	70.2017721783268	-13.9876186525288
50312.5	68.7826829646964	19.0763384670603	71.379017681191	-15.5009376993401
42906.25	69.4773080619015	21.4539300173627	72.7142864141447	-17.1601890965713
36593.75	70.2682711258575	24.2620047533413	74.3389184860002	-19.0486064231209
31203.13	71.1804604437195	27.4747368659093	76.2988801676071	-21.105943166831
26609.38	72.1852900248666	31.1676143654832	78.6265621861313	-23.3533529294978
22703.13	73.3534118188	35.3739104565856	81.4373167930342	-25.7451996227391
19359.37	74.6302825422758	40.2546392113765	84.7945461122235	-28.3418672685838
16500	76.0983729414645	45.8676400647964	88.8527026569926	-31.0791101094639
14112.02	77.7330108144493	52.1538556536435	93.6079357203243	-33.8590726835489
12011.13	79.6297594738381	59.5554133143172	99.4371452169684	-36.7929603692958
10236.38	81.8099242855889	68.0167977288113	106.391486900484	-39.7401464054677
8750.684	84.2470844992672	77.5283692339522	114.491131895456	-42.6218089881884
7449.463	87.1171800676735	88.6627360851597	124.29997519328	-45.5037637793846
6363.206	90.2834714442724	101.163111606327	135.591594009005	-48.2525402606806
5414.761	93.9871097426444	115.795340198986	149.137981780547	-50.9349453109887
4620.567	98.06705632752	132.255586723194	164.64716139746	-53.4431941098888
3941.215	103.283196455671	151.159723778936	183.075614878184	-55.6563008893611
3361.769	108.951492066372	172.774644623471	204.258428096016	-57.7645162852789
2867.244	115.659994593136	197.253712993634	228.661893718781	-59.6147115973153
2442.658	123.295113916094	225.678752535357	257.162564269175	-61.3508883081207
2083.003	132.046061713584	257.775445198285	289.627938157288	-62.876101958759
1777.843	142.312647491182	294.32296671586	326.92338303091	-64.1950508031501
1513.548	154.568359763591	336.387938078275	370.200246791598	-65.3214858283773
1292.065	168.585229018864	383.696185041949	419.098725671038	-66.2806744732058
1101.762	184.514698018942	437.784270966742	475.079721405685	-67.1458407438534
939.101	203.435983519071	499.851199765282	539.664174554105	-67.8540165786351
801.2801	224.754883108514	569.406758734723	612.159141379025	-68.4599767427654
684.3433	249.529731726104	648.288708273939	694.653392916779	-68.9480221926579
582.9476	278.746107665318	739.235398516484	790.043269041886	-69.3398680287478
497.0677	313.167103569309	841.444345683424	897.831956237132	-69.5858388101975
423.5089	352.203083701091	958.603243645332	1021.25765157276	-69.8260227179163
361.5036	397.784066598654	1089.2495850731	1159.61063388608	-69.9382651499825
308.1262	449.751416708398	1237.85569109829	1317.02811238623	-70.0323448199429
262.7298	510.932878882442	1406.62736105039	1496.54700546915	-70.0373295527606
224.2111	581.821143492802	1594.42915604547	1697.26844566885	-69.9525317990812
191.2854	663.171787697757	1808.16062622361	1925.93916576396	-69.8586813122388
163.1722	756.784905143054	2046.60709978754	2182.04583213853	-69.7068474965291
139.1537	867.510029092498	2315.89101262667	2473.03959388867	-69.4645436449683
118.6706	991.986403674394	2618.67873396628	2800.2705827834	-69.2527211481084
101.1982	1137.6948134651	2959.17675799887	3170.34328956126	-68.9700810677704
86.24196	1304.33359499007	3341.19489478484	3586.76308835083	-68.6753515779551
73.61024	1495.31246592707	3764.9071702812	4050.98572838657	-68.3384523944182
62.69291	1712.02058543582	4246.15164922205	4578.2986264711	-68.0410300029658
53.57697	1960.10264571926	4770.94733398748	5157.90081772012	-67.6651123935804
45.65746	2246.40897748996	5366.33039384801	5817.5471798761	-67.2852413754087
38.96512	2566.7500528261	6026.83984684946	6550.64915662984	-66.9314972326949
33.18414	2939.88693546831	6769.14377345235	7379.98933732333	-66.524353423475
28.30617	3359.71105153534	7591.05173291174	8301.30861741394	-66.1263769389771
24.17237	3826.71569472449	8491.56994644343	9313.99555312284	-65.7413493006492
20.61345	4366.58314741163	9502.94283266582	10458.1533199783	-65.3213139410388
17.55618	4981.86515893244	10635.2074051032	11744.2163217197	-64.9001326658381
14.98558	5661.78014215867	11879.7255105354	13159.9252499324	-64.5179125207063
12.76553	6448.73410724198	13260.9944704437	14745.8518211409	-64.0666509612613
10.8809	7326.41950776665	14801.4166226787	16515.3975683873	-63.6654659131107
9.278505	8310.35048126349	16497.5805246849	18472.4683864907	-63.2641662734011
7.923394	9404.48041125768	18352.7920849338	20622.0568595506	-62.8681378454067
6.75822	10640.051897669	20417.6703854449	23023.7262048037	-62.4750887979469
5.761429	12016.9190280805	22706.6360714022	25690.4197047566	-62.1110887107003
4.919708	13557.7678002837	25243.5043378788	28653.9278107368	-61.7606677231983
4.191257	15339.8857492116	28013.8311476496	31938.7981985529	-61.2956551766701
3.564097	17253.7800890101	31168.0988686792	35625.0377466142	-61.032323774028
3.051758	19402.3254908048	34443.8459988396	39532.6290757763	-60.6073036815999
2.604164	21717.6605089604	38175.5895970548	43920.7515767344	-60.3649425342596
2.214424	24468.8667127459	42296.9260823459	48864.664065371	-59.9505221610415
1.892567	27338.8587374207	46827.6714842366	54224.016945448	-59.7228287332565
1.607507	30645.537644312	51881.0879476387	60256.0890212729	-59.4301618915037
1.376413	34209.2619258628	57178.89746585	66631.0732085449	-59.1085606810967
1.17375	38137.2042835332	63228.3525687921	73839.4943043858	-58.9030407199833
1.001604	42438.8180841083	69743.4496257487	81640.6886673268	-58.6795298841028
