EC-Lab ASCII FILE
freq/Hz	Re(Z)/Ohm	-Im(Z)/Ohm	|Z|/Ohm	Phase(Z)/deg
6999984	36.1084266268155	74.8111761642896	83.0694321188516	-64.2352151445888
5969734	34.7637880844223	71.8358174619081	79.8054235775941	-64.1760859001313
5091109	35.0817888505192	73.5226142140004	81.4635299371022	-64.4915564621303
4341796	38.7558228567281	77.2342299817498	86.4126153184587	-63.3526882527488
3702781	46.6587929337399	80.5802775631074	93.1140380940545	-59.9276611450158
3157797	54.9673456188891	83.6436018503931	100.088267119046	-56.6886275967381
2693047	64.0625701993962	86.6316843938105	107.745355544735	-53.5177416486133
2296687	75.0945104553556	89.471759645744	116.809166055731	-49.9929396704362
1958656	87.1735771148672	90.4855873492907	125.645827885162	-46.0680126160294
1670375	99.9411146477309	90.1091236192135	134.565525140928	-42.0385207640113
1424531	112.571489565869	87.7765254730735	142.748235320804	-37.9449779600756
1214875	124.315776701292	83.9020811765264	149.979903862478	-34.0158453954526
1036062	135.163855928163	78.9952999199263	156.555183110647	-30.303766432359
883578.1	144.393062905353	73.4016550149419	161.978886198547	-26.9463311557175
753531.2	152.406736320753	67.1810134767234	166.556602534103	-23.7879242283707
642624.9	159.035402274849	61.0773063090894	170.360489910945	-21.0092107022791
548046.8	164.47226666501	55.0956293622609	173.455051459304	-18.5200413979568
467390.6	168.929766400805	49.5129000086665	176.036340689923	-16.3357314772678
398593.7	172.371083580119	44.3161696503566	177.976721362833	-14.4183339454404
339937.5	175.028625006714	39.8817171358379	179.51482092976	-12.8361625603882
289906.2	177.474230661777	36.0860898327658	181.105793470027	-11.4933500238299
247234.4	179.067886818334	32.7414494251724	182.036563909685	-10.3617182714008
210843.7	180.547392651582	29.9459411617466	183.013989589177	-9.41745517713548
179812.5	181.701185841534	27.9667273661579	183.840851759865	-8.7500739373671
153343.8	182.698588053111	26.3572576429273	184.590029814873	-8.20921323791951
130781.2	183.591512652216	25.3369099948963	185.331601530927	-7.85758330946977
111531.3	184.45707268477	24.7330023457562	186.107853322932	-7.63697736961055
95109.37	184.92665993196	24.515076699706	186.544521600563	-7.55146914826522
81109.37	185.949961043721	25.1294444416386	187.640286159734	-7.69637590423176
69171.88	186.735129253274	25.9756114923507	188.533129421963	-7.91925648653765
59000	187.485823246223	27.4896125985279	189.490402709823	-8.34140606041209
50312.5	188.496016706012	29.4093965508193	190.776468463793	-8.86786833046805
42906.25	189.447993784077	31.7897284355763	192.09666624598	-9.52559523138848
36593.75	190.51427716937	34.8755797007243	193.68013802357	-10.3737160076309
31203.13	191.735849433081	38.7311813851918	195.608640835004	-11.4202291500153
26609.38	193.116197534096	43.0710341944705	197.861011158362	-12.5729973155067
22703.13	194.544848682919	48.2326822585017	200.434751944141	-13.9243354640566
19359.37	196.391159860761	54.2692595423036	203.751417670467	-15.4472057173128
16500	198.411947713583	61.3086861408987	207.668139086912	-17.1709893510095
14112.02	200.667012356724	69.2129076854598	212.267935492974	-19.0300425905587
12011.13	203.342872122759	78.5944159576871	218.003224432261	-21.1321044197567
10236.38	206.259372786964	89.2565368494871	224.743538801087	-23.4000318010671
8750.684	209.472065362697	101.29421871112	232.67802842471	-25.8069759322101
7449.463	213.122943974378	115.364959713162	242.343688133043	-28.4269973377844
6363.206	217.279324633239	131.448927183981	253.947091676389	-31.1729605963063
5414.761	222.08646213572	149.889235610308	267.93502872115	-34.0159599870116
4620.567	226.938583386055	170.754866705951	284.004128725335	-36.9588144622523
3941.215	232.828227145039	194.844637670078	303.600751290714	-39.924615897188
3361.769	239.297900949862	222.334529613284	326.643733228376	-42.8955281156562
2867.244	246.760811507133	254.208334875274	354.277822641664	-45.8517095892117
2442.658	254.799580190983	290.839323479341	386.665667143362	-48.7789280462232
2083.003	263.916779894526	332.991396806489	424.894501090603	-51.6009457224708
1777.843	273.958873796003	381.332098099944	469.539810423866	-54.3055528873402
1513.548	285.809157266835	437.767646261968	522.807217329028	-56.8603373183608
1292.065	297.89551323501	502.361573303263	584.045278328042	-59.3324725874339
1101.762	313.404907634906	576.537234340838	656.214765691101	-61.4715532197753
939.101	330.66356041561	662.649045832546	740.568800402442	-63.480687024181
801.2801	349.998103574623	760.736026777607	837.387589437061	-65.293869262652
684.3433	371.409281297022	873.523968126009	949.204391648174	-66.9655309257257
582.9476	399.855925438895	1005.41723802297	1082.01136020946	-68.3122109274012
497.0677	429.766753317757	1155.51898915768	1232.85181451839	-69.5985584732494
423.5089	465.918490131069	1331.47961916246	1410.64453909942	-70.713763525692
361.5036	507.362827305988	1528.27154739307	1610.28909240022	-71.6346212940263
308.1262	555.739716117799	1757.12849609767	1842.91811643088	-72.4490235040253
262.7298	610.311028268856	2021.84944466053	2111.95519083637	-73.2031505539764
224.2111	677.070067167863	2321.74397614016	2418.45383801258	-73.7421892476355
191.2854	752.974434825298	2667.88545177629	2772.10809372579	-74.2390009517935
163.1722	841.579742135623	3058.11150380748	3171.79798097116	-74.6133142793524
139.1537	944.427650250008	3517.68688887338	3642.26092347987	-74.9716420844272
118.6706	1066.79370980397	4038.49266048877	4177.01709214829	-75.2029451463216
101.1982	1206.27534099448	4635.72727286114	4790.10099545301	-75.4143665727248
86.24196	1372.87354999976	5323.97649429691	5498.13672948527	-75.5403599918741
73.61024	1564.73281986231	6101.95987654008	6299.38910787858	-75.6174801110987
62.69291	1796.59481661446	7009.73112707918	7236.30315900521	-75.6245274919788
53.57697	2053.74236156632	8015.07045041257	8274.00821928337	-75.6280225345291
45.65746	2360.58213079228	9189.01866907494	9487.38173032073	-75.5927283343491
38.96512	2722.13344823553	10510.6797556647	10857.4582401289	-75.4801421276059
33.18414	3143.03422842552	12048.7449931672	12451.9444293422	-75.3796453303399
28.30617	3640.22986825493	13778.3531944862	14251.1154035655	-75.200653315141
24.17237	4220.22623796864	15729.0237936066	16285.3461430662	-74.9808094091493
20.61345	4890.74634682103	17969.80569451	18623.4614539668	-74.7748883775793
17.55618	5672.00870742668	20532.3683991606	21301.4045277764	-74.5573363027681
14.98558	6567.35790300445	23404.2171100776	24308.1790424912	-74.3255748746377
12.76553	7628.44461976095	26702.116897261	27770.419768375	-74.0560555278082
10.8809	8843.36733106206	30430.4388660125	31689.3792197042	-73.7956462099212
9.278505	10272.556018131	34659.8391521148	36150.101759139	-73.4911191418092
7.923394	11955.0824335694	39429.2165205266	41201.7852940381	-73.1325048578368
6.75822	13742.6943814219	44750.607301848	46813.229996929	-72.9285318827702
5.761429	15925.8531486346	50865.7947013972	53300.6741900753	-72.6148947857156
4.919708	18434.3498773931	57610.4429741115	60487.9194143384	-72.2562232059637
4.191257	21186.7677868117	65453.273512793	68796.8759668109	-72.0635947952407
3.564097	24631.3128874593	74365.9194980087	78338.9530013277	-71.6742126776698
3.051758	28161.6726381502	84012.9433946642	88607.3047982692	-71.4685208292179
2.604164	32485.7532397787	94971.714727058	100374.054225948	-71.1163809683305
2.214424	37389.3766618227	107776.947949765	114078.201232864	-70.8676026936847
1.892567	43005.0154659791	121729.344429459	129102.535414511	-70.5425064407274
1.607507	49450.632952058	138181.02575399	146762.941432038	-70.3093126181092
1.376413	56498.6963936489	155592.619470261	165532.975348718	-70.0430591307119
1.17375	64954.9021233408	175857.727842621	187470.210305056	-69.7277604560514
1.001604	74128.676157545	198674.365473559	212053.21059864	-69.5386270878787
