EC-Lab ASCII FILE
freq/Hz	Re(Z)/Ohm	-Im(Z)/Ohm	|Z|/Ohm	Phase(Z)/deg
6999984	16.2534579062395	3.73797379589068	16.6777499084458	-12.9516880406205
5969734	11.8894935463561	-8.22393549702438	14.4565961362992	34.6715211074664
5091109	11.8391321816479	-4.76596622873395	12.7624247268285	21.9277651802769
4341796	10.0056152657497	-4.23638867905067	10.8655108433149	22.9478535091499
3702781	5.6215383893244	-5.84130850565916	8.10694633761283	46.0983621904375
3157797	4.54038072933199	-4.88774781516057	6.67121697083045	47.1100337693
2693047	3.18499159524517	-4.51150092066238	5.52248241454148	54.7789936430348
2296687	2.69138364831324	-3.52101633130974	4.43182828500359	52.606538219127
1958656	1.8343702746447	-3.21313679696598	3.6998868064465	60.2780821325178
1670375	1.39564195793243	-2.81065977606709	3.13809254986894	63.5931586393652
1424531	1.14814227674882	-2.38440198325456	2.64643222195586	64.2881564448589
1214875	0.696877884249608	-2.3732779282583	2.47347668481315	73.6359055766387
1036062	0.814249778102512	-1.81342869855956	1.98784464833131	65.819386152346
883578.1	0.737799226023324	-1.568557174544	1.73341261900739	64.8092042637509
753531.2	0.648471921515311	-1.35254524085891	1.49996482010874	64.3848144248975
642624.9	0.591666334887788	-1.19951936766174	1.33750355709253	63.7450497508544
548046.8	0.554456535040646	-1.00539842884865	1.14814983777406	61.1241689085875
467390.6	0.520969795735223	-0.877640538315613	1.020618656778	59.3065175993144
398593.7	0.489363597021263	-0.760543977683907	0.904380380194555	57.2411938239402
339937.5	0.46185357565737	-0.658931424700255	0.804673441717201	54.972888290485
289906.2	0.441978933395083	-0.57166580306924	0.722597514501575	52.2908785810556
247234.4	0.423865575743212	-0.495557692531375	0.652103866670905	49.458622149009
210843.7	0.411660083165872	-0.427224893691611	0.593283350400077	46.0629533986984
179812.5	0.399649853314283	-0.367019902645734	0.542608158980504	42.5629261155828
153343.8	0.391800211841421	-0.319507226032626	0.505561344928631	39.1967303142538
130781.2	0.385356295836494	-0.276280581924857	0.474162877806309	35.6385707332441
111531.3	0.379161783644113	-0.24109777054983	0.449323706408068	32.4510747386385
95109.37	0.372480596738903	-0.210132969928527	0.427665359829332	29.4292895975406
81109.37	0.366363246695967	-0.182008377712194	0.409083216579506	26.4180755277628
69171.88	0.359827541617112	-0.158260139387486	0.393093031514374	23.7409588779038
59000	0.351169561295063	-0.133906751537488	0.375833844787148	20.8726748596994
50312.5	0.344531614173323	-0.10435380501367	0.35998854118667	16.8508262646683
42906.25	0.374970912180911	-0.104013296681796	0.389129735266273	15.5034988206844
36593.75	0.359357772867516	-0.0948162852907034	0.371655938842136	14.7806037001457
31203.13	0.35344504837991	-0.0829804248170795	0.363055303124882	13.2123895669829
26609.38	0.348576897762264	-0.0712976249384318	0.355793767476926	11.5597844801753
22703.13	0.349167975680316	-0.0633911619358158	0.354875632654966	10.2899266596709
19359.37	0.346744324350879	-0.0562988664624834	0.351285053531328	9.22230575211393
16500	0.344546444773049	-0.0502221836447721	0.348187478717712	8.29320885068569
14112.02	0.342664620302849	-0.0449049036276138	0.345594404435461	7.46585206493882
12011.13	0.3408236962489	-0.0401534907444102	0.343180848451256	6.71921930294795
10236.38	0.339253222345428	-0.035870806703846	0.341144344296283	6.03572076040253
8750.684	0.337068294635428	-0.0322839207722393	0.338610819066467	5.47101928709955
7449.463	0.335800064766581	-0.0281008998585627	0.336973803240104	4.78356160618978
6363.206	0.334566310803559	-0.0287050101885589	0.335795464434273	4.90383518767026
5414.761	0.333999464969411	-0.0230010116869689	0.334790515305432	3.93947789057187
4620.567	0.334017562324408	-0.022157773810795	0.334751697354009	3.79527816452452
3941.215	0.332191884682923	-0.0217627954028739	0.332903991434377	3.74824635095342
3361.769	0.328987406259811	-0.020133380621845	0.329602892118412	3.50202117624272
2867.244	0.328150562525799	-0.0193799450415982	0.328722335650946	3.37985339629154
2442.658	0.326694615179693	-0.0185900601370267	0.32722310725758	3.25681701232294
2083.003	0.32481978694152	-0.0174498129501625	0.325288164495314	3.07506047576256
1777.843	0.322794509251699	-0.0178659476266927	0.323288551123674	3.16795985266507
1513.548	0.31809538982717	-0.013773119430086	0.318393429341961	2.47928463644065
1292.065	0.320182518903787	-0.0149175397278166	0.320529840113373	2.66752361749514
1101.762	0.322700118450023	-0.0123765494979301	0.322937370747229	2.19639417354615
939.101	0.316685683655871	-0.00987208454325719	0.316839518188334	1.78551066879736
801.2801	0.320923490814045	-0.0136119048866361	0.321212034193794	2.42873314313406
684.3433	0.312574566496968	-0.0137508355346415	0.312876884890317	2.51894191023063
582.9476	0.311962887630318	-0.0121462801613542	0.312199255893419	2.22968588623222
497.0677	0.311386130103473	-0.019632801370517	0.31200443732497	3.60770610634357
423.5089	0.312443928001549	-0.0200702151297768	0.31308788172076	3.67541424786757
361.5036	0.308095388325934	-0.00559810528900594	0.308146243025182	1.04095201402486
308.1262	0.302690363066126	-0.0134915152821478	0.302990885799741	2.55209840487706
262.7298	0.316269719329327	-0.0153921418099032	0.316644048411062	2.78625938025349
224.2111	0.309546569242499	-0.0183714951813643	0.310091261348978	3.39650297686024
191.2854	0.30324899917778	-0.00527864859713184	0.303294938357595	0.997245647496691
163.1722	0.312929041661386	-0.0105360153485833	0.313106360099151	1.92836451698395
139.1537	0.299772326918303	-0.0053534385653994	0.299820124892388	1.02309922208638
118.6706	0.305934852879737	-0.0113592994573866	0.306145664497652	2.12640394112415
101.1982	0.297522722676988	-0.00983641888632101	0.297685279524593	1.89356993600124
86.24196	0.303749925171281	-0.0154960603930264	0.304144940660309	2.9204609927758
73.61024	0.28740061348705	-0.0258536507680888	0.28856112678386	5.14031148549681
62.69291	0.223206724741166	-0.0234634801673067	0.224436576500445	6.00089065603653
53.57697	0.273273327233669	-0.0209823976509993	0.27407767583031	4.39065407930543
45.65746	0.300628384412149	-0.0434860149199683	0.303757236963794	8.23076791017233
38.96512	0.28539394072104	0.013852878393789	0.285729948797948	-2.7789272393492
33.18414	0.307963968254864	-0.00456843851429986	0.307997851248579	0.849882048504633
28.30617	0.320759314575727	-1.25801322038273E-06	0.320759314578194	0.000224713187813616
24.17237	0.293277638212971	0.00742382030015189	0.293371583803931	-1.45003471242355
20.61345	0.272215928705682	-0.00337066004692881	0.272236796172466	0.709417434323746
17.55618	0.272165466616483	-0.019768764419873	0.272882475188965	4.15438862994749
14.98558	0.297671818612329	0.00280595582435682	0.297685043265629	-0.540073512732864
12.76553	0.276801035740258	-0.0254130475496053	0.277965171150341	5.24560852317036
10.8809	0.293240976609718	0.00921942675652387	0.293385869108824	-1.80077254558626
9.278505	0.301906993738222	-0.0205384625336064	0.302604793933102	3.89178431074738
7.923394	0.270718362918943	-0.0187998717093391	0.271370350624014	3.9724928646429
6.75822	0.273587871331888	0.0076133923249153	0.273693783419731	-1.59401327676197
5.761429	0.312522176592663	0.00494450708030984	0.312561288409941	-0.906418085981372
4.919708	0.291777092172006	-0.0140851995488072	0.292116867644922	2.76374156594705
4.191257	0.277718044035152	-0.0271189504101094	0.279038974793946	5.57720612822894
3.564097	0.26984691904787	-0.00871004127673933	0.269987452557837	1.84873484261667
3.051758	0.265056128355713	0.000236981896982058	0.265056234296309	-0.0512271079498818
2.604164	0.263924607944922	0.00597165055665612	0.263992157628312	-1.29617319907691
2.214424	0.277466397978847	0.0104537661099875	0.277663255100919	-2.15764331898806
1.892567	0.28773264326362	0.0172013846874619	0.288246355804606	-3.42121464656423
1.607507	0.293642403159812	0.0179186035319553	0.294188608355261	-3.49196462102258
1.376413	0.294045000530857	0.0145335180661396	0.294403949505726	-2.82960822111749
1.17375	0.299373589879363	0.00958518308714655	0.299526997200705	-1.83383908585885
1.001604	0.271623351886086	0.0172164186466385	0.272168422784218	-3.62675122345372
