EC-Lab ASCII FILE
freq/Hz	Re(Z)/Ohm	-Im(Z)/Ohm	|Z|/Ohm	Phase(Z)/deg
6999984	22.2149398125948	87.4701018157582	90.2470069450301	-75.7497760659944
5969734	17.2108498687426	86.9684068749581	88.6550458099969	-78.8059329452222
5091109	12.4023943093563	91.9128463487046	92.7458393057356	-82.31512755306
4341796	9.72041248606301	101.035893134158	101.502404505096	-84.5046284713729
3702781	10.6745518549434	112.960473593294	113.463715132747	-84.6016875218681
3157797	11.207910657229	126.740772445957	127.23537503972	-84.9463789314188
2693047	11.1999796089883	143.159348338611	143.596791607534	-85.5266132905478
2296687	11.296561068834	164.673785588325	165.060800773447	-86.0756787456216
1958656	12.7163762454122	189.855546411295	190.280936322971	-86.1680968379762
1670375	14.6237622532491	220.20522471457	220.69027032027	-86.2005835449601
1424531	17.6341499229815	255.375808330237	255.983918877394	-86.0498956448407
1214875	21.3389488595961	296.459726703322	297.226715312471	-85.8829930391191
1036062	25.6977083436903	344.351442072799	345.308974502161	-85.7321332516612
883578.1	31.3761182230799	400.517243606776	401.744350577725	-85.5206545294784
753531.2	38.447989714322	465.901270939059	467.485018129676	-85.282418678263
642624.9	100.295040794571	611.791250597595	619.957764299919	-80.6899327671714
548046.8	124.261900542105	700.233958212832	711.174111002886	-79.9371808159285
467390.6	150.461532960361	801.349336526561	815.352336142077	-79.3659418941831
398593.7	180.219548181751	917.28646378385	934.822733029056	-78.8846573462732
339937.5	214.193403957324	1049.98595706718	1071.61062160521	-78.4700650857165
289906.2	253.866096842264	1202.89149569904	1229.38844371948	-78.0828029119876
247234.4	300.448903254222	1381.70123461895	1413.99004424154	-77.732095445588
210843.7	350.814603912539	1581.88213409172	1620.31539290253	-77.4958649466556
179812.5	422.894390860227	1824.69161253064	1873.05609810831	-76.9513831539428
153343.8	507.638773433742	2096.14837951425	2156.7417910435	-76.3863894721643
130781.2	612.562887682192	2410.85137575396	2487.4560593788	-75.7436454175865
111531.3	747.09591851127	2766.97252657552	2866.05814216668	-74.8901674859596
95109.37	913.53648238245	3175.45529027686	3304.2495676312	-73.950172927268
81109.37	1131.96268588343	3636.2813122891	3808.39615905901	-72.7088025683376
69171.88	1406.98031008929	4139.94565526106	4372.49855591673	-71.2294255413098
59000	1750.71647842656	4696.64707881591	5012.33498190059	-69.5566179626458
50312.5	2763.24837036364	5567.80821088622	6215.78875361199	-63.6052480488425
42906.25	3534.05907763964	6048.18433606354	7005.00587631813	-59.7015147032776
36593.75	4158.24596582323	6590.26556140457	7792.47134624955	-57.7493901994874
31203.13	4955.68251075967	7152.96493779375	8701.93636777217	-55.2851961254549
26609.38	5823.11301610604	7708.11845909146	9660.42107662654	-52.9307062804561
22703.13	6838.93538798274	8200.65353934451	10678.0970080519	-50.173581804085
19359.37	7987.73627987813	8592.4194196706	11731.7348401851	-47.0886681731196
16500	9212.37938732683	8867.71542812293	12786.8804205801	-43.9078929734508
14112.02	10472.3021171753	8984.2501714043	13798.0383669481	-40.6264891962232
12011.13	11798.4656160929	8952.11312674209	14810.2707716002	-37.1894930001499
10236.38	13047.1282924793	8766.30613735589	15718.6411618263	-33.8969738416968
8750.684	14236.3158915732	8445.94303900663	16553.1460448703	-30.6792772417098
7449.463	15342.8498475191	7974.37052954757	17291.4321785685	-27.4629328221193
6363.206	16282.1638528021	7515.22257654621	17932.8589495519	-24.7762363179257
5414.761	17153.6939278438	7013.49139622213	18532.0877651447	-22.2377811840663
4620.567	17979.2275626247	6502.68360272799	19119.0354826239	-19.8839215926421
3941.215	18570.7610801555	5946.48144033766	19499.5848319008	-17.7554120316209
3361.769	19148.0086212053	5132.06464294996	19823.8321637662	-15.0038280571287
2867.244	19804.2843764329	4781.98009047942	20373.4389156167	-13.5749056935402
2442.658	20047.0913100616	4524.35857270052	20551.2941317163	-12.717818127804
2083.003	20520.1468461929	4112.92160847085	20928.2715661554	-11.3338041961977
1777.843	20836.2980692393	3789.78469495392	21178.1440467358	-10.3084847626552
1513.548	21132.3704590467	3498.96341456197	21420.0799763874	-9.40137798140411
1292.065	21431.8495214637	3313.86950729997	21686.5374143056	-8.78967105058859
1101.762	21680.5769951591	3115.58616692678	21903.2941816195	-8.17764899298575
939.101	21905.4271016756	2981.31119621689	22107.3732712756	-7.75029123275357
801.2801	22111.4769255945	2886.03881123508	22299.0275987778	-7.43633327933369
684.3433	22420.2413824316	2818.6760559993	22596.7289304263	-7.16563936902413
582.9476	22523.1192890827	2880.02358656094	22706.5065205856	-7.28684859058405
497.0677	22767.3211128417	2871.47441310899	22947.6856340762	-7.18833995686721
423.5089	22992.4481235784	3049.49492955076	23193.7942139875	-7.55506159364069
361.5036	23232.8375118458	3128.19331602822	23442.4898906723	-7.66849004834274
308.1262	23491.0617693623	3367.77882904817	23731.243483926	-8.15857522798584
262.7298	23706.5466473033	3567.90535211252	23973.5333762548	-8.55894667606736
224.2111	24028.1653851993	3913.62356618108	24344.7978261529	-9.25090207566891
191.2854	24330.9212678414	4351.0854475804	24716.9106951909	-10.1389981172776
163.1722	24732.761318664	4644.27626546997	25165.030985	-10.6350592467239
139.1537	25136.1847068957	5185.397100441	25665.4656047468	-11.6561559813163
118.6706	25469.6312489202	5820.02017094978	26126.1315687232	-12.8715598929714
101.1982	25887.4539949311	6508.04330392273	26692.9747683807	-14.1115838010833
86.24196	26329.9540755808	7332.78120431891	27331.9622751936	-15.5622957496207
73.61024	26812.3686946209	8256.29006284924	28054.7578962676	-17.1150858589386
62.69291	27335.7212021466	9344.81181386358	28888.8760854072	-18.8731724758298
53.57697	27882.2542447295	10538.7556943545	29807.4734479966	-20.7052680511181
45.65746	28508.0889354028	11950.3912323158	30911.5348268935	-22.743089852326
38.96512	29165.3282060382	13541.7608434392	32155.8028372304	-24.9059253148536
33.18414	29908.131491636	15355.9853931802	33619.9734788199	-27.1777087021252
28.30617	30670.1723979384	17459.2650633144	35291.4353841032	-29.6510758304578
24.17237	31591.3012823256	19813.3082044693	37290.4478213384	-32.0949528210749
20.61345	32546.6916459903	22558.8026703428	39600.3373094048	-34.7266511065139
17.55618	33603.2934220368	25729.2569847592	42322.2871994802	-37.4404370552613
14.98558	34769.2822687321	29316.903002236	45479.4875864414	-40.1370514588886
12.76553	36070.8065798776	33456.6529521103	49198.0763250038	-42.8467579481347
10.8809	37530.9036330161	38179.7703371122	53537.4970511825	-45.4910326571768
9.278505	39137.4710051801	43612.1265563733	58598.2868303369	-48.0952346980275
7.923394	41006.2103320372	49947.3629740882	64623.8992468003	-50.6143983429248
6.75822	42995.381175611	56965.6600386556	71370.0863532879	-52.9559679896434
5.761429	45317.8975132225	65308.0034693116	79491.1765680101	-55.242820166927
4.919708	48166.1164049502	74561.1572157899	88765.6517741686	-57.1377520236073
4.191257	51211.6132497717	85237.9170284805	99439.0860325975	-59.0022197143204
3.564097	54815.0833943636	97810.1850547094	112122.815109002	-60.7327241429541
3.051758	59039.4584062193	111687.163920461	126331.628001445	-62.138418797528
2.604164	63802.8242702775	127693.83519677	142746.334216062	-63.4507786272752
2.214424	69787.8170758257	146438.160900465	162217.367689528	-64.5190011405171
1.892567	76323.2608408934	167366.25493581	183947.556212703	-65.4858101240209
1.607507	84166.1527503458	191767.998109472	209425.180834849	-66.3035354892316
1.376413	92954.3627320889	218306.875173113	237272.849898124	-66.9358517119379
1.17375	103295.511046172	248992.639374563	269568.724196634	-67.4687024614096
1.001604	115155.276787599	283264.440014512	305776.847960671	-67.8768202988813
