EC-Lab ASCII FILE
freq/Hz	Re(Z)/Ohm	-Im(Z)/Ohm	|Z|/Ohm	Phase(Z)/deg
6999984	17.190859681887	93.1471702875968	94.7202248159752	-79.5433869233351
5969734	16.8392266258646	94.3337543286859	95.8249276498662	-79.8789110081637
5091109	14.4034793991544	99.4667792208739	100.504230693916	-81.7604471115938
4341796	13.2382874104922	109.193331474894	109.992890189088	-83.0873600693373
3702781	15.769091179264	120.97390945778	121.997340160018	-82.5733023355459
3157797	15.3966840937178	134.508367291488	135.386700796288	-83.4699812849257
2693047	15.3014419047889	153.126275380358	153.888889580199	-84.2935508196467
2296687	16.006438684306	176.433926353568	177.158506563728	-84.816202920365
1958656	18.1368201510747	202.949678007384	203.758474789377	-84.8932657438101
1670375	20.3168822398829	234.620100946186	235.498126259951	-85.0508291374711
1424531	23.7414850087279	272.100164381107	273.133955352763	-85.0134149934491
1214875	23.7763135388467	313.347379708753	314.248139940142	-85.6608000061674
1036062	36.7066993383937	360.259045767364	362.124235357882	-84.1822251200528
883578.1	35.0137471710014	416.795032827228	418.263149082494	-85.1980219950402
753531.2	47.2005605527588	485.876402217305	488.163672499426	-84.4514006922053
642624.9	93.5622902354837	657.404531081178	664.029080417546	-81.9000196304877
548046.8	123.39208412906	749.067922091057	759.162932664344	-80.6458150169463
467390.6	151.244479188148	857.562506491284	870.797533887475	-79.9978570464329
398593.7	180.723295406067	981.69184754786	998.188255312774	-79.5689981367775
339937.5	213.484456608328	1125.04173813404	1145.1176907886	-79.2554756312819
289906.2	249.83437193891	1290.39682718206	1314.35961022988	-79.0425072188317
247234.4	291.873319241942	1482.36398423108	1510.82527653953	-78.8611087808933
210843.7	347.118310839901	1710.83901240396	1745.69792578318	-78.5307413162209
179812.5	401.474828508786	1963.38601908143	2004.01264912439	-78.443422548243
153343.8	474.815608287691	2262.70140277451	2311.98345582128	-78.1487503542072
130781.2	566.43165557366	2607.78849276135	2668.59619339728	-77.745273474876
111531.3	683.111785343637	3009.13473161873	3085.69822638402	-77.2099017111058
95109.37	826.248045831685	3467.37714960519	3564.46210960993	-76.5968368703158
81109.37	1026.46230189224	4004.92347067225	4134.37260816528	-75.6245274919788
69171.88	1282.82449333709	4621.13417711122	4795.8857121048	-74.4853728036997
59000	2265.23114087781	5586.36965794166	6028.16705780238	-67.9278135426479
50312.5	2627.55223527909	6300.44213255101	6826.39010127198	-67.3617885368382
42906.25	3428.95173433934	7124.34847479111	7906.582775554	-64.2984696851712
36593.75	4022.28039755507	7834.87763232893	8807.04531100664	-62.8248795318743
31203.13	4723.38825899148	8270.41738187727	9524.19027086482	-60.2685137373391
26609.38	6158.43708623196	9191.91619884137	11064.2519291455	-56.1785461900449
22703.13	6944.30881532851	11035.8584589621	13038.9262153329	-57.8198640082885
19359.37	8618.06006114612	11414.2386768544	14302.3006467394	-52.9462047888144
16500	9856.2026454863	11602.3901261411	15223.6719364307	-49.6521787513601
14112.02	11501.2635755747	12157.784554566	16735.9131543542	-46.5895073420016
12011.13	13238.7310972062	13566.7727651258	18955.7728495752	-45.7011420102292
10236.38	15027.596293782	13413.053894641	20142.9557202868	-41.7508730325439
8750.684	17015.016928968	12743.3738215245	21258.0426532685	-36.8313256232577
7449.463	18744.1988507283	13181.4840300835	22914.9844379391	-35.1160389536628
6363.206	21353.1950638452	12627.6232300742	24807.5756146249	-30.598765212338
5414.761	22282.905482419	11588.8803977483	25116.3298595104	-27.4780130712871
4620.567	23923.219424462	11385.397567239	26494.2957142674	-25.4504357554561
3941.215	25516.3857750109	10304.5214327414	27518.5229432288	-21.9907962673192
3361.769	26375.0874024494	9660.02360420865	28088.4547727481	-20.1155397813238
2867.244	27304.8798689448	8469.81734479438	28588.3590034771	-17.2335907197055
2442.658	28136.1770963514	8106.03180769746	29280.5774066129	-16.0716896069597
2083.003	28884.094812349	6862.63331640631	29688.1570523368	-13.3652145996782
1777.843	29960.0045712464	6713.78705545862	30703.0423661101	-12.6308374049251
1513.548	30037.2958997557	6417.30653963246	30715.158606022	-12.0596328606474
1292.065	30147.9459465453	5881.99530594794	30716.3883549972	-11.0399685205429
1101.762	31130.0461699335	4763.94095815139	31492.4579541665	-8.70067351627092
939.101	31433.9624093876	4653.94867090233	31776.6145299682	-8.42173474328943
801.2801	31963.7180786086	3600.69066060123	32165.8863804825	-6.42723428097133
684.3433	31806.8443466007	3629.6737885048	32013.2766067431	-6.51021002886217
582.9476	32360.1340008197	3733.23513181887	32574.7650352302	-6.58084999542385
497.0677	32365.029525985	3471.81076720091	32550.7082291788	-6.1227301311711
423.5089	32615.895174192	3721.36515413277	32827.5064027756	-6.50910994989552
361.5036	32990.6166390795	3765.17570555529	33204.7787874036	-6.51092049652814
308.1262	33208.4716709843	3989.46580417849	33447.2484387771	-6.85034069436364
262.7298	33422.3423383452	4280.78281360886	33695.3716239906	-7.29878903103458
224.2111	33749.0950372129	4633.19823695406	34065.6416603848	-7.81690903559343
191.2854	33885.6992848	5172.35997047764	34278.1843697139	-8.67871777356151
163.1722	34363.1758503794	5631.67695945947	34821.5973197641	-9.30729258186568
139.1537	34597.6710275701	6303.25330507905	35167.1699566506	-10.3253125330982
118.6706	34909.5915885902	6915.29728051976	35587.9322433902	-11.2047569120004
101.1982	35416.0239222128	7788.75150079256	36262.3689297852	-12.4031382475622
86.24196	35772.9676542224	8716.32151848713	36819.5528979329	-13.6936683853149
73.61024	36153.0608111189	9765.29714659788	37448.6960303535	-15.1154402356202
62.69291	36719.4487302409	11101.9746014817	38361.0708284419	-16.8224763129653
53.57697	37210.0564479786	12370.5806291916	39212.492473255	-18.389521612226
45.65746	37835.1318039758	14050.0100399564	40359.6330601146	-20.372391031303
38.96512	38503.7691930734	15903.2241642049	41658.7659549634	-22.4421093929658
33.18414	39221.0735015762	18058.7354498919	43178.8204177144	-24.7229741612903
28.30617	39973.6725524892	20490.0237937588	44919.21161822	-27.1391314537791
24.17237	40778.0114813935	23218.6029988439	46924.9373531237	-29.6567653013634
20.61345	41687.838399563	26426.2053031681	49358.0813763386	-32.3708892952099
17.55618	42628.6198553871	30135.4857344193	52204.8535217224	-35.2576683910412
14.98558	43811.6476958366	34322.736749552	55655.2848506155	-38.0757097401906
12.76553	45042.3679961731	39220.250386623	59724.7264965866	-41.0474355587279
10.8809	46423.1786480665	44811.096200384	64522.4446101538	-43.9877059943125
9.278505	48104.3953988576	51192.8023907969	70247.6752164284	-46.7814768512602
7.923394	50056.9038110628	58136.1762404908	76717.0685507169	-49.2706117781147
6.75822	52108.2907903609	66972.8829177607	84856.5908778387	-52.1152784760039
5.761429	54588.8834187141	76461.0080310749	93948.0278772794	-54.4752859045698
4.919708	57509.3070677587	87713.1429258561	104885.250828443	-56.7490631849685
4.191257	60865.6535716932	100104.999562101	117156.471106113	-58.6996407027119
3.564097	64601.4641271993	115121.461197511	132008.711817167	-60.7006385064267
3.051758	69178.2018988745	131154.15151441	148280.258555973	-62.1902714779874
2.604164	74082.4350357111	150098.142477194	167384.765005434	-63.7308976933147
2.214424	80443.1097711417	171840.954738674	189737.733820005	-64.9145139064959
1.892567	87433.469671494	196200.126492832	214800.142585147	-65.9806164758958
1.607507	95662.9749866188	224381.743845063	243923.290717065	-66.9094956533619
1.376413	105449.776361378	254997.04354064	275940.478272274	-67.5332748049208
1.17375	116532.344103355	290574.759061843	313071.042777947	-68.1471990824035
1.001604	129424.986238135	329940.999309168	354417.677448338	-68.5815583868922
