EC-Lab ASCII FILE
freq/Hz	Re(Z)/Ohm	-Im(Z)/Ohm	|Z|/Ohm	Phase(Z)/deg
1777.843	0.331449554782097	-0.0221085477297438	0.332186085271446	3.81612466094256
1513.548	0.329349333269779	-0.0202083508799088	0.329968726958379	3.51117589589332
1292.065	0.324144679996976	-0.0099679344578324	0.32429790823824	1.76137596759307
1101.762	0.322214717295253	-0.0111978219630962	0.322409235690259	1.99038032281332
939.101	0.329143470576869	-0.0145321764483598	0.329464123047886	2.52805251213101
801.2801	0.324132813364715	-0.0169869224730212	0.324577627440386	2.99997206487949
684.3433	0.326174574376933	-0.0140830994027008	0.326478462779338	2.47229970796021
582.9476	0.323429039956606	-0.0106569469996827	0.323604564872942	1.88720609377073
497.0677	0.318356521589659	-0.0103894403118522	0.318526004132568	1.86916193392867
423.5089	0.321813069577942	-0.0131599313253695	0.322082032320441	2.34169684334912
361.5036	0.318849568966406	-0.0148709056553705	0.319196164552574	2.67029730618137
308.1262	0.318739768570792	-0.0139263015615898	0.319043855831367	2.50176234370143
262.7298	0.314361517528073	-0.010342381492041	0.314531601842294	1.88433099155476
224.2111	0.314624647159123	-0.013744480917752	0.314924720140705	2.50139450479696
191.2854	0.312672581961556	-0.00937980978271521	0.31281324195447	1.71829068731482
163.1722	0.312898209095944	-0.0110453103441338	0.313093098192929	2.02170220659973
139.1537	0.31809700172265	-0.0188467072216617	0.318654830307088	3.39071381129824
118.6706	0.311543870406705	-0.0185094838847501	0.312093229951676	3.40006734730375
101.1982	0.320123958290177	-0.0137145172828463	0.32041759729402	2.45312395647278
86.24196	0.301140698346718	-0.00788865753509517	0.301244005946101	1.50057245474306
73.61024	0.319807785370366	0.00669451293290813	0.319877845570629	-1.19919321675748
62.69291	0.236913977360939	-0.0550104646274957	0.243216742613482	13.0722039832483
53.57697	0.30290938685581	-0.0143498965568386	0.303249099218043	2.71227735087281
45.65746	0.319572023310728	0.00099349254154118	0.319573567602739	-0.178121806899624
38.96512	0.291944374414757	-0.0137404922832339	0.29226754674546	2.6946629093771
33.18414	0.308548774727136	-0.00284356141002066	0.308561877468863	0.528018480723312
28.30617	0.284821055796456	-0.0100055500438199	0.284996745344026	2.01193041140378
24.17237	0.296591468134446	-0.0165687782285201	0.29705390652562	3.19744655263369
20.61345	0.316243821553146	-0.0138286335921354	0.31654602473821	2.50382098105934
17.55618	0.309358528239998	-0.0181807065065338	0.309892299168428	3.36334991996059
14.98558	0.29786309592461	-0.00744030536635954	0.297956006916689	1.43089047361484
12.76553	0.309182772344793	-0.00969887295310585	0.309334858771805	1.7967440793287
10.8809	0.297742706149305	-0.012073709372349	0.297987404973968	2.3221183025317
9.278505	0.299125269586294	-0.011405440709436	0.299342631415656	2.18359085865615
7.923394	0.299615369862317	-0.00257962863162601	0.299626474700768	0.493293055746479
6.75822	0.287965459596192	-0.00879752603576405	0.288099813232838	1.74987785056038
5.761429	0.296905717452276	-0.00170603398077988	0.296910618886887	0.329220575053919
4.919708	0.290103921336944	-0.00585515289518005	0.290163002449481	1.1562408626877
4.191257	0.291803269846324	-0.00815523988128356	0.291917207835592	1.6008704356541
3.564097	0.285733521371724	-0.00883874100169012	0.285870195329945	1.77179463213973
3.051758	0.284865831064392	-0.00184378536929895	0.284871797924075	0.370840000109104
2.604164	0.291649037377256	-0.00746300517637402	0.291744507145109	1.46582141855279
2.214424	0.283843383221252	-0.00711534587502952	0.283932552458163	1.43598177658237
1.892567	0.272174507123075	-0.00300758266666152	0.272191123810432	0.633104039674681
1.607507	0.284611221140317	-0.00525153627786224	0.284659666676296	1.0570796300422
1.376413	0.299031442091571	-0.00612581605528334	0.299094180788774	1.17356997120143
1.17375	0.283325315941011	0.00892579181220005	0.283465878744777	-1.80443145406597
1.001604	0.319208739604984	-0.0306386500480776	0.320675765091426	5.48263199569126
