EC-Lab ASCII FILE
freq/Hz	Re(Z)/Ohm	-Im(Z)/Ohm	|Z|/Ohm	Phase(Z)/deg
6999984	17.6282947381716	1.89091993839886	17.7294205655256	-6.12248948889715
5969734	16.2702066167706	0.160039759537816	16.2709937028147	-0.563564266671212
5091109	11.3758087263435	-5.16460693369943	12.4932857550754	24.4180059156761
4341796	9.93837088024436	-5.50168314740604	11.3595657138704	28.9680356541485
3702781	5.62571969780362	-4.74603451019896	7.3602694033748	40.1520343052313
3157797	4.16540954629948	-5.05161224172054	6.547474545892	50.4920202874628
2693047	3.51517858881358	-4.13812523739863	5.42960044493597	49.6533762331519
2296687	2.34429610681484	-3.87891943661225	4.53229966266083	58.8525631382323
1958656	1.86053083325695	-3.21028533232335	3.71045912205353	59.9054303825647
1670375	1.54000951309595	-2.73259400609354	3.13667009782099	60.5956726383588
1424531	1.21641230011832	-2.42075889711772	2.70919407238643	63.3208317993395
1214875	0.776549884643029	-2.00658387277309	2.15160604242788	68.843514690826
1036062	0.865948917520305	-1.83349473778928	2.02770078691497	64.7189061152382
883578.1	0.78860217938001	-1.576113860975	1.76239277690316	63.4190940612045
753531.2	0.710087027991202	-1.34885966975529	1.52435100813878	62.2361081015978
642624.9	0.63141278310284	-1.17343894886714	1.33253182678092	61.7158624236191
548046.8	0.599927712874064	-1.01583013099753	1.1797559559997	59.4348028496442
467390.6	0.569639297828286	-0.88172977419855	1.04973154870116	57.1356206206094
398593.7	0.535177510877813	-0.771488943804591	0.938940977145047	55.25117389158
339937.5	0.506706938706521	-0.664630175726074	0.83575426545068	52.6784902590395
289906.2	0.507206137166101	-0.578222655962324	0.769155059430205	48.7433645558795
247234.4	0.450580975818541	-0.516000878115159	0.685040233844118	48.8719706625745
210843.7	0.451362193870145	-0.452136887242513	0.638870561898589	45.0491274985263
179812.5	0.440563212584803	-0.387557163562818	0.586767841068253	41.3376272228058
153343.8	0.446203747799646	-0.31239617006269	0.544691795073404	34.9966345491575
130781.2	0.417295480603371	-0.287345477330049	0.506658604460668	34.5509077620134
111531.3	0.413143044098251	-0.251387256152736	0.483614234119273	31.3194716340992
95109.37	0.422704828565398	-0.205410974092917	0.469971318667749	25.9171671753697
81109.37	0.400667949246158	-0.181450612271859	0.439839891604837	24.364359877318
69171.88	0.393383041270916	-0.16152083453702	0.425251921981654	22.322773743396
59000	0.394895421156216	-0.14241073940769	0.419789485753026	19.8307740275658
50312.5	0.385873268768656	-0.0976514777371348	0.398037674918409	14.2014694199834
42906.25	0.408529385113473	-0.111192609291772	0.423391136967114	15.2258090956963
36593.75	0.398111521379023	-0.104372225893789	0.41156572378266	14.6905232755953
31203.13	0.402209795666354	-0.0825796731155512	0.410599710352846	11.6024411880228
26609.38	0.387986876361802	-0.0777370546967235	0.395697947811092	11.3297648437421
22703.13	0.395885328528701	-0.0587362779690016	0.400218869737459	8.43923287435273
19359.37	0.39257168989795	-0.0638750998654324	0.397734283274841	9.24157432276417
16500	0.383633193023707	-0.0441465324652724	0.38616491699567	6.5644290250154
14112.02	0.378846408866514	-0.0422354865869783	0.381193438870992	6.36132121621948
12011.13	0.38542105664477	-0.0379791963579546	0.387287761569052	5.62772897364578
10236.38	0.378835784671357	-0.0322856935107133	0.380209044806973	4.87117372855882
8750.684	0.379759448426505	-0.0298748334014815	0.380932729415535	4.49806819603199
7449.463	0.380452894208264	-0.0316084668337173	0.381763670203206	4.74929242750521
6363.206	0.38007105545058	-0.0261095892271017	0.380966819868773	3.92985105369808
5414.761	0.370946394416736	-0.0258119718831984	0.371843361408101	3.9804592698264
4620.567	0.370068066154969	-0.021362613069035	0.370684144285692	3.30379955152367
3941.215	0.372613742861753	-0.0230596018456369	0.373326595097006	3.54129456830996
3361.769	0.370137290795575	-0.0199664386763773	0.370675427713931	3.08773258331747
2867.244	0.370710625334677	-0.0189070886131369	0.37119246454616	2.91968578087899
2442.658	0.368680497583842	-0.0178988845422662	0.369114723854964	2.77944175544922
2083.003	0.366358424373026	-0.017242345436274	0.366763948044556	2.69458842486373
1777.843	0.364437191642825	-0.016544350635983	0.364812530199383	2.59927116606577
1513.548	0.362234330671106	-0.0155901616285469	0.362569667038417	2.46442554898173
1292.065	0.361110665098324	-0.0139442832781623	0.361379793961831	2.21137701988882
1101.762	0.36024837716972	-0.0128124368466424	0.360476145939459	2.03689819324219
939.101	0.359223075363314	-0.0122359297500114	0.359431406321602	1.95086628847212
801.2801	0.35881748124477	-0.0121848080227063	0.359024308917086	1.94491612176969
684.3433	0.357600331691163	-0.0121562210408746	0.357806890564763	1.94695585152035
582.9476	0.35690891672851	-0.0122620119219687	0.357119492294516	1.96768775637937
497.0677	0.356032988063195	-0.0120889220171528	0.356238165592548	1.9447024085121
423.5089	0.354014851831322	-0.0122087480970643	0.354225308027603	1.97515053166095
361.5036	0.352933545681883	-0.0119042410742047	0.353134250141697	1.93182059840418
308.1262	0.352206744354125	-0.011477307411277	0.352393699367546	1.8664283522881
262.7298	0.351257861973037	-0.0113931602242931	0.351442583785411	1.85775549014321
224.2111	0.348928917377505	-0.0111972645821396	0.349108533433888	1.83801308339638
191.2854	0.3495926203801	-0.0100396186806898	0.349736749809736	1.64497099714532
163.1722	0.34703979437164	-0.0113162735437617	0.347224245876389	1.86763901210921
139.1537	0.346122701964345	-0.0111463435344879	0.346302130789413	1.84448406873459
118.6706	0.343316331479587	-0.012464542201012	0.343542527604491	2.07928389205259
101.1982	0.341451658176158	-0.0105618918783413	0.341614971029224	1.77172645016211
86.24196	0.342388554809781	-0.00881390107383011	0.342501981478749	1.47460486155214
73.61024	0.356266053932421	-0.0182522770283747	0.356733299260525	2.93282198424795
62.69291	0.279480112645217	-0.0179319552028104	0.280054795319735	3.67116977652124
53.57697	0.316105947804322	-0.0215326017792517	0.316838481211883	3.89687160301035
45.65746	0.344723717204864	-0.0338171869145259	0.34637846834691	5.60275431631382
38.96512	0.339515641586703	-0.0110503022974169	0.33969542249329	1.86416230420836
33.18414	0.338198481302894	-0.017792258464494	0.338666173712185	3.01149310022398
28.30617	0.344176454006051	0.00345119361890619	0.344193756813767	-0.574508218924447
24.17237	0.340220003872218	-0.00532110383171798	0.340261612852229	0.896043539184938
20.61345	0.320231721888393	-0.018818299871223	0.320784170609536	3.36309781853073
17.55618	0.318838323626109	-0.0112867094330028	0.319038032877794	2.02739396933656
14.98558	0.330377624781177	-0.00670743514855586	0.330445706043102	1.163077968057
12.76553	0.333488925088396	-0.00882784883248445	0.333605746460734	1.51633337777152
10.8809	0.326542383079278	-0.00595544788346019	0.326596686000619	1.04483895970703
9.278505	0.326435906507425	-0.00631621949340774	0.326497007162413	1.10847967384339
7.923394	0.330032050614837	-0.00863166847068582	0.330144907780844	1.49817405341264
6.75822	0.324689525620969	-0.00713533046626853	0.32476791865705	1.25892120211089
5.761429	0.324595204512388	-0.023336168530825	0.325432978590274	4.11209861508888
4.919708	0.325493341420932	0.00142301582878089	0.325496452028916	-0.250488324481151
4.191257	0.324359306949085	-0.00511507719752578	0.324399636280973	0.903467353336448
3.564097	0.314885315108828	-0.00031179201516043	0.314885469473342	0.0567329115047238
3.051758	0.332696497534153	0.00391579900001011	0.332719540985048	-0.6743335096545
2.604164	0.338079888477672	-0.0163631446344145	0.338475646827659	2.77096656374365
2.214424	0.318929439344632	0.0017346730503359	0.318934156796153	-0.311631515588537
1.892567	0.317468506468619	-0.00416295230680511	0.317495799612096	0.751274293089233
1.607507	0.319666731917544	-0.00666898834027164	0.319736289620564	1.19514928063944
1.376413	0.317730720195988	-0.0183845045818919	0.31826215697909	3.31155052457619
1.17375	0.334477284483189	0.0360986725757387	0.336419630813926	-6.15984060756172
1.001604	0.305991898077074	-0.00893297118431498	0.306122262605956	1.67218878424521
