EC-Lab ASCII FILE
freq/Hz	Re(Z)/Ohm	-Im(Z)/Ohm	|Z|/Ohm	Phase(Z)/deg
6999984	10.0727144815726	-1.05914572808876	10.1282459834174	6.00259234068807
5969734	6.18848702473238	-1.27397243314535	6.31825746671465	11.6324985539553
5091109	3.78007234500867	-1.0657386748979	3.92743502259076	15.7450578271115
4341796	2.54415715817813	0.69102226446213	2.63633218989782	-15.195597031159
3702781	2.03436805877045	0.338194990174617	2.0622873829621	-9.43858013104196
3157797	1.80708988256943	0.234411569686074	1.82223012478871	-7.39100658816089
2693047	1.65526661644617	0.151725993219278	1.66220586827851	-5.23724333936145
2296687	1.5766128476219	0.113376380188518	1.58068411609375	-4.11313738757146
1958656	1.52829299928345	0.124595528370706	1.53336347202768	-4.66078477210237
1670375	1.50741922169551	0.10367072529665	1.51097992350019	-3.93424506702894
1424531	1.48416775089866	0.0750261543072898	1.48606286429536	-2.89389523164676
1214875	1.46681864081408	0.0557342973427883	1.4678771191554	-2.17600489744862
1036062	1.45483425924316	0.0519067957407831	1.45575995181612	-2.04338006477851
883578.1	1.4442710082063	0.0260997633736388	1.44450681645793	-1.03529290988235
753531.2	1.4302516956538	0.0269717222122068	1.43050598975316	-1.08035718638498
642624.9	1.4233403286417	0.0267302849009472	1.42359130345361	-1.07588639670958
548046.8	1.4181941303293	0.030445673981601	1.41852089528659	-1.2298321348521
467390.6	1.40800927302334	0.0222873672690627	1.40818565525271	-0.906858690525828
398593.7	1.41483114310612	0.0214183594064818	1.41499325426754	-0.867303403223381
339937.5	1.41089328575239	0.0167549760237406	1.41099276858626	-0.680380506224311
289906.2	1.41196857199072	0.0152125590672028	1.41205051972048	-0.617281237204349
247234.4	1.41881870736377	0.0117254939786579	1.41886715783207	-0.473496733671135
210843.7	1.41540898669353	0.00975061659109473	1.41544257182575	-0.394698879430824
179812.5	1.4169588220666	0.00998384878075891	1.41699399457755	-0.40369763996959
153343.8	1.41756501068873	0.00936437788465471	1.41759594070458	-0.378488127237408
130781.2	1.41931592446904	0.00893531073858352	1.41934405033783	-0.360701110853808
111531.3	1.42115767409709	0.00845944148427797	1.42118285128806	-0.341049116847057
95109.37	1.42291115822017	0.00844942260519459	1.42293624485774	-0.340225432720777
81109.37	1.42438393394557	0.010154344418123	1.42442012833041	-0.408451127021113
69171.88	1.42586557987778	0.00787638048959913	1.42588733399586	-0.316494609466269
59000	1.42680381164312	0.0093473181097405	1.42683442952403	-0.375352386520437
50312.5	1.42919151631158	0.0102476116980708	1.42922825463343	-0.410816067616295
42906.25	1.43308985148837	0.0116566631059767	1.43313725798813	-0.466030004980769
36593.75	1.43641207802821	0.0112685894479725	1.43645627814197	-0.449473644645331
31203.13	1.4395271697904	0.0122298721556933	1.43957911986028	-0.486759274233926
26609.38	1.44191334239791	0.0131976289078437	1.4419737391485	-0.524405523458776
22703.13	1.44541846116227	0.0136767104567384	1.44548316499281	-0.542122868174488
19359.37	1.44814462603228	0.0139506157970831	1.44821182069036	-0.551938437345992
16500	1.45087904441956	0.0152659436637404	1.45095935524457	-0.60283582527351
14112.02	1.45514751355051	0.0164225461850023	1.45524018162482	-0.646602925327964
12011.13	1.45798782507726	0.0153067226328692	1.45806817187376	-0.60149911473747
10236.38	1.46244449475181	0.0155763833063192	1.46252744382687	-0.610229845619674
8750.684	1.46802392685866	0.0149508285002974	1.4681000569111	-0.583498499687845
7449.463	1.47377926098571	0.0146881070214219	1.47385245211299	-0.571007274908859
6363.206	1.48032106262083	0.0145256917533766	1.48039232778334	-0.5621983925834
5414.761	1.48682695736777	0.0139392341609412	1.48689229717707	-0.537141114737385
4620.567	1.4951312394069	0.0131066322396164	1.49518868603902	-0.502253886479207
3941.215	1.50061015056154	0.0121845529159211	1.50065961740099	-0.465216175728566
3361.769	1.50689049162783	0.0113399568006738	1.50693315989085	-0.431165637738618
2867.244	1.51137058278274	0.0105882884081328	1.51140767179224	-0.401393490196471
2442.658	1.51490782994289	0.0097374162634332	1.51493912435377	-0.368276644229468
2083.003	1.51837485011984	0.00874766838315376	1.51840004846502	-0.330089064479779
1777.843	1.52145309919132	0.00809058112436337	1.52147461054787	-0.304677011167018
1513.548	1.52450424638687	0.00712339397640445	1.52452088867071	-0.267718139408986
1292.065	1.5269528078354	0.00634717168219975	1.52696599960339	-0.238163257462753
1101.762	1.52947835283132	0.00608942999186438	1.52949047494165	-0.228114895539087
939.101	1.5310572136276	0.00518865180699704	1.53106600560155	-0.194170870403254
801.2801	1.53325661328315	0.00462664807152397	1.53326359379231	-0.172891217892096
684.3433	1.53697516435136	0.00413494809335985	1.53698072649875	-0.154143351286061
582.9476	1.53867359550205	0.00350860347548141	1.53867759579243	-0.130650076333414
497.0677	1.54046508379862	0.00330118783775865	1.54046862098643	-0.122783594989386
423.5089	1.54266159756058	0.00281035613032481	1.54266415745286	-0.104378930102635
361.5036	1.54523480158975	0.00243694083317701	1.54523672319963	-0.0903592831093582
308.1262	1.54799667988308	0.00225448693059252	1.54799832158835	-0.0834449430292784
262.7298	1.55027859409221	0.00199634445800954	1.55027987947071	-0.0737816087439405
224.2111	1.55228815331052	0.00200911836499067	1.55228945350562	-0.0741575836491054
191.2854	1.5542460569322	0.0016017879024142	1.55424688232397	-0.0590483428168285
163.1722	1.55604339142702	0.00143824384726201	1.55604405610801	-0.0529582139842003
139.1537	1.5583619758356	0.00145421769044963	1.5583626543521	-0.0534667254865348
118.6706	1.56033368469995	0.00122077989055985	1.56033416225912	-0.0448272839698295
101.1982	1.56288442775309	0.00114945122269632	1.56288485044523	-0.0421391951781938
86.24196	1.56586009275579	0.000781823518018266	1.56586028793542	-0.0286073988291593
73.61024	1.56797744977703	0.000879727325112309	1.56797769656633	-0.0321462898395187
62.69291	1.5705631508433	0.000824560807358275	1.57056336729447	-0.0300808342838515
53.57697	1.57325314605889	0.000447804494574975	1.57325320978953	-0.0163084414974857
45.65746	1.57540473021809	0.000466990621156564	1.57540479943212	-0.016983947278789
38.96512	1.57934574371461	0.000689261587792485	1.57934589411914	-0.0250051501458143
33.18414	1.58183573081062	0.000402209425351767	1.58183578194502	-0.0145684546173427
28.30617	1.58446757282099	0.000453357698006353	1.58446763767975	-0.0163938236681161
24.17237	1.58914898762802	0.000315777415764248	1.58914901900185	-0.0113851584033753
20.61345	1.5950870160421	0.000236364940536919	1.59508703355474	-0.00849026622516503
17.55618	1.59845247629002	0.000320105617645262	1.59845250834215	-0.011474035616556
14.98558	1.60157512983281	0.000159916812788473	1.60157513781663	-0.00572096696860521
12.76553	1.60452932633672	3.12829948301663E-05	1.60452932664167	-0.00111707747851712
10.8809	1.60652956046567	0.000174123867745857	1.60652956990188	-0.00621000879210338
9.278505	1.60929711315684	0.000159153096100534	1.60929712102664	-0.00566632512959918
7.923394	1.61196859382368	0.000193084017044522	1.61196860538763	-0.00686297441374627
6.75822	1.61399966901244	0.000221254661812624	1.61399968417775	-0.00785437474581704
5.761429	1.61554840656181	7.79212600495853E-05	1.61554840844096	-0.00276349462113735
4.919708	1.61739406148172	-3.16205714720959E-05	1.61739406179082	0.0011201508241302
4.191257	1.6194552715291	0.000171625173898882	1.61945528062327	-0.00607204055503588
3.564097	1.62138376733892	0.000157980695266922	1.6213837750354	-0.00558265552981843
3.051758	1.62446383569219	6.26655281370453E-05	1.62446383690089	-0.002210249438948
2.604164	1.62910997847597	8.61493721295858E-05	1.62910998075381	-0.00302987244037618
2.214424	1.63347566292338	0.000146667231945998	1.63347566950789	-0.00514449866106362
1.892567	1.63696110122778	7.15173409235422E-05	1.63696110279004	-0.00250320046776721
1.607507	1.63977142582496	0.000102312144441404	1.6397714290168	-0.00357492146130619
1.376413	1.64314361877598	7.97615104681442E-05	1.64314362071187	-0.00278125287503963
1.17375	1.64783308922923	-2.25509748291203E-05	1.64783308938353	0.00078410592066582
1.001604	1.65500661128861	-2.0123804639964E-05	1.65500661141096	0.000696679436622398
