EC-Lab ASCII FILE
freq/Hz	Re(Z)/Ohm	-Im(Z)/Ohm	|Z|/Ohm	Phase(Z)/deg
6999984	24.9089284334382	87.6130439731767	91.085126063194	-74.1292222382464
5969734	21.8798703939619	89.8308741256718	92.4570963995672	-76.3111601136636
5091109	19.3695759633238	95.7816794528409	97.7205740456212	-78.5674679108888
4341796	19.9343261072662	104.975104063886	106.851063778395	-79.2477979968271
3702781	24.2136478450788	115.569021921421	118.078361988297	-78.1667412289743
3157797	26.1350836530711	128.041507461425	130.681560407531	-78.4635906626316
2693047	29.2312326320478	145.152198861349	148.066288517925	-78.6138774922944
2296687	34.5307039004666	166.85690090587	170.392473107743	-78.3078034381355
1958656	42.5736400095341	190.424301638114	195.125419866364	-77.3974880932316
1670375	52.7353444483354	218.051864261889	224.338209099943	-76.4042084595928
1424531	66.5367005194739	249.685183343433	258.398574487674	-75.0784414174396
1214875	84.2016668198051	285.410472446587	297.571938323185	-73.5629107535391
1036062	108.360240768561	321.14425286099	338.932991791983	-71.3546168195459
883578.1	137.601821250905	377.712956441569	401.996689881144	-69.9831850411207
753531.2	182.122796649694	417.611842878646	455.596712424491	-66.4377222048512
642624.9	212.472923343091	456.154494676198	503.211353376747	-65.024292620043
548046.8	356.175163499975	548.373923268591	653.891968764887	-56.9958131890195
467390.6	433.634229531051	581.752940800934	725.586059093974	-53.2994332695125
398593.7	515.935840510706	606.14308935999	795.989469969522	-49.596292448023
339937.5	605.71117098884	621.00995747547	867.49028233425	-45.7145148451676
289906.2	713.088170711833	603.019540769737	933.877564651434	-40.2193683053151
247234.4	814.998707410698	620.832742399917	1024.52729935171	-37.2986701080121
210843.7	866.961222781709	572.488171941644	1038.92466946369	-33.4383325858505
179812.5	931.28006498603	565.182544285012	1089.36397397971	-31.2530543664877
153343.8	1035.42597107298	548.174999906346	1171.58131262612	-27.8976301717071
130781.2	1089.84618083612	466.756415993872	1185.59109719773	-23.184353298246
111531.3	1125.45445120658	446.621860585088	1210.83393084816	-21.6450047788019
95109.37	1197.66790630044	390.240608562482	1259.64127685358	-18.0473569465518
81109.37	1207.69404020407	350.022163564542	1257.39429366084	-16.1630076203476
69171.88	1250.66685409716	327.954724702265	1292.95084260456	-14.69350265613
59000	1263.6300534172	279.28485365258	1294.12555085622	-12.4630352554652
50312.5	1284.37074982833	252.257168696101	1308.90866838491	-11.1117544026948
42906.25	1314.07201020707	214.848988531111	1331.51993446681	-9.28562331805383
36593.75	1320.27459859802	199.946082761649	1335.3289676012	-8.61159576786193
31203.13	1323.64718116245	168.911007165285	1334.3810507276	-7.27222670765231
26609.38	1324.86377583413	160.368453080917	1334.53440017896	-6.90180376352229
22703.13	1334.27145326578	149.282790103465	1342.59661195053	-6.38389575334763
19359.37	1342.18531880702	134.936157214507	1348.95114683406	-5.74092251565182
16500	1347.31023235384	130.855269050086	1353.64986744857	-5.54735846484939
14112.02	1348.85686057938	126.036024178688	1354.73241259033	-5.33816870905815
12011.13	1352.48343825061	121.755749120235	1357.95283908758	-5.14411936300324
10236.38	1358.73504749623	120.023506739819	1364.02586905993	-5.04810481456861
8750.684	1360.09448759084	120.482754063849	1365.42048805553	-5.06228150929353
7449.463	1364.64319345511	125.232654704951	1370.37741635209	-5.24332012973661
6363.206	1368.53284357515	132.015118297114	1374.88549901542	-5.50997182280152
5414.761	1374.3215452902	139.178626579231	1381.35093294403	-5.78267395018301
4620.567	1375.3431672001	154.942038636569	1384.0433023937	-6.42766972889563
3941.215	1383.70399713238	163.903737153513	1393.37761813982	-6.7553729398207
3361.769	1388.18166963776	183.394269125004	1400.24348092258	-7.52582928693312
2867.244	1396.211816062	198.454863711323	1410.24528655189	-8.08972288974497
2442.658	1403.61750883828	222.207244344044	1421.09752323911	-8.99586137232232
2083.003	1412.32382965517	250.299044175801	1434.33197389139	-10.0498917209788
1777.843	1422.87200934245	280.741867155436	1450.30367542255	-11.1614642210003
1513.548	1433.46423713002	313.644955407608	1467.37618802521	-12.3419348958863
1292.065	1448.22668154099	355.317922260463	1491.17783882631	-13.7850494240603
1101.762	1462.37031837822	400.861967557822	1516.31700679902	-15.3292566256071
939.101	1480.24983843902	454.132079408827	1548.34606265748	-17.0557102426292
801.2801	1498.1851928766	513.796345806636	1583.83886715756	-18.9291905594597
684.3433	1520.63986928627	578.79575378031	1627.06795698799	-20.8381484229648
582.9476	1544.79545480798	660.533143053562	1680.08839953962	-23.1508811038545
497.0677	1575.59327698197	749.461962689039	1744.75998578271	-25.4390167065992
423.5089	1607.12615523848	851.726058503921	1818.87101180546	-27.9221756836505
361.5036	1647.63797864358	969.891393893401	1911.91009846624	-30.4834345377561
308.1262	1690.4369982382	1099.93979308731	2016.79071631876	-33.0513969980648
262.7298	1741.50079742621	1253.03471897826	2145.44192053782	-35.7355552992259
224.2111	1797.29028090203	1422.04234996577	2291.82390224927	-38.3515602706563
191.2854	1862.07059687176	1612.96681409997	2463.52772485356	-40.8998359011242
163.1722	1942.67261359539	1834.41116116409	2671.89842468177	-43.3581972648023
139.1537	2034.24202877799	2079.51716125013	2909.04318558192	-45.6305593394471
118.6706	2136.04299392836	2361.30461106787	3184.09157188685	-47.8674152195275
101.1982	2258.23986493434	2676.60447704668	3501.9792709445	-49.8458155678025
86.24196	2397.38224988356	3032.50367812336	3865.68495998943	-51.6714424495837
73.61024	2555.05885776505	3434.0361129739	4280.2955262286	-53.3492920568448
62.69291	2738.63910632676	3888.85033790785	4756.39581041657	-54.8457031191218
53.57697	2956.27453916517	4388.96211994734	5291.74334612412	-56.0369625892901
45.65746	3199.28939193452	4961.44579395314	5903.50717621992	-57.184860613523
38.96512	3478.39263368633	5594.27637742638	6587.49903234256	-58.1275996400533
33.18414	3805.96505708084	6310.5624909782	7369.43477942925	-58.9053898469433
28.30617	4189.54046152627	7099.66336147623	8243.63203479229	-59.4549709640328
24.17237	4594.65027515723	7987.79288733451	9214.96860341663	-60.0921000322183
20.61345	5082.96375732286	8982.90915560627	10321.2972758337	-60.4967228271397
17.55618	5635.31779286181	10089.7950573805	11556.8495242641	-60.8159176148071
14.98558	6256.25422187479	11302.9736774749	12918.898205436	-61.0352458587832
12.76553	6977.4915496449	12680.9086943668	14473.7981760226	-61.1788290822429
10.8809	7788.07857686703	14204.4763905952	16199.4233678372	-61.2647727515126
9.278505	8684.73673036858	15891.5877187883	18109.8650547086	-61.343439856784
7.923394	9628.71530063246	17698.7350053856	20148.384032758	-61.4523018378589
6.75822	10814.9800048847	19787.124619615	22549.8135960861	-61.3404604762493
5.761429	12083.2401280033	22078.1503005914	25168.4209414594	-61.308374839722
4.919708	13476.8977481733	24657.5542508544	28100.2091548897	-61.3406323635879
4.191257	15132.7802391391	27481.7187720328	31372.6936113426	-61.1606663201373
3.564097	16856.5694482542	30657.8826350547	34986.4216693935	-61.1967626612305
3.051758	18825.3420134728	34080.8463054631	38934.5294927372	-61.084921299621
2.604164	20942.76983443	37924.1209892738	43322.4948629114	-61.091281131147
2.214424	23487.8012358088	42295.1944107338	48379.337295323	-60.9552609505829
1.892567	26069.8037083345	47120.7169682825	53851.6168094893	-61.0461893526702
1.607507	29119.7154987813	52560.8918908135	60088.3115679559	-61.0127286174345
1.376413	32389.1607845954	58410.9495433794	66789.9450732637	-60.9914145874556
1.17375	35980.1205279957	65148.8977976011	74424.1087111654	-61.0892184830845
1.001604	39974.5486684096	72545.3680891621	82829.9159267657	-61.143993248299
