EC-Lab ASCII FILE
freq/Hz	Re(Z)/Ohm	-Im(Z)/Ohm	|Z|/Ohm	Phase(Z)/deg
6999984	17.48204708652	-0.39367463872323	17.4864790640219	1.29001390277925
5969734	18.8441941632832	1.45009702373192	18.8999056886999	-4.40034852519904
5091109	11.3854425200301	-5.09737197178406	12.4744339509109	24.1185208761612
4341796	8.51559618259514	-6.0985465327488	10.4741418816594	35.6087998462091
3702781	5.84493587310292	-5.18426827909828	7.81280442289131	41.5719841497481
3157797	4.33168680177061	-5.20537755090709	6.77196175388795	50.2342580345894
2693047	3.28690548756857	-4.72450606059635	5.75540660603749	55.1731198511494
2296687	2.28672464872562	-3.57222723130418	4.24145222903199	57.3750768719284
1958656	1.72788485833813	-3.29355103720866	3.71928279623537	62.3172962211679
1670375	1.36656786231348	-2.91312523791216	3.21773311106885	64.8683908039879
1424531	1.14262419057663	-2.41296685024426	2.66983127955094	64.660808194812
1214875	1.23049469722676	-1.85795093274219	2.22847456085564	56.4840530159866
1036062	0.778205674408719	-1.80185443658661	1.96272348595741	66.6408930390046
883578.1	0.699444525906221	-1.55721897442468	1.70708921241053	65.8121668841274
753531.2	0.625619068837011	-1.3455452637586	1.48387710950594	65.0636548205685
642624.9	0.560552398259432	-1.16023814772906	1.28855405421743	64.2131562694763
548046.8	0.525412915657897	-1.01315527339234	1.14128977036633	62.5891646949575
467390.6	0.490944525617978	-0.877258621689816	1.00529061298879	60.7671016106619
398593.7	0.458570151986704	-0.762818631841894	0.890044296301172	58.9877238821036
339937.5	0.434686668760235	-0.661694307501712	0.791701873547133	56.6978980538633
289906.2	0.412681609957697	-0.573165791628677	0.706275538221879	54.2459652766466
247234.4	0.39579873517332	-0.496492298044325	0.634949793906679	51.4384949988174
210843.7	0.38139336963549	-0.428706272153378	0.573803076138112	48.3424946345162
179812.5	0.371807260313843	-0.369091067902965	0.523897752646294	44.7899500398988
153343.8	0.36349060268117	-0.321268670028745	0.485117487398216	41.4716363215089
130781.2	0.356718550475903	-0.278436287207106	0.452520596533801	37.9737805484368
111531.3	0.350357036729477	-0.24243073122949	0.426054823503179	34.6814275477442
95109.37	0.344143013361793	-0.211542546041345	0.40396121401861	31.5787808730195
81109.37	0.337611481175016	-0.181339276651233	0.383230277349769	28.2413189051163
69171.88	0.33124081619623	-0.159870758533521	0.367803123625165	25.7639124243281
59000	0.322385576570242	-0.135694597088752	0.349779192719645	22.8266041805443
50312.5	0.316262741442234	-0.106026816207488	0.333562299098165	18.5336835230589
42906.25	0.345969488780475	-0.105155197656539	0.361597155355526	16.9063114975488
36593.75	0.330419465212809	-0.0962217773673924	0.34414481462207	16.2361399533181
31203.13	0.324223973489757	-0.0842332452491878	0.334987200637124	14.5634584253691
26609.38	0.319533028009044	-0.0725651941634509	0.327669137076729	12.7947262526444
22703.13	0.319847623595028	-0.0647154897322961	0.326328970412799	11.4383632642312
19359.37	0.31727484191059	-0.0578004037996323	0.322496840277219	10.3247854119267
16500	0.314558729142921	-0.051663199572959	0.318773085862224	9.32700233001818
14112.02	0.313002029137168	-0.0463275993864212	0.316411941476445	8.41925383603652
12011.13	0.310858068300616	-0.0413693031121505	0.313598721087276	7.58043789438704
10236.38	0.309189458443324	-0.037698563211487	0.311479217413757	6.95159379591915
8750.684	0.307494538115415	-0.0339357169295936	0.309361477650883	6.29779165589537
7449.463	0.306118515737957	-0.0309989460726813	0.307684059280338	5.78231871635002
6363.206	0.304705879064903	-0.0284100075900599	0.306027451820883	5.3267141368179
5414.761	0.302943143461666	-0.0263575215197769	0.30408759775943	4.97248870955622
4620.567	0.301277533909081	-0.0244210972447622	0.302265681857824	4.6341766120965
3941.215	0.300640833359517	-0.0228971176539996	0.301511506712374	4.3552979996835
3361.769	0.298951425529197	-0.0212360384745053	0.299704728284406	4.06318520811857
2867.244	0.298275759909074	-0.0207389013485552	0.298995871172966	3.97733378505396
2442.658	0.296892126927803	-0.0209577791845327	0.297630918320094	4.03784271188213
2083.003	0.292412867670741	-0.0191292030616938	0.293037901284462	3.74286914204611
1777.843	0.29003895476353	-0.0197003149998779	0.290707237081252	3.88573273051521
1513.548	0.29459009488171	-0.0157333950679071	0.295009938345774	3.0571343452263
1292.065	0.292495515243276	-0.0130596745561777	0.292786921731389	2.55650960694177
1101.762	0.285399079712506	-0.015335853610732	0.285810816986892	3.07581735300993
939.101	0.289439717076812	-0.0170189117681836	0.289939637130349	3.36508884686881
801.2801	0.284499949288202	-0.0146617022108653	0.284877494121086	2.95012760149208
684.3433	0.287281047851985	-0.0116042777020175	0.287515320836855	2.31311770852799
582.9476	0.282694418315315	-0.0117018210609903	0.282936506592517	2.37034186831668
497.0677	0.286654803655097	-0.0137725733013986	0.286985470422954	2.750709067939
423.5089	0.280235237616583	-0.0133048783376021	0.280550901245391	2.7182212150395
361.5036	0.280494253027023	-0.0135475145311567	0.280821226283128	2.76516422015236
308.1262	0.283151372922232	-0.0126878075481015	0.283435496097653	2.56566604546576
262.7298	0.280357784829332	-0.0123513779814974	0.280629727670559	2.52257847335633
224.2111	0.28000513227906	-0.0128876141845973	0.280301560291741	2.63525578038896
191.2854	0.285439978627923	-0.0114227346756686	0.285668444646201	2.29163923966192
163.1722	0.281961484356814	-0.0145908940243266	0.282338755485546	2.96228977660932
139.1537	0.27480219014172	-0.00561291709708269	0.274859506921308	1.17012076527474
118.6706	0.278409639177228	-0.0123064201551298	0.278681494117979	2.53097287801279
101.1982	0.275754496767473	-0.0115143392228749	0.275994787079796	2.39103996866579
86.24196	0.266789327085775	-0.00874651417324122	0.266932662964021	1.87773223662824
73.61024	0.281118385599924	-0.0234982660350169	0.282098768570442	4.77816090601288
62.69291	0.235896204519543	0.0101085274408268	0.236112688421753	-2.45371410300176
53.57697	0.257799268316986	-0.0110387327800746	0.258035494392076	2.45185600087215
45.65746	0.269738178162573	-0.0318052694000797	0.271606811254938	6.72478845271662
38.96512	0.26380478788098	-0.012830643553247	0.264116624851446	2.78449409728669
33.18414	0.261145451185298	-0.0166960203758004	0.261678626890241	3.65815790499382
28.30617	0.279534446448974	-0.00216765473652952	0.279542850880847	0.444292215416624
24.17237	0.262136259563196	-0.0128086833043162	0.262449006372235	2.7974011175376
20.61345	0.250363120928325	-0.0247834067066546	0.251586783374958	5.65328289130861
17.55618	0.251589811838526	-0.0219207028080025	0.252542967893667	4.97953379860515
14.98558	0.265262543221722	-0.00965695195367005	0.265438266942601	2.08494700689966
12.76553	0.261776608163115	-0.0039140351661992	0.261805867490909	0.85661201076624
10.8809	0.255930989167735	-0.0129143731543192	0.256256614061655	2.88871626613657
9.278505	0.257277252597519	-0.00411655316450089	0.25731018385226	0.91668033304996
7.923394	0.260964138269064	-0.0104481145694432	0.261173207968527	2.29270322228748
6.75822	0.251060202657029	-0.00975673331098871	0.251249714831859	2.22551589939926
5.761429	0.256841458269702	0.00651105126349711	0.256923974114256	-1.45216382359025
4.919708	0.258147847870179	-0.00760429103775262	0.258259823825139	1.68728049256896
4.191257	0.25209422545321	-0.00929776438361975	0.252265627720835	2.11223125710379
3.564097	0.251419683007535	-0.00577444062197482	0.251485986027266	1.31570017369276
3.051758	0.25586486599878	0.00179166134351216	0.255871138862795	-0.401199887757496
2.604164	0.255440443349369	-0.0045945457793956	0.255481760502469	1.03045428130247
2.214424	0.251710367052874	-0.000469309740692061	0.251710804562548	0.106826892282331
1.892567	0.28371719772015	-0.00728752778014615	0.283810775594094	1.47136936888304
1.607507	0.232164264556354	-0.0329539784778941	0.23449138669579	8.07873928881232
1.376413	0.236170640290618	0.0209174160680062	0.237095148896477	-5.06142722922099
1.17375	0.270444201494856	0.00215702052352159	0.270452803386708	-0.456972458972223
1.001604	0.24256233501325	0.000316037070744288	0.242562540897209	-0.0746512440853901
