EC-Lab ASCII FILE
freq/Hz	Re(Z)/Ohm	-Im(Z)/Ohm	|Z|/Ohm	Phase(Z)/deg
6999984	37.8419108483736	72.3393561114979	81.6394062893794	-62.3851917198909
5969734	36.6150281998164	69.2521133099803	78.3359144197072	-62.1336632478285
5091109	37.4847334675914	69.9908125560126	79.396593663628	-61.8279902641262
4341796	41.7768280981581	72.4360925062414	83.6199190594909	-60.0262098857783
3702781	49.9477532156116	74.0088066734131	89.2865136317365	-55.9850067764277
3157797	57.9947205045632	74.9682036828435	94.7819559295687	-52.2747899261683
2693047	66.4889508803396	75.5976603162355	100.676644930476	-48.6680263353977
2296687	76.2285076677884	75.9976468766814	107.640269936724	-44.9131073179622
1958656	86.2893640530222	74.5409688887142	114.027235306059	-40.8220568804352
1670375	96.4103152866186	72.0744672582562	120.373077239999	-36.7810714950468
1424531	105.711399570694	68.201091153611	125.802578804006	-32.828613818584
1214875	113.994178575634	63.4503746304367	130.463108923083	-29.1007785161244
1036062	121.275811933056	58.6155957469497	134.69822057025	-25.7956256382886
883578.1	127.11501682121	53.1511343000924	137.77979016838	-22.6914720845627
753531.2	132.169779898889	47.8788307712111	140.574653314668	-19.9130450373686
642624.9	136.203785878748	42.8987691146799	142.799774787142	-17.4823518056174
548046.8	139.456724046007	38.2477746954816	144.606604796601	-15.3369686375296
467390.6	142.053044979823	34.137657271846	146.097389545637	-13.5128658234834
398593.7	144.060554124784	30.3913953994012	147.231383098382	-11.912594701683
339937.5	145.702813594353	27.2335651843603	148.22610081211	-10.5870912201155
289906.2	147.068827736221	24.5031915356258	149.096098162017	-9.45918369335486
247234.4	148.104211324557	22.1321746939287	149.748758154288	-8.49918717803522
210843.7	148.999051694723	20.3002936101981	150.375594185317	-7.75846161091214
179812.5	149.747672959126	18.7729857568134	150.91981497106	-7.14555719830479
153343.8	150.357502823992	17.7197825530814	151.3980493573	-6.72136216510174
130781.2	150.974300367418	16.9834831872627	151.926554863208	-6.4183648943027
111531.3	151.572957907308	16.5738813593373	152.476408378752	-6.24026669326424
95109.37	152.184656678603	16.3940808965914	153.065135209911	-6.14847312490633
81109.37	152.580648131382	16.6337647998401	153.484645211203	-6.22159972829888
69171.88	153.292912871113	17.1554602815964	154.249884777864	-6.38556879010941
59000	154.113264102371	17.7586558797806	155.133065562901	-6.57326976379427
50312.5	154.729144473934	18.9882907015368	155.889907734278	-6.99633034056297
42906.25	155.466934681065	20.3850881742119	156.797702786096	-7.4701034117787
36593.75	156.310640162157	22.1181783784024	157.867761251885	-8.05396459375086
31203.13	157.354864153484	24.21044955946	159.206467018877	-8.74687683287027
26609.38	158.409324342357	26.7133565546159	160.64593819022	-9.57201627194998
22703.13	159.636037257489	29.6117126432804	162.359224920984	-10.5086475683842
19359.37	161.032626821812	32.9379643274974	164.366713160459	-11.5599506379359
16500	162.578067573213	36.8377420219155	166.699272023346	-12.7667888305538
14112.02	164.35522101696	41.047148074009	169.403385563994	-14.0225748076097
12011.13	166.27482545771	46.0801408299849	172.541870164616	-15.489776481491
10236.38	168.309394588055	51.8390929761016	176.111736880829	-17.1187699775613
8750.684	170.709760553358	58.2281288385388	180.367229108345	-18.8342170753389
7449.463	173.39095743808	65.7528520982968	185.43964430605	-20.7675944000724
6363.206	176.239318108826	73.9392147351783	191.121178112523	-22.7599348115029
5414.761	179.499141019947	83.7089454336097	198.058398389227	-25.0018670976482
4620.567	183.364624240548	95.0816221352168	206.55047879572	-27.4084789132701
3941.215	187.204775447308	107.125565492829	215.688466850769	-29.7798022582898
3361.769	191.645506832203	121.302358039643	226.8088674522	-32.3318364918938
2867.244	196.836405931013	137.673518502505	240.205263049539	-34.9701409807107
2442.658	202.553323370875	156.374341414611	255.892132472727	-37.6687034408414
2083.003	209.022828124092	177.582628475629	274.273827794974	-40.3507246094268
1777.843	216.202442425458	201.884048955715	295.805113771698	-43.0385326517429
1513.548	224.536988532996	230.152754490556	321.538721803544	-45.7076107037363
1292.065	234.071090945043	261.4271145969	350.903707393728	-48.1600419542347
1101.762	244.971024239866	297.59388048411	385.451579862789	-50.5397362126413
939.101	257.18893326539	339.306962643698	425.764444608378	-52.8384887233298
801.2801	271.520593078448	386.232699874634	472.121944965621	-54.8928804639729
684.3433	288.456937366909	440.087558262389	526.198122053327	-56.7570215687429
582.9476	306.094896783195	501.385081908004	587.436027322644	-58.5959926375727
497.0677	327.840925533231	571.678443873177	659.011316779722	-60.1669856160419
423.5089	353.339036462726	650.298825002994	740.092586430024	-61.4826113052213
361.5036	381.558630967331	741.378873964724	833.804307752644	-62.766896203007
308.1262	414.897507895479	844.508523876095	940.922201330832	-63.8356343782646
262.7298	453.105483993985	961.479351682149	1062.89563144109	-64.7674356404858
224.2111	497.483234506382	1093.48233596419	1201.32975809336	-65.5366887762285
191.2854	549.220459817933	1242.36825966388	1358.35268104527	-66.1509568283882
163.1722	609.2971171927	1413.1861937506	1538.94060808943	-66.6766456054207
139.1537	679.578526397817	1603.3818277056	1741.45349032283	-67.0307908185911
118.6706	760.777196164765	1820.6108374667	1973.17149880731	-67.321452308061
101.1982	853.326365842978	2062.96336482778	2232.48375834278	-67.5280035932056
86.24196	962.939675613079	2338.91799093081	2529.38533781819	-67.6228854040793
73.61024	1085.67357914818	2643.59161162489	2857.84249557492	-67.6729619153737
62.69291	1228.59492053746	2994.81435778986	3237.0292733299	-67.6945624242502
53.57697	1391.46510747886	3377.04414506258	3652.47892574791	-67.6065561069181
45.65746	1579.38640908166	3812.33723833737	4126.54536483069	-67.4966055060325
38.96512	1791.84951419481	4296.79297729557	4655.44354183967	-67.3628771566489
33.18414	2038.0756061059	4844.06062328138	5255.34732422407	-67.1817079018286
28.30617	2313.13845608906	5450.69173329173	5921.20341555775	-67.0048358304717
24.17237	2621.78568474888	6123.01998005073	6660.71571626162	-66.8201142373215
20.61345	2974.37425398368	6885.03881761157	7500.04411472221	-66.6353926441713
17.55618	3375.45738419691	7738.16555000698	8442.32898149819	-66.4327374720336
14.98558	3814.75762665243	8681.57166908825	9482.72441841576	-66.2788983040409
12.76553	4319.41810714341	9752.33266802471	10666.0848136577	-66.1109070785086
10.8809	4884.44826855957	10944.9460006739	11985.3943550432	-65.9500205296359
9.278505	5514.54491705627	12276.4713747728	13458.1557078913	-65.810562602301
7.923394	6203.45606817153	13738.2414331019	15073.8895068238	-65.6986066491324
6.75822	6995.55884807776	15418.4274682938	16931.2063714301	-65.5955315417884
5.761429	7890.70602175337	17297.9012021689	19012.6438856287	-65.4791638135973
4.919708	8882.15750219459	19354.6150753442	21295.3949624921	-65.3488159152051
4.191257	9935.50466222586	21730.9681725639	23894.5439506615	-65.4298894432161
3.564097	11222.1320514821	24412.1031269407	26867.9553904143	-65.3119747289782
3.051758	12520.431446516	27283.0071666655	30018.722219029	-65.3491596898821
2.604164	14084.4993818037	30621.1718255834	33705.0335529863	-65.2994842490443
2.214424	15762.4395754279	34421.3939769667	37858.7752665954	-65.3957411586263
1.892567	17705.4025291423	38556.0373990279	42426.9878571906	-65.3348357450039
1.607507	19918.0552122889	43451.7187245377	47799.3805771176	-65.3735103961752
1.376413	22226.5734975358	48594.1146542529	53436.022947746	-65.4210085973916
1.17375	24985.0934435124	54531.7835052408	59983.0835039638	-65.3839382280466
1.001604	28055.7897659676	61275.8682046707	67393.3183900922	-65.39883513072
