EC-Lab ASCII FILE
freq/Hz	Re(Z)/Ohm	-Im(Z)/Ohm	|Z|/Ohm	Phase(Z)/deg
6999984	11.4124798112227	1.97892294383366	11.5827816805462	-9.83726708320579
5969734	7.64403440047122	0.374356241211085	7.65319570577684	-2.8037431873719
5091109	5.04949119795127	-0.133388884661008	5.05125271123298	1.51319070426523
4341796	3.76870600439254	-0.300073053862883	3.78063338413009	4.55241782656251
3702781	2.6241519587981	1.12811248058246	2.85636329477008	-23.2626766288404
3157797	2.41391045188029	0.812480690683128	2.54697635293888	-18.6023467852274
2693047	2.28603536920345	0.593862417829393	2.36191242017128	-14.5623182393568
2296687	2.19239644546679	0.455796829889149	2.23927508900367	-11.7444315888121
1958656	2.11608117192716	0.3733468859648	2.14876416189498	-10.0059000214687
1670375	2.07267385192214	0.30300774754191	2.09470537105154	-8.31725015976937
1424531	2.05498683878092	0.228204926007094	2.06761901611895	-6.33669549018476
1214875	2.02315996395004	0.186956659386264	2.03177976961559	-5.27960841169122
1036062	2.00699953362881	0.134261976801909	2.01148537315114	-3.82720566470039
883578.1	1.98698529562948	0.100599004072173	1.98953027739416	-2.89835112441949
753531.2	1.97352115191554	0.0882254046228884	1.9754922067877	-2.55967863650664
642624.9	1.95236403111598	0.0718629267828213	1.9536861544888	-2.10800053674454
548046.8	1.94479440851801	0.0597118835021055	1.94571087277485	-1.75862519721865
467390.6	1.93288048235162	0.0562336671012448	1.93369831782817	-1.6664471741802
398593.7	1.93524925168648	0.0452889366230158	1.93577910773248	-1.34059805468017
339937.5	1.924031972329	0.0360696267307824	1.92437003939386	-1.07399219823887
289906.2	1.92195824979603	0.0318896740189331	1.92222279282815	-0.950580526914466
247234.4	1.92150191235708	0.0275141752008715	1.9216988913534	-0.820367846561854
210843.7	1.92032713250518	0.0213468323539431	1.92044577717964	-0.636887852953725
179812.5	1.91840000322777	0.0178503600455466	1.91848304859283	-0.533111330676891
153343.8	1.91616056334892	0.014945684810441	1.91621884919967	-0.446887026679213
130781.2	1.9149078806692	0.0126391212975868	1.91494959172198	-0.378168474083505
111531.3	1.91386777143445	0.0104399153995784	1.91389624545559	-0.31253839318667
95109.37	1.91294018020179	0.00923488419446913	1.91296247117306	-0.276598183092601
81109.37	1.91274234288487	0.00838019097599838	1.91276070062763	-0.251025185935189
69171.88	1.91181923622588	0.00742782791123705	1.91183366552396	-0.22260527608533
59000	1.91131684564771	0.00616783322523627	1.91132679744292	-0.184893251305599
50312.5	1.91165839547544	0.00618780367443903	1.91166841002985	-0.185458760649393
42906.25	1.91185438159186	0.00574352991369066	1.91186300883401	-0.172125574390462
36593.75	1.91175304998091	0.00551262975679678	1.91176099792786	-0.165214614761374
31203.13	1.91165017844107	0.00491089673760727	1.91165648630724	-0.147188560385645
26609.38	1.91273846310906	0.0059330468300245	1.91274766482709	-0.177722913682654
22703.13	1.91217427733773	0.00519502698001622	1.91218133429269	-0.155661746738937
19359.37	1.91181311822513	0.00499807780429565	1.91181965148375	-0.149788757451508
16500	1.91266962783911	0.0040776954136126	1.91267397453358	-0.122150934992003
14112.02	1.91366995458227	0.00425728733383757	1.91367469010968	-0.12746408721781
12011.13	1.91358940754903	0.00398558576859234	1.91359355809372	-0.119334331766919
10236.38	1.91286186242882	0.00340888412791668	1.91286489988856	-0.102105891937792
8750.684	1.91378396989635	0.0028691757840586	1.91378612065244	-0.0858986920827057
7449.463	1.91383653334616	0.00311860321901268	1.91383907423181	-0.0933635873081267
6363.206	1.91451443045282	0.00365845199266562	1.91451792592367	-0.109486562367329
5414.761	1.91437622348045	0.00318210397622756	1.91437886814836	-0.0952377895517791
4620.567	1.91423581251008	0.00295275128164619	1.91423808985096	-0.0883799431102993
3941.215	1.91469534582574	0.00321798937436079	1.91469805002835	-0.0962957561204882
3361.769	1.91491968913514	0.00345400566653449	1.91492280418626	-0.103346230972691
2867.244	1.91489945022643	0.00348501361272664	1.91490262149211	-0.104275110150157
2442.658	1.91531064159588	0.00361347531109913	1.91531405023152	-0.108095592728089
2083.003	1.91575795032111	0.00370087347518543	1.91576152500332	-0.11068421604649
1777.843	1.91604357517106	0.0040898280471046	1.91604794007033	-0.122298643511587
1513.548	1.91668577469728	0.00362907443272593	1.9166892103594	-0.108484344592086
1292.065	1.91678619478228	0.00352014155161626	1.9167894271162	-0.105222495864406
1101.762	1.91724686555407	0.00341130918207072	1.91724990038003	-0.101944833501581
939.101	1.91720801533211	0.00327676859470946	1.9172108155511	-0.0979261648223124
801.2801	1.91691673441279	0.00325427598967196	1.91691949674054	-0.0972687530481793
684.3433	1.91653533052281	0.00273107236074156	1.91653727641766	-0.0816467149892604
582.9476	1.91592948800894	0.00250729405137431	1.91593112860187	-0.0749804656344723
497.0677	1.91515838499575	0.00240623690358971	1.91515989661322	-0.0719873341127088
423.5089	1.91422479192571	0.00246212896920994	1.91422637535431	-0.0736953785957733
361.5036	1.91373570799846	0.0018343127931315	1.91373658709129	-0.0549179015308863
308.1262	1.91253482297872	0.00192335276832795	1.91253579009443	-0.0576198444420083
262.7298	1.91211225432951	0.00158857634278332	1.9121129142213	-0.0476011273546625
224.2111	1.91076739121729	0.00140463593458176	1.91076790750248	-0.042119044252539
191.2854	1.9091920796375	0.00137868167956954	1.90919257742998	-0.041374898127379
163.1722	1.90789930170372	0.00122003022351084	1.90789969178552	-0.0366385024068844
139.1537	1.90681932714888	0.000988892036951571	1.9068195835726	-0.0297140553512985
118.6706	1.90556670940946	0.00109837029739706	1.90556702596022	-0.0330253331479643
101.1982	1.90379187790713	0.000925520688809704	1.90379210287618	-0.027854108297589
86.24196	1.90235696625097	0.00072371864171332	1.90235710391406	-0.0217971823691886
73.61024	1.90083566677626	0.000645871670220068	1.90083577650437	-0.0194681318502937
62.69291	1.89901693162387	0.000436597293391289	1.89901698181225	-0.0131727007805142
53.57697	1.89747931604891	0.000364810706034061	1.89747935111829	-0.0110157266762309
45.65746	1.89605689610708	0.00049753899256792	1.89605696138599	-0.0150348250738453
38.96512	1.89422785265663	0.000429653504477544	1.89422790138417	-0.0129959719486061
33.18414	1.89241892701551	0.000322017035599241	1.89241895441298	-0.00974954151519331
28.30617	1.8913780945593	0.000259693401251694	1.89137811238775	-0.00786692825110835
24.17237	1.88945673690444	0.000245129615865949	1.88945675280544	-0.00743329660301949
20.61345	1.88814862254824	0.000397809318799282	1.88814866445497	-0.0120715045461625
17.55618	1.88673475755537	0.00026548565693689	1.88673477623384	-0.00806218653811099
14.98558	1.88514544136095	0.00028904369735261	1.88514546352005	-0.00878498998540237
12.76553	1.88407397897621	0.000121070160718642	1.88407398286618	-0.00368181361348138
10.8809	1.88256058699304	7.63921437174327E-05	1.88256058854299	-0.00232499684249444
9.278505	1.88056053083305	0.000103372343867425	1.88056053367418	-0.00314948597447667
7.923394	1.87827846785034	-7.74722438230608E-05	1.87827846944807	0.00236324521306619
6.75822	1.87679947060166	0.000142914376219648	1.87679947604298	-0.00436295443469983
5.761429	1.87531808973608	6.09859068951432E-05	1.87531809072772	-0.00186327593849929
4.919708	1.87277258591504	-7.40749727037824E-05	1.87277258738001	0.00226625663637983
4.191257	1.87115566450643	0.000274718211631988	1.87115568467313	-0.00841201737908401
3.564097	1.8694473552927	0.000116018576019461	1.86944735889278	-0.00355579670306251
3.051758	1.86780601276778	3.99897080614084E-05	1.86780601319587	-0.0012267020664173
2.604164	1.86495646926643	-2.09870265338699E-05	1.86495646938451	0.00064477003334134
2.214424	1.85996045743069	0.000122314366385391	1.85996046145249	-0.00376787416614121
1.892567	1.85413991364199	2.74409555201196E-05	1.85413991384505	-0.000847967796511101
1.607507	1.84717459294875	-0.000215708247291149	1.84717460554368	0.00669085216251102
1.376413	1.83803297307157	-2.54168346008823E-06	1.83803297307332	7.92302081925166E-05
1.17375	1.82913236621166	5.45996194389581E-05	1.82913236702656	-0.0017102795914233
1.001604	1.81777156356641	-0.000294748934958141	1.81777158746296	0.00929042470437703
