EC-Lab ASCII FILE
freq/Hz	Re(Z)/Ohm	-Im(Z)/Ohm	|Z|/Ohm	Phase(Z)/deg
6999984	22.1958996491931	-2.87583860339779	22.3814300014508	7.38246951701344
5969734	20.2116396437786	-2.67021574824848	20.3872614451318	7.52592096018034
5091109	14.1646912275837	-2.78016040114282	14.4349495817918	11.1045122161643
4341796	7.31631834102112	-5.19562280373582	8.97346144951109	35.3801495789063
3702781	6.05133588387574	-5.80311874623037	8.38420259549663	43.8004748460197
3157797	4.64883320371734	-4.83935541171065	6.71051495466913	46.1503409216118
2693047	2.54812533929143	-4.24519313163826	4.95122282569142	59.0262266459364
2296687	2.53341229168983	-3.5215862999894	4.33817333770311	54.2689408842314
1958656	1.80862415398598	-3.03055649228657	3.52922002478193	59.1714141512226
1670375	1.41402226244143	-2.89739017036719	3.22402369067294	63.9860930952659
1424531	1.16082739277225	-2.40910616412432	2.67419384971101	64.2729157675084
1214875	1.17997144598892	-1.90650459506428	2.24211783462654	58.2458581289683
1036062	0.822922091158122	-1.81046304151499	1.98871244598302	65.5564558201605
883578.1	0.74046549292853	-1.56580612395608	1.73206176680748	64.6906592959383
753531.2	0.669238839642229	-1.35020166261688	1.50695890926696	63.6342970090556
642624.9	0.639024884831488	-1.18432803239172	1.34572868429812	61.6501441645176
548046.8	0.564673899605323	-1.00480777488756	1.15260369484484	60.6652297146877
467390.6	0.53519428738732	-0.876081718083066	1.02662169371751	58.5794341572934
398593.7	0.499893050655101	-0.758368909689034	0.908304170020262	56.6083791279521
339937.5	0.472715364616296	-0.657783657659328	0.810024170150497	54.2971361373297
289906.2	0.452322469925189	-0.570035455559313	0.727692268334587	51.5680407562965
247234.4	0.434118226150133	-0.492768152525244	0.65671842247563	48.6206369961624
210843.7	0.419114116819257	-0.425927528155134	0.59755409977468	45.4619550490739
179812.5	0.409155745115565	-0.365600442444857	0.548700380241301	41.7823284154965
153343.8	0.400755512145584	-0.31737161478585	0.511204188545876	38.3768735460452
130781.2	0.394431993543808	-0.275164431738111	0.480928333564056	34.9004750424007
111531.3	0.38774963046008	-0.239394816900796	0.455696888601287	31.6909889276179
95109.37	0.381443944903845	-0.208910421642183	0.434905791378457	28.7087779814297
81109.37	0.375097518433707	-0.181011765967474	0.4164893849233	25.7606809423636
69171.88	0.368561807864133	-0.157044626912713	0.4006255372018	23.0789118752081
59000	0.359857848936239	-0.132780780475289	0.383573209576274	20.2531126775126
50312.5	0.353740925971782	-0.102920077518687	0.368408991562132	16.2222285380524
42906.25	0.384083239240409	-0.102718750542675	0.397581534252351	14.9727107192752
36593.75	0.368735913496543	-0.0935420716286989	0.38041594744006	14.2346837833671
31203.13	0.363173503566985	-0.0823163368425675	0.37238551664142	12.7707938055418
26609.38	0.358523473916234	-0.0697917752404806	0.365253300108545	11.0156865691852
22703.13	0.359001332974651	-0.0624225078781125	0.364387879281637	9.86386951363371
19359.37	0.356457026610232	-0.0556289155551388	0.360771656405611	8.87006848840135
16500	0.354367291150679	-0.0494596632745604	0.35780222935122	7.94554379017825
14112.02	0.352353733460438	-0.0441497552235276	0.355108933103361	7.14191318672776
12011.13	0.350803702027716	-0.0397422954649815	0.353047712646855	6.46343948404564
10236.38	0.349261188311091	-0.0354435605748768	0.351055015128256	5.79462584978943
8750.684	0.347965427651358	-0.0324046768661656	0.349471031594026	5.32038982867524
7449.463	0.346303087257047	-0.0291054409722294	0.347524035050743	4.8041989730126
6363.206	0.34601514339054	-0.0281626034410754	0.347159346249176	4.65311802384573
5414.761	0.344750855011563	-0.0267878912256762	0.345790027542037	4.44307914460211
4620.567	0.344814694550898	-0.023361796334956	0.34560518964018	3.87596551898162
3941.215	0.34213300811507	-0.0210212615223491	0.342778191660231	3.51593488333967
3361.769	0.350608102099742	-0.0176990037790855	0.351054548457579	2.88988796482762
2867.244	0.343412378758034	-0.0301655338127221	0.344734711502132	5.02000811021098
2442.658	0.329840954492249	-0.0143017924047287	0.330150869340588	2.48277051166623
2083.003	0.33007957368508	-0.0261653626215292	0.331115011990155	4.53235112570365
1777.843	0.33703959856901	-0.0218410938401427	0.337746538670189	3.70773995371105
1513.548	0.329831118422631	-0.0133240599591866	0.33010013216253	2.31329761727566
1292.065	0.326162517848292	-0.0164104108588422	0.326575090344768	2.88032816401586
1101.762	0.326458734605189	-0.0123423037482133	0.326691961734345	2.16512901258145
939.101	0.330854141314931	-0.0140235027120794	0.33115120632961	2.42707213848597
801.2801	0.324169217979101	-0.012568413198674	0.32441277239886	2.22031115078829
684.3433	0.328102997520838	-0.0123005942795486	0.328333491440927	2.14701552484618
582.9476	0.323119806730046	-0.0161528431474792	0.323523297218314	2.8618485562495
497.0677	0.325619170133578	-0.0141089927426456	0.325924696263864	2.48105908673217
423.5089	0.322326860295999	-0.0123141723257566	0.322561999789723	2.18786340493444
361.5036	0.322685074340478	-0.0153865727438963	0.323051704565884	2.72996341209291
308.1262	0.321596716576571	-0.0154429837903757	0.321967286942604	2.7492153669671
262.7298	0.319647014535844	-0.0158719186456979	0.320040828181614	2.84265962673278
224.2111	0.320695310291457	-0.0142967599281435	0.32101383052351	2.55258484604513
191.2854	0.318374259792473	-0.0130988917325753	0.318643610108577	2.35599500512661
163.1722	0.320344156311395	-0.0144151654465901	0.320668326277655	2.57651442835876
139.1537	0.31780767094945	-0.0131436306965978	0.318079346613707	2.36824255095532
118.6706	0.316029355064053	-0.0116644022691724	0.316244543893643	2.11378397272859
101.1982	0.316763670730256	-0.0187792008528503	0.317319840979378	3.39278505372764
86.24196	0.305884846873213	-0.0158450700547275	0.30629496533846	2.96531499376761
73.61024	0.339191554113468	-0.0174710476682846	0.339641204638862	2.94858004248743
62.69291	0.249324460700201	0.0409580441931411	0.252666278097362	-9.32900195272319
53.57697	0.304964042534367	-0.00484646039916155	0.305002549853774	0.910462595057201
45.65746	0.286487926884623	-0.00279265300818365	0.286501537799491	0.55849530905769
38.96512	0.315220672375228	-0.0154926916914337	0.315601165695782	2.81374989526386
33.18414	0.300634057539253	-0.0119754054972594	0.300872476124584	2.28110426468285
28.30617	0.303572377980079	-0.0300601410188553	0.305057045076087	5.65506937371383
24.17237	0.316550030722752	-0.00724380211278801	0.316632901985287	1.31090451694752
20.61345	0.307769668221079	-0.00313067025036583	0.307785590587229	0.582799491177785
17.55618	0.306072375662333	-0.00425306060519369	0.306101923659581	0.79610824055822
14.98558	0.303804416110601	-0.00712282653209452	0.303887903520541	1.34307838897529
12.76553	0.302418941127524	-0.0125043939889767	0.302677346066277	2.36771256499483
10.8809	0.30217609883719	-0.00750602317637998	0.302269308882638	1.4229286520937
9.278505	0.300729746603926	-0.0126154296908903	0.300994235092214	2.40211466988787
7.923394	0.301423117947105	-0.00663990582083899	0.301496242733245	1.26193725194446
6.75822	0.297621212658363	0.0131203229074765	0.297910270211402	-2.52419077659183
5.761429	0.288273503814867	0.000528099488524321	0.288273987537499	-0.104962258433857
4.919708	0.283845621756388	0.00450216054114382	0.283881324570336	-0.9087093442041
4.191257	0.28380116093674	-0.00167932555863015	0.283806129397117	0.339030128168575
3.564097	0.285488844430297	-0.00221074104320029	0.285497403963865	0.443672676152749
3.051758	0.279647595438222	-0.0114174332823551	0.27988057349008	2.33796975289179
2.604164	0.281898357902181	-0.00812166293252624	0.282015328655617	1.65026971083469
2.214424	0.284052838430396	-0.0112056245299313	0.284273778322009	2.2590946639407
1.892567	0.288227529611888	-0.0115071473065352	0.288457142857143	2.2862528634299
1.607507	0.28556544376055	-0.00920670231955303	0.285713818422842	1.84659083454729
1.376413	0.289787574971005	-0.0149277873603925	0.290171806768082	2.94886308363823
1.17375	0.286442788797316	-0.0120983921251748	0.28669817290314	2.41854595353663
1.001604	0.295168338227877	-0.00231462856226888	0.295177413427227	0.449288464685944
