EC-Lab ASCII FILE
freq/Hz	Re(Z)/Ohm	-Im(Z)/Ohm	|Z|/Ohm	Phase(Z)/deg
6999984	19.6773238607049	92.1143234568029	94.1925987550167	-77.9417979986059
5969734	19.3842490066229	90.9868473791453	93.0287885847528	-77.9732533815586
5091109	17.266927321933	96.5461222636468	98.0780327254169	-79.8600606967039
4341796	17.6208393095984	106.085693632381	107.539148087746	-80.5692678555168
3702781	21.6687301193874	116.505790141846	118.503725686422	-79.4640322687095
3157797	23.0975479589702	129.085571524594	131.135736919987	-79.8553051470043
2693047	25.567793472276	145.915485459999	148.138587005776	-80.0613407701334
2296687	29.2922566325826	167.881934098081	170.418250475533	-80.1025937313828
1958656	35.4446531851384	191.930083440916	195.175511704342	-79.5367979086911
1670375	43.1834174803824	220.690834498955	224.87608138068	-78.9286032091597
1424531	52.3342361727943	252.616031704473	257.980099523016	-78.2956567328787
1214875	67.0623802213177	295.753563956804	303.261493490519	-77.2241683602046
1036062	85.2402305305687	328.318480196285	339.203362806596	-75.4458219556775
883578.1	103.460987055057	380.244667835589	394.068754483027	-74.7788417863657
753531.2	135.845730011579	438.514894405166	459.074476504142	-72.7877561525066
642624.9	172.310323732152	498.850204256878	527.771137854097	-70.9443217424527
548046.8	295.270595458511	615.564608772798	682.718472077643	-64.374157409908
467390.6	367.426076381539	674.998551458501	768.521285376148	-61.4389519212323
398593.7	449.728126050332	734.140695884366	860.940153967931	-58.5087311653743
339937.5	545.616789535184	788.506044171688	958.874059883761	-55.3182099536103
289906.2	652.526386918525	837.750615240916	1061.89301672131	-52.0848716058163
247234.4	771.632970236173	873.558714309933	1165.55663444653	-48.5451555362319
210843.7	897.471066967614	897.682242704997	1269.36508732195	-45.0067400808425
179812.5	1029.30576178954	904.85647144954	1370.4873531621	-41.3185076211822
153343.8	1163.45245909589	896.261697856919	1468.64109149296	-37.608737678003
130781.2	1291.01819133486	869.882013380438	1556.7346233576	-33.971905262144
111531.3	1410.95015107743	829.085210087822	1636.50927721532	-30.4388240438272
95109.37	1517.19728078093	777.946537477016	1705.01859344159	-27.1465913642717
81109.37	1621.55241527957	701.172775354411	1766.65658700191	-23.3840577377389
69171.88	1688.24863758585	655.718192088165	1811.11838645237	-21.2262413854967
59000	1754.25664468214	593.369278327702	1851.8918639798	-18.6878721953065
50312.5	1808.45958941611	533.806688646759	1885.59689949764	-16.4451263090921
42906.25	1857.77762591525	470.279870617464	1916.37701511453	-14.2055030428611
36593.75	1878.74233298128	422.081801200995	1925.57155168044	-12.6619432836228
31203.13	1905.21128947429	386.002143715878	1943.92070632872	-11.4532830852164
26609.38	1925.38748449842	323.765640791533	1952.41930835061	-9.54533362743073
22703.13	1936.52522174722	297.944147458374	1959.31126916266	-8.74665910890812
19359.37	1963.02455894067	264.204385562223	1980.72445745352	-7.66540180582699
16500	1964.66669995511	246.2707811169	1980.04154995405	-7.14475505739161
14112.02	1986.34151288345	235.250226742802	2000.22380622436	-6.75430150874381
12011.13	1994.68091623129	224.399457054298	2007.26357858243	-6.41872585771364
10236.38	1997.1187696563	209.784581559197	2008.10680761096	-5.99656482468329
8750.684	2000.41707462576	207.673427878545	2011.16800021806	-5.92693326384104
7449.463	2009.02681124296	204.675611928064	2019.42586752057	-5.81710871367037
6363.206	2017.38927285594	209.009840137378	2028.18751389226	-5.91497563465666
5414.761	2025.38208759387	215.02036011179	2036.76369665426	-6.05998552302632
4620.567	2035.6696877604	222.844280753194	2047.8307183776	-6.24727969667664
3941.215	2040.55730916007	238.805250608743	2054.48340944503	-6.67492966538433
3361.769	2051.09167084873	258.675114665206	2067.33883463067	-7.18795607514447
2867.244	2052.78861794088	277.771467818505	2071.49658418296	-7.70612764590489
2442.658	2065.57055626075	305.656345814887	2088.06310360302	-8.41735734573463
2083.003	2078.17951607863	340.645240670472	2105.91293292012	-9.30886821580229
1777.843	2092.92573365934	373.258702209038	2125.94924337065	-10.1119888868151
1513.548	2107.54287427757	419.62137086842	2148.91113399499	-11.2605916491359
1292.065	2125.68917926742	465.618220740564	2176.08704199538	-12.3551301139082
1101.762	2136.62601319617	517.949294554798	2198.50908390126	-13.6264718951019
939.101	2159.92357909299	589.691449426888	2238.97429039484	-15.2704596966708
801.2801	2187.99498434079	669.931476686148	2288.25921498315	-17.0238079525963
684.3433	2201.3960778033	755.437893086021	2327.40866666728	-18.9403288589971
582.9476	2244.77573915443	857.456515393979	2402.96687344789	-20.905791820258
497.0677	2279.39338267629	970.00740307094	2477.20579585163	-23.0524240363392
423.5089	2333.50652107381	1099.69509272595	2579.64764664857	-25.232763359508
361.5036	2362.69752341485	1249.70263047251	2672.84422512061	-27.8757259951993
308.1262	2415.64443934397	1419.79907880633	2801.99348348863	-30.4449546922351
262.7298	2473.38966018128	1614.54210840329	2953.70997745192	-33.1350946727775
224.2111	2537.47816334837	1837.3627279266	3132.84171694704	-35.9079239223131
191.2854	2612.8750391569	2086.90904367792	3343.99541369809	-38.6144390366403
163.1722	2698.25356296318	2380.07037130859	3597.95876330239	-41.4148103673878
139.1537	2806.43101314989	2711.16758410073	3902.11285083454	-44.0108649483917
118.6706	2915.27751831023	3084.56994086641	4244.22133363255	-46.6162358231445
101.1982	3047.10835237117	3511.66728842611	4649.37377027188	-49.0515012581008
86.24196	3211.81517895128	4001.49167549694	5131.05178036756	-51.2475740023239
73.61024	3379.38237926389	4553.56999357629	5670.55772844944	-53.4194450092806
62.69291	3584.30905997904	5186.22382426122	6304.29924676665	-55.3508284408871
53.57697	3817.95252030674	5889.49150000996	7018.75142571713	-57.0460615876525
45.65746	4097.3911130161	6700.63570589463	7854.115659712	-58.5545104932052
38.96512	4412.44461000495	7612.65201537946	8798.98506326853	-59.902565593589
33.18414	4785.87637479333	8654.51495287724	9889.65326714646	-61.0577631001318
28.30617	5204.27860482828	9833.48811121434	11125.7361208177	-62.1104011613461
24.17237	5698.34388086322	11158.3381257346	12529.1513165415	-62.9474925000323
20.61345	6262.97379966713	12640.4613485489	14106.9523256966	-63.6429486717621
17.55618	6932.46832682817	14322.31550109	15911.8772750181	-64.1715022377703
14.98558	7694.71533320722	16227.026646985	17958.982094235	-64.630097656993
12.76553	8572.11648727076	18363.4457379652	20265.6685170397	-64.9766798272676
10.8809	9605.69239362985	20767.4752608496	22881.3757250528	-65.1777880133585
9.278505	10782.0615622399	23454.0526564214	25813.6676499508	-65.311287179624
7.923394	12085.5815884688	26310.167070035	28953.1720815646	-65.3283040261394
6.75822	13631.008167729	29788.8105751713	32759.389786016	-65.4117266811104
5.761429	15415.9944135989	33554.5090231781	36926.3856821467	-65.324465208912
4.919708	17466.9648453127	37731.2327462465	41578.1286911618	-65.1591095892372
4.191257	19749.9633786679	42345.3079580198	46724.5776815399	-64.9955301387274
3.564097	22416.2379583307	47661.627016733	52669.9004563961	-64.8114387991519
3.051758	25339.0244162941	53190.1461604174	58917.3811955022	-64.5275382116645
2.604164	28658.1203635842	59613.5689494643	66144.2776486841	-64.3249403353063
2.214424	32499.6125930326	66694.717093163	74191.7118473098	-64.0205278587533
1.892567	36765.098145003	74472.7379547848	83053.3632076013	-63.7257410731585
1.607507	41666.4134235064	83246.7074171342	93091.9132007313	-63.4112445394112
1.376413	46973.4633124803	92672.2507228311	103897.31618095	-63.1205830499413
1.17375	52918.4147568797	103372.620723331	116130.346316503	-62.8912280445504
1.001604	59517.9047453647	115009.054272146	129496.963477341	-62.6381525864411
