EC-Lab ASCII FILE
freq/Hz	Re(Z)/Ohm	-Im(Z)/Ohm	|Z|/Ohm	Phase(Z)/deg
6999984	16.0508822053149	4.66032421759429	16.7137500693887	-16.1904924057801
5969734	13.6502762723184	3.02601356994939	13.981659430702	-12.4992805655852
5091109	11.205219026438	-5.32030470422745	12.4041354223611	25.3986461003543
4341796	10.4181412285267	-4.91818357752677	11.5206855854928	25.271002562755
3702781	4.41039668868778	-5.16107320722716	6.78883462767699	49.4844453568355
3157797	4.15490795216382	-4.9503915181604	6.46294331353978	49.992962588748
2693047	2.64756061322848	-4.50269445200209	5.22339300922391	59.5446961547503
2296687	2.51316671758922	-3.63425350581065	4.41857505253618	55.3352840959052
1958656	1.95338992481836	-3.3189683306996	3.85114047764669	59.5209184062524
1670375	1.43758091109166	-2.66799711624251	3.03065133069007	61.6831465335171
1424531	1.19452476928093	-2.40383466639411	2.68427094902577	63.5760844970703
1214875	0.61820654696671	-2.06610326265251	2.15660891833819	73.3420928192957
1036062	0.803202502818806	-1.85018854529086	2.01701063796399	66.5334061566381
883578.1	0.670678792982461	-1.58419144019567	1.72031176318296	67.0542820881915
753531.2	0.658635586957485	-1.34402611066837	1.4967321144965	63.8929874535572
642624.9	0.546272953078108	-1.13807054368301	1.26238611433413	64.3590313241166
548046.8	0.542303742391822	-1.0044101768393	1.14146097276715	61.6343878251515
467390.6	0.49592960223687	-0.87827069707792	1.00861567889883	60.5480598455834
398593.7	0.464153688526386	-0.761888785787237	0.892139657498197	58.6496214871969
339937.5	0.436981857395008	-0.661864621513855	0.793106500354189	56.5660719243596
289906.2	0.41468589515332	-0.573318696561612	0.707572412878157	54.1214901956544
247234.4	0.39749686852942	-0.497798661881072	0.637030037173508	51.3923088709519
210843.7	0.382117963222238	-0.428558003753515	0.574174277025982	48.2786384882488
179812.5	0.371422742275531	-0.369730639178476	0.52407594776597	44.8691901029654
153343.8	0.362914084159392	-0.321772937230063	0.485020056920239	41.5613729713823
130781.2	0.355491345523383	-0.279665496565551	0.452312819530114	38.1921748712068
111531.3	0.348859477882312	-0.243815434135893	0.425615908104	34.9494285564167
95109.37	0.340898750497244	-0.212657457289728	0.401789935453235	31.9564975698816
81109.37	0.334487954816595	-0.18474025951227	0.382114060722777	28.9122066465909
69171.88	0.327474868409158	-0.16156674184238	0.365162431678229	26.2604147312767
59000	0.318942635050369	-0.136707676419728	0.3470063302664	23.2013185785598
50312.5	0.311958552888534	-0.107000117131754	0.329798671596047	18.9316943850245
42906.25	0.342354751816062	-0.106482864521838	0.358532253120711	17.277301669896
36593.75	0.326218644523894	-0.0972843316510513	0.340415694731894	16.6055373029949
31203.13	0.320477929825291	-0.0855300592245324	0.331694881685045	14.9429799392858
26609.38	0.315288076172827	-0.0734519543126002	0.323731000321413	13.1141559530078
22703.13	0.315697046508527	-0.0655521235052193	0.322430932247901	11.7303482862078
19359.37	0.312460138137653	-0.0587994040426819	0.317944504341207	10.657404600734
16500	0.310382914369081	-0.0525532742166425	0.314800572050201	9.61003775123486
14112.02	0.308379935380694	-0.047170852611704	0.311966783298344	8.69674875537427
12011.13	0.306647459241458	-0.0421896893906231	0.309536159681092	7.83378264266003
10236.38	0.304950548566966	-0.0381539734567585	0.307328102785659	7.13151973232409
8750.684	0.303380544794701	-0.0336519107997971	0.305241226017075	6.32955070647947
7449.463	0.303452777935535	-0.0309838700128477	0.305030471654499	5.82994869785925
6363.206	0.302185154171394	-0.0307910842422569	0.303749828428599	5.81805982361029
5414.761	0.301051294647051	-0.0248596951988213	0.302075961397202	4.72056203182617
4620.567	0.299416386605636	-0.0243673860458204	0.300406294991769	4.65264533366475
3941.215	0.295818550844861	-0.024328617672846	0.296817278240039	4.70152092542059
3361.769	0.294700890971846	-0.0225091098299918	0.295559258296773	4.36774321595153
2867.244	0.293431092583237	-0.0212525743243257	0.294199724693962	4.14257481316969
2442.658	0.290966157901692	-0.0197527703339619	0.291635863672386	3.88367008245274
2083.003	0.288453030123821	-0.0184275058230784	0.289041041304645	3.65531087770981
1777.843	0.290537851055065	-0.0178219211296098	0.291083946256823	3.5101898355279
1513.548	0.285668004589173	-0.0153491066870058	0.286080065579636	3.07557785665157
1292.065	0.286542165086238	-0.0141814070265429	0.286892880144421	2.83334333298395
1101.762	0.286162196551413	-0.0138939840723632	0.286499294115243	2.77968927321672
939.101	0.28455733713916	-0.0157821369945723	0.284994656033837	3.17448985265618
801.2801	0.286356580452867	-0.00145139328861171	0.286360258609915	0.290400163419507
684.3433	0.286698246798802	-0.0187498734475581	0.287310707200073	3.74177708448859
582.9476	0.283123254839914	-0.018878846865133	0.283751983764174	3.814873321118
497.0677	0.284854831173236	-0.0103896786026188	0.285044242643486	2.08885687089363
423.5089	0.27565199392862	-0.0146375445981855	0.276040358405592	3.03963907895198
361.5036	0.276713796447798	-0.0167227640829563	0.277218642921301	3.45837439732524
308.1262	0.273717617958505	-0.0078993585473892	0.27383158007494	1.65306975557949
262.7298	0.276995668412875	-0.00893813571692737	0.277139839412506	1.84818709496452
224.2111	0.270406037437025	-0.0127643098615919	0.270707134535898	2.70259722892407
191.2854	0.274302583239586	-0.0104849171444069	0.274502897360729	2.18900301798896
163.1722	0.273393092356908	-0.0087977900209563	0.273534612174997	1.84314220157839
139.1537	0.266229353261238	-0.00837916586697999	0.266361181403228	1.80270284039806
118.6706	0.267026689465575	-0.00888034432785565	0.267174312766639	1.90474891554204
101.1982	0.267183114063049	-0.00901393556547804	0.267335122037503	1.93225031675052
86.24196	0.266969734615183	-0.00954170569899366	0.267140194183031	2.04692438169919
73.61024	0.263265748739578	0.00359249726683581	0.263290259022286	-0.781803776244984
62.69291	0.261498258785712	-0.0233982926115184	0.262542985899631	5.11308453107219
53.57697	0.263841114056951	-0.0140158615142602	0.264213129576863	3.04082853933468
45.65746	0.268362379934077	0.00247419492843184	0.268373785240708	-0.528229443783479
38.96512	0.258619895317201	-0.0147852483317045	0.259042185410234	3.27202674995248
33.18414	0.260541637931105	-0.00488724515662539	0.260587471419952	1.07462932730706
28.30617	0.244568078397329	-0.00807442673882641	0.244701330887519	1.89093604901703
24.17237	0.256797517693063	-0.00708504284023073	0.256895237257071	1.58038948630935
20.61345	0.270800042104748	-0.0112483904948694	0.271033557133906	2.37856323971902
17.55618	0.261338583391358	-0.0153576969256478	0.261789445974932	3.3631482388167
14.98558	0.25723646555627	-0.00779582457399832	0.257354568820277	1.73587819979416
12.76553	0.256628695217069	-0.00657701850315071	0.256712961069764	1.46808574775914
10.8809	0.252357961954851	-0.00669547888745897	0.252446767457098	1.51979633468529
9.278505	0.251099838043737	-0.0059476532705032	0.25117026743828	1.35687750451323
7.923394	0.249799471997297	-0.00585826674652091	0.249868156233246	1.34344737379536
6.75822	0.258105032511817	-0.00636928557970457	0.258183608323073	1.41360720172472
5.761429	0.246847053906778	-0.0162532579174909	0.247381560378676	3.76711327818928
4.919708	0.243664395177874	0.00270391588389941	0.243679397238475	-0.635778606662352
4.191257	0.242773787111815	-0.0124125725126975	0.243090895890809	2.92687812008126
3.564097	0.249283763336575	-0.00177443254316231	0.249290078571322	0.407831530461459
3.051758	0.235263549533424	-0.00243762463028912	0.23527617761453	0.593634696041504
2.604164	0.263836022668778	-0.00644427548327359	0.263914712633048	1.39918871881025
2.214424	0.222596788200164	0.00175687940454504	0.222603721312719	-0.452206366849207
1.892567	0.245534026346591	0.000792123507965741	0.245535304088068	-0.184842716428068
1.607507	0.258025676058964	-0.0148794026058428	0.258454340508323	3.30038415010689
1.376413	0.238835450122232	-0.011685120295469	0.239121128868632	2.80098554150394
1.17375	0.230173559866521	0.00911760486529165	0.230354071768021	-2.26840694698496
1.001604	0.233164413123364	0.00601762092705759	0.233242053045296	-1.47838924778898
