EC-Lab ASCII FILE
freq/Hz	Re(Z)/Ohm	-Im(Z)/Ohm	|Z|/Ohm	Phase(Z)/deg
6999984	24.6882105724218	84.5206934750859	88.0525716079756	-73.7170936962088
5969734	19.8726803094595	84.0127380616945	86.3311275224926	-76.69166138541
5091109	15.964054706993	88.8908764303094	90.313005460102	-79.8186931438955
4341796	14.087458633561	97.3839763828396	98.3976389294264	-81.7687549996232
3702781	16.147420695329	108.466812329017	109.662156516868	-81.5325817964703
3157797	18.1705664146058	121.286437115315	122.639998825648	-81.4795832004207
2693047	20.5016502457479	136.650301486246	138.179674913068	-81.467551086723
2296687	23.166133573	156.543125820412	158.247969928045	-81.5821426457491
1958656	28.3147718457155	179.538465443292	181.757494696662	-81.0377754445953
1670375	35.1223954677212	207.172585640864	210.128681775031	-80.3780145435022
1424531	44.7272466643528	238.552721346054	242.709553696969	-79.380666909518
1214875	56.8267534167497	274.471246766659	280.292249635148	-78.3027041137588
1036062	73.4691931391829	316.198870719205	324.6220081643	-76.919354813195
883578.1	93.3038779628133	361.992281843367	373.823522209434	-75.5465479360615
753531.2	119.893643293122	414.225404294334	431.227516822504	-73.8574110602363
642624.9	153.738224460781	472.08745869165	496.489688024126	-71.9618374908255
548046.8	270.253841583491	579.639904064877	639.546368354145	-65.0029785900641
467390.6	334.206135516979	638.424311854364	720.610396111458	-62.3685759438321
398593.7	409.785965517941	696.67398680762	808.256878368439	-59.5358153089258
339937.5	497.74618540872	753.001667812346	902.642108931944	-56.5346566484526
289906.2	598.416786413005	802.959043018675	1001.42192657557	-53.3041487121665
247234.4	710.399164468318	846.024854966068	1104.72848614383	-49.980134063715
210843.7	833.303750263591	875.179254877631	1208.44274517725	-46.4040580924516
179812.5	961.0613426413	892.482031020873	1311.54987705944	-42.881078120063
153343.8	1091.96303442924	891.627394022193	1409.74560766498	-39.2328839511265
130781.2	1221.72808395946	874.24678984767	1502.30721248825	-35.5868326443438
111531.3	1345.25433430822	841.019475478408	1586.51283704515	-32.0125958676028
95109.37	1456.7305704143	796.149417227218	1660.09573498965	-28.6580024616252
81109.37	1558.50641555063	731.701311805848	1721.72270038206	-25.1495297806093
69171.88	1638.14910940916	680.33627466151	1773.8066273634	-22.5534981179172
59000	1708.35006128693	619.801351212374	1817.30945269751	-19.941125698908
50312.5	1773.75422820107	564.468190218059	1861.40495320852	-17.6528182088248
42906.25	1817.06472325116	494.225405013339	1883.07805452785	-15.2158510892169
36593.75	1851.84179037241	442.834057321897	1904.05357563643	-13.4486830912728
31203.13	1880.68343906521	397.713847794845	1922.2763856173	-11.9405894195531
26609.38	1904.83130742484	354.439925297048	1937.52676636748	-10.5407160161777
22703.13	1922.7239874159	321.662373531248	1949.44459124394	-9.49735414166648
19359.37	1937.20686302955	290.891530955082	1958.92529539801	-8.53974686035253
16500	1951.40490554726	266.655426925021	1969.53959647996	-7.78115646917727
14112.02	1961.86306271271	247.449678969482	1977.4068929936	-7.18875248647971
12011.13	1970.42913224406	232.166505964551	1984.05953834251	-6.71991258188006
10236.38	1978.91373160294	220.772997547247	1991.19066730755	-6.36575017997584
8750.684	1986.13531231444	215.598731551391	1997.80286611791	-6.19530669508032
7449.463	1992.95081271104	213.784497248911	2004.38438258472	-6.12272440159315
6363.206	2001.54200846993	215.734414725282	2013.13480655586	-6.15182492800784
5414.761	2008.4758911205	223.139138966677	2020.8331154628	-6.33949152422499
4620.567	2015.75737866477	228.587039712737	2028.676870368	-6.46970764232438
3941.215	2021.92091293128	249.695737646763	2037.28057457676	-7.04005847948735
3361.769	2028.90485442741	268.967255947928	2046.65539187506	-7.55153790320064
2867.244	2042.39008411499	291.349344710643	2063.06609112615	-8.1185369372621
2442.658	2054.39607097973	321.482941328774	2079.3976286469	-8.89382331858747
2083.003	2068.0961080839	354.572542851563	2098.27147919806	-9.7287030401844
1777.843	2079.50103347182	396.909621416244	2117.04081108116	-10.8059439091217
1513.548	2095.3866207699	445.201344597887	2142.15996782063	-11.9951120833377
1292.065	2112.4760882823	501.069733778604	2171.08869042088	-13.343700034471
1101.762	2134.02709212454	565.115620774074	2207.58404024952	-14.8321527129737
939.101	2156.05198654612	640.33140714938	2249.12971606161	-16.5410279848411
801.2801	2184.18726498125	723.223885837077	2300.81003073951	-18.3206406260954
684.3433	2211.06904935553	819.189666698227	2357.94360641707	-20.3294077375123
582.9476	2239.11455734794	931.782561747275	2425.25312973796	-22.5940921777023
497.0677	2275.34047949995	1058.61044151231	2509.54784065376	-24.9503753805998
423.5089	2321.57700982107	1213.20408869034	2619.4625352054	-27.5905591709847
361.5036	2358.215456651	1374.20328862892	2729.39825208162	-30.2306455585444
308.1262	2405.89338279703	1566.00508188566	2870.66105381291	-33.0602549255775
262.7298	2460.33323799967	1786.62896257261	3040.60564557609	-35.9861613092382
224.2111	2522.38642593526	2040.77961848472	3244.56695615379	-38.9751789940326
191.2854	2593.64642070733	2331.71185912566	3487.67572311922	-41.9558314950181
163.1722	2677.09750283959	2669.25406052401	3780.44551334018	-44.9159434590481
139.1537	2761.32381090521	3043.94853040828	4109.8092223906	-47.7871953986313
118.6706	2864.9742242773	3485.74838021877	4512.0415640784	-50.582845557147
101.1982	2983.14550948184	3987.99908467777	4980.29053671896	-53.2023856781733
86.24196	3117.223786983	4575.07263930873	5536.09734317272	-55.7314557633484
73.61024	3279.43680264589	5232.3483311593	6175.12548869525	-57.9220796789398
62.69291	3469.41406147559	6004.1732233675	6934.47402664167	-59.9792273465775
53.57697	3682.94448621291	6861.32129813477	7787.28515239836	-61.7744760060609
45.65746	3936.5648135025	7866.72275440651	8796.69650639393	-63.4162865680083
38.96512	4239.35891725992	9004.20275811551	9952.27769601543	-64.788004825331
33.18414	4597.43377244311	10324.3851968835	11301.7399981431	-65.9966592941595
28.30617	5001.70870250971	11828.4608732975	12842.4910580421	-67.0787473860436
24.17237	5496.78877063995	13502.7976429627	14578.7595828943	-67.8494902120535
20.61345	6094.29680181664	15429.8769008856	16589.802731953	-68.4476008543906
17.55618	6785.45130490293	17652.7893276656	18911.9888022956	-68.9740344765568
14.98558	7599.44891827555	20125.1016882327	21512.1208118396	-69.3129390123767
12.76553	8554.79877681222	22975.0163777189	24516.0347460228	-69.577072555932
10.8809	9685.51279865623	26177.5114399767	27911.8480821862	-69.6958467068626
9.278505	10986.1430691026	29794.9188316739	31755.8266735544	-69.7597887967992
7.923394	12518.9206265976	33833.3188259266	36075.1553902661	-69.6946434954929
6.75822	14338.4428106512	38352.7332105718	40945.3671000225	-69.5013848311952
5.761429	16472.2214008245	43486.4125655789	46501.6360540306	-69.2538097679192
4.919708	18867.7386042689	49112.6204959951	52612.1758913529	-68.9845768999872
4.191257	21613.4482178636	55587.7988950691	59641.8018663497	-68.7531019507544
3.564097	24966.996521051	62797.0688779094	67578.2714704887	-68.318112392691
3.051758	28449.0757729942	70592.9507590647	76109.8850952313	-68.0504838065854
2.604164	32700.3087280778	79328.210185555	85803.7010982347	-67.5977898526526
2.214424	37495.1160758817	89300.2640915842	96852.5729981941	-67.2235911166526
1.892567	42820.0484728188	100178.250417946	108946.034384071	-66.8562678741943
1.607507	48904.6792350662	112771.782676644	122919.252434893	-66.5555223275301
1.376413	55508.9403338616	126024.885230015	137708.075849699	-66.2284207222899
1.17375	63171.9832368172	141208.349805537	154694.852923022	-65.8978240744994
1.001604	71519.4772676782	158220.313374076	173633.819265813	-65.6758602246657
