EC-Lab ASCII FILE
freq/Hz	Re(Z)/Ohm	-Im(Z)/Ohm	|Z|/Ohm	Phase(Z)/deg
6999984	-11.2101749215116	32.6233455893532	34.4956620347148	-108.96396756239
5969734	-10.7322528852177	34.1479830476076	35.7947761302115	-107.447233687119
5091109	-11.6101495332058	37.4666665895766	39.2243123268961	-107.217133836595
4341796	-11.7612319423359	42.9786015368111	44.5588012278316	-105.304486124889
3702781	-10.9517282044014	49.860801268239	51.0493864191717	-102.388073651894
3157797	-9.83549423287581	58.0555789731727	58.8828259912449	-99.6154735854762
2693047	-10.3421255457102	67.4070931005203	68.1958632254585	-98.7227480448828
2296687	-10.0659744970818	77.4828971650809	78.1340079329763	-97.4019657355473
1958656	-9.66714226770898	89.8686186058051	90.3870690405424	-96.1396824170945
1670375	-9.44696698310719	104.767387791566	105.19244616344	-95.1524761360841
1424531	-8.95080220049486	122.147870342067	122.475381563541	-94.1910529558546
1214875	-7.78863665130883	142.301789769762	142.514778996999	-93.1328572040275
1036062	-7.76856269262567	166.105922799473	166.287486466582	-92.6776995315756
883578.1	-6.73935121641619	193.633272746497	193.750517855663	-91.9933587410713
753531.2	-5.47164883577948	226.219084134272	226.28524690649	-91.3855651119965
642624.9	-4.33270833208941	264.477579410593	264.513066543749	-90.9385434402355
548046.8	-3.38146364246728	309.229988623626	309.248476407779	-90.6265106250072
467390.6	-0.725278571952445	360.713811038147	360.714540187488	-90.1152030886325
398593.7	0.650319010564454	421.647667059038	421.648168561355	-89.9116311840225
339937.5	3.16661850984819	491.679200311737	491.689397376002	-89.6309964559674
289906.2	-98.7782447395319	501.271294792423	510.911002638126	-101.147620025435
247234.4	-104.521827918445	603.758213879871	612.738764351354	-99.8216238001642
210843.7	-108.96610279632	724.717834912356	732.863938121307	-98.5507461147846
179812.5	-109.962463014362	860.086130899839	867.087017454673	-97.2857698946947
153343.8	-103.630362514242	1018.87833881723	1024.13491364458	-95.8075960790367
130781.2	-107.56369623343	1207.5613034864	1212.3424641681	-95.0901956237534
111531.3	-72.8693663283484	1406.61030928375	1408.49654125682	-92.9655535278493
95109.37	-99.6915977884222	1671.71814995094	1674.68802693068	-93.4127470869489
81109.37	-89.9470015826419	1964.99792713794	1967.05549406979	-92.6208621182986
69171.88	-61.8844474694209	2301.97931944025	2302.81099354011	-91.5399199420048
59000	-49.5060643927679	2695.86001455499	2696.31453441324	-91.0520463794509
50312.5	-46.8416579431683	3142.51702359893	3142.8661098634	-90.8539748696741
42906.25	-10.5662041447736	3692.30675364615	3692.3218721681	-90.1639617969981
36593.75	17.7765656336124	4310.14944352708	4310.18610176203	-89.7636934813197
31203.13	-676.768540049854	4753.14496496507	4801.08349383491	-98.1034952599054
26609.38	-682.227202387214	5627.90307752357	5669.10283957491	-96.9118003418128
22703.13	-644.300175912678	6625.57095307105	6656.82455611231	-95.5542341420299
19359.37	-590.253304387807	7773.74429780736	7796.12078992066	-94.3420846306511
16500	-608.633464149847	9223.36757004816	9243.42707148702	-93.7753720754872
14112.02	-382.512404374284	10838.7125189513	10845.4601012576	-92.0212044899147
12011.13	-401.051333516058	12633.3959816825	12639.760132301	-91.8182628388793
10236.38	-353.176432776288	14843.6109175147	14847.8119150005	-91.3629905748684
8750.684	-209.826362805884	17287.7737388079	17289.0470514353	-90.6953801519819
7449.463	-107.675749117483	20138.6392894952	20138.9271437023	-90.3063418090881
6363.206	-101.487953105448	23724.8918309721	23725.1088974519	-90.2450926207886
5414.761	467.944694628774	27534.3172128849	27538.293277126	-89.0263540947659
4620.567	226.624212869126	32358.9794459049	32359.7730108595	-89.5987389321015
3941.215	1279.31478781308	37918.9719620242	37940.546661627	-88.067681111953
3361.769	-6360.53244350932	41009.8527783168	41500.1734678802	-98.8161974612687
2867.244	-6651.04183508893	48854.9691738684	49305.6220980096	-97.7525013146083
2442.658	-6605.03163722777	57660.7907669142	58037.8603567933	-96.5347368168372
2083.003	-5696.01259169395	68141.8212602867	68379.4732658391	-94.7782774000842
1777.843	-5543.76355528835	79897.779711659	80089.8777450042	-93.9691464018004
1513.548	-4128.65742843291	93543.3534591311	93634.4209601432	-92.5271835187947
1292.065	-3991.40218987196	110404.86801126	110476.993858563	-92.0704788602959
1101.762	-4372.79513803449	128642.814025033	128717.112062066	-91.9468345681067
939.101	-606.18102101534	149501.000056185	149502.22899084	-90.2323156619572
801.2801	-2065.48301667544	175812.517264886	175824.649714163	-90.6730920937514
684.3433	1357.17568339481	204936.40462445	204940.89847132	-89.620568624096
582.9476	2053.64747639049	238393.170697018	238402.016146958	-89.506435431306
497.0677	1007.71204804573	268913.651324881	268915.53944027	-89.7852939901961
423.5089	-15248.8374362211	322488.747033656	322849.065364133	-92.7072068580248
361.5036	-66092.1362753773	351668.667705856	357825.407599089	-100.643932827736
308.1262	-49149.5832323926	385988.69925319	389105.329548552	-97.2566636387021
262.7298	-92114.6162314023	475481.486953423	484321.945568128	-100.964044347876
224.2111	-22730.8407954583	608948.863700552	609372.964386723	-92.1377441054443
191.2854	-67264.1858120816	652310.37211467	655769.237050155	-95.8873518041189
163.1722	-19752.4342086585	886540.217912541	886760.236272231	-91.2763593562446
139.1537	-194334.432953288	652270.172802842	680604.327167794	-106.590661783399
118.6706	-159236.38690894	959363.932066064	972489.270411285	-99.4241056819025
101.1982	-129732.807925231	908891.692547876	918103.866800869	-98.1233768953965
86.24196	20946.7488189958	612986.739160844	613344.52689588	-88.0428720394238
73.61024	587020.030519803	59859.1058857996	590064.088713182	-5.82239138454147
62.69291	52229.2043885294	-16891.3935108994	54892.7041217577	17.921672924612
53.57697	134354.343641912	158421.755455747	207722.271933295	-49.6993847441009
45.65746	372738.6987216	-170185.321288962	409752.585235163	24.5405272105868
38.96512	470144.602970461	-108187.173138168	482431.769407738	12.9590047116643
33.18414	893057.525056598	257846.553160593	929535.684111704	-16.1046633280695
28.30617	-78040.3297391704	709665.532400003	713943.597871973	-96.2754734145405
24.17237	581610.496387443	399524.168145493	705613.442644339	-34.486238015677
20.61345	126860.423441605	-829737.546666706	839379.510939043	81.3072374956454
17.55618	1094257.09481662	-687216.63201343	1292155.28821902	32.1296912521937
14.98558	-486134.92657308	1594113.17906821	1666590.52994824	-106.959417420345
12.76553	2350406.40594813	-1416736.92164782	2744367.6463408	31.0799981940463
10.8809	1909376.5513778	331875.240639256	1938004.1254602	-9.86026560910234
9.278505	2633531.75871817	118435.56390848	2636193.56401906	-2.57497890146781
7.923394	2625924.98626919	163828.540989877	2631030.563174	-3.56999287835247
6.75822	1774900.62261082	-53874.9910253586	1775718.08990117	1.73861120847693
5.761429	920463.810840457	315257.370673309	972954.694130608	-18.9062493293427
4.919708	1023609.22993519	-1302859.88846668	1656870.46705043	51.8445788361163
4.191257	1148101.29945195	-933752.792426418	1479875.28905898	39.1215181444869
3.564097	523263.45105868	2244044.3245506	2304243.81734261	-76.8743776262772
3.051758	1917647.01975778	-450909.389724269	1969946.5399161	13.2319789939985
2.604164	4587583.78126878	2417616.97102759	5185633.690183	-27.7888426751456
2.214424	4443527.03813264	-2303807.31424166	5005243.31873778	27.4050984622788
1.892567	-175603.327769581	-2962521.81321924	2967721.68885891	93.3922351978832
1.607507	2334484.70466202	3387048.33211547	4113625.55908861	-55.4238862893443
1.376413	3949720.06493998	2026935.66609815	4439454.5595028	-27.166197980021
1.17375	7643289.87870678	-2260283.83733104	7970493.28431067	16.4740721369021
1.001604	11016327.468773	-781434.424486918	11044007.9074137	4.05743443072884
