EC-Lab ASCII FILE
freq/Hz	Re(Z)/Ohm	-Im(Z)/Ohm	|Z|/Ohm	Phase(Z)/deg
6999984	5.71009496444365	1.07425267437155	5.81026706024424	-10.6546429441615
5969734	3.91353478605753	-0.262263537548975	3.92231267045477	3.83391500048138
5091109	2.28921205199882	-0.96627247113287	2.4847885840622	22.8845244840541
4341796	1.43977671153842	-1.34273873582767	1.96873164544599	43.0026654937677
3702781	0.799423141201703	-0.980114248950985	1.26479298688977	50.7978422401918
3157797	0.586432670171112	-0.79000747694336	0.983877578904222	53.4130278819752
2693047	0.464527798306157	-0.612096678664018	0.768406415531968	52.8046842134171
2296687	0.40428507322663	-0.456684742391633	0.60992407262476	48.4827948098099
1958656	0.357640310836425	-0.332419304824185	0.488271631527953	42.9068268433762
1670375	0.362553716742636	-0.231396737234504	0.430104228677972	32.5476983412094
1424531	0.352920311071261	-0.188790484589038	0.400243167384528	28.1440192123472
1214875	0.346006289759685	-0.144170903710238	0.374840768900462	22.6200930024453
1036062	0.357762263438104	-0.111501671284519	0.37473518628439	17.3103842529869
883578.1	0.348236727417349	-0.0861852116698801	0.358743235522187	13.9008270057224
753531.2	0.357746912563357	-0.0569277294458477	0.362248008729481	9.04158340437376
642624.9	0.358559781511341	-0.0537128994517294	0.362560605257896	8.51965896005524
548046.8	0.362572963030667	-0.0419212771063255	0.364988420357499	6.59534582764066
467390.6	0.358629411785259	-0.0338237063374894	0.360220901819766	5.38784586876938
398593.7	0.364701067137921	-0.0284046232396155	0.365805537127205	4.45347259900578
339937.5	0.367249097424061	-0.020492910670525	0.367820416707036	3.1938563990894
289906.2	0.367997939591768	-0.0164877442015838	0.368367112067084	2.56535894008757
247234.4	0.368381352876418	-0.0173467717016975	0.36878954924934	2.69601910047818
210843.7	0.368437709799976	-0.0146148538156647	0.368727460266665	2.27156623626731
179812.5	0.365729623671588	-0.0123259886310309	0.365937272803269	1.93027819601968
153343.8	0.366649534762684	-0.0122649765709754	0.366854618332629	1.91591529001135
130781.2	0.365995299430771	-0.0108230099641639	0.366155290484931	1.69382538946274
111531.3	0.366035425899239	-0.00985182019371917	0.36616798245391	1.541740045281
95109.37	0.365443220070283	-0.00893441403889055	0.365552418743955	1.40049735441433
81109.37	0.364884021442104	-0.0079208873369691	0.364969984464431	1.24357911123067
69171.88	0.364297486249337	-0.00708319253493718	0.364366340520187	1.11388610359824
59000	0.363879512437181	-0.00628298223511009	0.363933751440131	0.989208195546595
50312.5	0.363561034287244	-0.0054716648885428	0.363602206770893	0.862247623639147
42906.25	0.363341188998974	-0.00469054474780079	0.363371463977593	0.739617466747297
36593.75	0.362997958984458	-0.00397146138996122	0.363019683670809	0.626832443649179
31203.13	0.362858648214632	-0.0033368235291136	0.362873990491761	0.526873252682404
26609.38	0.362772371343812	-0.00271240778209278	0.362782511384423	0.4283860475871
22703.13	0.362768157621883	-0.00229541712927493	0.362775419680238	0.362534461206667
19359.37	0.362614813628886	-0.0018805492488838	0.362619689935046	0.297137803315569
16500	0.362673370087767	-0.00152308333479213	0.362676568244577	0.240617980544432
14112.02	0.362661412584262	-0.00119513325184222	0.362663381831006	0.188814803638592
12011.13	0.362724413772158	-0.000973908323200187	0.362725721232694	0.153837735598138
10236.38	0.362725195810688	-0.000920110292372854	0.362726362812041	0.145339568284978
8750.684	0.362750339247419	-0.000677306818252127	0.362750971561267	0.106979299055836
7449.463	0.362759940835999	-0.000530759889569855	0.362760329117446	0.0838303144422834
6363.206	0.362922976861372	-0.000439525707393588	0.362923243009824	0.0693892569906881
5414.761	0.362888780961584	-0.000310180857777457	0.362888913525818	0.048973819640237
4620.567	0.362786077343345	-0.000333931110303129	0.362786231028905	0.0527386221796385
3941.215	0.362897586719952	-0.000210442011583253	0.362897647736942	0.0332254558466476
3361.769	0.36287594103923	-0.000107974574057482	0.362875957103271	0.0170484909744105
2867.244	0.362854039363249	-0.00015180112107118	0.362854071116485	0.0239698669762145
2442.658	0.36290343327785	-7.38024383714829E-05	0.362903440782325	0.0116520478739252
2083.003	0.362964691436463	-7.55602483242399E-05	0.362964699301348	0.0119275603592918
1777.843	0.362867916702676	-5.81031007680431E-05	0.362867921354465	0.00917430907761582
1513.548	0.362960134977829	-2.94472679610768E-05	0.36296013617237	0.00464845586626675
1292.065	0.362917671090718	-4.60233321225509E-05	0.362917674008938	0.00726595281979563
1101.762	0.363014110103961	-7.45189557100322E-06	0.363014110180447	0.00117615859451983
939.101	0.363047508018113	-2.68067854466859E-05	0.363047509007795	0.00423061894571626
801.2801	0.363059505187209	1.82576961584275E-05	0.363059505646285	-0.00288131537029687
684.3433	0.363101725798815	-1.2578649872534E-05	0.363101726016691	0.00198485299896369
582.9476	0.363043775723537	-8.07138163641666E-06	0.36304377581326	0.00127383013689799
497.0677	0.363047178433568	-2.9697771158628E-05	0.363047179648228	0.00468687555121925
423.5089	0.363087923863087	-9.42713497795627E-06	0.363087923985469	0.00148761501420618
361.5036	0.363056904384692	-5.92067027755668E-06	0.363056904432969	0.000934369832016829
308.1262	0.363038063925496	-3.68897499546925E-05	0.363038065799753	0.00582205333944235
262.7298	0.36303079526909	-5.90985823516678E-05	0.363030800079484	0.0093273059976496
224.2111	0.363076701021637	-2.47108405559386E-05	0.363076701862542	0.0038995255435174
191.2854	0.363091081938607	-4.5274879973409E-06	0.363091081966834	0.000714437690524682
163.1722	0.363091229904661	1.27514226937379E-05	0.36309123012857	-0.00201217391846671
139.1537	0.363125742370863	4.0977469088193E-06	0.363125742393984	-0.000646562818282304
118.6706	0.363124011515077	7.42899074681825E-06	0.36312401159107	-0.00117218856995737
101.1982	0.363099593696764	3.91608722913853E-05	0.363099595808545	-0.00617944149373315
86.24196	0.363122916398868	-1.28867239363229E-05	0.363122916627534	0.00203334700082797
73.61024	0.36314254536943	1.5168805482896E-05	0.363142545686238	-0.00239329856829419
62.69291	0.363144336213095	4.66300208353609E-05	0.363144339206889	-0.0073571390528907
53.57697	0.363110792369581	1.29858550197831E-05	0.363110792601786	-0.00204905693061267
45.65746	0.363126378279002	2.75246999189517E-05	0.363126379322177	-0.00434297596934142
38.96512	0.363154206521757	6.85518569494208E-06	0.363154206586459	-0.00108156039775476
33.18414	0.363114585742145	-1.14319982361766E-05	0.363114585922103	0.00180385276669289
28.30617	0.363133207231197	1.23716832879123E-05	0.363133207441944	-0.00195202538209167
24.17237	0.363123719087545	-6.85244597268222E-06	0.363123719152201	0.00108121891490886
20.61345	0.363115501042544	3.21274211057447E-05	0.363115502463816	-0.00506936670538812
17.55618	0.363095546577412	6.26032645217004E-05	0.363095551974296	-0.00987867474305989
14.98558	0.36303717741673	6.40505766108439E-06	0.363037177473232	-0.00101086829203372
12.76553	0.36306253047328	4.04715244020707E-05	0.363062532729013	-0.00638690951135002
10.8809	0.363051674522414	1.37844040666012E-06	0.363051674525031	-0.000217541532387743
9.278505	0.363033317159502	4.38135836774092E-05	0.363033319803378	-0.00691488438998512
7.923394	0.362919944578493	-2.21681809350676E-05	0.36291994525554	0.00349978893267289
6.75822	0.363031197855784	2.90245984522513E-05	0.363031199016053	-0.00458083767911659
5.761429	0.362974183716709	-1.93849121419548E-06	0.362974183721886	0.000305992464968859
4.919708	0.363053363857133	1.85192286682709E-05	0.363053364329463	-0.00292263823239729
4.191257	0.363028096671699	4.40206783097399E-05	0.363028099340666	-0.00694766903502251
3.564097	0.362993886682064	1.53183746965261E-05	0.362993887005283	-0.00241788705207223
3.051758	0.362971151554639	2.74069244976172E-05	0.362971152589349	-0.00432624216397682
2.604164	0.362947229872977	1.63894193379544E-05	0.362947230243021	-0.00258727572166691
2.214424	0.362925086089268	5.84064414170617E-08	0.362925086089273	-9.22075303648912E-06
1.892567	0.362851376016967	5.00030604414219E-06	0.362851376051421	-0.000789569646200187
1.607507	0.362803220080654	4.13465424553836E-06	0.362803220104214	-0.000652966194600687
1.376413	0.362758697173008	1.10186249334311E-05	0.36275869734035	-0.0017403323736935
1.17375	0.362721222482211	1.11299084731118E-05	0.362721222652969	-0.00175809062759579
1.001604	0.362685585967371	7.90993325871575E-06	0.362685586053627	-0.00124958313596585
