EC-Lab ASCII FILE
freq/Hz	Re(Z)/Ohm	-Im(Z)/Ohm	|Z|/Ohm	Phase(Z)/deg
6999984	-9.44027617542434	31.9686185324978	33.3333374438362	-106.451776813859
5969734	-10.6823312155787	33.56317932638	35.2221408590402	-107.654988183634
5091109	-12.2544343932315	37.6114023009301	39.5574107512161	-108.046490245047
4341796	-11.8694967371672	42.6800656978003	44.2998076831285	-105.541461468955
3702781	-10.9691941322315	49.7155840438546	50.911320123644	-102.442332755093
3157797	-10.392168520063	57.3710081630001	58.3046288401566	-100.267213077437
2693047	-11.4050807755598	66.5714508143667	67.5413497868283	-99.7215853691344
2296687	-10.0124072029491	77.1696228767299	77.8164442321441	-97.3925692277071
1958656	-9.92202139114234	89.524572632598	90.0727240263977	-96.3242894186857
1670375	-9.66773371969324	104.130972529933	104.578795725063	-95.3042526560143
1424531	-9.2393445175662	121.845258583676	122.195059337263	-94.3363550526998
1214875	-8.14477424879341	142.216710994114	142.449746344271	-93.2777582304161
1036062	-8.21481763824807	165.938964805783	166.142177876795	-92.8341170096463
883578.1	-7.15878434948524	193.545905891165	193.678253504605	-92.1182635404098
753531.2	-5.72595506604528	226.098155287398	226.17064881585	-91.4507104133029
642624.9	-4.41491632778754	264.062167711964	264.099072135672	-90.9578521179314
548046.8	-2.66645700031107	308.514570163268	308.526092893227	-90.4951886983632
467390.6	-0.855582382005866	360.294112021837	360.295127886593	-90.1360587523752
398593.7	1.65792263576601	420.862280798949	420.865546352703	-89.7742932005296
339937.5	2.87741893840396	493.097709822354	493.106105186092	-89.6656604025728
289906.2	-100.29196905224	499.500812209397	509.469862164802	-101.353139986549
247234.4	-107.296553795146	601.403461067368	610.899888230571	-100.115723036405
210843.7	-111.537980852356	721.499882297783	730.070408473275	-98.7878933461892
179812.5	-114.042468276566	859.892161876231	867.421589901237	-97.5547162837291
153343.8	-113.444145836074	1020.4259759105	1026.71259198345	-96.3437126879406
130781.2	-109.454216222818	1205.1353438622	1210.09562534323	-95.1895465054291
111531.3	-100.96406991361	1389.84628700499	1393.50868132031	-94.1548993189818
95109.37	-80.9432744360448	1665.77834953094	1667.74378231263	-92.7819205545099
81109.37	-90.5039773379924	1965.07711839239	1967.16014882962	-92.6369622323418
69171.88	-75.5929076669706	2296.71081710242	2297.95449586906	-91.8851270135711
59000	-40.3664756079638	2685.94055411285	2686.24386692293	-90.8610222505543
50312.5	-9.11533885607519	3135.99518823992	3136.00843590485	-90.1665401070762
42906.25	-5.16630506884405	3693.71607396813	3693.71968695496	-90.0801380715705
36593.75	31.5036882557268	4305.86645735802	4305.98170351137	-89.5808053531139
31203.13	-564.694451379054	4807.90214296668	4840.9506132331	-96.6987746335832
26609.38	-674.420632370028	5635.14103317946	5675.35528871887	-96.8247680527325
22703.13	-739.938785781016	6599.94396699974	6641.29277883752	-96.3968831713288
19359.37	-518.053359022116	7808.85935759002	7826.02477311536	-93.7955401898758
16500	-631.224374227225	9244.71483205039	9266.2396114363	-93.9060637485565
14112.02	-628.173082768147	10727.0958218795	10745.47282318	-93.3513833070904
12011.13	-468.544030866751	12630.3507186703	12639.0384438642	-92.1245087803768
10236.38	-416.23520093536	14724.5035918184	14730.3855267936	-91.6192173008509
8750.684	-201.727616792944	17179.6934444034	17180.8777678864	-90.6727483190743
7449.463	-80.2482494803344	20088.7077635901	20088.8680465692	-90.2288779151864
6363.206	22.7984890883187	23814.7331142387	23814.7440270418	-89.9451492150376
5414.761	33.4602693212473	27509.2622810693	27509.2826303828	-89.9303096081437
4620.567	679.665789324787	32653.7404144916	32660.8130431896	-88.8075988085849
3941.215	1008.58605800871	37544.4492655249	37557.994042387	-88.4611885256488
3361.769	-6649.85153989142	40864.661228241	41402.1866910614	-99.2426499481845
2867.244	-6673.36069383923	48540.5425270675	48997.1224846126	-97.827959856227
2442.658	-6687.26848426432	57199.1554165707	57588.7396992645	-96.6682932788822
2083.003	-6143.7193473141	67829.321676254	68106.9905845156	-95.1755090394484
1777.843	-5540.38108253416	80063.525644628	80254.9933722986	-93.9585466825905
1513.548	-5106.81106307556	93559.1226524898	93698.3935333877	-93.12432013288
1292.065	-4548.95064378564	109638.480961759	109732.809403394	-92.3758653651007
1101.762	-4146.03700535004	128082.810918183	128149.896900282	-91.8540154052955
939.101	-1850.2753226116	149658.656202791	149670.093523037	-90.7083289981519
801.2801	-2382.53342718074	176804.97276886	176821.024941405	-90.7720419049705
684.3433	1219.97863171597	207465.437323943	207469.024270798	-89.6630820924947
582.9476	7756.90334201153	238859.630228339	238985.54873104	-88.1399883856985
497.0677	2993.22214937704	263468.950925362	263485.95309911	-89.349101220763
423.5089	-1126.25133614676	316124.01875508	316126.024989931	-90.2041261384368
361.5036	-67440.4433487799	355266.004936596	361610.491638018	-100.748612216906
308.1262	-60035.4329707753	428663.019221972	432846.667147253	-97.972574403718
262.7298	-56492.5751016709	460522.928661346	463974.976549858	-96.993561419178
224.2111	-59334.7223942009	583306.443996116	586316.481850026	-95.8082263326114
191.2854	-58632.3137357166	696972.538883137	699434.391613116	-94.8086441632261
163.1722	-30862.2064440785	933896.905846943	934406.713662253	-91.8927473522463
139.1537	-132498.222467742	727231.228375558	739202.975157523	-100.3257693641
118.6706	-344280.569292668	947188.355705939	1007816.89387379	-109.975008887678
101.1982	376548.193329528	1385345.65864179	1435608.28077069	-74.7939105763777
86.24196	848291.168608885	609336.611761108	1044456.32420525	-35.6900910981823
73.61024	391650.100769102	216773.94142892	447639.076841015	-28.9640364087384
62.69291	58513.8740328597	-51711.5303967838	78089.4092070805	41.4685824564609
53.57697	138610.520308502	66802.5341327548	153868.303775507	-25.7314715539678
45.65746	623434.025296696	-124497.128716819	635743.280700924	11.2931700293671
38.96512	297553.816553067	516470.834092033	596054.021220406	-60.0525086485748
33.18414	510383.29331376	-191771.022859706	545222.185262538	20.5931688585007
28.30617	945901.073103039	-161368.828456988	959566.953836501	9.68134234883889
24.17237	316807.386474692	-579521.715901368	660463.730515303	61.3358768138883
20.61345	1185344.62805478	811428.355823502	1436474.10832662	-34.3936136585162
17.55618	1190412.88048892	1036225.87955464	1578241.71136513	-41.0387896255994
14.98558	790864.122901137	1868478.54907812	2028959.86881389	-67.058693863214
12.76553	2003919.23748932	1424926.1842941	2458883.27113482	-35.4154781565541
10.8809	1444208.7732458	4946581.47085681	5153096.85805963	-73.7242556686479
9.278505	3161744.61192907	576704.366639961	3213909.91123959	-10.3371498411456
7.923394	1534277.50154134	-1920354.92924317	2458001.32343424	51.3767129597684
6.75822	1283418.48825797	-285538.340216901	1314798.52438926	12.5430258932434
5.761429	1018271.44249108	-40104.8302934405	1019060.90495403	2.25544033912335
4.919708	1124444.66205789	1211854.92672322	1653169.12669389	-47.1426637157327
4.191257	1738156.41047128	97297.6303375969	1740877.518992	-3.20393014304339
3.564097	1870899.11257845	-1457964.5215501	2371903.04092424	37.9287689840513
3.051758	1752599.87062184	2087299.21074911	2725513.58494093	-49.9815148920013
2.604164	7462520.94272176	4819136.30856282	8883315.46108036	-32.8535088347825
2.214424	1303780.25495988	-8031561.20557963	8136695.7883526	80.7794860705503
1.892567	2223341.13841307	1556853.4452936	2714228.89010534	-35.0009202734651
1.607507	3041239.91805201	-1743628.72884854	3505621.39758688	29.8268650115819
1.376413	2420766.68785781	-3407696.32711366	4180012.63333809	54.610693020293
1.17375	9302363.13320741	3114877.33458214	9810016.34410208	-18.5130169353885
1.001604	8257150.27954493	-2731915.80513505	8697349.86678905	18.307032878461
