EC-Lab ASCII FILE
freq/Hz	Re(Z)/Ohm	-Im(Z)/Ohm	|Z|/Ohm	Phase(Z)/deg
6999984	-12.6482146296971	31.3179409460995	33.7755941238975	-111.992049509656
5969734	-13.3888822721177	33.2356127938561	35.8311055687619	-111.941915702582
5091109	-14.2374404494432	37.0461078295666	39.6877665770111	-111.022604920295
4341796	-14.0955888280004	42.4102689946075	44.6913474914666	-108.384879118851
3702781	-13.3581249924815	49.570090036216	51.338419624228	-105.081777429922
3157797	-12.1006037752654	57.2589987177152	58.5236494579865	-101.932801387883
2693047	-11.7195545166004	66.3854112538632	67.4119483875975	-100.011731196589
2296687	-12.0566713212289	77.3574748076978	78.2913930899927	-98.8586536338879
1958656	-11.8968287538794	89.8895473636277	90.6733988534509	-97.5392464232606
1670375	-11.5926008893518	105.209986452816	105.846727133065	-96.2877920071358
1424531	-11.2198268435523	122.960156504911	123.47098688401	-95.2136680286041
1214875	-10.2795969386374	142.732916612494	143.102605140263	-94.1193186399042
1036062	-9.17225613492311	166.832090888453	167.084041227215	-93.1468946700082
883578.1	-8.68258882940782	194.557944924292	194.751588650631	-92.5552584507561
753531.2	-7.41779085885174	227.356579123141	227.477554259322	-91.8686831248508
642624.9	-6.06989948631749	265.157558753752	265.227024724148	-91.3113670775271
548046.8	-4.65406990294768	309.903532058637	309.938477038719	-90.8603919969796
467390.6	-2.57412768019423	361.038155574729	361.047331958174	-90.4085001839599
398593.7	-0.497952524019949	422.827225461428	422.827518674134	-90.0674757042981
339937.5	3.73616587279016	492.997260433806	493.011417444532	-89.5657938588815
289906.2	-104.032385055347	504.134966301281	514.757031411809	-101.659786998503
247234.4	-109.645638674532	605.741453386946	615.58498554763	-100.260051104998
210843.7	-111.675768625678	725.186325735649	733.734750664099	-98.7545472025126
179812.5	-114.505969743011	865.678436771824	873.218628407856	-97.5349492397971
153343.8	-113.105910187954	1017.49474373782	1023.76193543887	-96.3430251385865
130781.2	-109.980404205627	1211.31885279789	1216.30138224571	-95.1878849278232
111531.3	-121.961710501701	1384.47337805734	1389.83495184788	-95.0343322387282
95109.37	-101.910338136545	1696.24949006852	1699.30810907758	-93.4381864130527
81109.37	-72.7260996152693	1993.65158782496	1994.97762874731	-92.0891572844172
69171.88	-72.8305856263867	2297.18397369891	2298.3382047083	-91.8159137119193
59000	-63.1837143697438	2699.24201566458	2699.98141491577	-91.3409316997558
50312.5	-15.5533698038426	3201.78958307541	3201.82735974357	-90.2783241729062
42906.25	-5.54903340158564	3710.05460608037	3710.05875585143	-90.0856957621832
36593.75	16.8951237301693	4321.72559318099	4321.758617503	-89.776012073915
31203.13	117.316630324372	4957.86293381703	4959.25075613922	-88.6444777243112
26609.38	-729.716851990779	5675.90065521056	5722.61609160522	-97.3259915319129
22703.13	-707.485493608697	6647.31049495792	6684.85396549876	-96.0752246651423
19359.37	-628.002080424312	7892.95026510425	7917.8943223831	-94.5491515778114
16500	-586.294066074058	9272.14767285086	9290.66537978133	-93.6180951607238
14112.02	-712.537020362076	10842.6669922154	10866.054321117	-93.7598449192391
12011.13	-470.277896585793	12682.5674164515	12691.2835274	-92.1235920479046
10236.38	-236.586512302132	15026.160786214	15028.0231950499	-90.9020460286856
8750.684	-323.314440168308	17268.4318433719	17271.4582637484	-91.0726155642961
7449.463	-190.138946275292	20264.3066093212	20265.1986216635	-90.5375875752029
6363.206	219.21008502016	23205.1642375307	23206.1996102798	-89.4587653427511
5414.761	284.78596415626	27666.0706323687	27667.5363428078	-89.4102358175035
4620.567	408.505888760141	32244.5135740889	32247.1011517432	-89.2741583411599
3941.215	-6468.38028776511	34463.6411887621	35065.4032849315	-100.630009953314
3361.769	-6881.84803478453	40944.3407970888	41518.6569590349	-99.5409890721092
2867.244	-6604.23031108623	48745.2289626521	49190.5804460899	-97.7157174241609
2442.658	-5917.88341684984	57986.7471908863	58287.9420971026	-95.8271912356302
2083.003	-6159.10300594316	68325.4190111954	68602.4593793345	-95.1509291500373
1777.843	-5751.78775454524	80155.9586531068	80362.0605134781	-94.1043644414513
1513.548	-4765.20060268576	93750.7909701331	93871.8165601871	-92.9097474386035
1292.065	-3710.13412664101	111208.242748683	111270.114363595	-91.910795522793
1101.762	-4172.24376683996	128916.332485725	128983.829992833	-91.8536716306184
939.101	-1097.23999131116	151014.31794421	151018.304055348	-90.4162924099737
801.2801	297.018160238458	178891.220826445	178891.467400106	-89.90487028204
684.3433	1003.64401584305	207092.134066901	207094.566065104	-89.7223259285113
582.9476	634.817119231756	239704.418778392	239705.259380477	-89.848262051881
497.0677	-63684.0674582973	239956.755765322	248263.781259876	-104.863537805756
423.5089	-69242.480691664	266998.370840206	275830.837949022	-104.538613440138
361.5036	-59568.9941550624	357548.470660856	362476.721923715	-99.4588269242874
308.1262	-42390.2569045055	414604.14854242	416765.56223975	-95.8377909548401
262.7298	-33747.4234797149	500163.479642927	501300.703131404	-93.8600552376075
224.2111	-77248.8457557154	621364.563188498	626147.989341995	-97.0867243566663
191.2854	-69678.8263628158	693252.007837492	696744.921197143	-95.7395286929752
163.1722	-98264.6739095312	817422.903865237	823308.052858724	-96.8547910411973
139.1537	-159833.097560466	826357.059326126	841672.506723307	-100.946912909801
118.6706	30566.0195860441	1083601.50399746	1084032.5184324	-88.3842402937627
101.1982	-24603.3820113631	829895.707982897	830260.328171129	-91.6981135892404
86.24196	834555.797230219	-209096.054132699	860351.404104411	14.0657758253626
73.61024	200000.11421765	-352002.505499292	404852.824573143	60.3957103678581
62.69291	51374.4919791544	39101.8445654294	64562.3162110468	-37.275270511659
53.57697	74446.6470202473	84160.9752813774	112362.685144446	-48.5048479553444
45.65746	269996.216484058	423909.891017339	502590.840165277	-57.5061696154544
38.96512	264967.366747378	-518087.865427343	581913.001868922	62.913286919663
33.18414	484004.534008237	257973.002850801	548461.903089349	-28.0574853965486
28.30617	-152630.43664612	-977841.733439693	989682.022594697	98.8716597758373
24.17237	578042.352809316	142093.394883585	595250.782872961	-13.8105231276318
20.61345	-287077.44900349	667475.535090802	726592.768799073	-113.272266407096
17.55618	-320481.135716483	698122.803545953	768168.996498158	-114.6580221304
14.98558	2115872.33476725	2014142.45801119	2921247.26413167	-43.588984664681
12.76553	2623123.92351352	903654.265100624	2774413.47836682	-19.0085967802869
10.8809	2970457.00092517	-486554.456705662	3010041.53354825	9.30231930820394
9.278505	1170599.11534414	3251748.42460446	3456033.86930193	-70.2015965526246
7.923394	1522843.58980731	-1163527.35332053	1916467.71455777	37.3816057488573
6.75822	2126729.13497314	-221111.984729809	2138192.53654454	5.93560784485933
5.761429	1072325.13346051	146164.317561643	1082240.82328259	-7.76192227599473
4.919708	1010558.54717264	-1535130.71208211	1837894.14288239	56.6435587365731
4.191257	1125354.25352127	-640013.72623448	1294619.54476478	29.6278423918652
3.564097	1527240.97708504	2019857.0046277	2532249.45872859	-52.9065847572811
3.051758	898430.136164055	-1527274.40770696	1771932.22951794	59.5335234777453
2.604164	9002084.98834946	1245385.29720151	9087822.54866106	-7.8765367533327
2.214424	4445205.06803586	3142841.20532805	5444014.96496837	-35.2610087349868
1.892567	-1595132.54714876	-3958992.93372675	4268263.45160085	111.945181562014
1.607507	-218449.66694521	3240008.55695883	3247364.42459957	-93.8571904486319
1.376413	461388.450157388	-2780784.78141714	2818801.74941407	80.5792946169316
1.17375	17455402.0321189	-8602589.73136073	19460103.0364439	26.2355770108578
1.001604	-696956.723710115	16446963.8550772	16461724.3545426	-92.4265148341902
