EC-Lab ASCII FILE
freq/Hz	Re(Z)/Ohm	-Im(Z)/Ohm	|Z|/Ohm	Phase(Z)/deg
6999984	-9.00392142562726	31.8744533626107	33.1217659282248	-105.773967742219
5969734	-10.386805739959	34.0951667628514	35.6421959209347	-106.942916235845
5091109	-11.7836970675766	37.6092848635952	39.4121025134598	-107.396756105368
4341796	-11.6388397758929	42.803427897829	44.3575927112095	-105.211724257857
3702781	-10.8497826540372	49.8297806571662	50.9973021245354	-102.283680741621
3157797	-9.75442913115935	57.58756946332	58.407850879548	-99.6137547120908
2693047	-9.72722162478456	66.0788112183147	66.790928519997	-98.3741605223252
2296687	-9.95247001479859	77.2299460212997	77.8685830219629	-97.3431229699873
1958656	-9.5473502126332	89.6085246785941	90.1157011355784	-96.0816417924478
1670375	-9.27754663399431	104.628899359064	105.039418565771	-95.0672200161687
1424531	-8.83474935786917	121.951104869041	122.270702848214	-94.1435547546383
1214875	-8.54590525163369	141.467429267766	141.725318980767	-93.456979428733
1036062	-7.09092870590185	166.401230486963	166.552246389796	-92.4400939339348
883578.1	-6.82896130853517	193.398358730743	193.518887637095	-92.0222931097254
753531.2	-5.56596737247022	225.89467075042	225.963232111404	-91.4114628043365
642624.9	-4.38326212441003	264.303606882256	264.339950816787	-90.9501171876971
548046.8	-3.38012193235969	309.44691342887	309.465373596032	-90.6258230756531
467390.6	-1.97736469073983	361.114488428119	361.119902143073	-90.3137329646453
398593.7	0.996881660258151	421.63367808237	421.63485655993	-89.8645340532627
339937.5	5.50198262523048	491.916349674443	491.947117981025	-89.3591852779574
289906.2	-99.3477557499045	501.125263951181	510.878172114138	-101.213452876096
247234.4	-104.592772434092	604.430525782909	613.413326023859	-99.8174412082598
210843.7	-112.11948348135	720.711652343076	729.380603251288	-98.8424962240652
179812.5	-112.666027686841	859.736172410912	867.087031356425	-97.4659078254839
153343.8	-108.13540232094	1022.08541663806	1027.78979569721	-96.0393575071671
130781.2	-106.770676153959	1206.64557520395	1211.36019475862	-95.0566775927383
111531.3	-123.152510288571	1440.14089779601	1445.39695111587	-94.8877123389542
95109.37	-97.5063356298881	1676.66006916135	1679.49292139268	-93.3282931079466
81109.37	-58.5335950136439	1989.03320081066	1989.89428253671	-91.6856231093065
69171.88	-52.774739980061	2311.4739802122	2312.07636863015	-91.3079293307563
59000	-57.3621620479036	2696.2387684397	2696.84888602829	-91.218777097834
50312.5	-61.7270621215778	3169.36915192394	3169.97019723613	-91.1157592862694
42906.25	-8.3456861875024	3711.3761580901	3711.38554145451	-90.1288394841566
36593.75	13.6487373980668	4320.12668305194	4320.14824348076	-89.8189839085498
31203.13	-672.522939671378	4709.35530771121	4757.13301460575	-98.1272157126238
26609.38	-691.365624045317	5636.74987112829	5678.99071453514	-96.9925873909263
22703.13	-668.135163308579	6646.24096441183	6679.73978186839	-95.7405600170064
19359.37	-678.117584712036	7890.84154100452	7919.92573727419	-94.9117765663497
16500	-569.212826340608	9284.12727206789	9301.56021566411	-93.5084310387358
14112.02	-421.718741335211	10901.0812994245	10909.2355457867	-92.215437182464
12011.13	-338.476506823529	12539.3127061373	12543.8801607783	-91.5462224777512
10236.38	-379.237450539734	15040.1437347377	15044.9242140153	-91.4444078775565
8750.684	-220.263245966831	17145.9391039457	17147.3538382381	-90.7360028596567
7449.463	-216.545305209378	20147.3345083955	20148.4981986845	-90.6157963142383
6363.206	-54.0301306903184	23628.228291409	23628.290066062	-90.1310167237781
5414.761	83.6594065650941	27689.5409483575	27689.667329657	-89.8268907261226
4620.567	1298.55696228745	32241.3909573452	32267.530755369	-87.6935969675121
3941.215	-6365.9322315919	34324.6809198699	34910.0102181037	-100.506824027361
3361.769	-6343.09108773074	40850.1965715414	41339.7310644472	-98.8262242226835
2867.244	-6599.45944941954	49198.8008264617	49639.4487055042	-97.6399724036446
2442.658	-6054.47578409691	57553.0464722021	57870.6301611765	-96.0053238141363
2083.003	-5613.45624687832	67828.2582875636	68060.1462925261	-94.7310083819859
1777.843	-5157.95260059451	80136.8116924592	80302.6342236832	-93.6827248000145
1513.548	-4973.9298416139	93850.9018561339	93982.6141223949	-93.0337355054698
1292.065	-4369.19930050039	110640.140908366	110726.377538284	-92.261445693413
1101.762	-4895.81956206518	128878.290528705	128971.248031433	-92.1755020241434
939.101	-2776.17867319994	152238.716396141	152264.027064735	-91.0447125196732
801.2801	357.454633148018	171249.712736161	171250.085798613	-89.8804049841878
684.3433	1513.44724519151	204313.864745978	204319.470070774	-89.5755914371783
582.9476	-1865.80890560571	232590.986673692	232598.470168472	-90.4596080192856
497.0677	-58949.8891973456	249552.937767789	256421.05643826	-103.290883249681
423.5089	-69146.2627415336	308015.309506242	315681.226146483	-102.652550970126
361.5036	-57941.1977849541	344668.732724901	349504.960936099	-99.5425933539355
308.1262	-51194.4481913602	384809.755180774	388200.230818974	-97.578035665991
262.7298	-76919.6617377131	536026.754887263	541517.604807835	-98.1661768426927
224.2111	-71112.3546054273	573114.036474695	577509.017922531	-97.0731452569217
191.2854	-53238.4644207378	741974.362476163	743881.90505334	-94.1040779625537
163.1722	29242.8723076015	851225.924967193	851728.079211348	-88.0324442075524
139.1537	-319479.041014338	976514.48473436	1027447.02858272	-108.116161912935
118.6706	-2142.65394792222	1068828.11234701	1068830.26000821	-90.1148593139554
101.1982	46748.2831890271	892891.081161781	894114.022258558	-87.0029536412614
86.24196	184262.31655678	812721.829299928	833348.290406533	-77.2257153462514
73.61024	258529.879299628	224862.810479866	342638.267021628	-41.0159286095736
62.69291	62536.5883125403	-1685.43626455813	62559.296456834	1.54381644433056
53.57697	100035.899444355	19290.0449681471	101878.785880644	-10.9144506563635
45.65746	304127.770395272	-76826.7121961012	313681.437819425	14.1770786066447
38.96512	606504.412923344	219968.274503313	645161.719790825	-19.9348002448498
33.18414	602727.734452769	121081.672066403	614769.463448668	-11.3589283955142
28.30617	423849.56691366	583774.582190589	721416.119992265	-54.0184723840899
24.17237	568191.898765236	162729.848488612	591035.563575975	-15.9816836669226
20.61345	-199933.471559322	-840222.141669209	863682.025053755	103.384791032303
17.55618	1240592.03209515	-466306.152721678	1325333.9270403	20.5999297604833
14.98558	4602108.15301484	-610662.23992507	4642446.31884053	7.55852798830124
12.76553	1584578.22118206	996949.507699975	1872110.16234295	-32.1763643941851
10.8809	1871495.79789847	461290.477132802	1927507.56829774	-13.846390285607
9.278505	1404020.99821778	2132258.03625216	2552998.09960728	-56.6364254120237
7.923394	2160451.20748153	839189.231443795	2317711.79961608	-21.2277826419656
6.75822	887772.896911327	1333406.73644893	1601909.56089841	-56.3446008182297
5.761429	876420.558509653	-176694.276543008	894054.731401511	11.3985484270475
4.919708	1928905.98107986	-41840.1908600146	1929359.70866421	1.24261654213485
4.191257	893048.898343048	-819383.86116516	1211992.67603796	42.536782051391
3.564097	817869.320041234	2502335.91685346	2632602.3751109	-71.9004164151875
3.051758	1340713.70210419	640011.451285593	1485640.56513903	-25.518233851354
2.604164	3922775.64176043	5328056.75526425	6616370.41911243	-53.637684633446
2.214424	8046195.23763721	-3451311.8923905	8755159.14079988	23.2162899657466
1.892567	197415.019735146	2705299.42385378	2712492.88712812	-85.8263275131807
1.607507	3830789.49333511	-1922642.77677023	4286199.17751304	26.6517105278833
1.376413	2110580.27594652	-6162105.63518939	6513531.68108111	71.0931761776277
1.17375	3683993.5945253	4811758.84160326	6060101.64553785	-52.5614980068518
1.001604	8342948.4638139	-1677275.39036654	8509879.07111399	11.3672763905893
