EC-Lab ASCII FILE
freq/Hz	Re(Z)/Ohm	-Im(Z)/Ohm	|Z|/Ohm	Phase(Z)/deg
6999984	-11.4042621390051	31.9940683895134	33.9658299920377	-109.618571843327
5969734	-13.3835884869248	33.1879957126493	35.7849619283041	-111.962542183207
5091109	-14.3058717785648	37.031393598335	39.6986407724439	-111.122414168207
4341796	-14.2691240804546	42.3853415423924	44.7227579615644	-108.605926236212
3702781	-13.4243207542492	49.4054857392387	51.196820300123	-105.201239130207
3157797	-12.3942959511921	57.4857577732615	58.806725116196	-102.167083830312
2693047	-12.3555759948859	66.3049426173727	67.4463169762329	-100.555697327286
2296687	-12.0286051471647	77.3609260680706	78.2904861646412	-98.8379698574836
1958656	-11.9803998873543	89.4738189775198	90.2723338785638	-97.6264505996795
1670375	-11.6622222462466	104.639221717535	105.28710343329	-96.3594690273067
1424531	-11.0735392903736	122.14110538089	122.642051907497	-95.180379180707
1214875	-9.84281663483529	142.384404206739	142.724208180024	-93.9544786822451
1036062	-9.83488577408591	165.57218170999	165.864017599946	-93.3993398745428
883578.1	-9.0665545850624	193.767989490097	193.979989078972	-92.6789600387249
753531.2	-7.93376855903168	226.355635227243	226.494631906977	-92.007396207052
642624.9	-6.93787842525557	264.504821614724	264.595795156462	-91.5025057979827
548046.8	-5.49171996888846	308.756921923344	308.805757433042	-91.0189867146718
467390.6	-3.97264460667109	361.211355263389	361.233200407141	-90.6301202591165
398593.7	-0.588371532001354	422.172966309863	422.173376308749	-90.0798515926729
339937.5	1.59398990668722	493.902376128505	493.904948293906	-89.8150877955429
289906.2	-105.306342869369	500.999235277118	511.94693044961	-101.870348988214
247234.4	-111.098340554686	602.471680439698	612.629551201898	-100.448210444919
210843.7	-117.063069710604	721.825281415853	731.25611052568	-99.2118248188065
179812.5	-113.422175647819	860.788749236595	868.229152206367	-97.5063586458201
153343.8	-117.44822170274	1022.54433987237	1029.26722078679	-96.5522120295887
130781.2	-112.644827810829	1207.44462551692	1212.68766833106	-95.3298065736771
111531.3	-115.686253462192	1418.5800533335	1423.28938623029	-94.6621961507907
95109.37	-105.019608729139	1677.40752296736	1680.69185644636	-93.5825144816462
81109.37	-95.8628433481066	1964.14609479714	1966.48406208686	-92.7941818513257
69171.88	-81.9868968650945	2326.84344550234	2328.28741162571	-92.0179959262619
59000	-79.5138637777017	2706.38300032336	2707.5508118911	-91.6828729118899
50312.5	-46.8895622707127	3135.42141434019	3135.77200646874	-90.8567823628703
42906.25	-11.8679422833477	3725.39848625502	3725.41738996387	-90.1825256295603
36593.75	22.7304275396557	4311.23065919309	4311.29058045298	-89.6979179264387
31203.13	-712.970532103947	4749.71372602845	4802.9269678886	-98.5368232403629
26609.38	-722.285736480599	5632.03752286315	5678.1637299449	-97.3080579529253
22703.13	-681.186892359586	6625.51625867129	6660.44152261996	-95.8701057744855
19359.37	-651.545170807111	7843.14022624871	7870.15627025301	-94.7487700736349
16500	-634.473255484724	9203.7261116642	9225.56939437642	-93.9435351883581
14112.02	-482.565148744245	10955.655716207	10966.2783702969	-92.522084194418
12011.13	-425.15346826212	12695.2469971398	12702.3640236754	-91.9180720867911
10236.38	-276.418779484137	14733.0046448044	14735.5974838308	-91.0748500996971
8750.684	-185.09841545117	17342.5517584608	17343.5395152862	-90.6114991307748
7449.463	-266.722410448819	20331.8917537371	20333.6411675312	-90.7515873116843
6363.206	15.6370410449286	23861.4366576243	23861.4417813105	-89.9624525404506
5414.761	177.456622459194	27656.6628965445	27657.2322083385	-89.6323715546757
4620.567	1046.20175197407	32841.4927273215	32858.152453608	-88.1753971774375
3941.215	-6560.16647443224	34170.2793146772	34794.3066120784	-100.867672846735
3361.769	-6825.86101658107	40790.3899633827	41357.566320838	-99.4998507024188
2867.244	-6869.92922419806	48826.3452762626	49307.2806042099	-98.0090145194884
2442.658	-6759.44807346514	57551.5578692151	57947.1479145565	-96.6987173378037
2083.003	-5997.91812867371	68105.2967724672	68368.8998766552	-95.0329571400198
1777.843	-5469.12625083087	80354.493383588	80540.3994829962	-93.8936878601817
1513.548	-5895.14992089382	94287.7724152793	94471.8837518619	-93.5776443403876
1292.065	-4769.78025178048	110764.741871317	110867.393066987	-92.4657624431567
1101.762	-4080.90773605214	129396.022569129	129460.3586611	-91.8064026125201
939.101	-2538.71514606671	151156.715276958	151178.032954236	-90.9622065971744
801.2801	-2225.34124757872	174258.201633692	174272.41026702	-90.7316483804137
684.3433	-2056.90299215009	205957.937007056	205968.207901417	-90.5721942260288
582.9476	1031.64187515691	241412.755201996	241414.959476784	-89.7551564101723
497.0677	1605.58048179185	267623.564108715	267628.380324163	-89.6562638947327
423.5089	-86083.9566563201	302000.258599817	314029.622468906	-105.909987922783
361.5036	-62150.5720521425	347106.792241418	352627.025093845	-100.151418307042
308.1262	-48919.9160966507	433047.740471332	435802.13826716	-96.4451835134583
262.7298	-39663.6016078726	535105.353232836	536573.331755266	-94.2391814106456
224.2111	-52063.8525865008	588985.350218732	591281.986465368	-95.0515782683616
191.2854	-50891.6601643812	703374.887878666	705213.580394346	-94.1383408387026
163.1722	-177170.211880307	984783.140510716	1000593.38285433	-100.198859212478
139.1537	-128263.029140374	922385.993650094	931261.148081534	-97.9165391313542
118.6706	65688.0264375189	1254519.5853992	1256238.15694614	-87.0026671623638
101.1982	355784.423465834	1106041.80726883	1161856.71896642	-72.1683887759702
86.24196	-9857.0130527404	666926.948365658	666999.786478715	-90.8467556014555
73.61024	301343.145367225	-92597.6651575262	315249.137750506	17.0813099969156
62.69291	57743.9381407285	11582.8383439738	58894.1808339577	-11.3424157518586
53.57697	181839.0586339	170314.263745655	249143.315543659	-43.1255706704012
45.65746	392129.597873175	-479321.61862129	619285.746328713	50.7136460921974
38.96512	505454.087133581	8838.32054080721	505531.354230401	-1.00176628450027
33.18414	500985.13869115	-487310.83227791	698897.672370413	44.2072920692964
28.30617	-189601.174712681	664300.634794967	690828.443856668	-105.929525783597
24.17237	512745.241390549	620514.069156963	804950.552885321	-50.4322837077425
20.61345	387115.507631608	-1108291.97397544	1173954.64811348	70.7461929368964
17.55618	928594.071143865	-978453.625926902	1348947.1624393	46.4976507482862
14.98558	1777185.95199087	2663555.79636485	3202018.01811022	-56.2878665373559
12.76553	839294.001268422	-1506288.01440026	1724331.17552605	60.8737290563358
10.8809	2875087.60501651	-1491080.46409123	3238741.99140872	27.4121974093605
9.278505	1265580.94566527	1431537.65949711	1910757.75560102	-48.5210340130569
7.923394	2020158.41157829	817382.438371278	2179255.39082236	-22.0288979606954
6.75822	1698572.59085744	582560.889083943	1795696.53224102	-18.9304739849208
5.761429	40465.8404369129	-829524.578253588	830510.993406505	87.2072130952255
4.919708	978070.96360383	1372828.86061029	1685610.24272205	-54.5320545629113
4.191257	75433.0165275595	1226019.07989869	1228337.46350833	-86.4792129207323
3.564097	3969723.0495386	-305296.540004769	3981445.34903808	4.39774729680915
3.051758	765198.258103345	2292852.40570885	2417167.87347699	-71.5444950328522
2.604164	5033650.03555437	-5637239.81527101	7557519.79258495	48.237437093201
2.214424	5812161.23953644	9254466.34700006	10928237.0784188	-57.8695967449058
1.892567	2821795.71128716	1997840.9495109	3457441.17748678	-35.2986234142371
1.607507	4565074.58093662	1239931.51732174	4730468.90880401	-15.1956543269385
1.376413	-333345.392537483	5619338.40093189	5629216.92732779	-93.3948708037408
1.17375	12057975.372037	-722707.847153881	12079614.0958637	3.42998147378753
1.001604	4574694.66720236	-7890358.04287098	9120612.99161567	59.8955755084884
