EC-Lab ASCII FILE
freq/Hz	Re(Z)/Ohm	-Im(Z)/Ohm	|Z|/Ohm	Phase(Z)/deg
6999984	28.5328586162636	82.127112376723	86.9424327250772	-70.8415904097857
5969734	26.0368851797241	80.3513959075172	84.4645855619307	-72.0457185120327
5091109	24.7675988979666	83.952401060706	87.5296498280908	-73.5629107535391
4341796	26.2254881918191	90.6529844763165	94.3702274309145	-73.8650886946911
3702781	32.2862965502133	98.9426140106743	104.077114738033	-71.9278037977948
3157797	39.0987160422487	107.884676394913	114.751091484951	-70.0788689929076
2693047	47.17056307595	118.245900944468	127.307325441512	-68.251993063133
2296687	57.9456835200467	131.007381009915	143.250256955031	-66.1397841513832
1958656	72.1810429751431	143.509445075974	160.639546161564	-63.2989448115655
1670375	89.8847647973814	156.340125678837	180.337200377391	-60.1040748501365
1424531	110.720312824946	167.559518682471	200.836201849057	-56.5439901309353
1214875	134.5881580436	176.574456363269	222.019167923747	-52.6847125806946
1036062	160.250640782151	182.96695350492	243.222478290887	-48.7866744356134
883578.1	188.029697795536	185.472340398649	264.112014694586	-44.6077036244236
753531.2	215.756761116729	184.467411114874	283.864766624893	-40.5297338133595
642624.9	242.758192041756	179.515187740939	301.922576885278	-36.4822396274184
548046.8	267.767756826916	171.185836177786	317.811519778636	-32.5910712463008
467390.6	290.209268795089	160.468007639615	331.619361875038	-28.9399148855634
398593.7	309.730093606203	148.091959043722	343.313208628382	-25.5539692290363
339937.5	326.085237111326	135.085056751421	352.958289914665	-22.5024189304813
289906.2	339.223559556102	121.90713482715	360.463552775696	-19.7669694475
247234.4	350.52374944022	109.103449295759	367.110966289298	-17.289190544145
210843.7	358.497267967036	97.8105190450472	371.600846037371	-15.2608511944465
179812.5	365.757827329754	86.2555962266076	375.7909207703	-13.2694504338
153343.8	371.256114561512	76.8021327277747	379.116961096236	-11.687966598102
130781.2	375.565108091326	68.6410625066182	381.786256795196	-10.3574841132948
111531.3	378.863353156985	61.5293234006061	383.827172049467	-9.22458612413855
95109.37	381.84827716355	55.5129166876779	385.862398650017	-8.27168282632262
81109.37	384.365934387771	50.3822142439388	387.653890771015	-7.46768552988324
69171.88	385.971250888974	46.6495304419989	388.780124496171	-6.89149625278788
59000	387.831964525495	44.3708772132866	390.361892930626	-6.52668829505014
50312.5	389.738011306788	41.5672602700833	391.948408063779	-6.08783127186968
42906.25	390.934054949784	39.8483521271755	392.959700843143	-5.82012247167276
36593.75	392.417048117748	39.2708787163202	394.377156499459	-5.71481053709653
31203.13	392.87296416402	40.2700416025718	394.931439900265	-5.85246020962994
26609.38	395.302633179367	40.3532790592746	397.356966629978	-5.82867673155406
22703.13	397.086532503302	41.8218130222148	399.282830008956	-6.01232116404939
19359.37	398.455363208177	43.9649801706637	400.873541095901	-6.29646239381067
16500	400.55101170692	47.1604229339228	403.317763643933	-6.71502525188759
14112.02	402.70399406418	50.6779945704116	405.880235992001	-7.17264091328063
12011.13	404.906080909641	55.4045632130594	408.679091687396	-7.79157284189275
10236.38	407.387057257101	60.9514235565915	411.921461511992	-8.50921966902796
8750.684	410.174387686657	67.2770801042634	415.655186207847	-9.31475249235828
7449.463	413.411970334771	73.6880634011651	419.927836543247	-10.106471303248
6363.206	416.776067014483	82.4486641160409	424.853000755062	-11.1900490853994
5414.761	420.815609824387	92.4701127550992	430.855543337684	-12.3932203481285
4620.567	425.538924834447	104.223849832856	438.116408530015	-13.7620852756314
3941.215	429.720782583771	117.165391315337	445.407319098468	-15.2512484218001
3361.769	435.231956175517	132.395641231298	454.9235776407	-16.9195296338825
2867.244	441.092941702747	149.339250625756	465.687872933627	-18.7043733798063
2442.658	447.262608477916	169.165304296694	478.184839910534	-20.7178043676755
2083.003	454.320779724621	191.626672047621	493.080269661679	-22.8693926686847
1777.843	461.321103073481	217.30019816275	509.93777685371	-25.2222610431232
1513.548	470.772581275734	246.789458618517	531.537261314988	-27.6645280223361
1292.065	480.152933268754	281.443495530947	556.558425058202	-30.3768643878618
1101.762	491.587251034234	319.062824208528	586.053846648341	-32.9854323671114
939.101	503.49796558017	362.558938902133	620.450792183563	-35.7569151658284
801.2801	518.159846832797	413.749756404821	663.082564840033	-38.6073057120909
684.3433	533.526648026554	471.659068837794	712.118642763539	-41.477978964301
582.9476	552.088873650392	537.481046130719	770.511517991996	-44.2318834178635
497.0677	572.667680484467	613.900957371933	839.537168762429	-46.9902282943382
423.5089	596.060093402715	700.624977573627	919.871183453041	-49.6103642914714
361.5036	624.396223366244	798.986962647154	1014.02702638251	-51.9929118796978
308.1262	655.545030640388	912.90957152752	1123.8964244911	-54.3185074630881
262.7298	693.239521144765	1042.66904689377	1252.09415581552	-56.3812529283843
224.2111	733.956657319391	1190.11480351033	1398.23661100613	-58.3374167846302
191.2854	783.555126231074	1358.22496040365	1568.03497375106	-60.0195062795752
163.1722	841.109004052152	1549.92284287495	1763.44128781289	-61.5122905190091
139.1537	903.525185617059	1767.73006368797	1985.25246231068	-62.9274389772027
118.6706	981.498013018946	2014.43058364574	2240.81880701842	-64.0231061688314
101.1982	1069.34789196291	2297.83562150506	2534.473013765	-65.044059663975
86.24196	1172.86598532467	2621.88346711454	2872.26174549956	-65.8992564689872
73.61024	1291.5193521127	2981.98625321654	3249.65602045109	-66.5822221607832
62.69291	1430.0739670015	3396.1039425029	3684.91974666737	-67.1644045764156
53.57697	1589.79186286087	3857.24926530381	4172.02709266196	-67.6006546416282
45.65746	1778.81086622895	4389.87895432741	4736.58160823403	-67.9418510086286
38.96512	1992.07083924034	4982.14267521467	5365.63993059047	-68.2063856226405
33.18414	2244.10006754777	5658.76855886414	6087.49921691636	-68.3681889039855
28.30617	2532.72025119221	6418.15320866115	6899.8088727621	-68.4649041798036
24.17237	2867.60258558498	7258.80350215866	7804.70197200409	-68.4434182624862
20.61345	3253.08001443637	8214.99311814421	8835.64607210373	-68.3967794979625
17.55618	3700.26025481957	9302.02891943943	10010.9773734379	-68.3077991523787
14.98558	4203.53753780275	10495.6636877869	11306.134798367	-68.1737843240976
12.76553	4788.47440789665	11844.0499487586	12775.4063083634	-67.9868281955464
10.8809	5451.03084770346	13357.7162838136	14427.1383725766	-67.8005596163494
9.278505	6198.02596181014	15039.9895155139	16267.0467648569	-67.6032902474858
7.923394	7033.76907363907	16872.2909167905	18279.7184924192	-67.369580762852
6.75822	7968.94068319347	19011.1268557661	20613.7565702685	-67.257911288581
5.761429	8986.87689808686	21405.2194701452	23215.2401871368	-67.2251381026995
4.919708	10211.9301087426	24068.0641979778	26144.8891905057	-67.0087892392581
4.191257	11484.7941638265	26955.2017207995	29299.8873170948	-66.9226163868704
3.564097	12948.6396793594	30390.4754511949	33034.0470983433	-66.9223299079729
3.051758	14559.5495710177	34008.5758630295	36994.1037996915	-66.8235519840923
2.604164	16308.2279509595	38281.8031673549	41610.7528488078	-66.9257676547436
2.214424	18360.6499297392	43102.391411753	46850.0758937954	-66.9270854576724
1.892567	20575.2857623164	48482.9036353085	52668.1528925364	-67.0044920557946
1.607507	23070.3426385198	54711.2928453327	59376.4791332936	-67.1361004613362
1.376413	25861.7663187727	61414.6748335107	66637.776388717	-67.164003505959
1.17375	29005.1509225	69264.5986387096	75092.4989903688	-67.2780794029696
1.001604	32460.2920715319	77937.8016756941	84427.3148418744	-67.3887748489888
