EC-Lab ASCII FILE
freq/Hz	Re(Z)/Ohm	-Im(Z)/Ohm	|Z|/Ohm	Phase(Z)/deg
6999984	22.2836139742486	2.68142731053469	22.4443646418206	-6.86151337136869
5969734	12.9968493569096	-3.00866029745622	13.340544591271	13.0339017546438
5091109	10.6828358913929	-4.70705593352248	11.6738750311857	23.779180892417
4341796	6.26178642593972	-4.45542459073637	7.68510100960432	35.4328445073245
3702781	5.63067994427765	-5.91006953709848	8.16293320861013	46.3868006036623
3157797	4.49060460556156	-5.07590168283821	6.77719024503005	48.5011008113643
2693047	3.52240788179482	-3.92566161068421	5.27429392121164	48.0990849744107
2296687	2.59574747167835	-4.01330691816328	4.77959594067342	57.1058096265287
1958656	1.84024023677538	-3.27689764249146	3.7582632010562	60.6823038569826
1670375	1.47722431739832	-2.83855462300274	3.19993500429042	62.5068879555767
1424531	1.16743194453394	-2.40282424311306	2.67141567121445	64.0868190756499
1214875	1.04315979747677	-1.93517782483706	2.19843025288792	61.6730624763228
1036062	0.774065851502703	-1.86253963369816	2.01698582780323	67.4323769371983
883578.1	0.754850841809449	-1.56640042482454	1.73879558438332	64.2705093447689
753531.2	0.604479009496496	-1.36343785851441	1.49142806294914	66.0899368232068
642624.9	0.59792773615367	-1.21700135370002	1.35595349203781	63.8345457584538
548046.8	0.513092075364309	-1.00772865462476	1.1308317819877	63.0167630974636
467390.6	0.522082655200304	-0.846082639605345	0.994196224043598	58.3229782481929
398593.7	0.494285772563058	-0.787975427132578	0.93017401529124	57.9005364658429
339937.5	0.431380535561613	-0.674492320470276	0.800642902194731	57.3985108457493
289906.2	0.457819369188304	-0.571347291819091	0.732145001125451	51.2948773978899
247234.4	0.43634093252533	-0.486584945778744	0.653573499199269	48.1161018209261
210843.7	0.428816687830443	-0.41670055749748	0.597932359369003	44.1790166021067
179812.5	0.413291422647791	-0.367855743363212	0.553288033450514	41.6711230370396
153343.8	0.369690559139345	-0.30677259475167	0.480396226470852	39.6861966994781
130781.2	0.360709935706434	-0.270774369431955	0.451032611746216	36.894482761015
111531.3	0.373483393056094	-0.257479072250003	0.453635666075117	34.5823402266543
95109.37	0.348969406519995	-0.210826444556132	0.407709990570623	31.1378612017766
81109.37	0.369084155742074	-0.177474353363907	0.409536640756082	25.6806043609161
69171.88	0.350126339468045	-0.171692550772931	0.389957415085556	26.1220912603762
59000	0.334664389723192	-0.143802772814213	0.364251961172281	23.2528332139201
50312.5	0.332547803242722	-0.115145770357335	0.351918442075354	19.0985798020122
42906.25	0.359923180024143	-0.11812253698196	0.378810809325375	18.1692250695762
36593.75	0.360221046646528	-0.10088372379106	0.374081178587042	15.6454663031619
31203.13	0.350178943762658	-0.0754580952566681	0.358216717636818	12.160404677655
26609.38	0.329511421696306	-0.075492648812486	0.338048690358424	12.9040408703774
22703.13	0.341304567697594	-0.0742540569758951	0.349288523871915	12.2739763718059
19359.37	0.335953933545465	-0.0480894253216143	0.339378311464409	8.14614777340946
16500	0.334713298500107	-0.0440050293084896	0.337593594129484	7.48976732330759
14112.02	0.335044526340648	-0.0413923536640263	0.337591708388516	7.04279721774808
12011.13	0.324715108443368	-0.0427338988764388	0.327515019143504	7.4972845295797
10236.38	0.328161912224238	-0.0420461702962285	0.330844557264054	7.30131577491111
8750.684	0.327360623162979	-0.0392306001076355	0.329702923224013	6.83368481125918
7449.463	0.32135245840169	-0.034539229674983	0.323203281090015	6.13464765330982
6363.206	0.330218745674856	-0.0273901021386989	0.331352739071587	4.74156322684889
5414.761	0.328920545919327	-0.0279141265827151	0.330102899094727	4.85083258091609
4620.567	0.327787151001436	-0.026594952529812	0.328864269664098	4.63852249697257
3941.215	0.318364671818768	-0.0269495550775634	0.319503275071086	4.83855008466187
3361.769	0.319875579638366	-0.02536874119374	0.320879976749463	4.53453123011412
2867.244	0.320602173302187	-0.0189936673064824	0.321164308296913	3.39045254254366
2442.658	0.316995788423012	-0.0204393791140971	0.317654054116262	3.68923284397053
2083.003	0.312379480550108	-0.0166297482552205	0.312821815728679	3.04730582720863
1777.843	0.312089145819915	-0.0173775412793177	0.312572573780105	3.18701471005774
1513.548	0.31041058901014	-0.0190932488702804	0.310997244235451	3.51980922395035
1292.065	0.309430743095045	-0.0130872564179146	0.309707379719793	2.42185994142367
1101.762	0.309309247253579	-0.0116073772678748	0.309526964323973	2.14911713403872
939.101	0.300442612977889	-0.00354586215335386	0.300463536608674	0.676180725586002
801.2801	0.314485628827103	-0.0153319039067763	0.314859139959736	2.79109227925541
684.3433	0.298064998601526	-0.00805184087382083	0.298173733807633	1.54739513871895
582.9476	0.313052189831969	-0.0148853612757255	0.31340588306364	2.72231442552791
497.0677	0.298881185283815	-0.00740003434541788	0.298972780408136	1.41830316381361
423.5089	0.299592890055862	-0.00900609188589547	0.299728226003293	1.72185563071613
361.5036	0.299881683986201	-0.00868638997506055	0.300007462842507	1.65916889130866
308.1262	0.29775884730953	-0.0164510643984371	0.2982129585899	3.1623551795131
262.7298	0.298562133999823	-0.00853634138045269	0.298684142502898	1.63772651878368
224.2111	0.295644451805058	-0.00951390686178004	0.295797492056454	1.84315537960768
191.2854	0.295478706900953	-0.00793587107863833	0.295585257212933	1.53846158077727
163.1722	0.295642385978824	-0.0138958297303558	0.295968772797312	2.69104468090085
139.1537	0.292585045850651	-0.00988928452830256	0.292752125532692	1.935842762126
118.6706	0.292899357640166	-0.0133429491156874	0.293203117304584	2.60829009471892
101.1982	0.293433317256473	-0.0136414061161128	0.293750233424525	2.66170408517
86.24196	0.296460864409092	-0.0111300105676629	0.296669717466112	2.15004188792006
73.61024	0.295933880369728	-0.028502100440346	0.297303264832723	5.5013253167152
62.69291	0.258056904328768	-0.0390484711213009	0.260994538196986	8.60456557571568
53.57697	0.275196473902922	-0.0164794733462763	0.275689449000814	3.42692646282389
45.65746	0.302872244584177	-0.030415936951388	0.304395673031152	5.7347001939967
38.96512	0.284092619111174	-0.0154985436518139	0.28451506302615	3.12264977726833
33.18414	0.290236810735356	-0.0109842103993075	0.29044458883568	2.16736354798246
28.30617	0.285675742471677	-0.00181377708886523	0.285681500318226	0.363770388466544
24.17237	0.275732121930446	-0.0170328540258663	0.276257707911531	3.53485165790371
20.61345	0.274419869343142	-0.0203676039291478	0.275174679031559	4.24474350128183
17.55618	0.273049081568683	-0.0199397775276122	0.273776178060386	4.17668757437619
14.98558	0.282998658687619	-0.00963763714676814	0.283162718006387	1.95047782308702
12.76553	0.277650339137099	-0.00679881620963098	0.277733567875398	1.40271985770164
10.8809	0.277385640384426	-0.0124198352375995	0.27766354783948	2.5636841844524
9.278505	0.275019499584469	-0.00454656620847448	0.275057078469142	0.94711585112731
7.923394	0.282283810175935	-0.026708551640157	0.28354452246192	5.40500423586016
6.75822	0.263479483464109	0.00468934694431545	0.263521210116526	-1.01962938967907
5.761429	0.270965813452463	-0.0206816822965479	0.271753940252152	4.36468362132554
4.919708	0.277964981171465	0.0138233084648083	0.278308488218678	-2.84699634428412
4.191257	0.269131985831124	-0.0135737009824432	0.269474063976044	2.88727241249284
3.564097	0.255994873986546	0.00661454349839171	0.256080314926938	-1.48011213187894
3.051758	0.293696457509803	0.00995631788557993	0.293865168775829	-1.9415849451488
2.604164	0.277158222962907	-0.0256330130024296	0.278341035263468	5.2839760689635
2.214424	0.254427232716677	-0.000751017688055094	0.254428341140357	0.169125051713142
1.892567	0.265696179148285	-0.0122746571355532	0.265979560909843	2.64507513108191
1.607507	0.261829839790207	0.028776418727821	0.263406429836791	-6.27192261144522
1.376413	0.26287117710151	-0.0192634507076013	0.263576054079079	4.19119773053787
1.17375	0.311383370608709	0.000166697577601719	0.311383415229076	-0.030673014813009
1.001604	0.285481873148682	0.0141647588064121	0.285833063672704	-2.84051619162119
