EC-Lab ASCII FILE
freq/Hz	Re(Z)/Ohm	-Im(Z)/Ohm	|Z|/Ohm	Phase(Z)/deg
2083.003	0.328234591213408	-0.0186414248333584	0.328763516207092	3.25050702812516
1777.843	0.327272796708518	-0.017494747298584	0.327740064149101	3.0599000125034
1513.548	0.324763516300013	-0.0163200409236667	0.325173315718401	2.87681192202714
1292.065	0.324221553780234	-0.0193354968782262	0.324797594472614	3.4128878509276
1101.762	0.324786767989021	-0.0140668888762695	0.32509125184079	2.47999625002221
939.101	0.324861188674415	-0.0135113559356509	0.325142043799589	2.38162569913399
801.2801	0.324102498374279	-0.0136587368362319	0.32439018256478	2.41320312209704
684.3433	0.321288973757467	-0.0164936828747941	0.321712054845479	2.93875496221653
582.9476	0.323468702652878	-0.017311578836189	0.323931616792399	3.0634649559047
497.0677	0.32157345823715	-0.013124792469617	0.321841186332593	2.33718938437482
423.5089	0.320927923730772	-0.0135994931369982	0.321215937406175	2.42648772153494
361.5036	0.32152865873593	-0.0121084244266565	0.321756573096218	2.15667845806106
308.1262	0.320369859753804	-0.0127707223503699	0.320624294756374	2.28274063214575
262.7298	0.318682291255822	-0.0119412013620427	0.318905934485436	2.14590054897686
224.2111	0.318416899185392	-0.0113596513779311	0.31861946482641	2.04318354025478
191.2854	0.319138920330171	-0.0107494858428326	0.319319905291531	1.92915176099446
163.1722	0.316536554586998	-0.012078986268417	0.316766936878015	2.18533780697351
139.1537	0.316196267047429	-0.0119566861566508	0.316422252122978	2.16555815797
118.6706	0.311814430909079	-0.0108554091965185	0.312003332084733	1.99387192761684
101.1982	0.312872365861057	-0.0105930411711272	0.313051640852988	1.93914471789933
86.24196	0.313773412903077	-0.0103051129450748	0.31394259028946	1.88106226733354
73.61024	0.313802343792289	-0.0258612863052312	0.314866189196133	4.7112508946975
62.69291	0.267152030935258	-0.0199374762335791	0.267894961862663	4.26805486213452
53.57697	0.299937970950281	-0.0267564908884334	0.301129035834199	5.09767655004553
45.65746	0.324773855605213	-0.0257815983420313	0.32579556181407	4.53880606822359
38.96512	0.301007743889812	-0.00344908562806085	0.301027503848576	0.656492749829717
33.18414	0.3098990164382	-0.0130076125720739	0.310171885209136	2.40350581141445
28.30617	0.30061956683351	0.00516511925932102	0.300663936015163	-0.984335189499008
24.17237	0.293187067913482	-0.0135630882941988	0.293500620366944	2.64866413871061
20.61345	0.309106424154484	-0.0212542223106327	0.309836284866059	3.93347844949905
17.55618	0.307654663919064	-0.0217935617461957	0.308425601344534	4.05193518181117
14.98558	0.303449243067706	-0.0120875907044809	0.30368989605748	2.28111285904978
12.76553	0.301141318819424	-0.00702905623571143	0.301223341611945	1.33712020086373
10.8809	0.302837783280503	-0.0125065384282984	0.303095919612434	2.36484663010358
9.278505	0.297423439377809	-0.00958611016795795	0.297577881905691	1.84603334661262
7.923394	0.301206393719609	-0.00869625569682711	0.301331904186591	1.6537510023979
6.75822	0.299192660432111	0.00101130017580428	0.29919436957351	-0.193664547599697
5.761429	0.301063621224781	-0.0131112908599837	0.301348983693314	2.49364983428017
4.919708	0.296904442411635	-0.0119945345054296	0.297146625055318	2.31341335475028
4.191257	0.295571063193433	-0.0111725826265384	0.29578214956255	2.16474914156328
3.564097	0.290488895617906	-0.000758002282669808	0.290489884582529	0.149507377878319
3.051758	0.30093554110725	0.000968512922915027	0.300937099605208	-0.184396668784559
2.604164	0.292246224855888	-0.0125856987727763	0.292517103356568	2.46594159530765
2.214424	0.299351198136093	0.00714159894305306	0.299436374311769	-1.36664185125784
1.892567	0.290422466953605	-0.0159392084180477	0.290859532552075	3.14140325886076
1.607507	0.315420422968237	-0.000258740345715261	0.315420529090971	0.046999894092342
1.376413	0.278776808638612	0.0112805121032545	0.279004944379201	-2.31717023901295
1.17375	0.303543046435925	-0.0205510980315549	0.304237947452162	3.87324626128593
1.001604	0.276146241068598	-0.00642045481167027	0.276220869407627	1.33189826351891
