EC-Lab ASCII FILE
freq/Hz	Re(Z)/Ohm	-Im(Z)/Ohm	|Z|/Ohm	Phase(Z)/deg
6999984	33.3644791423712	33.113625258045	47.0074530917381	-44.7837964731791
5969734	33.8029362592831	25.9852913712929	42.6365320752069	-37.5505194364398
5091109	32.0817404886631	20.1206004427576	37.8692043085015	-32.0945689393522
4341796	32.0199200189414	16.4798617552322	36.0119580346719	-27.2337611632229
3702781	31.1153148501095	13.2816247469779	33.8314110574918	-23.1152946951989
3157797	28.0345796938569	12.9248290594377	30.8705177285205	-24.7511980622785
2693047	28.5834803342204	11.3690290386812	30.7615046657204	-21.6901022868566
2296687	28.9161374965625	9.86595795874282	30.5529071311354	-18.8392361856242
1958656	29.22327997543	8.7806605847606	30.5139327656586	-16.7238416285335
1670375	29.3851478104537	7.81250753973053	30.405956421408	-14.8885718670602
1424531	29.5992890623961	6.92247222021511	30.398002148808	-13.1633386501418
1214875	29.721300768441	6.27470369461531	30.3764320785597	-11.9211203136745
1036062	29.9000487421902	5.74471722831371	30.4469159492162	-10.8757473573025
883578.1	30.0585359404733	5.31455857543175	30.5247459569514	-10.0266697415422
753531.2	30.1934915713378	4.98582735759464	30.6023758507111	-9.37659182718675
642624.9	30.3298614675027	4.77513431406079	30.7034591594372	-8.94720579635981
548046.8	30.4785190243299	4.60551720056934	30.8245180108494	-8.59278556344779
467390.6	30.6149668646254	4.58173225128863	30.9559116574623	-8.51152295936438
398593.7	30.7674041625981	4.60411454778129	31.109982797709	-8.51073800718505
339937.5	30.9358207822558	4.70257830505685	31.2912008428414	-8.64340638464759
289906.2	31.1298677673642	4.87889269777329	31.5098756133687	-8.90733939297461
247234.4	31.3107347444143	5.16401923163465	31.7337234635296	-9.36537331355809
210843.7	31.5268280080066	5.50883933818669	32.0045027316529	-9.91151095429884
179812.5	31.7478638364719	5.94930503701249	32.3004812441329	-10.6136936505435
153343.8	31.993353341958	6.4918791027344	32.6453542230422	-11.4703457683554
130781.2	32.2751675408939	7.12507264044456	33.0522782864416	-12.4489576824388
111531.3	32.5873099709859	7.88537374245374	33.5277778894351	-13.6027800902733
95109.37	32.96023715455	8.75187219672977	34.1023826181115	-14.8705007782018
81109.37	33.3339174809116	9.75982103909158	34.7333292579234	-16.3194766646199
69171.88	33.7688348641596	10.9263890409774	35.4925370403085	-17.9297287112115
59000	34.2604393579317	12.2613330629657	36.3884321382427	-19.6915796608167
50312.5	34.7986947730353	13.8009484763409	37.4354823229712	-21.6329726651041
42906.25	35.4120650726481	15.543431517307	38.6731511005074	-23.6981302827178
36593.75	36.0796820679317	17.5297164672362	40.1127712523671	-25.9133168989864
31203.13	36.839091338884	19.8062559800585	41.8259061661818	-28.2643575380585
26609.38	37.6978444141792	22.4123497575214	43.8570506889044	-30.7325852349688
22703.13	38.6975536722715	25.337026009003	46.2543570617864	-33.2145696485401
19359.37	39.7728972611999	28.7208132567305	49.0588266337257	-35.8338118315129
16500	40.9798699417718	32.5993386439978	52.3647459696939	-38.5021221200608
14112.02	42.3266985207298	36.9154642130855	56.1631632454258	-41.0934899063005
12011.13	43.8743190126443	41.9941884253086	60.7327566501275	-43.7456828920713
10236.38	45.6483214536784	47.7350814504128	66.0485219563308	-46.2801273213648
8750.684	47.6081998708683	54.15593942811	72.1069100037275	-48.6814679252715
7449.463	49.8800952966623	61.6784763740426	79.3237565589745	-51.0371323337503
6363.206	52.4677958249387	70.0511733983948	87.5216344295479	-53.1670685596814
5414.761	55.4780161380943	79.8164350087189	97.2032590612048	-55.197991949036
4620.567	58.9243261357735	90.7150136869026	108.172500751207	-56.9940885860562
3941.215	62.8325406350309	103.228029151468	120.846821080032	-58.6720814327661
3361.769	67.3817767654779	117.399127588411	135.361955506681	-60.1461299522991
2867.244	72.6926731487933	133.517656723461	152.023647458023	-61.4342536673123
2442.658	78.7799304918726	152.011614371676	171.212757562593	-62.6045772596465
2083.003	85.8437338803923	172.78077282485	192.930925733745	-63.5801524974157
1777.843	93.9262823495294	196.192795477995	217.517262564316	-64.4174730192199
1513.548	103.675785921385	223.074979275966	245.990070867484	-65.0729940326291
1292.065	114.515963079829	252.930941737377	277.64719895626	-65.6410816865013
1101.762	127.194266401981	286.917358388478	313.847019979735	-66.0916556965922
939.101	141.559044742241	325.048755670522	354.535832760654	-66.4668284608438
801.2801	158.258414559498	368.091237903014	400.670544462479	-66.7350300047446
684.3433	177.495368696886	416.394805285102	452.646926176751	-66.9130479916917
582.9476	200.074367184173	471.434014199801	512.13258258842	-67.00386180222
497.0677	226.270346891343	533.051234226547	579.08711623794	-66.9996792103155
423.5089	255.969732318969	602.364251210629	654.494610367409	-66.9773338563054
361.5036	290.214888790602	679.291695454185	738.689304910233	-66.8662946356091
308.1262	329.494522765037	765.953369661077	833.817249178331	-66.72380003196
262.7298	374.454215766268	862.763803158245	940.51971789283	-66.5383335936762
224.2111	426.33447318028	970.04580810338	1059.59895849366	-66.2745438247979
191.2854	485.142848560048	1089.95283453921	1193.04684108757	-66.0059412104406
163.1722	552.625971778092	1223.88413186492	1342.86553046626	-65.6991796069276
139.1537	630.245022714755	1372.12271871469	1509.94355651783	-65.3296791248477
118.6706	718.671955072013	1537.02150611246	1696.73936986776	-64.9404115988358
101.1982	819.562199860539	1719.31248451136	1904.65682442714	-64.5137872245814
86.24196	935.955962659074	1925.25588077582	2140.70637185462	-64.0734691590234
73.61024	1065.30261393056	2148.04203183002	2397.69769357101	-63.6212908671061
62.69291	1214.18531679486	2397.02111333225	2686.9976183988	-63.1359956146303
53.57697	1376.37502109585	2665.54985154677	2999.92736741702	-62.6901198584595
45.65746	1565.18687224997	2965.48624213293	3353.19528171911	-62.1748589132984
38.96512	1775.92709402959	3292.65072663178	3741.05143654791	-61.6593114892396
33.18414	2015.00923040091	3655.25104741359	4173.86181110719	-61.1336227122071
28.30617	2280.71736168889	4049.30140187877	4647.42009368279	-60.6101684705756
24.17237	2574.96537361166	4476.08683233807	5163.89388019635	-60.0894071305812
20.61345	2906.83282839452	4946.55795553051	5737.430844869	-59.5594784658647
17.55618	3281.04731409433	5464.19002055341	6373.5895740188	-59.0167155465373
14.98558	3691.03071371111	6017.92346933443	7059.68204753762	-58.4775622613192
12.76553	4148.6277593681	6633.89208924091	7824.29783031633	-57.9794327542324
10.8809	4650.33299677499	7299.32996913544	8654.81455487135	-57.4991795303538
9.278505	5215.59068761937	8029.8958691505	9575.05163903476	-56.995406388985
7.923394	5802.82719804479	8791.55583190433	10533.957349252	-56.5733714066696
6.75822	6461.7905686197	9652.90760009654	11616.082062757	-56.2010978088613
5.761429	7199.92627352866	10601.0949676675	12814.9191514326	-55.8169009593363
4.919708	8005.65304856869	11600.8408818592	14095.0342284179	-55.390734951318
4.191257	8806.1946727346	12733.3438691072	15481.8316326922	-55.3328318365421
3.564097	9777.46665179812	13990.5145410487	17068.4900108451	-55.0516871760493
3.051758	10726.2431626562	15293.9828906258	18680.4230424041	-54.9565819116356
2.604164	11843.1343431419	16790.2341145382	20546.8195273796	-54.8024448055895
2.214424	13003.8679628962	18467.0897859418	22586.1459120071	-54.848155378485
1.892567	14288.2901874465	20223.0290182475	24761.3840314624	-54.757433241204
1.607507	15714.0906770642	22306.4605384957	27285.7257107532	-54.8366962225824
1.376413	17144.3563850739	24449.3603552088	29861.3492266723	-54.9611311965289
1.17375	18809.7805406138	26892.1882626103	32817.6421081364	-55.0290782614535
1.001604	20567.4861422382	29641.4075785075	36078.1724793034	-55.244115051544
