EC-Lab ASCII FILE
freq/Hz	Re(Z)/Ohm	-Im(Z)/Ohm	|Z|/Ohm	Phase(Z)/deg
6999984	18.0230749540743	-1.77518490563852	18.1102874700924	5.62521082413618
5969734	14.3321391583262	-5.16187430730234	15.2333567941545	19.8070306565356
5091109	11.2486428947877	-4.73437647257845	12.2043552700896	22.825458264954
4341796	9.69394612168227	-4.83545958923218	10.8330171627842	26.5105852933647
3702781	5.91169807595639	-5.56325658955526	8.11775818945702	43.2607256846947
3157797	4.37240454935408	-4.92294332790224	6.5843217230744	48.3895172807626
2693047	3.14130143181715	-4.09616783429461	5.16201177955323	52.5158390001578
2296687	2.36464386286528	-3.91312644484348	4.572100083279	58.8560581807826
1958656	1.85018930814844	-3.26624817500396	3.75387501346322	60.4703094727842
1670375	1.45820626671525	-2.68953214341163	3.05940331874239	61.5344066899011
1424531	1.14494215560958	-2.41894367961594	2.67622515212114	64.6707203646677
1214875	0.742149217731187	-2.16393198912658	2.2876597463225	71.0699140911454
1036062	0.811987799375936	-1.83025104782293	2.0022844664014	66.0756128783285
883578.1	0.700507706097146	-1.55249013631346	1.70321363006878	65.7143629884985
753531.2	0.631130239053994	-1.3642794911315	1.50319124151599	65.1742356750287
642624.9	0.5950614060584	-1.17030752360208	1.31290432887542	63.0482184804163
548046.8	0.531147402923981	-1.02410284125524	1.15364821028767	62.5866436806589
467390.6	0.485261817107878	-0.883505027136929	1.00799809727949	61.2223738746729
398593.7	0.452944555722849	-0.764681705622113	0.888761431134426	59.3604329278363
339937.5	0.425414609122419	-0.665473506038664	0.789830726734642	57.4106002552265
289906.2	0.403771204019326	-0.577052958689077	0.7042877979399	55.0190343113048
247234.4	0.384917194038273	-0.500452928777901	0.631359153088539	52.4347597425688
210843.7	0.37064250696373	-0.432434150837219	0.569539430398516	49.3998767862742
179812.5	0.359040314382483	-0.372497174060516	0.517362631077026	46.0538548289118
153343.8	0.351082523095033	-0.323759800875981	0.477576534898889	42.6814997312851
130781.2	0.34356862808927	-0.281261142120564	0.444012648777158	39.3053401938988
111531.3	0.336774403941283	-0.245294471876453	0.416636984775901	36.0682604317025
95109.37	0.329472922872168	-0.21382623580846	0.392777374635994	32.9833639894709
81109.37	0.323847499389119	-0.18707325301542	0.373996797919924	30.01324245276
69171.88	0.31625813629626	-0.161602350074929	0.355154231740696	27.0662340335046
59000	0.306598017408474	-0.137242660003231	0.335913518637714	24.1147508138692
50312.5	0.299469551222395	-0.107736590845417	0.318259619047619	19.7866047111392
42906.25	0.329451876042717	-0.107186719918927	0.346449897611537	18.0222270176574
36593.75	0.313852822611942	-0.097830136598022	0.328746604375271	17.3126245179658
31203.13	0.309152507727708	-0.0859830175519333	0.320886821701464	15.5425745423123
26609.38	0.303459998662573	-0.0741423509162985	0.31238607361354	13.7297188897845
22703.13	0.303633906976795	-0.0661292376809147	0.310751710441394	12.2867304123255
19359.37	0.300960000317235	-0.059336740522027	0.306753599109658	11.1532881132638
16500	0.298804667124366	-0.0528861532777511	0.303448800135741	10.0369715226986
14112.02	0.298008189299904	-0.0475230148805826	0.301773620174375	9.06059987359415
12011.13	0.295312303601427	-0.0425925332318258	0.298368028691892	8.20710475323343
10236.38	0.29356641499108	-0.0389974268431609	0.296145301011349	7.56688171295424
8750.684	0.290284899684142	-0.0350782277713566	0.292396657040076	6.89025293437245
7449.463	0.293865745736645	-0.0345238652343387	0.295886758385828	6.70049504220307
6363.206	0.289390711993682	-0.0289469154114707	0.290834846777427	5.7121308134887
5414.761	0.288766303908826	-0.0249402251541924	0.289841324010063	4.9362835064819
4620.567	0.290576499850475	-0.0251499190298295	0.291662854495666	4.94672508934036
3941.215	0.287635472491731	-0.0227621901015962	0.288534715994042	4.52470328505424
3361.769	0.287813032815177	-0.0216330287606392	0.288624894615189	4.29846746190006
2867.244	0.285999422509318	-0.0214449846078007	0.286802296086507	4.28816281595463
2442.658	0.284861756617693	-0.0203280925269888	0.285586154652328	4.08177940744395
2083.003	0.283348318329441	-0.0197256893193868	0.284034104148159	3.98230075617995
1777.843	0.281264121915298	-0.0188221973215924	0.281893209192411	3.82852575946038
1513.548	0.279769830460104	-0.0172338912173992	0.280300133860418	3.5249801680514
1292.065	0.278302317102537	-0.0159807001368075	0.278760762090908	3.28643434666884
1101.762	0.277691288284702	-0.0148161081997123	0.278086261169809	3.05409766891211
939.101	0.277709809219894	-0.0143180319103524	0.278078665443316	2.95141561061554
801.2801	0.276462856393087	-0.0141609351240214	0.2768252933686	2.93223241067676
684.3433	0.276419283137652	-0.0143468798369974	0.276791352920192	2.97113395313496
582.9476	0.27469354062199	-0.0138007317153021	0.275039999736988	2.87614843690038
497.0677	0.273591355699885	-0.0132570306519476	0.273912356010837	2.77413100964616
423.5089	0.272556770182158	-0.0131703183964779	0.272874788609711	2.76645910476935
361.5036	0.270943875231942	-0.013639610192093	0.271286974423569	2.88189921429011
308.1262	0.270301935091934	-0.0128377965482635	0.270606624336247	2.71917862751516
262.7298	0.269509827653541	-0.011956574741613	0.269774918925747	2.54021296837487
224.2111	0.268627790172314	-0.0121945317313465	0.268904437034809	2.59919438972122
191.2854	0.266616882848419	-0.0114604586754441	0.266863081622129	2.46132928505684
163.1722	0.265859976541679	-0.0115713433895361	0.266111674141855	2.49218019753566
139.1537	0.264704648472349	-0.0115906097504296	0.26495828569278	2.50720601571297
118.6706	0.262670698454894	-0.0116055970510764	0.262926958887243	2.52985790214347
101.1982	0.26147798315196	-0.0124403876130633	0.261773755210831	2.72391813439648
86.24196	0.26260610027478	-0.0084230519871971	0.262741149625077	1.83712385289834
73.61024	0.256862455346391	-0.0225273291561799	0.25784840803365	5.01212535686557
62.69291	0.212421100616924	-0.0108325833724626	0.212697129387838	2.91931507718554
53.57697	0.249786714474943	-0.000700434756806807	0.249787696528543	0.160664470431342
45.65746	0.24976440692849	-0.0250772101712656	0.251020169385478	5.73347979389307
38.96512	0.254632982190079	-0.000563037983478774	0.254633604676963	0.126690766081722
33.18414	0.254165509273592	-0.015417975300872	0.25463271601796	3.47137480969676
28.30617	0.263419308987252	-0.00116861501030259	0.263421901155472	0.254181323949667
24.17237	0.248519715527007	-0.00196535376760261	0.248527486650987	0.453099378868698
20.61345	0.246029730545766	-0.0166215038105559	0.246590556796781	3.86496816706188
17.55618	0.242865993765279	-0.0140153210722376	0.243270056012561	3.30276421678786
14.98558	0.250451839336506	-0.00965952840690054	0.250638046425683	2.20871219318366
12.76553	0.247791135725212	-0.00906439148627632	0.247956871526092	2.09498981113271
10.8809	0.248265750942474	-0.00841781139733114	0.248408419019468	1.94195278405327
9.278505	0.248180227393971	-0.0131222266129625	0.248526896131194	3.02662606150897
7.923394	0.245993091062618	-0.014208456053144	0.246403086575546	3.30570692802366
6.75822	0.248497921003557	-0.0102888141937887	0.248710828957254	2.37092170160536
5.761429	0.24148489070291	-0.00553743639267607	0.241548371221168	1.31360658590936
4.919708	0.246109038899379	-0.0121818718775421	0.246410342782962	2.83370601526827
4.191257	0.244275617058995	0.00138017094546031	0.244279516049527	-0.323720925065797
3.564097	0.240528879903723	-0.0120115601052962	0.240828610517735	2.85886860275703
3.051758	0.247449688119202	-0.000776710499272747	0.247450907109855	0.179842972116197
2.604164	0.241026081599896	0.00275720314631702	0.241041851512533	-0.655402984103378
2.214424	0.239281447213439	-0.0051235186172277	0.239336293577841	1.22663560331306
1.892567	0.248179026049542	-0.0124187326933957	0.248489544835611	2.86465776831903
1.607507	0.249697494735326	-0.00408865495113524	0.249730967195516	0.938102079094312
1.376413	0.240585844922942	0.000621636231767789	0.240586648027048	-0.148043012345524
1.17375	0.243837986067307	0.00523010739885048	0.243894070187784	-1.22875497419725
1.001604	0.230979575939451	-0.00347859593987606	0.231005768609534	0.862820008476482
