EC-Lab ASCII FILE
freq/Hz	Re(Z)/Ohm	-Im(Z)/Ohm	|Z|/Ohm	Phase(Z)/deg
6999984	28.5873741713553	84.3739128868933	89.0853250421086	-71.282710616257
5969734	26.3173496077085	87.7389929103262	91.6009485065118	-73.3033608723448
5091109	28.5244276320051	89.3519890758351	93.7945676654126	-72.2950124486941
4341796	31.3329917446178	96.7611585678211	101.707807856896	-72.0571203721558
3702781	38.0685174806535	106.248771662752	112.862808325056	-70.2875975176737
3157797	42.5377879902555	115.321421805946	122.916612931079	-69.7528560074781
2693047	50.0618950700131	128.177028277264	137.606482100196	-68.665955070115
2296687	63.8824694223167	143.40583380357	156.991092321795	-65.9886378850277
1958656	78.5861906376033	157.297130440371	175.835652254327	-63.4531277542352
1670375	96.5882113397984	172.29177811302	197.518959533427	-60.7246454380427
1424531	119.075599401153	186.261853634246	221.07120231276	-57.4095689311953
1214875	144.489585146775	198.271941130545	245.334471396829	-53.9175114910099
1036062	173.433726961972	207.439140354948	270.389080029353	-50.1020021867393
883578.1	204.488895985164	212.903981993179	295.20131119252	-46.1549876093303
753531.2	236.629564192317	213.966643752531	319.022374275799	-42.1207115597229
642624.9	270.115000484387	208.627055426774	341.302449072265	-37.6811996503532
548046.8	298.153459013455	204.471865387577	361.530398247178	-34.4420973471401
467390.6	325.096491227638	188.704060603524	375.894867079587	-30.133259922106
398593.7	351.914769616163	184.022987778918	397.125251155195	-27.605931628628
339937.5	364.667468542743	167.352624280963	401.234673809602	-24.6512627636518
289906.2	381.623287735558	147.614505830189	409.177682765798	-21.1468122463577
247234.4	402.498793923753	132.835733391666	423.852110028696	-18.264318874834
210843.7	411.297739267444	117.341155354254	427.708752618392	-15.9231789464618
179812.5	421.477097881884	104.528232381376	434.245432219742	-13.9285868108965
153343.8	427.629896373881	93.323602087736	437.69466866683	-12.3108977721241
130781.2	432.896768905339	83.3393932372689	440.8458540055	-10.8970155506577
111531.3	436.916035125245	74.8039290184233	443.273335027224	-9.71535312355785
95109.37	440.20964673643	66.8824290131476	445.261487656985	-8.63905763498255
81109.37	444.431221223486	59.2766153150023	448.366844806127	-7.59706512960174
69171.88	445.74025458385	56.3006671920407	449.281804308548	-7.19880789578425
59000	444.958130904858	53.5711401896101	448.171401719878	-6.86513446463391
50312.5	449.360266558527	51.9718411714228	452.355746549436	-6.59736836865747
42906.25	450.080592777333	46.6161469791571	452.488237586324	-5.91320519506971
36593.75	452.34513981262	46.5151807794741	454.730455935212	-5.87115582248506
31203.13	452.799646778113	47.2621381014682	455.259519197904	-5.95881836514007
26609.38	453.49731515755	48.7563979777793	456.110733483519	-6.13641236331882
22703.13	456.107271737177	52.2550000812867	459.090871576669	-6.5357295690573
19359.37	457.966721434619	50.4808506225139	460.740528086195	-6.29021715384374
16500	459.424304598523	55.2438758133895	462.73380843712	-6.85666041884393
14112.02	461.204809945369	61.1553639614047	465.241717022448	-7.55330834278759
12011.13	463.546420379216	67.4715701160737	468.431101252161	-8.28153770039887
10236.38	465.843666495608	75.8428528118673	471.977181584782	-9.24705179928563
8750.684	468.45633711143	84.2189669495599	475.966568336379	-10.1917503414753
7449.463	471.82437363136	95.0968902632845	481.312432927275	-11.3953799704405
6363.206	475.194312179143	107.598338330827	487.223805595503	-12.7583548918095
5414.761	478.963311785059	121.345196737167	494.095649451898	-14.2167330156457
4620.567	485.38984973212	136.89233646362	504.324119991736	-15.7498076472331
3941.215	488.786325546636	155.979293578256	513.070767113616	-17.6986892099029
3361.769	494.13517333898	177.131320196357	524.923874600163	-19.7210984464219
2867.244	500.437279724258	201.28198498683	539.399581403299	-21.9105936351568
2442.658	507.827366638199	229.154690463438	557.135985615794	-24.287050682021
2083.003	516.235579602886	260.567522139777	578.268628962346	-26.7821500995228
1777.843	525.132890559231	297.023385576564	603.313719657076	-29.4931801212756
1513.548	536.361341212796	339.152583776934	634.592754000673	-32.3060304728011
1292.065	548.014731159967	386.153776917221	670.399049071347	-35.1701032512113
1101.762	561.841206877152	440.861182081681	714.159732561023	-38.1202915862297
939.101	576.901725829018	504.797159279725	766.574049444266	-41.1863835536251
801.2801	594.559638953182	576.482277262293	828.150336756351	-44.1155959037637
684.3433	615.564752754549	659.137307902466	901.876907068076	-46.9577530465101
582.9476	637.958025744127	753.848884277545	987.561938785534	-49.7598375210651
497.0677	666.167299820699	862.726308187056	1089.9887862673	-52.3259264093837
423.5089	697.008553758028	988.707791588933	1209.69583828354	-54.8173417082629
361.5036	733.797818785805	1130.81689309683	1348.03786466404	-57.0200779516433
308.1262	777.338549474918	1294.97469680545	1510.36905618002	-59.0247369556691
262.7298	828.318532184822	1482.42109117019	1698.14130222047	-60.8052605998176
224.2111	886.754813028567	1694.6802704597	1912.66184086855	-62.3788318883649
191.2854	955.795369808548	1937.10930395414	2160.07806442571	-63.7376585952972
163.1722	1042.77224031312	2207.49832676536	2441.39771603062	-64.7150100022314
139.1537	1136.68544916532	2532.37740945817	2775.7862227265	-65.8265481247851
118.6706	1242.95980937703	2883.40069208856	3139.8962783607	-66.6803698310891
101.1982	1379.6469468383	3297.53542066442	3574.51612787755	-67.2961848692957
86.24196	1528.41483753504	3760.95048030706	4059.65521084232	-67.8836384966433
73.61024	1707.03837425919	4277.98944817058	4605.99324031769	-68.2466072598587
62.69291	1911.86142011113	4866.27450263915	5228.36892584535	-68.5511343279707
53.57697	2143.33282403973	5523.7688622271	5925.02304112953	-68.7927506301774
45.65746	2415.32278867687	6277.78761817141	6726.39588132962	-68.9562154891283
38.96512	2726.63367985683	7112.76991389913	7617.4816752125	-69.0260017485752
33.18414	3095.62599804731	8075.55064980247	8648.55008757604	-69.0265174105908
28.30617	3509.55266950329	9136.76563316218	9787.6169814389	-68.9875562805219
24.17237	3969.30944613207	10352.867543096	11087.7086832241	-69.02307966382
20.61345	4506.32062103691	11702.3735313284	12540.0347609693	-68.9394278257309
17.55618	5113.71701863186	13227.4195569236	14181.4925124802	-68.8635109178761
14.98558	5805.14588416392	14944.8563409807	16032.7305780698	-68.7719522622142
12.76553	6603.59779916137	16877.6711633193	18123.5561573944	-68.6314630108481
10.8809	7490.98682580581	19075.6050771161	20493.7452087824	-68.5600724695748
9.278505	8499.25013965541	21528.5734550246	23145.5552524631	-68.4564244044356
7.923394	9647.25044942346	24315.4208668228	26159.3029946255	-68.3590788750429
6.75822	10899.8259582416	27369.1877529827	29459.7801108219	-68.2849954321325
5.761429	12355.5585131373	30903.3286268046	33281.7599652999	-68.2078180171284
4.919708	14059.0004286603	34803.0695972168	37535.4385406883	-68.0033293800462
4.191257	15871.1304758242	39198.8987004315	42290.0276886564	-67.9576073479947
3.564097	18008.3600155701	44371.1908252018	47886.3613745799	-67.9098799636603
3.051758	20310.8516633514	49787.2668681429	53770.8344503816	-67.8068621520958
2.604164	23011.4553637791	56145.6395306129	60678.3315217279	-67.7135846230485
2.214424	26083.8956753711	63269.9838375098	68435.8127620502	-67.5954407256925
1.892567	29591.1559662889	71332.3651477582	77226.5681549707	-67.4696191938818
1.607507	33601.9320828696	80649.3603234086	87369.3834262139	-67.3813263976522
1.376413	38018.7196202467	90444.6671029989	98110.4522919715	-67.2003863259498
1.17375	43201.0368266686	101878.467479211	110659.620995247	-67.0208786487353
1.001604	48766.3771467751	114453.803251158	124409.937781016	-66.9221580206343
