EC-Lab ASCII FILE
freq/Hz	Re(Z)/Ohm	-Im(Z)/Ohm	|Z|/Ohm	Phase(Z)/deg
6999984	-9.65152661110653	31.0700078327428	32.5345562848427	-107.256782516018
5969734	-11.2168889897225	33.8715781648712	35.6805606176071	-108.322770493859
5091109	-12.3775064301684	37.2475640008678	39.2502699280859	-108.381842442537
4341796	-12.3351056486699	42.7196751751257	44.4648791568368	-106.105824897159
3702781	-11.407019963752	49.7308852531366	51.0223583589986	-102.918747161744
3157797	-10.3761864223832	57.9479697887899	58.8696224492272	-100.151819377498
2693047	-10.6676581152426	66.9274918401244	67.7723254261916	-99.0562667774285
2296687	-10.8202399147558	77.6017856052387	78.3525029653444	-97.9377385697741
1958656	-10.2989864033011	89.7551685576903	90.3441165973456	-96.5457949022833
1670375	-10.0401836802208	105.075718269342	105.554307624799	-95.4581491197864
1424531	-9.4618902786461	122.383946752747	122.74916614961	-94.4209236232611
1214875	-8.67372192842517	142.741369985497	143.004657817248	-93.4773194304601
1036062	-8.16736459824227	166.147843779789	166.348465088061	-92.8142353741552
883578.1	-7.2133736981379	194.002844694725	194.136901463258	-92.1293789216354
753531.2	-6.30812942034825	226.594374203277	226.682162768399	-91.5946374114398
642624.9	-5.20564670224563	264.511699955625	264.562919115668	-91.1274476252901
548046.8	-3.81778641924706	308.949831774554	308.97341964426	-90.7079852234748
467390.6	-0.870462834173009	360.936608137642	360.937657774098	-90.1381786962172
398593.7	-0.0748587160838902	421.328107705303	421.328114355497	-90.010179924785
339937.5	4.87804354490842	492.40087425119	492.425036195524	-89.4324092841751
289906.2	-99.7655068710425	502.250283531443	512.062987989418	-101.234824201854
247234.4	-106.835928301811	604.205024203047	613.577726818953	-100.027430240175
210843.7	-112.133132710416	724.03569768256	732.667408153333	-98.8035923897758
179812.5	-111.257085598056	861.933781779193	869.084566235044	-97.3549831963465
153343.8	-110.02580489179	1023.1884895285	1029.08715026751	-96.1375624732526
130781.2	-108.365325740264	1208.94073341013	1213.78776592986	-95.1221093729422
111531.3	-84.8403783098229	1473.63560281151	1476.07580417315	-93.2950042600495
95109.37	-92.6498154513525	1684.66403529796	1687.20979730725	-93.1478686982599
81109.37	-87.7462973404823	1963.69069769671	1965.65016442844	-92.5585243101883
69171.88	-64.4870753264332	2310.12927222143	2311.02917274068	-91.5989918906828
59000	-45.0808698833652	2695.86445485065	2696.24135487842	-90.9580240052699
50312.5	-69.5210424946057	3138.74752830671	3139.51735491318	-91.2688536091284
42906.25	-7.27521642916466	3723.86085556569	3723.86796226565	-90.1119372292002
36593.75	20.8687896311596	4309.6278717791	4309.67839862743	-89.7225551116293
31203.13	-764.390089978791	4747.29490972119	4808.44061723991	-99.1470232921772
26609.38	-727.126132817162	5647.88971218529	5694.50354412341	-97.3360755891072
22703.13	-665.329420904581	6708.50941308669	6741.4213474455	-95.6638982640179
19359.37	-623.287662097709	7856.75157286025	7881.43595973254	-94.5358589569643
16500	-515.656257341244	9195.2827196312	9209.72994553495	-93.2096908443545
14112.02	-482.667421683677	10926.4124579327	10937.0680276216	-92.5293607584162
12011.13	-442.463016909273	12589.2372099474	12597.0102425003	-92.0128966018853
10236.38	-259.732766640323	14928.5188519258	14930.7781519374	-90.9967559522208
8750.684	-191.884161608711	17210.676828144	17211.7464661285	-90.638771921823
7449.463	-101.205555918264	20311.3297233072	20311.5818609347	-90.2854861453453
6363.206	-23.8401774495288	23357.2989392059	23357.3111057221	-90.0584802669145
5414.761	7.78775611224198	27584.1898328358	27584.190932182	-89.983823866209
4620.567	331.41476924952	33119.4168276299	33121.0749637081	-89.4266797062238
3941.215	234.008756033101	38403.628717288	38404.3416654056	-89.6508780914585
3361.769	-6612.65161354564	41145.3793344101	41673.3656180375	-99.1301783330004
2867.244	-6547.69501671082	48704.9628586335	49143.1146458253	-97.6567027712624
2442.658	-6395.78331316521	57990.2690545655	58341.9004593599	-96.2937507682052
2083.003	-5842.37592550427	68324.5519991887	68573.8854254646	-94.8874258600566
1777.843	-5231.94579293938	80029.0624420834	80199.9008237487	-93.7404216499842
1513.548	-4671.68344188129	93958.7392804153	94074.8070066912	-92.8464356022416
1292.065	-4541.89121479952	110312.597492311	110406.059350507	-92.357702602995
1101.762	-4587.92610686067	128947.947231775	129029.539878474	-92.0377056744144
939.101	-1655.13739666195	152069.252008823	152078.259085001	-90.623588540252
801.2801	663.785214722131	177799.096436059	177800.335501062	-89.7860961311093
684.3433	-1825.47740165526	208366.487055377	208374.483311999	-90.5019496003458
582.9476	-5014.27591172463	240762.091730019	240814.301438127	-91.1931085886121
497.0677	-18441.4027048641	268216.304376547	268849.532763469	-93.9332219480457
423.5089	-51462.5500409004	271364.947461288	276201.608915263	-100.738241680815
361.5036	-61027.1315541222	362141.813958116	367247.878418104	-99.5654543699612
308.1262	-37151.0652730768	407424.528061444	409114.834388848	-95.2101156902743
262.7298	-47527.8476805533	464894.46197641	467317.619057405	-95.8372752928245
224.2111	-78076.1403596135	572498.66743462	577798.068452872	-97.7659658227939
191.2854	-49987.1595487124	678254.800204464	680094.324428712	-94.2150598874706
163.1722	4410.01032224437	802201.881441731	802214.003106213	-89.6850263760482
139.1537	-232910.187873399	803699.626027194	836767.73628736	-106.161459099066
118.6706	13822.4851213657	824834.201389526	824950.011138146	-89.0399331945105
101.1982	191752.626573789	940129.039645452	959485.112434074	-78.4718412548814
86.24196	385935.106127843	534604.815083204	659354.392153458	-54.1742080423844
73.61024	391999.36349852	189853.225191691	435554.529420751	-25.8418461436218
62.69291	42559.1139530639	43405.517827585	60789.1203946124	-45.5641134239457
53.57697	85926.9399065994	85677.2276268997	121342.599014295	-44.9166252788243
45.65746	520276.783727246	-48659.3969560521	522547.288384213	5.34310130271643
38.96512	423005.415411069	-179764.193441513	459618.044370289	23.0239881409669
33.18414	546767.813410479	432978.967386063	697442.347424056	-38.3752864529527
28.30617	573895.509434587	502468.516408492	762778.254626425	-41.2034462367641
24.17237	104609.144522616	582239.201185858	591561.966758597	-79.814510551991
20.61345	1220468.8994362	269398.583344471	1249847.96323354	-12.4475080992171
17.55618	549048.153678583	771834.348833583	947196.989594679	-54.5736684875717
14.98558	1597296.66969303	-521101.840092072	1680149.92746475	18.0683902272111
12.76553	2049196.34246188	-136523.64868105	2053739.11600484	3.81158511633174
10.8809	1921203.0844503	797157.264056667	2080019.46994245	-22.5348368825298
9.278505	487987.83864363	5595328.17756548	5616567.41660975	-85.0156495288501
7.923394	888925.784316015	2109783.52023039	2289405.06513321	-67.1526016458359
6.75822	783130.10058892	-1016506.47234172	1283190.61824852	52.3888658231788
5.761429	932348.248131156	38442.1739641559	933140.427016387	-2.36105708724659
4.919708	46694.0397354887	2518495.38649194	2518928.2135718	-88.9378321154181
4.191257	1311705.96738818	-467649.805812674	1392576.34826906	19.6221830126705
3.564097	2782560.70738553	-18534.8052553747	2782622.43743051	0.38164501009702
3.051758	891353.608144918	-1412980.33311498	1670636.00958518	57.7549478901002
2.604164	12193117.6787817	-2961333.46220313	12547574.0525004	13.6510747028248
2.214424	7672186.68088283	-5748084.76841966	9586601.42966494	36.840945584638
1.892567	1369339.82587734	2389598.87957327	2754137.6806528	-60.1854921528246
1.607507	3074582.62336808	777989.486269654	3171486.39421062	-14.2000083776058
1.376413	-2827894.18120712	-1350376.83627329	3133768.19500878	154.474578187426
1.17375	-4423053.7875002	11994696.9297066	12784215.2376528	-110.241491558193
1.001604	4802099.83981424	9617234.28424513	10749481.7619085	-63.4660193046257
