EC-Lab ASCII FILE
freq/Hz	Re(Z)/Ohm	-Im(Z)/Ohm	|Z|/Ohm	Phase(Z)/deg
6999984	43.0349581660517	67.9794166948932	80.456253445781	-57.6637903048949
5969734	43.985920522838	64.7894629070142	78.3098697995392	-55.8272027404928
5091109	46.8262975845224	62.5102361797708	78.1039805178006	-53.1631896354084
4341796	52.2972759580932	61.3287611021315	80.5991439840354	-49.5445600887006
3702781	59.3564148486281	59.5722630963246	84.0954131573188	-45.10398820741
3157797	64.8531206474811	57.3625659378948	86.5817026206811	-41.4927498162595
2693047	70.6446449250108	55.7353876685903	89.9838835300461	-38.2718217343079
2296687	77.6788842475764	53.2641097081156	94.186381398515	-34.4382814482246
1958656	83.8465329659941	49.310727513653	97.2717273329885	-30.4600807780266
1670375	89.051214703245	45.9248865300832	100.195878372937	-27.2807551615795
1424531	93.7958243395537	41.8620834773245	102.713634424057	-24.0517197268269
1214875	97.4834669637098	37.8971421887203	104.590724815047	-21.2438197306513
1036062	100.528434582459	34.0402903437732	106.13532647657	-18.7067969912797
883578.1	103.112156390146	30.6841003573373	107.580810603774	-16.5719447874664
753531.2	105.141895847859	27.4802990909121	108.673755344186	-14.6473910127778
642624.9	106.818992822445	24.6739453500133	109.63165969161	-13.0065372903483
548046.8	108.138068670631	22.1437407255784	110.382005549526	-11.5726359235201
467390.6	109.272653724616	20.1229015088483	111.110053627719	-10.4342948353101
398593.7	110.218170315408	18.3992989091905	111.743363418263	-9.47729488925895
339937.5	110.9990127525	17.0370350175561	112.298893112172	-8.72612430153063
289906.2	111.646866083489	15.891049684419	112.772107217774	-8.10067784278787
247234.4	112.282916255331	15.1835494908576	113.304869524407	-7.70115437224315
210843.7	112.279209333908	14.556747712067	113.218901922781	-7.38706463853039
179812.5	113.358540922528	14.3825237910945	114.267299743566	-7.23084769568797
153343.8	113.866503058034	14.4601274201616	114.780990602419	-7.2373622258186
130781.2	114.416902769626	14.7774153122244	115.367238168832	-7.35924753757678
111531.3	114.95684537394	15.3712774776733	115.979965811443	-7.61604149177647
95109.37	115.335569540053	16.3086772631379	116.482902415769	-8.04837825524833
81109.37	116.153218806411	17.1224447051487	117.408467973017	-8.38572434586546
69171.88	116.814544622701	18.7797408510457	118.314481369955	-9.13303319805459
59000	117.560866087094	20.5429030073399	119.342230996059	-9.91194067264519
50312.5	118.417141046899	22.6867667771994	120.570762129648	-10.8455066448755
42906.25	119.361198746361	25.068918248616	121.965349293659	-11.8611889283039
36593.75	120.350889520331	28.0312910346583	123.572205149074	-13.111182302051
31203.13	121.613492858048	31.3811599295274	125.597049502196	-14.46898341453
26609.38	122.879732213231	35.3315253322846	127.858301533773	-16.0414947311563
22703.13	124.298333842026	39.7887664105702	130.511385435825	-17.7502324931529
19359.37	125.946077278945	44.9619064280563	133.731026361122	-19.6462243217542
16500	127.831955077168	50.8900088727245	137.589250095773	-21.7075431221404
14112.02	129.89005553779	57.5639043415716	142.074028628232	-23.901679269016
12011.13	132.307416071374	65.3982353576696	147.587877332052	-26.3027276644471
10236.38	134.947791029466	74.3092800087047	154.054455953551	-28.8394696544991
8750.684	137.858200887525	84.1568420579892	161.515502714503	-31.4023728974767
7449.463	141.294239409603	95.8126188002769	170.716490157528	-34.141472121613
6363.206	145.201698914914	108.79252345769	181.436894065317	-36.8424238157494
5414.761	149.73135903277	124.156947768226	194.510738924416	-39.6654556272944
4620.567	154.475924642347	141.059273117421	209.190176218969	-42.4006816567356
3941.215	160.327029530338	160.76375713133	227.045682638986	-45.0779300868875
3361.769	166.936404135378	182.820039686426	247.570050564677	-47.6002106221903
2867.244	174.28513934874	208.234682010266	271.545562640464	-50.0718474179816
2442.658	182.534421194104	237.374210642078	299.441698496746	-52.4406783965925
2083.003	192.699223647963	270.430059302458	332.062355241992	-54.527625599155
1777.843	203.896532404105	307.629831540887	369.066266651793	-56.463649988902
1513.548	216.886172312441	350.958259380415	412.566735895749	-58.2846473716986
1292.065	231.559436154706	399.299717045263	461.584268042914	-59.8899605220962
1101.762	248.98440184948	454.90908348923	518.589921426703	-61.3068851494547
939.101	269.413667887887	518.177852082928	584.030830379768	-62.5289468306892
801.2801	291.926548498147	589.476713635758	657.802330215433	-63.6540067572081
684.3433	318.081346804502	669.912863032546	741.592197397888	-64.6011632883389
582.9476	349.134905618782	762.527754933294	838.655924300929	-65.3986059476019
497.0677	384.854248732908	867.674908579811	949.195733106062	-66.0804830195871
423.5089	424.492398836179	987.487480947116	1074.86060570521	-66.7385250472949
361.5036	471.497458814863	1120.51483185028	1215.67402788138	-67.179301479089
308.1262	525.711423396291	1273.83850057097	1378.05552363693	-67.5741266957137
262.7298	587.558052120538	1445.39859859785	1560.2568934122	-67.8781381018101
224.2111	660.464016647653	1639.50018230486	1767.53318641095	-68.0582187368197
191.2854	742.493341592982	1856.79899645592	1999.74970322529	-68.2046094534756
163.1722	837.913817296207	2102.3350116448	2263.16417133257	-68.2695828674435
139.1537	953.256598041978	2387.69684824196	2570.95203782862	-68.2362940195464
118.6706	1082.59804999749	2698.28362173019	2907.36186966049	-68.1384901239175
101.1982	1232.23608020443	3049.97130706016	3289.48791322416	-68.00052188685
86.24196	1403.40457427014	3447.11138316643	3721.84380207417	-67.8475421555501
73.61024	1597.65877749916	3880.90715666289	4196.89813171077	-67.6244323901262
62.69291	1824.92946851008	4379.63079299566	4744.63206666147	-67.3792064538102
53.57697	2077.70926407104	4920.50817500551	5341.18680503712	-67.1078536420362
45.65746	2366.74912803377	5528.55886868678	6013.8560507867	-66.8244687165645
38.96512	2695.65432170812	6204.77279681056	6765.03937033511	-66.5175352257129
33.18414	3065.28249853134	6967.44980506962	7611.91917862816	-66.2532297948191
28.30617	3469.60013650115	7820.54594629646	8555.64515424423	-66.07544099099
24.17237	3925.29371542854	8728.36949337682	9570.39000068931	-65.7857535297718
20.61345	4440.06575979282	9781.4920956525	10742.0562076633	-65.5855047803736
17.55618	5011.35481297611	10950.135811015	12042.3897686968	-65.4086900047962
14.98558	5633.17058736855	12251.6831435342	13484.6709531955	-65.3076202497352
12.76553	6344.61027370305	13732.881903078	15127.6609192917	-65.2029981563443
10.8809	7122.41815133472	15391.3324270602	16959.4208097664	-65.1674174772667
9.278505	7983.40880918366	17236.3029281949	18995.3929900661	-65.1476504333346
7.923394	8930.97659714461	19304.232601998	21270.0667448597	-65.1726886889819
6.75822	9999.79331217166	21641.497350852	23840.0980256602	-65.1999614800301
5.761429	11191.7307979861	24297.3579205307	26751.0082085324	-65.2684872323277
4.919708	12590.1768969132	27326.0628273766	30086.9783119092	-65.2626430628174
4.191257	14066.397381896	30595.6767382634	33674.3072739102	-65.3093391231206
3.564097	15727.8637123358	34467.9163451975	37886.7121050817	-65.4725747989533
3.051758	17634.8506067506	38581.1026480084	42420.389407201	-65.4355617253879
2.604164	19689.6112634997	43372.4162151724	47632.4183728885	-65.5835567238702
2.214424	22186.3749387399	48831.0440012991	53634.9334965483	-65.565336665985
1.892567	24831.230896142	54898.8365862069	60253.4006205174	-65.6623384207007
1.607507	27940.3780071042	61857.4389815833	67874.9400039527	-65.6917884513704
1.376413	31382.384011543	69378.3910048108	76146.012138945	-65.6610206177719
1.17375	35275.2744479027	78082.0745507182	85680.5424441207	-65.6878923383635
1.001604	39665.3607006019	87641.8408124438	96199.9641398196	-65.6492176871921
