EC-Lab ASCII FILE
freq/Hz	Re(Z)/Ohm	-Im(Z)/Ohm	|Z|/Ohm	Phase(Z)/deg
6999984	43.4483964583728	61.1444276660452	75.0093606785992	-54.6029179830131
5969734	42.7978312080341	53.7384131737644	68.6984090539628	-51.4658193560672
5091109	45.4258947769138	50.6341423575391	68.024468307858	-48.1034623719655
4341796	49.5345295293044	46.8304299722291	68.1671386158564	-43.3926434874456
3702781	54.7178190892388	41.1929371404435	68.490129187637	-36.9733446719368
3157797	56.9606922139356	39.9000855572634	69.5452175564045	-35.0106490968264
2693047	59.9873351841715	35.384343488938	69.6457618713536	-30.5348059336676
2296687	64.7654207645065	33.0220270124231	72.698101727712	-27.0157278038638
1958656	66.723035707125	28.9589975990969	72.73642166012	-23.461710707713
1670375	69.1799703761377	26.1522023398643	73.9581367292909	-20.7081672175614
1424531	70.8660086379486	23.7681281963602	74.7456694279503	-18.5412121884869
1214875	71.7550158286997	20.8125001335947	74.7123982909653	-16.1747704438817
1036062	73.0367669173948	18.980595882144	75.4627877949597	-14.5676295581177
883578.1	74.2108365318546	16.7448926002923	76.0765383475942	-12.7152512768818
753531.2	74.6506764229272	15.0943553720124	76.1614276028042	-11.4310752410771
642624.9	75.3856917618784	13.7608939754926	76.631356019724	-10.344867582646
548046.8	75.9369371266348	12.5502886102256	76.9670589562473	-9.38458458842883
467390.6	76.4312680523392	11.6536462580454	77.3145924596139	-8.669246781208
398593.7	76.8060198508242	10.935929216013	77.5806627526656	-8.10351971345172
339937.5	77.1795957633208	10.4510016463487	77.8839742026663	-7.71159939284839
289906.2	77.541153173244	10.1355034250548	78.2007600034411	-7.44698456474517
247234.4	77.9006189885178	10.0063849662757	78.5406530332383	-7.31959885815373
210843.7	78.2279528587614	9.94690245783438	78.8578054283675	-7.24643214771553
179812.5	78.6211404984592	10.3608361129542	79.3008868691767	-7.50728264310473
153343.8	78.9912201341752	10.7914917108945	79.7249594018839	-7.77938030001236
130781.2	79.375706933186	11.4078723660501	80.1912863287722	-8.17854280714615
111531.3	79.8141132947891	12.2445501631578	80.7478896921245	-8.72193598004823
95109.37	80.3308397747228	13.2810601370621	81.4213140232731	-9.38776450419181
81109.37	80.7613888022536	14.6281052298115	82.0754737048968	-10.2665327928958
69171.88	81.4514789612846	16.0524153845074	83.0182116445383	-11.1489450931767
59000	82.1051452695622	17.8060611905442	84.0137530101906	-12.2361955347949
50312.5	82.8649544237377	19.8803344709985	85.2163621045096	-13.4909902948653
42906.25	83.6987265674808	22.2341382562235	86.6015804302368	-14.8767460181687
36593.75	84.6431174093419	24.9882284257266	88.2545686331758	-16.4475842980332
31203.13	85.7093594686197	28.1252962711132	90.2060230298341	-18.1671108553121
26609.38	86.8882081286396	31.8037042156787	92.5258683485012	-20.1041493803566
22703.13	88.2195623153786	35.9594784212855	95.2668634072092	-22.1764689704093
19359.37	89.7446342416493	40.7061910114528	98.544879937155	-24.3979982294701
16500	91.4890883985997	46.1390731765286	102.464956788142	-26.7623715964349
14112.02	93.367403821376	52.2202080164912	106.978606373562	-29.2182004866585
12011.13	95.6088414446477	59.3585136912636	112.536588316972	-31.8339762749708
10236.38	98.1064716317335	67.4311890025953	119.045558616573	-34.501776631081
8750.684	100.945805738298	76.4535716088068	126.630187190484	-37.1392847085626
7449.463	104.183051969263	87.0133835202212	135.740330150133	-39.8685347882006
6363.206	107.784252987896	98.7979737467284	146.213832480439	-42.5092170518672
5414.761	112.051163876014	112.535921614602	158.807421047057	-45.1236693076728
4620.567	116.975557374723	127.955351698197	173.366239652755	-47.5667441573767
3941.215	122.195611648188	145.591596473432	190.075459935672	-49.9931287465086
3361.769	128.492720546564	165.509098617351	209.531956891032	-52.1760807572231
2867.244	135.682784840168	188.325057438039	232.112355037435	-54.2283353652904
2442.658	144.086953001992	214.477601691144	258.382839315198	-56.1066285276001
2083.003	153.45026693232	243.900218034607	288.156729539549	-57.8238747128544
1777.843	164.488113805762	277.070424641564	322.217876280063	-59.3037101061183
1513.548	176.888807681444	315.089684611991	361.346315370514	-60.6904971534529
1292.065	191.576898351429	358.013358939342	406.048363081276	-61.8482729700738
1101.762	208.402409677895	406.834485234255	457.105964449573	-62.8760446629795
939.101	227.492048035926	462.506934271524	515.427294745654	-63.8089345450115
801.2801	249.794256461239	524.713763425864	581.138283104424	-64.5428361847945
684.3433	275.165804813796	594.993446774367	655.540556978183	-65.1809392812317
582.9476	304.808559143265	675.697006014963	741.265608041125	-65.7197487917728
497.0677	338.354446684623	765.747836497617	837.169923427758	-66.1612127729211
423.5089	379.793108481927	869.163709276542	948.519034481503	-66.3964119478223
361.5036	423.502363082017	982.302418770082	1069.70663897052	-66.677562337893
308.1262	475.059492632672	1112.66586027797	1209.83752552503	-66.8796445522356
262.7298	535.642770351372	1258.58155180641	1367.82334384858	-66.9457638817937
224.2111	604.017836147797	1421.02627093395	1544.0703381223	-66.9717188699131
191.2854	685.072971026644	1603.31685503281	1743.54521400036	-66.863716325531
163.1722	776.485922541767	1808.05133096199	1967.73473905884	-66.7584066827859
139.1537	881.752546781776	2037.85992998815	2220.44154347901	-66.6025621625103
118.6706	1003.85048631252	2296.72986093177	2506.52824699136	-66.390911552989
101.1982	1143.73560098283	2582.5711852546	2824.50085003756	-66.1130270223506
86.24196	1302.66904134712	2900.26362118525	3179.38291239901	-65.8125106588044
73.61024	1480.09281949658	3250.01783261906	3571.17497004378	-65.514973675793
62.69291	1684.48954488822	3642.79773825477	4013.41256148329	-65.1834029997508
53.57697	1910.37968080694	4067.73912760964	4494.00179518505	-64.8432952525611
45.65746	2165.07335155686	4549.52384142732	5038.42334479123	-64.5506857065878
38.96512	2449.7673276058	5077.21885549591	5637.33192796096	-64.242606300146
33.18414	2767.93720933499	5668.98570407354	6308.63497975682	-63.975607967615
28.30617	3116.51739336912	6321.49831551775	7047.97996707326	-63.7565662025365
24.17237	3501.46438865489	7042.96270891948	7865.34020778814	-63.5653701863014
20.61345	3932.98192560946	7855.63651588476	8785.17910442768	-63.4048274121057
17.55618	4406.56361025426	8768.56570729897	9813.5389852202	-63.3185972639385
14.98558	4938.97401843066	9776.16847416478	10952.9418144162	-63.1968437324732
12.76553	5523.62474801996	10916.491634165	12234.3867829872	-63.161091166057
10.8809	6177.27917137139	12190.1654383015	13665.9764149591	-63.1267136983492
9.278505	6888.77020524992	13614.7027497922	15258.2858115169	-63.1614922365136
7.923394	7663.50324373689	15183.9802110562	17008.3078822237	-63.2194755653809
6.75822	8592.24972242922	16997.002967815	19045.3370981061	-63.1826916749335
5.761429	9616.60560707835	18990.8048405226	21286.8450431929	-63.1431575870694
4.919708	10676.0067574199	21208.4648480252	23743.9697922314	-63.2800372043262
4.191257	11946.6097773476	23800.6393183839	26630.6574672128	-63.3458700549867
3.564097	13370.974483558	26634.6767526938	29802.4992972141	-63.3427187871135
3.051758	14865.4003573346	29767.6500607366	33273.0088498518	-63.4633264029886
2.604164	16624.0581533634	33256.8692373826	37180.3531580696	-63.4409810489785
2.214424	18612.8032514709	37366.8662623446	41745.8876914351	-63.5216535065329
1.892567	20781.3565794788	41744.2766812554	46630.9920216657	-63.5347169442619
1.607507	23382.4645955967	46877.5314466967	52385.519040097	-63.4900262362416
1.376413	26093.7932981845	52397.0443236158	58534.9152432917	-63.5266382393505
1.17375	29226.4957540473	58589.482754021	65474.5411854491	-63.4883646586358
1.001604	32819.5248339358	65528.3156163366	73287.6617026328	-63.3962330451787
