EC-Lab ASCII FILE
freq/Hz	Re(Z)/Ohm	-Im(Z)/Ohm	|Z|/Ohm	Phase(Z)/deg
6999984	34.5514508707359	76.7464631025791	84.1654463305959	-65.7626060348486
5969734	31.9943510205993	74.9450553617036	81.4886484143536	-66.8821655665342
5091109	31.5656131274736	77.7714081154058	83.9331868355202	-67.9089059354086
4341796	34.4583468523854	83.1375428988634	89.9957149372105	-67.4872662939718
3702781	41.9154472332336	88.7968822202987	98.192621967272	-64.730938228936
3157797	50.1440912284858	94.4631059378337	106.947221883287	-62.0391825074114
2693047	59.5898778689292	100.405331036106	116.756944311265	-59.311158557455
2296687	71.5528459876648	107.198496653562	128.884938816443	-56.2776850773364
1958656	85.742573495722	112.11356599465	141.142624992261	-52.5918475812598
1670375	101.808646680342	115.776503946264	154.172628585304	-48.673056904839
1424531	118.852994627357	116.902670031247	166.710133442227	-44.5260227611498
1214875	135.886804653983	115.372731486322	178.258494467121	-40.3324415261841
1036062	152.192495199742	112.053091757841	188.993256407774	-36.3626919834643
883578.1	167.521806868407	106.684916382506	198.608225308012	-32.4906947701718
753531.2	181.321951813559	99.7871378179152	206.966478163422	-28.8253634335829
642624.9	193.095685303044	92.0342415929915	213.907095039527	-25.483638659684
548046.8	203.056391645462	83.775973808223	219.659536500447	-22.4198156051573
467390.6	211.286450918632	75.5125442148946	224.37492880355	-19.6665929713711
398593.7	217.856485426517	67.5687112236344	228.09423267329	-17.2314020209281
339937.5	223.110362823071	60.1947416068242	231.08795060789	-15.0987900820937
289906.2	227.354238798564	53.4830539764979	233.560242683398	-13.2376398170143
247234.4	230.589264424281	47.6495314537782	235.461008906986	-11.6754073632327
210843.7	233.31256780929	42.5280935010717	237.156895397541	-10.3304290462087
179812.5	235.236264633055	38.1723889624761	238.313305288679	-9.21718923900341
153343.8	236.814942850473	34.4001355646915	239.300410539016	-8.26507089336681
130781.2	238.115296970909	31.3366536844776	240.168441964562	-7.49720431548838
111531.3	239.197871844965	29.0433734947013	240.954641870857	-6.92295736531852
95109.37	240.115523894992	27.3504109907837	241.668181183894	-6.49828104756755
81109.37	241.258924303798	25.870627440949	242.642036589735	-6.1205414323937
69171.88	241.857579703593	25.1327602608124	243.159915484455	-5.93262846432464
59000	242.996376660864	25.1649384737842	244.29595411856	-5.91252910487145
50312.5	243.472686173173	25.2040284988459	244.773756691666	-5.91014560044371
42906.25	244.068958668258	25.7726510135098	245.425927981687	-6.02785404987539
36593.75	244.901542468704	27.128324617149	246.399495738291	-6.32101936490998
31203.13	245.988076163369	29.3363466033185	247.731214921708	-6.80092881411155
26609.38	246.643178146644	31.1700050382861	248.604960812056	-7.20268109047934
22703.13	247.716166424165	34.1087628301375	250.053407914563	-7.83992475022384
19359.37	248.94304671027	37.611228426275	251.768236696223	-8.59147921967489
16500	250.345375483724	41.5765593053503	253.77434328505	-9.42943572463167
14112.02	251.687299040913	46.4717622745631	255.941636291193	-10.4613212545064
12011.13	253.293330027187	52.0605743154538	258.588117349418	-11.6145248679221
10236.38	255.364547088473	58.6938151899165	262.022930010427	-12.9442338597058
8750.684	257.331450669987	66.1412961368431	265.695590024715	-14.4145810718823
7449.463	259.662829291086	75.053206519493	270.292006401058	-16.1214624506227
6363.206	262.477496259393	85.2367332201273	275.970535986432	-17.9906455839898
5414.761	265.343077806271	96.9807584593677	282.510559893004	-20.0769510738217
4620.567	268.198527570515	110.106652052762	289.920549491167	-22.32018970374
3941.215	272.278945196271	125.60020616786	299.852023149091	-24.7635166548738
3361.769	276.446803999683	143.589318997708	311.513608004313	-27.4478296546397
2867.244	281.288116585079	163.724651815623	325.466997012182	-30.2016825420005
2442.658	286.498978779509	187.397029696408	342.343849923929	-33.1884255843483
2083.003	292.857536200566	214.08519265919	362.76439492512	-36.1676113133782
1777.843	299.507260482291	245.051389486871	386.981630792798	-39.2894062376162
1513.548	307.444586304271	281.285331579769	416.705665199964	-42.4558288445169
1292.065	316.456422120776	322.18824367128	451.608161420347	-45.5142145295678
1101.762	326.650604816196	369.413180465955	493.119372493881	-48.5155393478016
939.101	338.285825203816	424.241390359346	542.603037982518	-51.4314934545609
801.2801	351.84801455509	486.182784086862	600.142253877204	-54.1069313380802
684.3433	367.479559542048	557.69435839935	667.880396531954	-56.6180563851118
582.9476	385.45316146898	639.927650510682	747.04855101563	-58.9378192581477
497.0677	406.878459481782	735.427477910548	840.478230566466	-61.0462466484497
423.5089	429.242621098089	845.652134188024	948.354764749942	-63.0882109345164
361.5036	458.605935491998	968.801300947734	1071.86536691252	-64.6683139419282
308.1262	491.216163500668	1112.49765497384	1216.11855984794	-66.1764534502716
262.7298	529.240320700461	1275.97283315912	1381.37684504094	-67.4725985744165
224.2111	572.525622962649	1464.68499185236	1572.60539052437	-68.6501414349694
191.2854	623.784458429686	1679.40712849218	1791.51203004857	-69.6234248415581
163.1722	684.775001361099	1925.8635771089	2043.98319956985	-70.4262533040954
139.1537	751.159658449835	2208.05544684533	2332.32709730557	-71.2121795116764
118.6706	835.986550196035	2531.01502806656	2665.50381436745	-71.7217681746657
101.1982	929.148268205145	2899.38882918088	3044.63004108669	-72.231242246096
86.24196	1041.09726596922	3323.2979150282	3482.55546247857	-72.605670165214
73.61024	1171.97547233066	3802.40710436908	3978.92275560875	-72.8696891172103
62.69291	1321.51821492241	4360.84101851013	4556.6813341611	-73.1409846332048
53.57697	1495.89954247615	4974.98653203986	5195.01746244981	-73.2648008127325
45.65746	1705.18958573487	5694.04872719719	5943.89286839817	-73.3286856068896
38.96512	1945.26612973503	6501.06932939825	6785.86492211103	-73.3416344530596
33.18414	2229.58487875483	7428.50733586313	7755.88614992153	-73.2934487024891
28.30617	2558.6405293809	8477.81231644773	8855.50354477391	-73.2059580471726
24.17237	2955.86818189106	9670.68722305107	10112.336430064	-73.004105015948
20.61345	3400.11910376283	11020.0190329138	11532.6332381445	-72.852901453813
17.55618	3937.29983461639	12560.328001459	13162.9848245717	-72.5952996291222
14.98558	4555.63371416879	14276.1138787423	14985.3670631216	-72.3016587591176
12.76553	5290.73033687408	16252.6032180912	17092.0723981099	-71.9683119139105
10.8809	6146.1156951376	18467.5968266865	19463.4752983905	-71.5922797129661
9.278505	7127.64275923881	20959.0598324495	22137.8743415787	-71.2181382727457
7.923394	8323.55051719969	23764.7651963776	25180.2612784565	-70.6973196369718
6.75822	9664.57338484327	26881.0572684522	28565.6300224733	-70.2249159348864
5.761429	11283.8330306941	30392.5446548175	32419.6184194025	-69.6315608422489
4.919708	13105.5631395498	34231.5575662219	36654.5402182907	-69.0506389337658
4.191257	15278.3750320759	38617.1760939194	41529.6885744348	-68.4144265980525
3.564097	17830.8941895001	43488.7349560221	47002.2430919237	-67.7057923970347
3.051758	20575.3409241848	48673.4909454596	52843.6692042119	-67.085164513349
2.604164	23881.4533902543	54458.6080644133	59464.8115135688	-66.3213544766601
2.214424	27541.7668783723	61028.3005677232	66955.2267785493	-65.7105814670507
1.892567	31747.2689648044	67922.0373981577	74975.277598955	-64.9482611206291
1.607507	36665.8427090099	75825.9649868917	84225.655163704	-64.1937902960008
1.376413	41685.4379146494	84019.6154848326	93792.1719567002	-63.6121808381635
1.17375	47550.8811934676	93223.947928792	104650.803961104	-62.9751663615371
1.001604	53845.7248302761	103394.315912165	116575.068713007	-62.4903867710769
