EC-Lab ASCII FILE
freq/Hz	Re(Z)/Ohm	-Im(Z)/Ohm	|Z|/Ohm	Phase(Z)/deg
6999984	58.2635947429493	51.7627254204365	77.9360392586263	-41.6186286438497
5969734	53.722026660326	43.5692972774996	69.1689223115982	-39.0425244532723
5091109	52.1035630043593	36.6446930401604	63.6994097755766	-35.1189094722164
4341796	52.6819747004052	31.8853653435248	61.5797611348419	-31.1841046254216
3702781	54.3917020309316	26.6600654950009	60.5740566746143	-26.11176083133
3157797	54.1432663788161	22.2314923384325	58.5297577797929	-22.3232951349896
2693047	53.4753977633848	19.963637734312	57.0803380993759	-20.4717992087582
2296687	54.562499189812	18.4940985124026	57.6116133919602	-18.7242206378296
1958656	55.422798955298	16.0878367445587	57.7105288067867	-16.1866765068645
1670375	56.1580091048105	14.1545818609719	57.9143693246757	-14.1466946547689
1424531	56.6841882959097	12.193264721094	57.9807977465369	-12.1398354928098
1214875	56.7701191030954	10.4194343039841	57.7183769192679	-10.4001637394541
1036062	56.9149506957564	8.89841014993954	57.6063652376795	-8.88601390383984
883578.1	57.2355972217688	7.82934071117304	57.7686088226485	-7.78922944451066
753531.2	57.335935465756	6.78153753359169	57.7355934156119	-6.74544931080904
642624.9	57.4132685911121	5.9182166859561	57.7174904085158	-5.88531933918069
548046.8	57.3556481173447	5.62410933375676	57.6307294484351	-5.60033528850278
467390.6	58.1614402846206	4.21802618567179	58.314191076311	-4.14798410771352
398593.7	56.5969877017644	4.40140893137199	56.767873110544	-4.44680222435487
339937.5	56.9648611574679	3.05254771830476	57.0465902071467	-3.06734674496672
289906.2	56.6224242470365	3.31416728205466	56.7193320869069	-3.3497576421867
247234.4	57.9075873785579	4.29193728251907	58.0664223251476	-4.23884146303418
210843.7	57.9396361564857	4.31287172324754	58.0999337387499	-4.25709360655587
179812.5	56.7948017848612	3.01902836517938	56.874986083967	-3.04279493048757
153343.8	57.9046628638473	4.39991750052574	58.0715873331119	-4.34530103207406
130781.2	57.5629783560383	2.76462015769525	57.6293293543667	-2.749674306161
111531.3	58.6430598435452	4.32977918839144	58.8026823846826	-4.22264394616583
95109.37	58.3582377431034	5.04546202974129	58.5759387425771	-4.94131808662771
81109.37	58.1105829718383	3.5812689865734	58.2208325333904	-3.52659361720249
69171.88	57.3390431943152	4.83070135651078	57.542171926643	-4.81568448497379
59000	58.399149272223	6.46101992423059	58.7554713552763	-6.31327297551981
50312.5	57.2216636257769	6.75041267706731	57.6184593634043	-6.72806004172682
42906.25	59.7373162528211	6.47202073372786	60.0868871341108	-6.18338344336365
36593.75	59.276411286295	7.83410819845996	59.791857190149	-7.52871126464263
31203.13	60.0296614808019	9.27770539916741	60.742374624091	-8.78566607560063
26609.38	60.2886796787749	8.95239859408925	60.949736160195	-8.44625733692103
22703.13	60.3961688523017	11.3158386191699	61.4470944446589	-10.6119174813786
19359.37	61.7781643607059	12.7086651885137	63.0717984732648	-11.6244083898881
16500	62.1126942554732	13.2244042493822	63.5048947359569	-12.0193653868056
14112.02	61.9730521848544	15.6028399922681	63.9070247541771	-14.1315513802436
12011.13	62.8267073393039	17.5613927791227	65.2349421049882	-15.6168012246715
10236.38	63.8854037001778	19.6422131081738	66.8368262391446	-17.0905747244629
8750.684	64.7032541522936	22.6502484508397	68.5532264213806	-19.2932880495315
7449.463	65.8447352951367	25.2898001897585	70.5344111744369	-21.0109009277747
6363.206	66.9947781628125	28.670409910397	72.8717551971589	-23.1684995560548
5414.761	68.3922387461225	33.0830320082401	75.9735830902088	-25.8142123891627
4620.567	69.0724551708039	36.8802603949486	78.3017092413821	-28.0993571522168
3941.215	70.3146084853498	42.4004698974814	82.1093418191575	-31.0904317554957
3361.769	73.0160246104081	48.107086907673	87.4393027228038	-33.3791517751914
2867.244	74.7645387725418	54.1098472924799	92.290908717416	-35.894642760622
2442.658	76.9880576943926	62.8044197005367	99.3557052286193	-39.2064763263489
2083.003	78.9066546474245	71.5579136497559	106.52133661175	-42.2038763836861
1777.843	81.8033930405006	81.4041761830345	115.405524187437	-44.8598508909048
1513.548	84.6989309210651	92.5928705693464	125.488440023148	-47.549417913652
1292.065	86.5930441873408	108.757714098083	139.020126879064	-51.4731474862669
1101.762	90.0650507533446	120.069769116949	150.09484609073	-53.1262166688886
939.101	95.4980266688879	134.533862592449	164.982524170579	-54.6311991797808
801.2801	104.627781495224	152.465722394565	184.91286911924	-55.5406035217904
684.3433	108.084642577004	177.119281516941	207.493445308703	-58.6069361314597
582.9476	115.59033512367	202.533509366769	233.197229808635	-60.2856451754135
497.0677	125.262186925129	228.17228292866	260.294460506064	-61.2340622136935
423.5089	317.567930364777	260.899764327633	410.996444537398	-39.4050119319397
361.5036	322.89538884277	294.176598075369	436.808084850911	-42.3353530089348
308.1262	336.592280532813	337.702262463537	476.798889876299	-45.0943166798282
262.7298	350.847808589609	384.12628989705	520.237629725305	-47.5924928806899
224.2111	371.501026562255	443.883637770741	578.831319658323	-50.0729131194805
191.2854	390.114313644744	500.735738303502	634.764095806358	-52.0784773968226
163.1722	414.861219572227	573.526667280143	707.843675952836	-54.1198572659383
139.1537	435.884588587971	654.274006709828	786.174185804035	-56.3280079604828
118.6706	461.47564783273	742.506183535011	874.228348962881	-58.1386004297198
101.1982	497.321316174001	842.599367737304	978.41820610225	-59.4499289354357
86.24196	529.098874622699	970.509505410756	1105.36614712937	-61.4018242561079
73.61024	649.651060338344	1091.05235162358	1269.81956756938	-59.2289391138537
62.69291	418.793032631564	1013.46501473524	1096.58512677906	-67.5481717075943
53.57697	616.757731795187	1325.6337211133	1462.08579169686	-65.0495600588082
45.65746	884.99788469362	1579.61220064597	1810.63413210449	-60.7397142280547
38.96512	1893.75841956956	1838.280326682	2639.24146511013	-44.1483404417554
33.18414	1916.79053098316	2088.53733973468	2834.79702256312	-47.4553153253797
28.30617	2258.64378100269	2147.78736347441	3116.80321614351	-43.558864273391
24.17237	2203.39498744546	2856.22328463164	3607.34818424445	-52.3520933918873
20.61345	2032.64402538762	3028.6674615171	3647.52907135727	-56.1330648002674
17.55618	2146.6109858293	3446.36746847013	4060.2201236155	-58.082794340474
14.98558	2648.20017976478	3896.10711405737	4710.90382371734	-55.7958905969889
12.76553	2739.98283422538	4325.41849278658	5120.22959149195	-57.6473464161746
10.8809	2906.7905070188	4939.94696519455	5731.71065831393	-59.5263615053061
9.278505	3089.43041673508	5657.48610339983	6446.06308610225	-61.3620036893463
7.923394	3582.51282552633	6509.12521422213	7429.87948754776	-61.172354659158
6.75822	3877.31405007038	7166.0803002286	8147.77706569084	-61.5837383560619
5.761429	2883.90975707363	8006.67099394439	8510.21244694954	-70.1915697912098
4.919708	15106.3159632241	9816.79935326545	18015.8355765985	-33.017718538867
4.191257	14802.9231659172	10799.428750349	18323.5966881481	-36.1125099622205
3.564097	16589.3690349974	13052.9486174799	21108.9230561367	-38.1965923758073
3.051758	15416.6313017468	13186.2651604182	20286.6978479707	-40.5412731833534
2.604164	16863.0888341792	17381.3333653894	24217.2358990083	-45.8670304806535
2.214424	18904.3063837666	19055.2204632161	26841.6509692137	-45.2277871982039
1.892567	18679.3653848519	20555.061677893	27774.6152405896	-47.7370787802912
1.607507	18690.359092123	24241.970250345	30610.4989278371	-52.3680731847935
1.376413	19883.7467296807	27197.8008229142	33691.0040457835	-53.8302385596556
1.17375	21854.3292568038	33054.1990585389	39625.6455173452	-56.5286577803376
1.001604	24586.0190264246	36324.5430889333	43862.794737539	-55.9081616769447
