EC-Lab ASCII FILE
freq/Hz	Re(Z)/Ohm	-Im(Z)/Ohm	|Z|/Ohm	Phase(Z)/deg
6999984	17.5903353808696	7.34494480197897	19.0622168950936	-22.6632539131525
5969734	13.1786078535995	-4.94838749457172	14.0770111797706	20.5804721137606
5091109	11.9585645202563	-5.86563039861333	13.3196428389905	26.1277750017039
4341796	9.96739284551615	-5.17683243959642	11.2315855623551	27.4463170460605
3702781	5.40266237425564	-5.940685968833	8.02997574781436	47.7155470263502
3157797	4.13171019212397	-4.69464549287547	6.253856843219	48.6493192633867
2693047	2.80784577800875	-4.33427037359001	5.16429061773848	57.0638519271913
2296687	2.19629689833135	-4.00195234300306	4.5650128829268	61.2417398481483
1958656	1.76385230898607	-3.38225039008463	3.81455012670474	62.4578427683135
1670375	1.34499804425556	-2.67235716398498	2.99174072254818	63.2838760215536
1424531	1.18639955398032	-2.42614188938839	2.70068664771198	63.9410586125686
1214875	0.837608903488623	-2.12141844195845	2.28079040709242	68.4541898690346
1036062	0.815422900776094	-1.82736523994842	2.00104428418809	65.9521977692573
883578.1	0.718597331066903	-1.56760019595696	1.7244571605525	65.3729947341596
753531.2	0.65013837510501	-1.3480208862565	1.49660957385951	64.2524038784427
642624.9	0.597023271944923	-1.15253868934239	1.29799160924672	62.6155207535335
548046.8	0.552608047791515	-1.0117482562606	1.15282704189758	61.3570189565286
467390.6	0.520746042635301	-0.879450101978788	1.02206111499794	59.3690845905427
398593.7	0.488930357127824	-0.763114487724904	0.906309337641836	57.3521585601232
339937.5	0.464056093101477	-0.662331488045454	0.80872186665201	54.9833676885579
289906.2	0.442671558995127	-0.573728161259037	0.724653097809463	52.3472920055641
247234.4	0.425307082065934	-0.49722781331559	0.654310027731535	49.4577569827383
210843.7	0.411076113886895	-0.430043063253584	0.594912268877418	46.2917812829178
179812.5	0.401108725736296	-0.370414497531402	0.54598086948467	42.721750016393
153343.8	0.392708722039757	-0.320585181508191	0.506946741747828	39.2262548294369
130781.2	0.386265351890741	-0.278098823163354	0.475962054701969	35.7526924668783
111531.3	0.37988607759049	-0.242146321044384	0.450497805480135	32.5141803101942
95109.37	0.373225260256872	-0.211037521793721	0.428758592332148	29.4856743741594
81109.37	0.367191379253261	-0.183938908280698	0.410686049163357	26.6078792565558
69171.88	0.36055461336251	-0.159247861733271	0.394156708281881	23.8298360910845
59000	0.351655064328578	-0.134892261812719	0.376639358757005	20.9864413595006
50312.5	0.345249761922471	-0.10470397524933	0.360777383632255	16.870988649479
42906.25	0.37524458860295	-0.104719383458219	0.389582662021382	15.5928057522114
36593.75	0.359752319897206	-0.0951548037872553	0.372123861577315	14.8155025594472
31203.13	0.353779566325892	-0.0834626543833968	0.363491397733782	13.2743377637925
26609.38	0.34976432677038	-0.0713325634577051	0.356964170317673	11.5270857788072
22703.13	0.349975353346	-0.0634553196925655	0.355681494524164	10.276863221942
19359.37	0.347396477120622	-0.0567355426807541	0.351998912099311	9.27545331719026
16500	0.345150389542707	-0.050376767319157	0.348807411169847	8.30402629385775
14112.02	0.343313735989137	-0.0450885882008872	0.346261898141808	7.48203239307332
12011.13	0.341597728970879	-0.0400180204444314	0.343933787811481	6.68171921525663
10236.38	0.339960986400534	-0.0362766494086158	0.341891017089862	6.09088513691773
8750.684	0.33881584457462	-0.0325245368159538	0.340373356815579	5.48329147011345
7449.463	0.337096656105035	-0.0295194996012863	0.338386696567561	5.00461559904479
6363.206	0.336053227215663	-0.0266900007914469	0.337111446949387	4.54101023686146
5414.761	0.334138113253096	-0.0243855752925079	0.335026767603255	4.17407603274598
4620.567	0.334563894912733	-0.0237100567742098	0.335402991297654	4.05369129745325
3941.215	0.329537181104303	-0.0210515758445494	0.330208907474812	3.65521633967361
3361.769	0.332127604437625	-0.0160306333999915	0.332514250576844	2.76332158788322
2867.244	0.327317684604693	-0.0137941500214725	0.327608219112085	2.41318822519436
2442.658	0.323212863509079	-0.0132041357006599	0.323482463724605	2.33938954230813
2083.003	0.333254293883762	-0.0192664945004504	0.333810758068551	3.30876881448083
1777.843	0.319227959450558	-0.020166452267911	0.319864308562304	3.61471853679818
1513.548	0.319921234063175	-0.0120265632309193	0.320147207121431	2.15286427801888
1292.065	0.325609334061334	-0.012518518469028	0.325849891410946	2.20173414019677
1101.762	0.323460734088051	-0.0168264719490674	0.323898096096648	2.97785016440949
939.101	0.323468365963767	-0.0143663941105174	0.323787240420323	2.54304051509384
801.2801	0.318745248022307	-0.0104911165956996	0.318917852532947	1.88514115387707
684.3433	0.316595038198742	-0.015264128242917	0.316962792490032	2.760287776358
582.9476	0.317755872742892	-0.00968342226988015	0.317903386785127	1.74551477695046
497.0677	0.314670671241944	-0.0103783772319945	0.314841773044533	1.88902809955924
423.5089	0.31637239562709	-0.0103532374024496	0.316541754338248	1.87432657549398
361.5036	0.315422665629011	-0.0132570227605039	0.315701135007436	2.40669031083978
308.1262	0.311675978439118	-0.0133261134293245	0.311960736047203	2.44826470141227
262.7298	0.309502450653997	-0.0134417672543847	0.309794202766531	2.48680699933293
224.2111	0.310881723761044	-0.0109276125779943	0.311073719374191	2.0131399253093
191.2854	0.308815299673748	-0.0124948421530127	0.309067970506514	2.31695595279757
163.1722	0.298167107686364	-0.0108767955769637	0.298365428272236	2.08915824669387
139.1537	0.305522396568257	-0.0185375693891983	0.306084263371495	3.47216434553845
118.6706	0.305870632915006	-0.0046580112148143	0.305906098579783	0.872472628451051
101.1982	0.305308004349481	-0.0179249595056528	0.305833748453538	3.36003936982032
86.24196	0.303846570811646	-0.0121530541829794	0.304089518596039	2.29045780068836
73.61024	0.317739938518375	-0.0249757675229538	0.318720029952655	4.49446085375385
62.69291	0.267186579172984	0.0300827164176461	0.268874762514495	-6.42391685533752
53.57697	0.292956136408314	0.00640990680946822	0.293026252688378	-1.2534368500959
45.65746	0.278769945598827	-0.00206990934515947	0.278777630189135	0.425422079617108
38.96512	0.291692278461491	-0.0153532075121319	0.292096056623445	3.01297992570234
33.18414	0.285308692652545	-0.00139857472718451	0.285312120517814	0.280859957764343
28.30617	0.303787873234035	-0.023796206310103	0.304718446042919	4.47892739497006
24.17237	0.294319137773726	-0.0209174579979475	0.295061510382099	4.06521405167112
20.61345	0.286209669510625	0.00484343898596374	0.286250648597679	-0.969506468803227
17.55618	0.292667293458308	-0.00053377627433942	0.292667780217301	0.104497818845124
14.98558	0.300092855974484	-0.0182330201349694	0.3006462459938	3.47689869579961
12.76553	0.283541504003061	-0.0036137024410981	0.28356453116998	0.730188300312829
10.8809	0.291060517252805	-0.0112199863368816	0.291276694565271	2.20758117449608
9.278505	0.284174325570619	-0.00676160660774941	0.28425475657838	1.36303107123293
7.923394	0.286711277163579	-0.0105549681331815	0.286905496296365	2.10833056043454
6.75822	0.282195660811756	-0.0124745891613184	0.282471248724056	2.53113846281558
5.761429	0.288187165521044	0.00358751031476769	0.288209494294189	-0.713212133800897
4.919708	0.293755264559769	0.000877814725879122	0.2937565761226	-0.171213712059512
4.191257	0.283415462268063	-0.00735524173095689	0.283510888386215	1.48661520285367
3.564097	0.284198136569804	-0.0176563226409891	0.28474607382535	3.55503466919499
3.051758	0.273018417066647	-0.00065828007629785	0.273019210661514	0.138146713420685
2.604164	0.293039390354709	-0.00615846400767273	0.29310409580624	1.20394074504793
2.214424	0.269591739061877	-0.00890992213784053	0.26973893393967	1.89291848298818
1.892567	0.274921876878977	0.0184222111609876	0.275538411570364	-3.83359586298949
1.607507	0.303097117530568	0.00688169280791023	0.303175230438177	-1.30065315607704
1.376413	0.310625279262992	-0.023888730635258	0.311542510050515	4.39769286581861
1.17375	0.273556497158384	-0.0354472389706724	0.275843549658514	7.3832029029912
1.001604	0.252028334227831	-0.018035412319558	0.252672826697276	4.09316866249556
