EC-Lab ASCII FILE
freq/Hz	Re(Z)/Ohm	-Im(Z)/Ohm	|Z|/Ohm	Phase(Z)/deg
6999984	21.8324085066614	92.655295669994	95.1927406733084	-76.7412222346888
5969734	19.1581206912381	91.8196605836911	93.7970343780883	-78.2143540217496
5091109	17.3622001703658	96.4376463734242	97.9880892394656	-79.7940559587048
4341796	17.0825601536439	105.65363618839	107.025719811789	-80.8156397074231
3702781	20.6177801350386	116.636348776373	118.444631425745	-79.9753971008638
3157797	21.6326897979845	129.467462481819	131.262321743054	-80.5140920198457
2693047	23.4737999136237	146.392124461196	148.262177869635	-80.8902388123491
2296687	26.8033556613248	168.848649433906	170.962821368745	-80.9800212988461
1958656	32.1642492731652	193.351942388392	196.008960398933	-80.5552876853157
1670375	39.6978570526287	223.256785249821	226.758708795618	-79.917471067776
1424531	50.824512589266	257.594381864019	262.560462842071	-78.8386488353242
1214875	62.1724698945	300.231892823473	306.601704954731	-78.3004695783578
1036062	72.0427035729009	336.812444057683	344.431086881255	-77.926614617035
883578.1	94.3944893418211	392.158666906033	403.359318285347	-76.466087901467
753531.2	117.300347037626	447.226317505673	462.35349083232	-75.303270056249
642624.9	196.486384372701	571.769252222661	604.588270669484	-71.0349063698629
548046.8	282.267289592342	641.500118310356	700.854638684805	-66.2499639353868
467390.6	330.967537267578	722.849331553261	795.016142510303	-65.3986059476019
398593.7	413.386586041581	788.520951693224	890.311047206705	-62.3339692930062
339937.5	506.503054524326	863.28737889274	1000.90481205656	-59.5992417368468
289906.2	613.466786967284	933.249789124695	1116.82436739769	-56.6812937369604
247234.4	739.158836200796	999.563838819766	1243.17482801488	-53.5177645669251
210843.7	877.819972469896	1053.13864696546	1371.01018004947	-50.1878656419176
179812.5	1033.88190651881	1090.05472139767	1502.37515030977	-46.514976992011
153343.8	1194.55562518661	1112.73803377207	1632.5284296048	-42.9691188148628
130781.2	1359.05836541227	1111.21261263893	1755.51505578417	-39.2706074923579
111531.3	1521.75742440679	1087.66174722989	1870.49558543301	-35.5549303543109
95109.37	1673.4682219294	1045.35986468599	1973.13789089964	-31.9916485306128
81109.37	1810.73111818979	987.436299871084	2062.4688188392	-28.604723116256
69171.88	1929.77659332169	912.466129975239	2134.62693192142	-25.306428543228
59000	2034.66891634832	840.598373126952	2201.47296691505	-22.4473634159472
50312.5	2128.06033191767	757.026293140978	2258.70086217461	-19.5822707726617
42906.25	2200.59865242628	656.120747842586	2296.32943298863	-16.6022427956729
36593.75	2257.32284177324	622.15256557756	2341.49102642867	-15.4090180802673
31203.13	2271.36744770077	555.981905361481	2338.42381991889	-13.7543274270854
26609.38	2309.96301555148	486.375003048381	2360.61216145431	-11.8902493476729
22703.13	2345.93504926337	438.552705905787	2386.57489537195	-10.5887413385655
19359.37	2377.63961257463	387.701700869122	2409.04187098126	-9.26123250471511
16500	2397.32023499276	347.636837303292	2422.3946168525	-8.25098186118454
14112.02	2416.98116787199	338.050494003321	2440.50734527551	-7.96201059721031
12011.13	2424.43292691581	313.658687940543	2444.63837604545	-7.37164061468546
10236.38	2449.22532912882	287.364125055959	2466.02572030694	-6.69183764991864
8750.684	2457.34890698433	275.460242713672	2472.73977522362	-6.39595651493514
7449.463	2455.23871146753	271.131349607587	2470.16382837835	-6.3016247435448
6363.206	2463.90632546195	265.398952651794	2478.15878924658	-6.14789443753325
5414.761	2474.18987378509	268.241779797795	2488.6882456366	-6.18761187189171
4620.567	2496.09684035242	300.437558035096	2514.11259944646	-6.86327235179974
3941.215	2498.91082275679	294.627602671628	2516.21953023719	-6.72426706112305
3361.769	2506.95747297256	313.797456612582	2526.52025819495	-7.13464235230755
2867.244	2519.93333298494	336.798952811484	2542.34095614721	-7.61268968867495
2442.658	2532.10975313978	367.416464902471	2558.62749548015	-8.25616139965253
2083.003	2550.79206982642	409.269095895251	2583.416609133	-9.11529442471734
1777.843	2558.93855374283	460.907373584458	2600.11579143237	-10.2104459543304
1513.548	2575.26927036204	504.945685453732	2624.30599590242	-11.0935286152317
1292.065	2598.64359842772	566.754099956229	2659.72907670435	-12.3033289996504
1101.762	2618.04237299598	642.236699257221	2695.66575166048	-13.7831529337584
939.101	2645.62921896651	737.344256235285	2746.4578126111	-15.5733022688651
801.2801	2671.73078424129	824.723169686437	2796.12476296753	-17.1546715130042
684.3433	2697.09252724146	925.226993007572	2851.37740207983	-18.9343299908821
582.9476	2736.14588965564	1063.40824819336	2935.52915703543	-21.2387089471187
497.0677	2785.40018496456	1207.34015598929	3035.80704964345	-23.4344665645545
423.5089	2826.55923609973	1378.63932352084	3144.85031432955	-26.000561182451
361.5036	2873.83435041588	1570.84942989183	3275.13233397091	-28.6611938365441
308.1262	2930.43990108167	1792.98682168702	3435.44462283921	-31.4603390376101
262.7298	2995.21246032451	2047.73008652429	3628.29108393193	-34.359155976717
224.2111	3063.96797904079	2339.31010649346	3854.90227514651	-37.3613860682671
191.2854	3146.10128944597	2672.71911900976	4128.12073619145	-40.3490229247752
163.1722	3224.43427525361	3073.94453606465	4454.89746304356	-43.6312689499617
139.1537	3339.20411328467	3510.25515331485	4844.80911404678	-46.4305459313205
118.6706	3457.74922145692	4013.99694295422	5297.94310431244	-49.257634284055
101.1982	3597.51966701014	4608.78405086881	5846.62622219579	-52.0251522148298
86.24196	3756.27255119522	5278.56352242008	6478.64309397319	-54.5640084191458
73.61024	3940.9407826972	6059.90586590986	7228.65640049482	-56.9628280087539
62.69291	4157.3677791162	6960.57603867186	8107.60911989265	-59.151246036834
53.57697	4412.37462429475	7961.54562439524	9102.48639408196	-61.0043061378461
45.65746	4696.14725775312	9134.55117903378	10271.0186597479	-62.7919344586543
38.96512	5053.95735231722	10453.3489329388	11610.9856960042	-64.1972853385511
33.18414	5474.79304814477	11992.77923505	13183.3270725057	-65.4629491079951
28.30617	5930.80949031143	13708.4030419402	14936.3588324144	-66.6047394021318
24.17237	6522.76146187796	15668.6950842291	16972.1661178267	-67.398400539947
20.61345	7183.91849440643	17913.0808463325	19299.9261745096	-68.1470844908445
17.55618	7960.17002865221	20483.4973953351	21975.8497544407	-68.7631860079487
14.98558	8858.48462675063	23366.5816221197	24989.3954825954	-69.2378242454351
12.76553	9931.40262842249	26655.5969877815	28445.6254799022	-69.5654988084704
10.8809	11142.3179698173	30389.8762747933	32368.1298461582	-69.8647546648672
9.278505	12553.0437454734	34585.9725128813	36793.5918596914	-70.0515389060798
7.923394	14217.1499068192	39407.1452989329	41893.322285111	-70.161775985863
6.75822	16002.6864915112	44637.5771971512	47419.3976446056	-70.2771123900229
5.761429	18175.817844182	50721.9383317986	53880.1947141959	-70.2852483907137
4.919708	20624.6716606259	57520.6354909983	61106.4692843313	-70.2741330094882
4.191257	23435.2292438315	65149.6257095799	69236.4333267485	-70.2156340186053
3.564097	26683.8254561921	74103.1943077638	78761.0941238802	-70.1965545240274
3.051758	30271.5565017295	83579.9054652903	88893.012833542	-70.0902708530307
2.604164	34348.0957353948	94577.0031000402	100621.077295132	-70.0401943417363
2.214424	39219.3022798995	107254.475745271	114200.158663265	-69.9142582183665
1.892567	44215.3248144379	121174.942783667	128989.773653074	-69.9535631231125
1.607507	50338.8805829824	137238.373357478	146179.253042811	-69.8570197346329
1.376413	56955.5216856311	154791.108556799	164937.014459233	-69.7988645184272
1.17375	64285.9437985816	174914.147460186	186353.539144815	-69.820178548406
1.001604	72801.4992687652	197321.813928875	210323.456960847	-69.7485588240147
