EC-Lab ASCII FILE
freq/Hz	Re(Z)/Ohm	-Im(Z)/Ohm	|Z|/Ohm	Phase(Z)/deg
6999984	-12.0941876053437	30.9649368789421	33.2429945966082	-111.334465848184
5969734	-12.9486528608273	33.0122799522646	35.460939617513	-111.416971770683
5091109	-13.8500059874713	36.8643736356602	39.3802578635863	-110.59128229212
4341796	-13.602481086286	42.1894145557614	44.3280294200031	-107.870076539926
3702781	-13.0873373100164	49.2546812730456	50.963732449414	-104.880096286036
3157797	-12.5370721540143	57.434479185866	58.7868826996859	-102.313646434306
2693047	-12.0399441712964	66.158729854287	67.2453551673307	-100.314138320859
2296687	-12.0009663447694	77.2167380219411	78.1437638200092	-98.8341883360358
1958656	-11.755246656516	89.465571134022	90.2345512666422	-97.4854456862978
1670375	-11.8084605181626	104.854879663059	105.517702443541	-96.4254164695263
1424531	-11.5841099747908	122.470098340093	123.016732972958	-95.4033743545719
1214875	-10.8063527358021	142.790711694112	143.199038424011	-94.3278752773318
1036062	-9.5507304832036	166.591147335462	166.864696156222	-93.2811959771869
883578.1	-8.63736145695296	194.632610684177	194.824169842134	-92.5409918016574
753531.2	-7.40903984871002	227.521179451449	227.641782128102	-91.865130786521
642624.9	-6.19476338295796	265.483335559887	265.555599740194	-91.3366918120719
548046.8	-5.1333749894253	310.170266279514	310.212742521462	-90.9481691311937
467390.6	-2.31768086539084	361.529755370544	361.537184343298	-90.36730451849
398593.7	-0.300339639140797	422.612793645838	422.612900367509	-90.0407185752655
339937.5	1.19625859750362	494.254025587801	494.255473256876	-89.86132548961
289906.2	-107.489721986918	505.400751914932	516.70490646887	-102.006884830793
247234.4	-112.460633644365	608.671420975237	618.973580075682	-100.46814937619
210843.7	-114.328014239579	728.223449160253	737.143328496447	-98.9223665407064
179812.5	-116.878734635372	866.448404049788	874.295988490391	-97.6824858720433
153343.8	-112.745364070982	1026.07047051973	1032.24615649179	-96.2705459775024
130781.2	-111.937023603859	1212.42822411886	1217.58453336649	-95.2748599211241
111531.3	-102.696321027106	1418.06805879031	1421.78182352772	-94.1421223601504
95109.37	-97.5940876473142	1676.69362060177	1679.53151304475	-93.3312151927018
81109.37	-78.0969529681622	1972.92603076155	1974.47113347332	-92.2668314966872
69171.88	-54.7461400511372	2312.78464371932	2313.43250346199	-91.3560004897678
59000	-60.5222550712124	2708.48939015215	2709.16550249808	-91.2800835819129
50312.5	-115.767174042577	3176.50767346913	3178.61652896257	-92.0872092279137
42906.25	-5.19462021479758	3721.94352010859	3721.9471451053	-90.0799661842319
36593.75	0.252153265405717	4323.11196880543	4323.11197615908	-89.9966581208199
31203.13	-635.011747470615	4623.18293333373	4666.58979925319	-97.8208551795674
26609.38	-694.777352411458	5643.45469795777	5686.06159809455	-97.0184850832662
22703.13	-674.969215455974	6654.97112461675	6689.11235600778	-95.791324077655
19359.37	-589.677295302308	7913.41747554401	7935.35729849894	-94.2615840604352
16500	-598.987658362555	9294.8936499883	9314.17383236235	-93.6871938708166
14112.02	-560.426678272026	10780.2493387241	10794.8068008084	-92.9759240639412
12011.13	-501.220759824736	12733.3017345313	12743.1626887793	-92.2541691294149
10236.38	-341.204293599951	14763.2155810925	14767.1579751753	-91.32397214902
8750.684	-250.816804053516	17377.1958270589	17379.0058369617	-90.826931261744
7449.463	-28.2794492376507	20437.9408995274	20437.9604642886	-90.0792786348778
6363.206	168.597063379951	23701.1773244477	23701.7769699805	-89.5924363963551
5414.761	324.355319800891	27586.2344899883	27588.1412877001	-89.3263547962964
4620.567	694.464582481737	32644.5312549656	32651.9172777457	-88.7813000457884
3941.215	1139.23466286424	38059.155080941	38076.2017681936	-88.2854623698822
3361.769	-6840.21154051294	41126.2254978975	41691.1851309468	-99.4431278807008
2867.244	-6747.26174959716	48596.1017067148	49062.2731047691	-97.9046216092155
2442.658	-5970.42265187895	57863.8591532095	58171.0593228673	-95.8909614382282
2083.003	-5706.26345003286	68341.8418094534	68579.6528459392	-94.77289159681
1777.843	-5203.81331036742	80418.9883241682	80587.1786083361	-93.7023772523875
1513.548	-4702.98730035529	94466.4372739922	94583.4333315745	-92.8501025321304
1292.065	-3814.64901596148	110159.218660339	110225.246667773	-91.983274683877
1101.762	-3132.43300473941	129298.267951601	129336.206190738	-91.3877996473975
939.101	-2427.00671402477	151054.852867669	151074.349035377	-90.9204952696888
801.2801	-1352.36761121648	175453.836006957	175459.047836559	-90.4416171445185
684.3433	-1529.12405538305	205449.813351752	205455.503763337	-90.4264337629475
582.9476	-3795.42871800838	240720.088764592	240750.008128736	-90.9033065358349
497.0677	-64665.4892981278	243680.232814671	252114.421187639	-104.862048115489
423.5089	-71856.2094543092	273827.874395968	283098.95731591	-104.703682580915
361.5036	-57617.1009820694	366923.512234549	371419.700818515	-98.9241427098713
308.1262	-44849.5436026892	417264.249286774	419667.648615217	-96.1348695716154
262.7298	-93016.7275004732	519585.04885857	527845.369963837	-100.149642137877
224.2111	-14738.0585393081	588465.277009031	588649.80473523	-91.4346675950392
191.2854	-86831.156900707	721259.240135154	726467.164632411	-96.8647032110531
163.1722	-101466.572164789	811108.613195394	817430.515497573	-97.1304410364348
139.1537	27191.5250712294	919348.612738074	919750.645979181	-88.3058596673888
118.6706	715987.044890864	555842.614068648	906420.686031724	-37.8232817243898
101.1982	-266336.864651354	904251.679670537	942659.230930934	-106.411727063979
86.24196	391294.557695349	609731.004099599	724488.321674203	-57.309702387504
73.61024	366859.91434617	-321021.469256777	487484.338700085	41.1876096833067
62.69291	51344.3755277812	-22147.5585805095	55917.4324286703	23.3331046010179
53.57697	126310.76206336	-41059.6005546259	132816.7888888	18.0076910783949
45.65746	84833.9315692946	420884.094734165	429348.596301072	-78.6040799139976
38.96512	93645.6281043632	461849.010780481	471247.29433915	-78.5379605844395
33.18414	466010.722606269	656523.163235712	805101.644172363	-54.6322534221238
28.30617	661969.351151285	389764.522094452	768192.556945959	-30.4893818396696
24.17237	784645.163031662	469360.332349854	914312.393797956	-30.8870890340037
20.61345	674452.611927318	546858.918335693	868297.761311674	-39.0357921991795
17.55618	146878.110576713	-1320361.86727784	1328506.1685698	83.6524683426748
14.98558	-1246746.25249568	3554437.27572846	3766749.33665621	-109.32871249477
12.76553	1726700.96193865	754431.997442434	1884320.52759738	-23.6015295984587
10.8809	4166421.48661224	2906405.75917608	5079986.46071779	-34.898796276061
9.278505	1434664.43484713	2453108.6360642	2841831.10352252	-59.6793985323856
7.923394	1270807.79726046	2052298.40068358	2413893.36612584	-58.2337114237115
6.75822	1595595.5011503	483175.550204484	1667148.34841008	-16.8472739263385
5.761429	781198.596560852	512911.458470782	934531.653556619	-33.2876962519326
4.919708	1415753.34215696	-632881.789881236	1550772.99621572	24.0859940621316
4.191257	1425969.27994901	541513.079422141	1525327.76888888	-20.7943171516373
3.564097	1613.75591216184	2379023.91117621	2379024.45850317	-89.9611347375218
3.051758	-569989.627906239	-1875503.64573808	1960204.60694733	106.90469995091
2.604164	-2003142.42233541	-33799803.4586034	33859109.4597064	93.3916622400881
2.214424	7445974.32755141	-746890.163518	7483340.06997641	5.72806018610893
1.892567	2769658.71843888	1999859.69226317	3416203.77105398	-35.8315429186442
1.607507	3304072.92358225	654408.524821129	3368255.98814994	-11.2030781456607
1.376413	98455.2710048257	4107108.77970423	4108288.69101384	-88.6267733284416
1.17375	8532542.39079344	163577.866129296	8534110.22713993	-1.09828618171022
1.001604	3802146.33807468	10395968.4320369	11069438.8482905	-69.9108777673752
