EC-Lab ASCII FILE
freq/Hz	Re(Z)/Ohm	-Im(Z)/Ohm	|Z|/Ohm	Phase(Z)/deg
6999984	47.8164094967981	56.1475067426916	73.749247661153	-49.581578891844
5969734	45.520622649107	51.195275861999	68.5060826273738	-48.3578900104713
5091109	45.8165676106494	48.84036399885	66.9667008531955	-46.8296797905646
4341796	48.730985000538	46.7179769520565	67.5076163822686	-43.7918174537353
3702781	53.1898476068953	43.2255420704232	68.5390937766664	-39.0995624017775
3157797	56.8379704436482	39.9477645561954	69.4721438937237	-35.1009243270272
2693047	59.9486054115806	36.8216223131068	70.3538709707041	-31.559071124867
2296687	63.1328673535933	33.8275918935275	71.6244714717076	-28.183112122709
1958656	65.9055193668915	30.6544934824871	72.6858683217553	-24.9444509969982
1670375	68.4998344930185	27.6315930704419	73.862928869504	-21.9682561076588
1424531	70.5085871898287	24.5967266063632	74.6756977018217	-19.2311851541173
1214875	72.2468139641059	21.869551116299	75.484298989873	-16.8413839202046
1036062	73.4549743174622	19.4194898046182	75.9786143348949	-14.8086385250615
883578.1	74.4000778625605	17.2151636048124	76.3657871294176	-13.0281836358484
753531.2	75.2694706624091	15.278307227319	76.8044262105486	-11.4740929123355
642624.9	75.9441691227517	13.6257316445407	77.1568362920238	-10.1716567116
548046.8	76.4868341713182	12.1925829994481	77.4525330880092	-9.05717931555722
467390.6	76.9237369822719	10.9920680715076	77.705127706004	-8.13226500603344
398593.7	77.3167101630014	10.0225937598555	77.9636200808086	-7.38608488070071
339937.5	77.6182207705181	9.25494887275864	78.1680387000868	-6.79966257738431
289906.2	77.9001252665763	8.63954343692243	78.3777470162721	-6.32854803033799
247234.4	78.1836564943812	8.23168157517411	78.6158045458193	-6.01032727092234
210843.7	78.3742835046338	7.99088613390773	78.7805977133316	-5.8216465394078
179812.5	78.6287626506263	7.88306229822459	79.0229396262011	-5.72515643600321
153343.8	78.8452854759135	7.93888607590916	79.2439584694288	-5.74970022907323
130781.2	79.1157975535475	8.1288942022907	79.5323100600375	-5.86637162489572
111531.3	79.3781565820582	8.49903995334931	79.8318571905626	-6.11139129640546
95109.37	79.6341364851436	9.02179807637008	80.1435495487021	-6.46351396855901
81109.37	79.9366875124969	9.67588248949275	80.5201633904269	-6.90175219732072
69171.88	80.2965856614983	10.5794318257513	80.9905305986451	-7.50574138663583
59000	80.604111251133	11.6319740202782	81.4390911675311	-8.21165976770472
50312.5	81.1345612164845	12.8990084181046	82.1535236125743	-9.0334474036829
42906.25	81.5794128938598	14.3444791107912	82.8309404091658	-9.9726340918834
36593.75	82.1240447940857	16.0745025810401	83.6824256733089	-11.0747413291293
31203.13	82.6888575463494	18.0960725254563	84.6458209433108	-12.3443012115802
26609.38	83.3939859615543	20.4210362261201	85.8578803320023	-13.7595012359754
22703.13	84.1453216877458	23.0708373041035	87.2507804884669	-15.3324823779937
19359.37	85.0106950043378	26.2403051277658	88.968375720358	-17.1539209382925
16500	85.9722988814704	29.7691539817071	90.9804303339541	-19.0991527598074
14112.02	87.0590182887255	33.6968558699958	93.3528294210728	-21.1593084558695
12011.13	88.2712154229867	38.4397598619124	96.2778407033145	-23.531840741837
10236.38	89.6276862572251	43.8165613153979	99.764789326343	-26.0527633671654
8750.684	91.1158341338226	49.8846165868379	103.877669409349	-28.7000747525217
7449.463	92.8500814405457	57.0247604139938	108.963117263546	-31.5565615697243
6363.206	94.7654601119044	65.0708107350536	114.955221020788	-34.4754835978624
5414.761	97.0747658632774	74.5031310987514	122.369222890921	-37.5055880861456
4620.567	99.6532564025637	85.1277532390749	131.062984412716	-40.5052627859294
3941.215	102.416304091335	97.6051480000155	141.477433747696	-43.6221188139734
3361.769	105.714782468554	111.617687195328	153.733936810348	-46.55581169407
2867.244	109.555867596211	127.810663892993	168.339103982188	-49.3977052762307
2442.658	113.936396456685	146.672112023473	185.726171777058	-52.1595738431454
2083.003	118.998999572857	168.003221748437	205.878227156723	-54.689532012903
1777.843	124.657150240572	192.4598653851	229.303739372369	-57.0686819614043
1513.548	131.500149222772	220.722547891438	256.925538616346	-59.2147297605345
1292.065	139.57771484291	252.657546660387	288.648184413507	-61.0820565106453
1101.762	148.525735849059	289.6829778367	325.539739291292	-62.8549598161187
939.101	159.610643984814	331.734954848361	368.135352746094	-64.3059754322875
801.2801	171.933855632999	379.838565004553	416.939547389723	-65.6461237150985
684.3433	186.285596293441	434.193178250898	472.468030057081	-66.7788039802926
582.9476	203.258952217366	497.456120199946	537.379561558573	-67.7752348818046
497.0677	223.545647751716	569.646658253118	611.939516527311	-68.5735369777604
423.5089	246.714199033193	651.557730102252	696.703216341498	-69.2606852614608
361.5036	273.235342345017	744.287856768104	792.856838299864	-69.8413206910463
308.1262	304.885622629858	850.508857669459	903.504598693667	-70.2785447845107
262.7298	342.215971511004	970.995545607412	1029.53587637666	-70.5855928669213
224.2111	385.379139746318	1107.00704973663	1172.16965048503	-70.8056086602515
191.2854	436.055133221975	1262.56498352398	1335.74489212205	-70.9464989820742
163.1722	494.269618188826	1437.40650195246	1520.01312735112	-71.0238482844168
139.1537	563.831465466272	1637.28458793982	1731.64856231139	-70.9978360005179
118.6706	642.138286425037	1862.77607928883	1970.34928387419	-70.9798451257508
101.1982	738.668898227241	2116.3076651503	2241.51508466532	-70.7591417830664
86.24196	848.923980565877	2404.60490020104	2550.05816617007	-70.5548823291023
73.61024	975.216007397076	2725.90166802481	2895.09691803642	-70.314870308722
62.69291	1122.66968912567	3093.41478610249	3290.8361049677	-70.0530285963472
53.57697	1294.36944991709	3497.99047363446	3729.78948823069	-69.6938986503592
45.65746	1494.0800441421	3956.13147927315	4228.85935680056	-69.3103607022986
38.96512	1724.42653948906	4468.10632433646	4789.32364908341	-68.8963413995371
33.18414	1993.82205303515	5045.48423963568	5425.14862391634	-68.4375740929758
28.30617	2306.41339869662	5686.44470879868	6136.38298934412	-67.9225996267122
24.17237	2663.54307466412	6391.79750025637	6924.5604188912	-67.3778886508814
20.61345	3075.57095668378	7183.26429305093	7813.98890538099	-66.8214320402503
17.55618	3552.86972740508	8066.81487390201	8814.55532115592	-66.2298531167777
14.98558	4102.4975891952	9027.82316189675	9916.25319925988	-65.5616124403167
12.76553	4739.22260598529	10102.4077968379	11158.8025434046	-64.8678751419723
10.8809	5457.83428117265	11269.2899788399	12521.3757897415	-64.1586106873798
9.278505	6276.41039501343	12553.0493239197	14034.6847052363	-63.4353660625862
7.923394	7171.7157018264	13941.7608100484	15678.2078246343	-62.7784699504687
6.75822	8222.44181551774	15445.1136398241	17497.4308044539	-61.9707140508933
5.761429	9379.35964831111	17085.6509547418	19490.8146561306	-61.2349216503862
4.919708	10622.6598016102	18870.9089283128	21655.3020076244	-60.6243205281153
4.191257	12082.6189472742	20838.3174296727	24087.8632079483	-59.8936847477645
3.564097	13624.6988758987	22959.7208702513	26697.9625046326	-59.3143671211077
3.051758	15298.0095779398	25228.144369277	29504.0398143004	-58.7679372718915
2.604164	17083.4438139381	27701.0851977243	32545.2634599193	-58.3375886719687
2.214424	19161.7017192761	30512.7641271616	36030.5368744112	-57.8716020971888
1.892567	21204.1642605452	33519.4047168623	39663.1702535361	-57.6828125036932
1.607507	23590.3671875789	36893.9760979899	43791.2193980009	-57.4047560857162
1.376413	26050.0967017395	40563.680181866	48208.0873720032	-57.2913219014362
1.17375	28699.7673628521	44702.057022426	53122.0344934008	-57.2985870062785
1.001604	31621.8804205089	49224.3707748647	58506.2560715546	-57.2831916303233
