EC-Lab ASCII FILE
freq/Hz	Re(Z)/Ohm	-Im(Z)/Ohm	|Z|/Ohm	Phase(Z)/deg
6999984	16.2124495210562	92.44348091933	93.8543588969384	-80.0528036989859
5969734	16.8663177154734	92.1146544931823	93.6460476778259	-79.62400208511
5091109	14.2911469820699	97.3332404496456	98.376809149777	-81.647116059717
4341796	13.9641539114972	106.465097316239	107.376973979621	-82.527637599274
3702781	17.0092116449088	117.61969473457	118.843198670495	-81.7713906054808
3157797	17.8596111166906	130.426214660847	131.64331802259	-82.2028278252143
2693047	19.1190775749146	148.404247219813	149.630744568738	-82.658959525918
2296687	21.4834821698651	170.598954682758	171.946338562334	-82.8225389764278
1958656	25.826853037462	195.651845444911	197.349109356536	-82.4801966938372
1670375	31.1609953674919	225.553681613409	227.696005502196	-82.1341874813577
1424531	38.2794718560253	260.466753330142	263.264596092831	-81.6393811294827
1214875	47.6323069030003	300.082653435041	303.839489786165	-80.9806515524208
1036062	60.692575884055	348.049241953156	353.301377851273	-80.1082660135546
883578.1	74.8572481167251	393.654105015696	400.708325333175	-79.2331875730513
753531.2	82.8473538405464	472.121376940458	479.335246568135	-80.0471314168141
642624.9	175.158166774449	602.284623278103	627.237714766126	-73.7843589413572
548046.8	219.871529545302	678.884025668797	713.601436246357	-72.0543128789596
467390.6	275.391823800238	765.975185045145	813.977051716426	-70.2249159348864
398593.7	342.23982980854	859.2230853092	924.874267906529	-68.2819587558183
339937.5	421.579003500506	960.490004023093	1048.9375119714	-66.3023322778618
289906.2	476.278273554243	1079.98157747584	1180.33944335814	-66.2022365510524
247234.4	675.82791080904	1182.51981997605	1362.01926919729	-60.2513822992647
210843.7	727.200448238033	1319.9338997357	1506.99900185405	-61.1480039528649
179812.5	905.717368115657	1454.32968612544	1713.30055356673	-58.0864612703629
153343.8	1140.44112525404	1545.35406911853	1920.60541473565	-53.5733987688323
130781.2	1301.66956730268	1573.66626388396	2042.24610968621	-50.4038993785717
111531.3	1591.31968100707	1685.13998638864	2317.75648006566	-46.6401969181368
95109.37	1807.23354867282	1729.81374523775	2501.66918129915	-43.7460954216838
81109.37	2026.79211594501	1681.25139038512	2633.34246138415	-39.6761642084854
69171.88	2362.1281884203	1651.43878404384	2882.16925873099	-34.9586187994506
59000	2553.68730285819	1646.15847171871	3038.28184255352	-32.8066466167187
50312.5	2742.69461004308	1556.00761381971	3153.33687040003	-29.5674583698364
42906.25	2913.00928073062	1363.6101130664	3216.37305206962	-25.0847855497595
36593.75	3072.00830154713	1289.53524910766	3331.68668446864	-22.7711762434433
31203.13	3255.40853828326	1204.18576682944	3470.9866194156	-20.2995910138537
26609.38	3348.15360830174	1024.4278972772	3501.36903246483	-17.0124347403629
22703.13	3418.42340546284	935.390592127209	3544.09002973347	-15.3033646628452
19359.37	3489.41522056784	837.534639682213	3588.52098422151	-13.4968974897331
16500	3540.02140403492	748.881310685932	3618.36631071538	-11.9446516903206
14112.02	3582.19403330032	674.982385227683	3645.23185992058	-10.6709607821668
12011.13	3618.15045334814	607.341867077757	3668.77048158765	-9.52882098377506
10236.38	3649.34378867174	559.295900954966	3691.95368236683	-8.71331296523151
8750.684	3667.70350357163	511.513698882248	3703.20067701654	-7.93950481501757
7449.463	3679.5956347006	470.382610281402	3709.53957182868	-7.28491772281446
6363.206	3697.07098977589	449.179234135209	3724.25776334303	-6.927254548782
5414.761	3715.97341721089	423.881581405442	3740.07139403418	-6.50760880047228
4620.567	3721.62425365024	419.71666363649	3745.21683792699	-6.43450511539154
3941.215	3724.35205721837	415.837456680335	3747.49503488465	-6.37089534097611
3361.769	3719.03457065164	431.345586621068	3743.96543157111	-6.61578896177093
2867.244	3760.07346870808	414.239715884717	3782.822627655	-6.28680805496272
2442.658	3779.2878994023	462.942423720944	3807.53630504678	-6.98363359582287
2083.003	3786.29791913582	490.473866807314	3817.93354400952	-7.38094544927839
1777.843	3794.90081317089	541.359062490148	3833.31994703616	-8.11871455417859
1513.548	3807.34746358522	608.03129401194	3855.5929197682	-9.07348569440665
1292.065	3817.82646124249	671.971754553882	3876.51195368744	-9.98232853777701
1101.762	3840.75257743095	760.048551441911	3915.23360242929	-11.1936701786646
939.101	3859.82149001317	854.900228264564	3953.36266171652	-12.4886579280634
801.2801	3893.7510842643	969.131069968295	4012.54439688675	-13.9765834853946
684.3433	3921.02586850896	1097.45890188469	4071.71461461168	-15.6364422178886
582.9476	3960.34848753604	1246.73656108959	4151.95281710745	-17.4742501823943
497.0677	4000.50317643673	1421.11792264051	4245.4212764731	-19.556808528246
423.5089	4057.5614839611	1622.13660057	4369.79774669646	-21.7905990841226
361.5036	4111.07667245617	1845.76863158394	4506.4191159004	-24.1788647911444
308.1262	4179.26840156828	2105.29594213575	4679.58923158009	-26.7365655773422
262.7298	4250.89389270035	2400.54814773696	4881.87774289775	-29.4541158588036
224.2111	4342.36558773882	2742.32885128163	5135.80630730462	-32.2735896024408
191.2854	4434.7556297108	3138.34825400374	5432.88940239537	-35.2859381286529
163.1722	4548.74218340224	3581.06760321914	5789.22280015968	-38.2121367207892
139.1537	4681.59834500125	4101.64373002597	6224.21435620431	-41.2222621707562
118.6706	4825.77103429576	4690.7429732365	6729.86892267714	-44.1870953070181
101.1982	4992.05102916007	5369.39439605475	7331.5052791444	-47.085677333429
86.24196	5191.03991997717	6148.46268155476	8046.76884204263	-49.8261803041633
73.61024	5401.42638421941	7039.64967319075	8873.10962996604	-52.5014692186559
62.69291	5655.51916503113	8071.87358706391	9855.96470324313	-54.9831786124855
53.57697	5947.17422882057	9240.69130887725	10989.0516958429	-57.2352579811827
45.65746	6297.68485314414	10582.8653344055	12314.9451154149	-59.2438360165271
38.96512	6683.93856320748	12123.2827083991	13843.7357076947	-61.130700627452
33.18414	7145.61320148967	13892.7937089337	15622.7239962912	-62.7814493310034
28.30617	7738.72432283166	15952.7372587265	17730.6988071747	-64.1218267969324
24.17237	8334.3621602817	18194.7717505485	20012.7787094469	-65.3892094397618
20.61345	9056.23646511631	20815.6239987548	22700.3440804239	-66.4876268288071
17.55618	9940.86498955943	23830.0675980415	25820.3973336561	-67.3562308462254
14.98558	10958.2664055998	27218.6198999506	29341.7257821363	-68.0701935547379
12.76553	12159.5661335488	31090.606921376	33383.8417096604	-68.6394844199799
10.8809	13507.1179072952	35515.7035887355	37997.4661729501	-69.1774917896078
9.278505	15129.6464978029	40535.2845781599	43266.7944153584	-69.5320953690142
7.923394	16984.8078900097	46108.3104795959	49137.1549272376	-69.7778369673458
6.75822	19147.7176346319	52472.945027378	55857.3634399426	-69.9526463906403
5.761429	21734.2299196257	59755.8616790733	63585.6882891716	-70.012806959129
4.919708	24619.7147945113	67732.4059584803	72068.087066936	-70.0245525939292
4.191257	27911.2556485412	77088.623902096	81985.9385931333	-70.0963442056591
3.564097	31940.7364135873	87596.5725082069	93238.2440730616	-69.9663973777234
3.051758	36330.1543760338	98971.2129390715	105428.559259896	-69.8429249728727
2.604164	41347.8847259194	112198.518246055	119574.893133627	-69.769930149773
2.214424	47041.89357965	127226.481853957	135644.820898161	-69.7081652994579
1.892567	53770.8528415505	143815.437960854	153538.870684853	-69.4998378451484
1.607507	61278.3162937385	163315.121659431	174432.969963909	-69.4331455577951
1.376413	69648.0809691594	183962.049177249	196705.085648997	-69.2633208673184
1.17375	79343.1809402801	208244.318949464	222847.563900636	-69.1426559556638
1.001604	89975.816774993	235597.56005011	252194.087769504	-69.0979079518641
