EC-Lab ASCII FILE
freq/Hz	Re(Z)/Ohm	-Im(Z)/Ohm	|Z|/Ohm	Phase(Z)/deg
6999984	9.37580574999994	-3.45684812711833	9.99277401103885	20.2388689467257
5969734	5.2921604749847	-2.56461375646668	5.88083380251887	25.855115846157
5091109	2.90383531696069	0.463544660392704	2.94060082299635	-9.06970990253673
4341796	1.8979289970142	0.00218379602627296	1.89793025337403	-0.0659256698233428
3702781	1.21801060396304	-0.113441439137364	1.22328197545781	5.32098742365556
3157797	0.939927941837513	-0.0545122428995879	0.941507366127768	3.31921899170623
2693047	0.787432577680849	-0.00139608162625987	0.787433815274029	0.101582666879278
2296687	0.724382228647591	0.0749427488067839	0.728248603691876	-5.90666201704932
1958656	0.692917086930647	0.109893233060484	0.701577231695085	-9.0117724102931
1670375	0.678939211579239	0.127737772670118	0.69085120799385	-10.6552502794243
1424531	0.671543945492679	0.127908466203165	0.683616739448589	-10.7839136818989
1214875	0.670168300820813	0.118216484639408	0.680515017222658	-10.0039576945432
1036062	0.671225302739673	0.102217947773143	0.678963854623292	-8.65879603102481
883578.1	0.66676099201387	0.0898761214164873	0.672791154573387	-7.67691825750912
753531.2	0.664958193406247	0.0790838271595585	0.669644421089508	-6.78235925197136
642624.9	0.659567003107911	0.0687932113010935	0.663144884252203	-5.95445242674118
548046.8	0.656128965617863	0.0588521776769918	0.65876308210167	-5.12548906733677
467390.6	0.653139092229196	0.0502123363487085	0.655066372606299	-4.396164787379
398593.7	0.650698169682624	0.0423725996988249	0.652076333900835	-3.72576463298807
339937.5	0.648512735997212	0.0368663527352305	0.64955977147187	-3.25362219965729
289906.2	0.647395348185127	0.0319136397448375	0.648181469384543	-2.82213627851119
247234.4	0.64710763719534	0.0280271000181504	0.647714298477317	-2.48000713622031
210843.7	0.647143299579212	0.0246484989955879	0.647612537473608	-2.18123657507596
179812.5	0.647897161119104	0.0221559777308398	0.648275881654874	-1.95856626828088
153343.8	0.647866512376329	0.0194578514797119	0.648158642496476	-1.72028916410424
130781.2	0.648383606959752	0.0183815334827084	0.64864411085534	-1.62388786915789
111531.3	0.649408882212647	0.0165020688905092	0.649618514648672	-1.45562448867284
95109.37	0.650156543964208	0.0145137221973447	0.650318521796439	-1.27882575591373
81109.37	0.650782952757115	0.0127146558867679	0.650907147044483	-1.11927247983027
69171.88	0.651211596567297	0.0111974038564467	0.651307857588754	-0.98508805604181
59000	0.651806854191162	0.00980527690311487	0.651880601510526	-0.86184827205594
50312.5	0.651988760791912	0.00856717546681621	0.652045044988805	-0.752827008714038
42906.25	0.652447045117541	0.00757093730217946	0.652490969879465	-0.664825275044304
36593.75	0.652746086424147	0.00653589082298403	0.652778807262376	-0.573678576037098
31203.13	0.653063013079851	0.00589708744361603	0.653089637563828	-0.517360549001406
26609.38	0.653188117825458	0.00511656963021201	0.653208157139166	-0.448801565151642
22703.13	0.653562472055183	0.00463087282431493	0.653578878072109	-0.405967354979221
19359.37	0.653791815738287	0.00390367518002978	0.653803469711103	-0.342098890119295
16500	0.653838353929077	0.00345656631238488	0.653847490565924	-0.302895685381957
14112.02	0.65398421026816	0.0029096590403501	0.653990682957945	-0.254914538040096
12011.13	0.654145841067949	0.0027003784319365	0.654151414758212	-0.236521275013467
10236.38	0.654334546388573	0.00222431939936066	0.654338327010064	-0.194768293496237
8750.684	0.654440599485799	0.00185650047599017	0.654443232717208	-0.162534776561988
7449.463	0.65455882274091	0.00155755773185763	0.654560675884256	-0.136338114844576
6363.206	0.65455389047267	0.0013930053652233	0.654555372750737	-0.121935273677915
5414.761	0.654612843506557	0.00114681741379231	0.654613848061528	-0.100376476128969
4620.567	0.654754526621704	0.00100479035909104	0.65475529760001	-0.0879263897196737
3941.215	0.654791828680565	0.000777037244304175	0.654792289732949	-0.0679925004777182
3361.769	0.65495410621333	0.000828371986253777	0.654954630066732	-0.0724664414209972
2867.244	0.655052522333905	0.000712853328201316	0.655052910210984	-0.0623514445057577
2442.658	0.655144952322677	0.0005344653397221	0.655145170330273	-0.0467417193098561
2083.003	0.655262242018708	0.00044315516683958	0.655262391872054	-0.0387492445466786
1777.843	0.655284414380294	0.000454938813547642	0.655284572303552	-0.0397782538284218
1513.548	0.655429560600095	0.00033324637233562	0.655429645317923	-0.0291314432173198
1292.065	0.655547798369199	0.000281408790670542	0.655547858769756	-0.0245955139701855
1101.762	0.65559623711686	0.000242024703741329	0.655596281790664	-0.0211517282242399
939.101	0.655720158250903	0.000197598783933593	0.655720188023724	-0.0172658654323052
801.2801	0.655935691896619	0.000263010154913653	0.655935744626132	-0.0229738543338929
684.3433	0.656025651845074	0.000131868177271392	0.656025665098531	-0.0115170647469703
582.9476	0.656162556873516	0.000108906646993381	0.656162565911412	-0.00950967273426179
497.0677	0.656156313217687	6.68467776435217E-05	0.656156316622738	-0.00583708202240863
423.5089	0.656241580930904	3.58450307967818E-05	0.656241581909862	-0.00312959287982973
361.5036	0.656395782633607	-4.85140547594709E-07	0.656395782633786	4.23471731282483E-05
308.1262	0.656483120853818	3.42460919486936E-05	0.656483121747059	-0.00298889106112166
262.7298	0.656500756201749	1.68730673192496E-05	0.65650075641858	-0.00147258862307108
224.2111	0.656648888227036	0.000106030869855547	0.656648896787581	-0.00925170421658209
191.2854	0.656675233519738	3.2753102284214E-05	0.656675234336555	-0.00285775133505652
163.1722	0.656855674578769	9.78165174153361E-05	0.656855681862006	-0.00853227549070402
139.1537	0.657097232923051	3.43295324294568E-05	0.657097233819811	-0.00299337330995297
118.6706	0.657226250642197	4.00506185257864E-05	0.657226251862517	-0.00349153948633859
101.1982	0.657174050164918	4.72789479095135E-05	0.657174051865608	-0.00412201937931157
86.24196	0.657325476123564	1.85809479012719E-05	0.657325476386183	-0.00161960844738605
73.61024	0.657481914863768	3.86716858404036E-05	0.657481916001061	-0.00337001571094914
62.69291	0.657390612893026	3.223727210073E-05	0.657390613683455	-0.00280968361379182
53.57697	0.657506411208324	1.86193783336643E-05	0.657506411471958	-0.00162251162453398
45.65746	0.657717816817661	-3.55571525596309E-06	0.657717816827273	0.000309749062752634
38.96512	0.657779834086464	3.98654112512523E-05	0.657779835294506	-0.00347246858612766
33.18414	0.65781867197676	-3.49587866271075E-05	0.657818672905676	0.00304489825855349
28.30617	0.657827812335464	-6.29392351891627E-05	0.657827815346394	0.0054819094959116
24.17237	0.657761482259323	-1.10050205159372E-05	0.657761482351386	0.000958616832948971
20.61345	0.657795823599766	1.03429907703463E-05	0.657795823681081	-0.000900902221287648
17.55618	0.657913246766873	4.13832564485465E-05	0.657913248068392	-0.0036039492220809
14.98558	0.657979256476743	1.2612705672059E-05	0.657979256597629	-0.00109829420311935
12.76553	0.65815613202841	-3.84112358238785E-05	0.658156133149286	0.00334388998140676
10.8809	0.658187272329402	1.85327369968221E-05	0.658187272590317	-0.00161329101473694
9.278505	0.658346637664323	7.48002919386693E-05	0.658346641913668	-0.00650985479502919
7.923394	0.658583460797058	6.26503994028181E-05	0.658583463776994	-0.0054504913552156
6.75822	0.658878207180008	1.9526138993125E-05	0.658878207469341	-0.00169798506305539
5.761429	0.659043223276057	-5.15380302269962E-06	0.659043223296208	0.000448060386947861
4.919708	0.659160651152609	5.487892769221E-05	0.659160653437102	-0.00477020424111189
4.191257	0.65932681247523	3.62473816435406E-05	0.659326813471605	-0.00314991282803404
3.564097	0.659475775037545	-4.42448826946712E-05	0.659475776521762	0.00384403057035441
3.051758	0.659605983091448	-1.68585197343342E-05	0.659605983306887	0.00146439246181173
2.604164	0.659866959900328	1.33096551550561E-05	0.659866960034557	-0.00115566790489257
2.214424	0.660015030287573	-6.41634733739829E-06	0.660015030318762	0.000557001894564682
1.892567	0.660137040153508	4.72166846772682E-06	0.660137040170394	-0.000409811386122533
1.607507	0.660314992086711	-7.37723061363465E-05	0.660314996207739	0.00640125064496214
1.376413	0.660737155358671	1.96915001457187E-05	0.660737155652097	-0.00170754715569832
1.17375	0.660706146766007	3.82784863217426E-06	0.660706146777095	-0.000331947223905167
1.001604	0.660881013459009	-8.05163895476203E-06	0.660881013508057	0.000698045368005989
