EC-Lab ASCII FILE
freq/Hz	Re(Z)/Ohm	-Im(Z)/Ohm	|Z|/Ohm	Phase(Z)/deg
6999984	12.6755389033487	90.3504537306478	91.2352660752641	-82.0139236401597
5969734	19.7039602185466	82.5905168011267	84.9084183916487	-76.5815388971858
5091109	18.6344282630498	82.038279651706	84.1280051166214	-77.2027970344462
4341796	18.1899391831348	86.1159170340943	88.0160499801551	-78.0729480379114
3702781	20.7131894551624	93.618916736824	95.8829379419604	-77.5242836532941
3157797	21.3563772801368	101.103660922414	103.334626831697	-78.0726042632343
2693047	20.5916873906853	112.929688916421	114.791690589325	-79.6661717788316
2296687	20.4944244348112	129.04614969622	130.663423284152	-80.9759532985007
1958656	22.5842884701455	147.086577507987	148.810320101516	-81.2707400840955
1670375	24.4178799669525	168.830807921025	170.587439647081	-81.7704165772291
1424531	26.3443301645034	193.915061069647	195.696383823159	-82.2634467599392
1214875	28.9936806092749	223.207584307003	225.082783009809	-82.5989708447678
1036062	31.4790216733472	257.775458893264	259.690423414387	-83.03762733272
883578.1	34.6236266692445	298.72103925038	300.72089188242	-83.3885639822376
753531.2	37.8801739929316	345.309439388197	347.380938613975	-83.7397298148733
642624.9	48.6609121088486	406.048544294014	408.95391511826	-83.1662563577268
548046.8	45.7239994182897	456.715628226408	458.998746391584	-84.2828938046573
467390.6	180.75447253556	663.094798925033	687.289525384345	-74.7520846573331
398593.7	186.769718320639	733.719194622458	757.117417735848	-75.7185498661598
339937.5	237.550383065979	838.140500415704	871.154224538848	-74.1759182985496
289906.2	194.410453803006	979.918603812869	999.017464635355	-78.778545562615
247234.4	301.608896532715	1015.9905741626	1059.81355589317	-73.4658517030439
210843.7	268.788782068031	1326.73760863213	1353.69128368492	-78.5472425007207
179812.5	258.094579574583	1388.70345139182	1412.48365934383	-79.4715380158257
153343.8	459.159037794117	1662.43560167294	1724.67943447404	-74.5600292044053
130781.2	441.994611389665	1963.20229839521	2012.34254065299	-77.3120027901981
111531.3	503.428908882434	2073.12726233112	2133.37697374821	-76.3507514973071
95109.37	521.578935211881	2591.97620636189	2643.9336678523	-78.6224145634418
81109.37	488.569409554992	2881.71290568094	2922.83583848306	-80.3774988814866
69171.88	693.047637677986	3423.37117875376	3492.81909860974	-78.5553785014115
59000	661.273434956208	3912.78336449961	3968.2686669735	-80.4074645741719
50312.5	850.79415797599	4493.24031509634	4573.07984059465	-79.2779928726305
42906.25	2304.67894583946	5716.82053167043	6163.89341526314	-68.0436656088234
36593.75	2469.80717386798	6708.91283995126	7149.08798170456	-69.7894107148075
31203.13	2508.12236662433	6985.65987552012	7422.27200407079	-70.2498968947541
26609.38	3660.15477997321	8299.46929444902	9070.71791992579	-66.2020073679344
22703.13	3822.40379920427	9036.5688234609	9811.74535469184	-67.071986484061
19359.37	4182.69917109645	11196.2893505372	11952.0654104989	-69.5153650013964
16500	4919.29742816327	11932.1441305109	12906.4151001747	-67.5949823594564
14112.02	5582.20696924327	13617.230163188	14716.9967032919	-67.7094593269236
12011.13	6146.77770408738	15509.072160186	16682.7514341406	-68.3798772430061
10236.38	7549.85452008049	17720.0596533373	19261.3815026912	-66.9229601615475
8750.684	8823.48069988161	20248.0293835744	22087.021202038	-66.4538796146739
7449.463	10578.5966324063	22843.0072401019	25173.5910525794	-65.1511454758849
6363.206	12246.7929018015	25350.2430203194	28153.4857090355	-64.2146459597436
5414.761	14898.1196075753	28064.0821018373	31773.3641917296	-62.0379220002621
4620.567	17924.3472704643	31330.3430035056	36095.3268137236	-60.2257710858223
3941.215	34149.7371516057	39638.3430662388	52320.1948444442	-49.2540189203677
3361.769	37476.4291923277	41666.4107339491	56040.8112758702	-48.0305248446454
2867.244	42430.8009704167	43906.2317811952	61058.4151466049	-45.9790437296015
2442.658	47853.2384205363	45872.7237694658	66289.0580213839	-43.7894683267752
2083.003	53740.9136921396	47603.8572467768	71792.848036817	-41.5346158423497
1777.843	59987.5729679352	48744.2597133871	77294.9659783189	-39.0963652972807
1513.548	66566.8249711179	49226.509839639	82791.2523019643	-36.4831162528449
1292.065	73158.757502953	49254.0422500331	88193.9027220359	-33.9503620490471
1101.762	79809.4891632099	48608.6092396032	93447.0515998282	-31.3438395291261
939.101	86323.1761834833	46951.8970682318	98265.8200225823	-28.5421389362939
801.2801	92352.3300783257	45064.2316647317	102760.585082164	-26.0105191889304
684.3433	97535.7344512197	42724.3441456509	106482.811183847	-23.6552386621743
582.9476	102903.525387757	39671.8592696068	110285.955384792	-21.0828873451549
497.0677	107363.313258867	36519.0970707432	113404.256907684	-18.785481285285
423.5089	110968.464010171	33304.051067244	115858.361037372	-16.7056444889601
361.5036	113872.413777633	30193.3701209807	117807.326677108	-14.8503040159234
308.1262	116709.992554505	27247.7478961948	119848.496559144	-13.1411995609379
262.7298	118852.434094371	24495.870146041	121350.520165216	-11.6457739860685
224.2111	120279.995658406	22005.9858148797	122276.493109963	-10.3679577817898
191.2854	121839.495463133	19570.0562558708	123401.174048583	-9.12500032976686
163.1722	122654.261061263	17779.8558416187	123936.237760524	-8.24809415389709
139.1537	123702.870496419	16077.4604948602	124743.275991204	-7.40512999781086
118.6706	123768.409463203	14406.0616693042	124603.987873064	-6.63908542572095
101.1982	124526.98717101	14109.0724169668	125323.726637681	-6.46412130382185
86.24196	126617.996162088	12922.1672910216	127275.682514766	-5.82722141875443
73.61024	126401.546021951	5334.84849504768	126514.07607537	-2.41676634662495
62.69291	107980.588988376	989.627476126418	107985.123794058	-0.52509335929183
53.57697	119082.972236336	11530.1054166549	119639.86629698	-5.53037484988612
45.65746	126119.746674317	2225.82081434606	126139.386313282	-1.01107799458674
38.96512	130678.084158488	11347.7911878557	131169.867134857	-4.96298677748177
33.18414	128844.205302449	7396.01098779085	129056.306388146	-3.28532968403983
28.30617	137627.434477295	15713.1914300032	138521.533003783	-6.51336702631334
24.17237	132828.514333144	13164.2696230437	133479.257619521	-5.6599446715926
20.61345	128542.138913213	10123.6658064891	128940.180261024	-4.50318069843794
17.55618	128649.09127106	12213.9703872433	129227.588995114	-5.42341680756449
14.98558	133231.910111161	16789.2795178353	134285.597807794	-7.18229525212858
12.76553	243533.991511899	17487.9686262126	244161.082214978	-4.10731097975277
10.8809	245978.628587358	18717.9086508293	246689.776492619	-4.35157434697294
9.278505	246032.671263659	21279.9582962692	246951.233959709	-4.94334750313807
7.923394	247490.62529396	24633.6306471501	248713.540779861	-5.68413323082964
6.75822	250281.676152016	30258.7104793003	252104.1589846	-6.89352452338265
5.761429	247087.85888496	21677.43595609	248036.935229381	-5.01381844715018
4.919708	252104.721163127	36125.3902005448	254679.866204377	-8.15469630371281
4.191257	250023.697815708	41962.9025514096	253520.67895929	-9.52748026253446
3.564097	254963.565431171	48868.4528585573	259604.594300956	-10.8501991692176
3.051758	255702.408565178	48247.4582607062	260214.409621473	-10.6852847270451
2.604164	254079.601444708	56776.2634301442	260345.900600319	-12.5962937794567
2.214424	258337.107937901	72845.6715210345	268411.164441923	-15.7473439287141
1.892567	260058.393303313	68522.6788578633	268934.425920815	-14.7613351294955
1.607507	266256.855672933	89137.8287650361	280781.526653343	-18.5095849181957
1.376413	258556.916072455	101337.560211869	277706.643706255	-21.4019618116854
1.17375	267818.980762308	103601.331457309	287158.914777669	-21.1481357788644
1.001604	279284.205024825	121219.479470098	304456.613295475	-23.4625930627175
