EC-Lab ASCII FILE
freq/Hz	Re(Z)/Ohm	-Im(Z)/Ohm	|Z|/Ohm	Phase(Z)/deg
6999984	-15.615686850805	30.2129587693489	34.0098890533442	-117.332359934952
5969734	-13.6234607060049	37.0690953735106	39.4932464279462	-110.179153750083
5091109	-12.0282897772354	42.467901597639	44.1384460654416	-105.81384560476
4341796	-10.4797689907809	47.8875641553624	49.0208563657764	-102.344070493228
3702781	-16.4797730295672	48.2827201514099	51.0176830552448	-108.845709073475
3157797	-15.535983479328	56.4780358637322	58.5758936568191	-105.380517624303
2693047	-15.6038605859087	65.670123448796	67.4984857531232	-103.366169903962
2296687	-15.2161811907889	76.3695263876648	77.8706410061401	-101.26828493709
1958656	-14.8976911368879	89.0429270549034	90.2805851759666	-99.4981318290334
1670375	-14.4100183434575	104.219687926602	105.21117801915	-97.8721349022316
1424531	-14.2443034879635	121.714334790378	122.545009997639	-96.6749968850853
1214875	-13.5580918635123	142.786629300684	143.428879107488	-95.4241727225352
1036062	-12.8789555388219	166.313320699917	166.811235047296	-94.4280282999207
883578.1	-11.8638108821079	193.672350911037	194.035382124123	-93.5053943624216
753531.2	-10.7152060153432	226.04426609803	226.298090747024	-92.7139677600073
642624.9	-9.26916447247797	264.394937916026	264.557367324437	-92.0078545732881
548046.8	-7.93401478436287	308.868910353125	308.970795340474	-91.4714514854866
467390.6	-5.75832335865558	361.249374962364	361.295265950996	-90.9132187056907
398593.7	-3.00777856921941	422.156580361976	422.167295126989	-90.4082137050624
339937.5	-0.362341750286506	491.195399338865	491.195532983772	-90.0422655613123
289906.2	-103.895804945082	501.355155517764	512.007158396666	-101.707686270176
247234.4	-109.972017835386	602.773242828039	612.722961032323	-100.339520351183
210843.7	-115.338717691545	722.880585241875	732.024152824459	-99.0653768063711
179812.5	-117.094449506986	862.03456817576	869.950979558799	-97.7354271723134
153343.8	-115.434931733423	1018.59022396559	1025.11036860553	-96.4656381067445
130781.2	-111.804873668791	1208.87077771478	1214.03001898175	-95.2840845416257
111531.3	-116.898213071703	1413.06646173874	1417.89351416466	-94.729117621262
95109.37	-94.1952877208605	1679.13799827724	1681.77797865453	-93.2107794641653
81109.37	-94.5330952323132	1957.89033664492	1960.1711854891	-92.7642734544198
69171.88	-87.8078035866918	2280.08881887522	2281.77896219825	-92.2054104210492
59000	-55.3504110122563	2687.48920104492	2688.0591276481	-91.1798732635446
50312.5	-23.5252524352036	3140.12793536625	3140.21605753007	-90.4292412561437
42906.25	-23.4979004131564	3725.82946856332	3725.90356559837	-90.3613457574207
36593.75	11.1241684375694	4327.91035057339	4327.92464695537	-89.852731122683
31203.13	-957.366836676559	4797.65777091165	4892.2460431541	-101.285072600487
26609.38	-656.816823601157	5678.84350876887	5716.7011411173	-96.5975329911836
22703.13	-650.896401517616	6669.58491279141	6701.27070296697	-95.5739438901824
19359.37	-631.883630532026	7814.71271466238	7840.21758213636	-94.6227766544857
16500	-571.63115914269	9233.17234485234	9250.85043289799	-93.5426939148846
14112.02	-403.343596452994	10875.7049010296	10883.1816648937	-92.1239358225816
12011.13	-463.066871594017	12582.5611057028	12591.0791795745	-92.1076638211999
10236.38	-305.622933333346	14684.4601134097	14687.6401848527	-91.1923064476989
8750.684	-231.203906534037	17345.3284822596	17346.869325728	-90.7636767211615
7449.463	-29.0879933414583	20331.6686100473	20331.6894177571	-90.0819715365149
6363.206	178.621576898746	23767.1918871632	23767.8630900838	-89.5694034929908
5414.761	-92.7722546708997	27646.2875787701	27646.4432356008	-90.1922659120776
4620.567	226.033942634275	32558.2932058988	32559.0778097983	-89.6022339746519
3941.215	-6370.20486863732	34281.1769080067	34868.0168674168	-100.526762958632
3361.769	-6434.46906858556	40933.6831760364	41436.322357935	-98.9333673303729
2867.244	-6413.04204564543	48498.265678789	48920.4341980897	-97.5326574086166
2442.658	-6833.96187576282	58099.2258982274	58499.769955895	-96.7086295076594
2083.003	-5736.09887338783	68145.2181770235	68386.2090679065	-94.8115089522018
1777.843	-6053.83172189352	80259.4912213357	80487.4823163495	-94.3135513324536
1513.548	-4588.15528704199	94231.7988592139	94343.4315953229	-92.7875355409021
1292.065	-4041.7126168077	110131.00282511	110205.141550389	-92.1017623559101
1101.762	-2986.65078918536	130674.496740956	130708.623209942	-91.3093044294646
939.101	-2161.76971338863	152005.742422933	152021.113592293	-90.8147845564872
801.2801	598.562613426226	178391.07895109	178392.08313862	-89.8077539357653
684.3433	3263.78139603893	208914.130804944	208939.623621243	-89.1049639042578
582.9476	3156.97604342045	244650.149830272	244670.517859658	-89.2606938329744
497.0677	5006.14258912039	272793.698650135	272839.629612055	-88.9486610177461
423.5089	-68640.2137593446	312493.303624937	319943.032046888	-102.38847472235
361.5036	-51066.778155872	352295.684200826	355977.618591042	-98.2478233284989
308.1262	-70470.4078972978	453272.059389748	458717.383813427	-98.8370531250114
262.7298	-63408.1520813569	482083.557800026	486235.694341236	-97.4930660249731
224.2111	-43141.3910147332	593816.141594993	595381.213708873	-94.1553003894384
191.2854	-39431.8019711813	755369.368065051	756397.877586716	-92.9882426565365
163.1722	-39687.7142769494	709266.915358908	710376.429709819	-93.2027007592539
139.1537	87731.5939417376	993735.77497851	997600.933764448	-84.9547441152277
118.6706	-20664.7953587532	954182.936149731	954406.679254992	-91.2406640856079
101.1982	58729.7831677939	639744.604297704	642434.701863903	-84.7548391405065
86.24196	903512.099475856	750797.864386741	1174747.43969372	-39.7258052718555
73.61024	24345.8935243698	296129.002408438	297128.101328226	-85.300065778353
62.69291	12263.0138118189	50615.1276071137	52079.4839685769	-76.3808317815515
53.57697	95672.0617442663	115671.972937745	150110.455071288	-50.4059161900106
45.65746	136238.468363936	-343534.686541765	369563.257263895	68.3677878335289
38.96512	404204.601698235	-249676.542358388	475099.711469149	31.7035596216431
33.18414	672412.653620932	159517.44700803	691074.954436567	-13.3456538205524
28.30617	153348.840951548	680150.050224561	697223.033068799	-77.2943556901081
24.17237	652753.977540649	370780.160797383	750710.119044676	-29.597630327328
20.61345	835733.566951468	-322689.513004477	895867.800924049	21.1123373758247
17.55618	923788.493445962	211226.632857703	947629.606466346	-12.8794208739206
14.98558	2231500.78384626	2628263.13257483	3447805.51109812	-49.6674079695546
12.76553	2047247.13221489	-597235.683544316	2132583.24153143	16.2633497190089
10.8809	4029325.74460177	5367664.32388897	6711727.51607669	-53.1056704023552
9.278505	-222027.048839101	1945933.49231211	1958558.95160657	-96.5091828991744
7.923394	1780351.50537012	1530438.99490484	2347742.53268943	-40.6832578545648
6.75822	1117514.83295262	-863091.993243576	1412008.21196985	37.6800422756071
5.761429	539242.32637645	-377619.92584458	658315.346130372	35.0027365496757
4.919708	1425537.77996481	552489.694803097	1528856.70517894	-21.1846274608363
4.191257	1070268.82333687	-190142.685437837	1087027.87224266	10.073990325842
3.564097	1900282.53136889	1298842.8568499	2301752.91154714	-34.3526013395407
3.051758	-1087712.32457159	-1695867.26173581	2014716.821405	122.675707036563
2.604164	8325152.12242852	315588.720303341	8331131.62193221	-2.17092104293243
2.214424	9124210.67963664	3902870.16887392	9923891.17642275	-23.1587592735375
1.892567	357003.36357443	2712576.86591484	2735968.68679081	-82.5023701605087
1.607507	3222989.8811649	1175147.99132437	3430544.64707938	-20.0325754925888
1.376413	-19701.3502983151	-4356099.82793642	4356144.37939691	90.2591300867693
1.17375	-4201832.70458058	8576231.86389401	9550243.50791926	-116.102047661468
1.001604	18345699.4282973	2797260.47803438	18557730.2948232	-8.66940147981268
