EC-Lab ASCII FILE
freq/Hz	Re(Z)/Ohm	-Im(Z)/Ohm	|Z|/Ohm	Phase(Z)/deg
6999984	45.4215867593544	52.5802102478372	69.4823650536186	-49.1777983448815
5969734	45.3700042826877	44.7742266709097	63.742989124994	-44.6213285607918
5091109	46.5432505179459	40.3498820452977	61.5985969795231	-40.9230979876066
4341796	49.5946772280767	36.1968654746128	61.3990641585385	-36.123980577279
3702781	51.7445116212363	31.0022202361811	60.3210754421117	-30.9275226656061
3157797	52.4523555163157	27.5921349212935	59.2669849808883	-27.7462489926556
2693047	54.3636003701184	24.9997516372716	59.8363487115249	-24.6959019054704
2296687	55.9850711629852	22.2630487208183	60.2492450697106	-21.6857592667696
1958656	56.9646311609466	19.7727957191587	60.298695291476	-19.1422219972673
1670375	58.0065464779183	17.4554743674157	60.5760102655036	-16.7477225094345
1424531	58.7889643034571	15.3087031663725	60.7494750307297	-14.5957331379688
1214875	59.404200595305	13.5359687173603	60.9268536647396	-12.8363745547724
1036062	59.9007261128202	12.0151998265622	61.0938787090435	-11.3421693800067
883578.1	60.2633634769507	10.7025999829619	61.206360976212	-10.0705640382272
753531.2	60.6359773968503	9.54574718023292	61.3827585246888	-8.94648386953795
642624.9	60.9383893555014	8.60842378222011	61.5434176598682	-8.04064905459202
548046.8	61.2106397836733	7.85695276073716	61.7128360182148	-7.31444796757551
467390.6	61.4183731559732	7.24461224469715	61.8441668041731	-6.72724644165773
398593.7	61.6383723827647	6.79821146533452	62.0121329186779	-6.29382105837512
339937.5	61.8323123514804	6.48645667334373	62.1716090422808	-5.98865227753254
289906.2	62.0256000568446	6.29447800350233	62.3441698617297	-5.79464876810124
247234.4	62.2132081445197	6.21816005620232	62.5231859562345	-5.70771101705706
210843.7	62.4132739903349	6.25367020806173	62.7257934287308	-5.72181150839523
179812.5	62.6865057577876	6.39070745160443	63.0114207572971	-5.82102774498906
153343.8	62.8572135146078	6.66446326948663	63.2095274582189	-6.0521990265905
130781.2	63.1103557628927	7.06768989281628	63.5048757572196	-6.38989462146265
111531.3	63.3959082300539	7.56680935473481	63.8458908945934	-6.80650942303613
95109.37	63.7085159480173	8.19606097366684	64.2335614751575	-7.33080018304854
81109.37	64.046483757739	8.97105006639208	64.6717235043573	-7.97359580382786
69171.88	64.4451837085724	9.89267471799574	65.200051505407	-8.7270811410485
59000	64.8639762103569	10.9647483718925	65.7842011175682	-9.5946996710592
50312.5	65.3478499483957	12.2452844252919	66.4852501201156	-10.6133556054443
42906.25	65.864847568927	13.648092575871	67.2640214099449	-11.706788261672
36593.75	66.4643693767003	15.3207710471956	68.2073194175159	-12.980570843073
31203.13	67.1769087935987	17.2552727752158	69.3576348617122	-14.4057403331035
26609.38	67.861460934674	19.436623365288	70.5900857630329	-15.982571751505
22703.13	68.6841904566455	21.934348394799	72.1015510109816	-17.710921858829
19359.37	69.6111842355263	24.798540273315	73.8964449101553	-19.6081168988
16500	70.612523561775	28.1039438006956	75.9997377687245	-21.7026672513039
14112.02	71.734254113329	31.7762238892332	78.4571960871298	-23.8919733639664
12011.13	73.0395509288014	36.0924244339638	81.470479938456	-26.2962360526283
10236.38	74.4428651338749	41.0029839062155	84.9881454001301	-28.8458867818045
8750.684	76.0429583899404	46.5046886334181	89.1359500178541	-31.4482095210872
7449.463	77.8869441613012	52.991470385033	94.2044160554774	-34.229959723493
6363.206	79.9154810751358	60.2440273829938	100.079103467174	-37.0106957906014
5414.761	82.1890347625232	68.6623650254286	107.096021429745	-39.8760577240506
4620.567	84.7620905314396	78.2233170134484	115.340796407197	-42.7025960373018
3941.215	87.7700388324799	89.1840982216529	125.129465323977	-45.4578469416828
3361.769	91.1255769954657	101.607369979152	136.484169107031	-48.1129677417868
2867.244	94.956894818503	115.924507289907	149.850936813822	-50.6781685455229
2442.658	99.431349206141	132.45761643012	165.624917676364	-53.1057105094009
2083.003	104.411730722384	151.112019178573	183.675398060462	-55.3572398386146
1777.843	110.186576290785	172.313691542812	204.531390959423	-57.4029799165513
1513.548	116.916374113309	197.137114380381	229.199651836617	-59.3290348406631
1292.065	124.39037882955	224.905650022299	257.012680148882	-61.0539815786839
1101.762	133.225364852138	256.702229152214	289.214509130682	-62.5712311159699
939.101	143.559387197829	293.0675820885	326.340168112685	-63.9020401867202
801.2801	155.234031012838	334.304608636596	368.58808409953	-65.0922454145455
684.3433	168.395774955518	381.046627625825	416.597730968237	-66.1579469134888
582.9476	184.424401154681	435.764463554758	473.183925591761	-67.060928398615
497.0677	202.417270142146	497.232820626258	536.854942381779	-67.8493756204945
423.5089	223.661301648187	567.744783730994	610.21186264175	-68.4981930277007
361.5036	248.245640957436	646.844715819052	692.84484889288	-69.0042293523602
308.1262	276.74613016425	737.992696173656	788.176147930493	-69.4440317559026
262.7298	309.848245729129	841.136100100524	896.390469758429	-69.7777796715663
224.2111	348.253015383669	957.706756293561	1019.05956340842	-70.0171041425925
191.2854	392.86480421898	1089.95456893806	1158.59557945944	-70.1787355365989
163.1722	444.520895092738	1239.61780552979	1316.9096893715	-70.2724141361028
139.1537	504.82447039505	1409.38063547485	1497.06430107766	-70.2930406167275
118.6706	576.036909573318	1602.65795802027	1703.03583391439	-70.2302444423811
101.1982	655.962894538799	1818.50783202065	1933.19891737301	-70.1648699579567
86.24196	754.778575450354	2065.70905131169	2199.28274276635	-69.9284675716857
73.61024	863.931204689607	2339.50277457728	2493.92268498669	-69.7318284563968
62.69291	991.781642091129	2651.30817069051	2830.73591872488	-69.4905559288673
53.57697	1137.55989619793	2994.39641409983	3203.19409374639	-69.19840474913
45.65746	1310.92807898268	3384.31549211637	3629.3420586167	-68.8259248865155
38.96512	1507.5569495365	3816.21217741092	4103.19428483653	-68.4439912202813
33.18414	1736.83825838352	4305.71787542849	4642.82387761685	-68.0318626782437
28.30617	1999.0317993146	4850.43355643314	5246.22090842957	-67.601743261439
24.17237	2298.45287490982	5438.03014374878	5903.81719419746	-67.0880293023247
20.61345	2642.79722589576	6102.83571047792	6650.48726683142	-66.5852588370974
17.55618	3038.76792561691	6848.25940156092	7492.18041272536	-66.0717740611011
14.98558	3485.33351312439	7658.8711160621	8414.62158805483	-65.5310737898362
12.76553	3991.44464864918	8563.07832732636	9447.64207742634	-65.0087081680154
10.8809	4576.09546841567	9576.61825825191	10613.7772258673	-64.4596427129415
9.278505	5222.87388298661	10664.3324643572	11874.6115097685	-63.9066238490813
7.923394	5955.20199204351	11863.8102910444	13274.5781623346	-63.345010618294
6.75822	6757.39939847148	13186.0207813912	14816.6659771266	-62.8663616762417
5.761429	7681.94183533693	14672.5914520904	16561.919281335	-62.3653673801794
4.919708	8713.56853167516	16255.6357948336	18443.7515611785	-61.8071918961629
4.191257	9842.33032094445	18013.2537377695	20526.7819291736	-61.3480808149246
3.564097	11147.7005516126	20028.2992505253	22921.6927485082	-60.8997986360142
3.051758	12510.6264552935	22063.7205320536	25363.8234109223	-60.4457868791526
2.604164	14067.5973430934	24432.6927838518	28193.1511484171	-60.0679785090433
2.214424	15790.6246230579	27024.9860741132	31300.0590780965	-59.7023741399703
1.892567	17725.6771546569	29841.1209107238	34708.6751086751	-59.2896153443581
1.607507	19855.6768010589	33074.5875378634	38576.8874072014	-59.0223305329296
1.376413	22122.2751932043	36383.0892787131	42580.7966715827	-58.6988385617987
1.17375	24737.5310637069	40201.6993226042	47202.9879515369	-58.3945406768047
1.001604	27531.3418357687	44408.9994904821	52250.684388088	-58.203172773231
