EC-Lab ASCII FILE
freq/Hz	Re(Z)/Ohm	-Im(Z)/Ohm	|Z|/Ohm	Phase(Z)/deg
6999984	14.8676001972852	-0.0348442325132036	14.8676410283156	0.134280165036025
5969734	12.3263628203123	-4.46700277330229	13.110809820704	19.9202241985416
5091109	10.7831626862529	-7.16489704143345	12.9465187263812	33.6021412194784
4341796	7.42134018240949	-5.88639877176744	9.47237988064832	38.4204641750987
3702781	5.68512159302685	-6.22859858650289	8.43303313638017	47.6118932316331
3157797	3.82668440189761	-5.26171383518606	6.50608530493682	53.9727446224605
2693047	3.32447764348276	-4.01482393930405	5.21257737262725	50.3735211562739
2296687	2.3303745377358	-3.58074984510018	4.27228451057655	56.9436683000847
1958656	1.85395443643121	-3.46920175863227	3.9335108865313	61.879785648806
1670375	1.3200011148566	-2.94018112445001	3.22289745226168	65.8221936455422
1424531	1.21372153194449	-2.5971835580284	2.86678956172209	64.952271825195
1214875	0.910953693585759	-1.87160305331156	2.08152218845313	64.0467120299908
1036062	0.929730532145745	-1.80655849569038	2.03176092608237	62.7677556396997
883578.1	0.8311416795207	-1.51952573672055	1.73198006801251	61.3224696014822
753531.2	0.65744792172975	-1.46639804815924	1.60703484885424	65.8512999015348
642624.9	0.711398658879022	-1.15283750538665	1.35466688365848	58.3218896283821
548046.8	0.605317958361267	-0.940831251534023	1.11873735728174	57.2433252269381
467390.6	0.540378040948717	-0.937709977317266	1.08227003501895	60.0462634086078
398593.7	0.515825978654708	-0.788795866007911	0.94248361178657	56.8176806105134
339937.5	0.494095461421028	-0.667938483999204	0.83082618122205	53.508482650644
289906.2	0.47172865071432	-0.578276906291147	0.74627883545925	50.7941982286148
247234.4	0.454679887496252	-0.499937745015712	0.675774776819171	47.7143266262465
210843.7	0.441328759517331	-0.432015963745946	0.617583085024553	44.3890572002237
179812.5	0.430828742893012	-0.371095515766367	0.568616995458876	40.7400551607961
153343.8	0.423111541940428	-0.322584394680561	0.532056452469689	37.3222530508597
130781.2	0.415973351348473	-0.279250851936518	0.501013839468882	33.8742159580742
111531.3	0.410229318039199	-0.243198984777665	0.476900240695885	30.661017076779
95109.37	0.404078218624367	-0.212032882456823	0.456330088871631	27.6874463341413
81109.37	0.397125922163592	-0.184854626382232	0.43804135757848	24.9610896913688
69171.88	0.391265685198204	-0.159338703341359	0.4224661629008	22.1580770251856
59000	0.383130070516792	-0.134476886064	0.40604517460459	19.3408378169494
50312.5	0.376863254852081	-0.105725390416071	0.391412533059859	15.6709571954672
42906.25	0.403932351578311	-0.105159229323721	0.4173964640046	14.5923927940232
36593.75	0.390082196523224	-0.0944933442358223	0.401364064347137	13.6170009027484
31203.13	0.384847198856814	-0.0828400902358051	0.393662097512845	12.147816794896
26609.38	0.380313023074138	-0.0708063733158046	0.386848210570925	10.5465315377982
22703.13	0.38084057749097	-0.0628529671361038	0.385992280935082	9.37147531407624
19359.37	0.378374169822206	-0.0558681947507743	0.382476492837605	8.39922323151874
16500	0.376018170732155	-0.0497554255650969	0.379295751484142	7.53769524287028
14112.02	0.374188608833983	-0.0443251639327052	0.376804770589191	6.75559066378285
12011.13	0.37312562410888	-0.037651480590219	0.375020486583436	5.76211622449371
10236.38	0.374161030667771	-0.0340605675293458	0.375708130243131	5.20140425631822
8750.684	0.374523584435915	-0.034282121752682	0.376089323393515	5.23001089311351
7449.463	0.368999803290317	-0.0337171494339991	0.370537044024275	5.22087164332338
6363.206	0.369051613457225	-0.0308352395219387	0.3703375560104	4.77612060330442
5414.761	0.369184383850587	-0.0266478850857408	0.370144862261629	4.12847374887372
4620.567	0.365465172262053	-0.0259456449176231	0.366385000548226	4.06081373580452
3941.215	0.36352054351147	-0.0187059624801792	0.364001509045202	2.94571582646957
3361.769	0.360154934389965	-0.0208324929727646	0.360756939682247	3.3104790934993
2867.244	0.360721411753507	-0.0173145927380179	0.361136722058456	2.74808262940612
2442.658	0.359030230982186	-0.0195919992407901	0.359564393667355	3.12348801452261
2083.003	0.358545180599008	-0.0157712466111438	0.358891876127679	2.51863308597906
1777.843	0.356957796891478	-0.0177354065104897	0.357398116119419	2.84439511589423
1513.548	0.353782388771575	-0.0228202901573757	0.354517621914325	3.69067956240324
1292.065	0.352272488297677	-0.0156711060945876	0.352620886473936	2.54716638417657
1101.762	0.347994289349296	-0.0153822750404795	0.348334092223461	2.53097860759074
939.101	0.348811993981332	-0.0171931979684299	0.349235469564039	2.82186698834748
801.2801	0.345891328525968	-0.0130143515470958	0.346136078003508	2.15476878972989
684.3433	0.347040931785472	-0.00997081967948222	0.347184137857145	1.64571011270103
582.9476	0.35289735489337	-0.0117322632238602	0.353092323749881	1.90412782929212
497.0677	0.343712734790876	-0.0115065598605049	0.343905284892871	1.91738951041822
423.5089	0.349853959556471	-0.0091074045542403	0.3499724815397	1.49118797901661
361.5036	0.34836717102819	-0.0101546248941002	0.348515139207645	1.66965344600176
308.1262	0.344417713718884	-0.00878868809092224	0.344529828261216	1.46172935397996
262.7298	0.3471372166326	-0.0135689652053736	0.347402308553316	2.23844870275095
224.2111	0.341894940448744	-0.00922742996096796	0.342019437705133	1.54598508958513
191.2854	0.345273652213299	-0.0137299277047427	0.345546532072726	2.27718695223754
163.1722	0.343158853588591	-0.0124157498604597	0.343383385796158	2.07210129313283
139.1537	0.337209809303001	-0.0120256560797872	0.337424172065837	2.04243010075418
118.6706	0.337419934539904	-0.00934028222227892	0.337549186189072	1.58562689351464
101.1982	0.336810980199018	-0.00977694209394222	0.336952852754405	1.66271378118713
86.24196	0.33095272558734	-0.00946763741818364	0.331088119285443	1.63862606252204
73.61024	0.345185947573472	-0.0294298467378229	0.346438240212029	4.87313610900715
62.69291	0.251197653201054	-0.0227790338926385	0.252228359545073	5.18150772392451
53.57697	0.314151044585945	-0.00171371251736518	0.314155718752711	0.312548763722762
45.65746	0.315879553286448	-0.0125264809864643	0.316127830015566	2.27092452353676
38.96512	0.338665922911246	-0.00218853876445818	0.338672994263271	0.370253635101567
33.18414	0.321323036408891	-0.0147744209749562	0.321662520729685	2.6326035587553
28.30617	0.334306359812825	-0.0184403427757003	0.334814558305023	3.15723637457141
24.17237	0.320672736419269	-0.0134847408861618	0.320956137376104	2.40794967207348
20.61345	0.31538704211437	0.00626786513145852	0.315449318380874	-1.13852156991548
17.55618	0.323499371718524	-0.000736009248000133	0.323500208982765	0.130356206280292
14.98558	0.326378389155432	-0.0085147409867932	0.326489438913063	1.4944251905591
12.76553	0.321443166992811	-0.00330690216216399	0.321460176706662	0.589419445542727
10.8809	0.31959189251884	-0.0110913320833763	0.31978429512901	1.98763356314346
9.278505	0.306902912959714	-0.0196746818735496	0.307532910580288	3.66805174020014
7.923394	0.299302902030725	-0.00287972128458148	0.299316755225447	0.551250200442481
6.75822	0.305571519444307	0.00799529974140659	0.305676100330819	-1.49880602586067
5.761429	0.322242568856929	0.0108182901784231	0.322424112910151	-1.92280510749779
4.919708	0.331962556564	0.00618924265601289	0.332020248908349	-1.06812167266996
4.191257	0.329787900948321	-0.0109805407158387	0.329970653068286	1.90700235855029
3.564097	0.330500625904672	-0.0138551521523812	0.330790914271456	2.40053158749992
3.051758	0.316137386559363	-0.0201361895657677	0.316778018983029	3.6444985911579
2.604164	0.321016020510408	-0.010430406592053	0.321185427449649	1.8609915557701
2.214424	0.312595331551314	-0.0151139383896205	0.312960496614702	2.76808687786532
1.892567	0.313996133680866	-0.0149359443220991	0.314351164145013	2.72335205209489
1.607507	0.306052173550191	-0.0141067711227869	0.306377110643578	2.63904933395052
1.376413	0.310407664018509	-0.012088354426287	0.310642956131574	2.23017003556911
1.17375	0.301804917446567	-0.031912079341668	0.303487378654925	6.03588118858517
1.001604	0.293150199524984	0.00589872582175772	0.29320954017197	-1.15274180943284
