EC-Lab ASCII FILE
freq/Hz	Re(Z)/Ohm	-Im(Z)/Ohm	|Z|/Ohm	Phase(Z)/deg
6999984	19.798904167844	6.60761344916756	20.8724019159533	-18.4557268854534
5969734	13.4165605192048	-8.51776837791382	15.8920254941047	32.4102285774236
5091109	12.8611446466084	-6.07543273873487	14.2239208583244	25.2854239104585
4341796	11.5012637882083	-5.31001017369529	12.667883673712	24.7822638339305
3702781	5.81973466165683	-5.11115984839785	7.74553203646879	41.2910973202632
3157797	4.1826774928579	-4.70670176456756	6.2966524844431	48.3736520794154
2693047	3.66948052218333	-4.14943077300652	5.53921140981786	48.5125943447346
2296687	2.63525408378871	-3.55537419323115	4.42552253864096	53.4540459305286
1958656	1.81496040626203	-3.44963498666222	3.89795623596557	62.249744497122
1670375	1.55465787006668	-2.98642781869328	3.36685494330025	62.499668687358
1424531	1.2216984017308	-2.23319080584425	2.54552316039333	61.3185161926958
1214875	1.1710463520577	-2.12685206055546	2.42793106289216	61.1627862639793
1036062	0.70365168809345	-1.9134681878697	2.03874623338612	69.8096934207551
883578.1	0.632041388877687	-1.62597588433525	1.74449817818598	68.7581439793515
753531.2	0.554757294762523	-1.29937053060247	1.41284090820247	66.8802748058102
642624.9	0.628301995429792	-1.26879361806958	1.41583920086822	63.6555537432549
548046.8	0.617018689763223	-0.985113439662644	1.16239431886133	57.9393257085733
467390.6	0.55392708333406	-0.867802652123738	1.02952253821078	57.4495040895159
398593.7	0.471917165299351	-0.783276312368994	0.914454806112661	58.9314021308423
339937.5	0.445601148576033	-0.66325439051387	0.799041156729867	56.1051961331123
289906.2	0.424990386963556	-0.574155823188615	0.714333072391884	53.4911392181854
247234.4	0.40630597109842	-0.497489000194218	0.642323787092206	50.7610239722767
210843.7	0.392185910087295	-0.430016481897021	0.581999968018977	47.6343932842478
179812.5	0.379679871026282	-0.369612031425642	0.529877210528179	44.2301931923678
153343.8	0.371691445831357	-0.321207145628396	0.491252034404893	40.8328170278278
130781.2	0.364319148828262	-0.278439563897928	0.458537929670619	37.3897302903922
111531.3	0.357922509773915	-0.242899438533115	0.432560585632303	34.1622647599983
95109.37	0.349825001266883	-0.211734519242479	0.408912017615304	31.1847749860419
81109.37	0.343579026648161	-0.184206061098489	0.389844097682546	28.1974876337888
69171.88	0.336297879395352	-0.160112387756679	0.372467770953348	25.4592535759232
59000	0.327384121427688	-0.135606911865048	0.354358007541179	22.4999953190079
50312.5	0.320670036091711	-0.105824504109535	0.337680466887098	18.2634365198295
42906.25	0.350465236661797	-0.105482172926471	0.365995042198251	16.7506159463
36593.75	0.334569710631746	-0.0960531453637793	0.348084900572383	16.0184847461038
31203.13	0.328641059289702	-0.0840672957532662	0.339223018184681	14.3487310324879
26609.38	0.323602362971536	-0.0721307508574218	0.331543865182297	12.5657723177101
22703.13	0.324002516264973	-0.0642160551694738	0.330304908058544	11.2105208674194
19359.37	0.321127103505932	-0.0572789956912216	0.326195493459834	10.113409822147
16500	0.318933837305359	-0.0512127161045394	0.323019403239381	9.12238191264311
14112.02	0.316722028407383	-0.045479997129662	0.319970738376811	8.17158136993531
12011.13	0.314912758678933	-0.0407008418754482	0.317532052095763	7.36435832110935
10236.38	0.315698097565449	-0.0353997801583303	0.31767661739842	6.39795040806219
8750.684	0.308478186527936	-0.0356006996565103	0.310525685539211	6.58323922942955
7449.463	0.314171642894062	-0.0302194126290894	0.315621662910519	5.49424012062061
6363.206	0.304993497028296	-0.027195762168796	0.306203596826509	5.09549300788829
5414.761	0.307717881509748	-0.0284416866566682	0.30902948749387	5.28071937685597
4620.567	0.305010481105831	-0.0208399127805091	0.305721598107019	3.90867281471666
3941.215	0.301348090249017	-0.0223465459625962	0.302175511273148	4.24102099448686
3361.769	0.300599767962014	-0.0196916335243967	0.301244055426287	3.7479661745916
2867.244	0.298756232818289	-0.0200212096281684	0.299426344002579	3.83395568048483
2442.658	0.297506452920116	-0.0188256118138178	0.298101481360415	3.62073459364705
2083.003	0.296154593711572	-0.0180639623227331	0.29670498834914	3.49043425075178
1777.843	0.293706908093021	-0.0175029538179889	0.29422797496825	3.41040923550586
1513.548	0.291505189433524	-0.0158791106278829	0.291937359070413	3.11798131715361
1292.065	0.289764402233451	-0.0143050187176134	0.29011729069847	2.82626959604527
1101.762	0.289107362550671	-0.0131001090158945	0.289404008156822	2.59442680790794
939.101	0.288543140923535	-0.0123363565490133	0.288806734455627	2.44812948337262
801.2801	0.287444077398847	-0.0124767859206494	0.287714733405476	2.48541814963753
684.3433	0.286063449110548	-0.0127319528189294	0.286346642270529	2.54840683780303
582.9476	0.28443037135433	-0.012167754335211	0.284690516867569	2.44958422321446
497.0677	0.282719265136967	-0.0137727033600557	0.283054535800843	2.78896603287768
423.5089	0.282669813784618	-0.0108005104918836	0.282876076492722	2.18814587312744
361.5036	0.280201665845932	-0.01190654994048	0.280454523005639	2.43319361956915
308.1262	0.27849825962338	-0.0114313533290937	0.278732768888386	2.35046653536139
262.7298	0.275773728124122	-0.0115572437047479	0.276015794847918	2.39977184546358
224.2111	0.273681981481008	-0.0115060210505497	0.273923740314319	2.40738702751866
191.2854	0.271956130251491	-0.00943926217713711	0.272119893524555	1.98786790288167
163.1722	0.269655838905999	-0.0107744747531428	0.269871007635693	2.28811554922187
139.1537	0.267657939604915	-0.0113541159955887	0.267898653568079	2.42904483217461
118.6706	0.266634982690429	-0.012445171906653	0.266925263506682	2.67233760888983
101.1982	0.265106998946497	-0.00974200554015854	0.265285935477858	2.10452669363267
86.24196	0.264076513409209	-0.00855498732571209	0.264215050181679	1.8554974634726
73.61024	0.282334653972437	-0.0107717801270244	0.282540064558711	2.18491897482527
62.69291	0.220828680172831	0.0527841406076107	0.227049491271306	-13.4430394569908
53.57697	0.246670801560677	-0.0215551725014421	0.247610803084506	4.99406973786761
45.65746	0.268097401202528	-0.0282980794941599	0.269586716725078	6.02534449473271
38.96512	0.249345543219615	-0.0077607215711598	0.249466287748044	1.78271921841949
33.18414	0.256775563329174	-0.0117794248294207	0.257045608350594	2.62656802134139
28.30617	0.251557170549115	0.0050570078523714	0.251607995467345	-1.1516514707487
24.17237	0.25234816806593	-0.0178377986302806	0.252977834970192	4.04335571178688
20.61345	0.253999526584808	-0.0166340329348884	0.254543612288711	3.74686093900479
17.55618	0.248083233147149	-0.0177233042213059	0.248715512345458	4.08632296275933
14.98558	0.246944247413046	-0.0091786194397246	0.247114767638875	2.12863503877839
12.76553	0.245818329884626	-0.00660908279438809	0.245907159884884	1.54008591612646
10.8809	0.246452124758731	-0.00943316344364117	0.24663258983891	2.19197437711451
9.278505	0.243045067469456	-0.00883046758864737	0.243205431639728	2.08079134401158
7.923394	0.241795431191504	-0.00579116453207005	0.241864772407481	1.37201046579822
6.75822	0.231104645118759	-0.013721464018494	0.231511631609037	3.39785515725675
5.761429	0.243449897823111	-0.0152359088808186	0.243926188978362	3.58109107084415
4.919708	0.252287537845409	-0.01362044683168	0.252654939243216	3.09027250522329
4.191257	0.250604556662778	-0.000162421096192577	0.250604609296717	0.0371343687306804
3.564097	0.241043331943663	0.00529041258799928	0.241101381870478	-1.25732436873586
3.051758	0.229832602076391	0.010498839213608	0.230072272562423	-2.61547441251207
2.604164	0.232059816340432	0.00318560627966128	0.232081680550887	-0.786479684811047
2.214424	0.230211425958289	-0.000800371692409214	0.230212817272616	0.199198345872409
1.892567	0.228600926049413	-0.00642575020564678	0.228691219018909	1.61010479643822
1.607507	0.22900647457499	-0.00741794376959819	0.229126583545067	1.85526770739675
1.376413	0.230085369226393	-0.00648435968617408	0.230176723524742	1.61430572299212
1.17375	0.233647704482359	-0.0069808526572194	0.233751967079847	1.71135617912035
1.001604	0.225867499335579	-0.00496439784479958	0.225922049614616	1.25911543480344
