EC-Lab ASCII FILE
freq/Hz	Re(Z)/Ohm	-Im(Z)/Ohm	|Z|/Ohm	Phase(Z)/deg
6999984	28.3913316266306	85.6500096551314	90.2329865706407	-71.6606335779253
5969734	31.5668806631953	83.7547703040824	89.5060305426065	-69.3487488745724
5091109	30.1523655791393	87.4237445086633	92.4774364584903	-70.9707350968082
4341796	33.9842311980263	92.3314406462525	98.3871073969215	-69.7929630531373
3702781	42.0407468140511	100.291537374559	108.746571723598	-67.2572810350063
3157797	48.4022342542421	107.684404394335	118.062302326209	-65.7969262067769
2693047	57.1498643664929	117.994434543977	131.106039450749	-64.157063701333
2296687	71.4363402605069	129.418277566437	147.825036032731	-61.1021673292544
1958656	85.4276367124367	138.9050571911	163.072057776723	-58.4081770723288
1670375	104.013218392793	149.123597346186	181.814732312577	-55.1043534565778
1424531	124.724737756132	156.700922801141	200.27840476463	-51.4822689743654
1214875	146.734636617553	161.914538054917	218.511718717378	-47.8156370235816
1036062	170.555290180528	164.108183758608	236.686719072095	-43.8963650626128
883578.1	197.187715535348	163.503804965873	256.157157612993	-39.6647909962521
753531.2	215.39639902108	163.874616438728	270.648293222382	-37.2640519980303
642624.9	236.28379657344	156.170532002771	283.23006123854	-33.4624999456491
548046.8	263.404166086478	147.68038173254	301.978889759502	-29.2776391283254
467390.6	280.53160120901	132.779667128012	310.368199530037	-25.3288713000632
398593.7	289.454571549484	125.925903481446	315.660073747875	-23.5112314499461
339937.5	303.694425033657	115.673933032928	324.978095538499	-20.8512978043631
289906.2	319.38579415573	105.423783009982	336.335337918307	-18.2671722046538
247234.4	318.410276068347	95.7643815056885	332.499504768185	-16.7390708467281
210843.7	336.086528493669	82.6162228013384	346.091887950131	-13.8105231276318
179812.5	332.388593850963	77.8065633412703	341.373752097609	-13.1747576989987
153343.8	338.808324828421	71.6821353980171	346.30825792675	-11.9459809524053
130781.2	345.017679331519	61.0138759281944	350.371077726299	-10.0286579050913
111531.3	346.358928759599	60.1083415860966	351.535944477557	-9.84525411486991
95109.37	349.797088443672	53.6233714402537	353.883411660238	-8.71550739358686
81109.37	352.528615222709	52.3245459144091	356.390632110315	-8.44256748872039
69171.88	354.460377150771	50.4837194051793	358.037379186654	-8.10578862632044
59000	356.583212609492	49.3482256377242	359.981714658534	-7.87922392539186
50312.5	358.326024809914	49.3596964133019	361.709717433868	-7.84317915050018
42906.25	360.59623766275	50.2088049829042	364.074952055674	-7.92680234069952
36593.75	362.444308545165	51.971475465011	366.151486489941	-8.16011075487679
31203.13	364.463328601452	54.9719723375337	368.585723594835	-8.57726413677769
26609.38	366.904023788481	58.2549562949063	371.499936211434	-9.02179344212994
22703.13	369.390937712612	62.8824880214223	374.705046888839	-9.66101380626765
19359.37	371.931145484314	68.5853879204846	378.201973048102	-10.4481661435302
16500	374.722355287237	75.4598605310957	382.244730641754	-11.3856855245468
14112.02	378.031168513617	83.2393067511251	387.087001275138	-12.4178919107868
12011.13	381.447288876459	92.7828101130469	392.569336606509	-13.6710709298749
10236.38	385.942785743055	103.597780645545	399.60522271586	-15.0255832646098
8750.684	390.168616793968	116.287103226392	407.129266827753	-16.5963298712271
7449.463	395.162545309388	129.704489323813	415.904666679932	-18.1714252275095
6363.206	400.783123495724	146.328963299189	426.6606117035	-20.0575220749888
5414.761	407.193425439547	166.299307463926	439.843091777254	-22.2152868610295
4620.567	413.115352665713	188.493034978165	454.085805595591	-24.5258938684992
3941.215	421.710957763748	213.87037577797	472.843176469142	-26.8918084919329
3361.769	430.521340845025	242.58852044193	494.163753398813	-29.4002234485936
2867.244	440.675000235992	276.236542943863	520.097186582054	-32.0814883128893
2442.658	451.577395445902	314.466583126741	550.282996267477	-34.8523351284538
2083.003	464.194172129076	357.507587797047	585.907761316627	-37.6023205506976
1777.843	478.124700415025	407.117864849103	627.971484246101	-40.4140249866328
1513.548	494.573380944495	465.20455191277	678.9831398932	-43.2473184722886
1292.065	512.201262286489	529.196864373565	736.477735135751	-45.934983275156
1101.762	534.094410265638	603.239627397743	805.701487611862	-48.4790648545636
939.101	557.450768578466	687.720385904753	885.274357799719	-50.9725485310831
801.2801	584.413417048496	784.42362566272	978.191937466337	-53.3130524763028
684.3433	615.81018654568	894.195377535605	1085.72904495526	-55.4457790066962
582.9476	651.136542521426	1022.44891164294	1212.18009137528	-57.5093781791071
497.0677	693.314642227921	1166.16755728218	1356.69892193703	-59.267499173466
423.5089	740.078625201022	1330.61211399051	1522.57839515006	-60.9174457361043
361.5036	793.234388190377	1517.24185607878	1712.08751074387	-62.398828115415
308.1262	855.655110362951	1731.69314729541	1931.55554522258	-63.7053437756518
262.7298	928.468366441004	1974.71850517747	2182.10143718663	-64.8181424053549
224.2111	1011.83895930249	2251.13282741181	2468.07963530625	-65.7970407983359
191.2854	1113.26062184358	2567.68692436007	2798.63633823283	-66.5601059898911
163.1722	1222.49869036219	2927.04258826395	3172.07839774622	-67.3318228441529
139.1537	1351.29438906967	3334.70769735605	3598.09282158435	-67.9411634592745
118.6706	1497.25571602738	3797.50182322231	4082.00866933835	-68.4819783220985
101.1982	1669.98666161047	4327.52556929279	4638.57014637482	-68.8984613433791
86.24196	1871.11758223707	4925.26451910122	5268.71061927622	-69.1981182702325
73.61024	2096.03911211542	5602.03219665862	5981.31630094224	-69.4863160411833
62.69291	2360.41279808616	6379.25083828051	6801.94015227064	-69.6948153828314
53.57697	2671.46597174197	7232.56741683538	7710.17262305094	-69.7274739771538
45.65746	3027.90428883635	8217.86422903219	8757.93907658419	-69.7734824881029
38.96512	3440.56038480885	9320.96162043817	9935.68222575569	-69.7398498655287
33.18414	3920.38536757255	10581.1847980275	11284.0991293184	-69.6700636060817
28.30617	4490.43708691186	11975.4948869975	12789.7030074985	-69.44552144617
24.17237	5086.76378823691	13533.7526410238	14458.133571998	-69.4008880339293
20.61345	5840.27827319335	15302.9231140809	16379.5087271812	-69.1109140938136
17.55618	6671.39196922991	17298.3881042151	18540.2724308775	-68.9100923866202
14.98558	7617.97077173636	19506.2710731655	20941.0622906013	-68.6673874646028
12.76553	8693.77856655567	21997.2229977335	23652.8984561368	-68.4349957828977
10.8809	9892.38137698055	24787.6558101007	26688.7071599141	-68.2437997666626
9.278505	11223.68597524	27858.2583042423	30034.2085398747	-68.0562133845367
7.923394	12708.6092132902	31346.6584676058	33824.8687391518	-67.9313085851982
6.75822	14399.9189049336	35246.902746392	38074.9500023609	-67.7778131918827
5.761429	16300.6352816297	39648.2486123636	42868.3371337459	-67.6509030402612
4.919708	18281.8297005188	44509.6522664347	48117.9222543711	-67.6701544221776
4.191257	20568.3010368938	50180.2982981984	54232.0693394642	-67.7118657496631
3.564097	23238.9066119874	56565.3067876728	61152.9288955502	-67.665513464037
3.051758	25927.3483572039	63588.4179437346	68671.0586012978	-67.8174618713057
2.604164	29153.9602379979	71564.7161603207	77275.2353387942	-67.8350516756163
2.214424	32918.1520618592	80979.2106081868	87414.1709672566	-67.8781953975896
1.892567	36702.1122119974	91063.7227819618	98181.7022042908	-68.0487076374205
1.607507	41291.7020575781	103169.427144919	111125.763692415	-68.1871342407241
1.376413	46250.0645416942	116071.957529924	124947.05996917	-68.2746821918201
1.17375	52086.3758418209	131146.082051067	141110.89747316	-68.3388534648748
1.001604	58468.6801143753	148279.378583793	159390.591527583	-68.4799729698155
