EC-Lab ASCII FILE
freq/Hz	Re(Z)/Ohm	-Im(Z)/Ohm	|Z|/Ohm	Phase(Z)/deg
6999984	45.2503772490725	63.4989316420029	77.9725013120596	-54.5257061905413
5969734	47.5943846014418	57.6802826804116	74.7812841269936	-50.4725511815843
5091109	49.2856038794336	55.0025832846876	73.8536046361275	-48.1377596255821
4341796	53.4357679646072	52.8430381795727	75.1516332624589	-44.6804578052493
3702781	59.3241241789133	48.1507164895902	76.4057799387979	-39.06468073121
3157797	62.7172024732932	45.4673795756729	77.4643795015127	-35.9405595983237
2693047	67.1417239398289	42.9930338132422	79.727109881638	-32.6327596554745
2296687	71.9641190560417	39.5534422177343	82.1176547569631	-28.7943950647561
1958656	75.5255812979716	36.0178786616587	83.6743748926903	-25.4963067565343
1670375	78.6203246214999	32.7177279749864	85.1563571756991	-22.5945620030943
1424531	81.4838378141778	29.2073266214338	86.5602897020241	-19.7198723167403
1214875	83.4678736150428	26.1183403263385	87.4588682022538	-17.37567852332
1036062	85.0235417864171	23.2353853187716	88.1412831130703	-15.2846862387239
883578.1	86.5810589534581	20.7011079824729	89.0214336056446	-13.4467006573017
753531.2	87.6424454997133	18.4458583789458	89.5625365010747	-11.885413583882
642624.9	88.5891351621322	16.5212285732529	90.116512706297	-10.5638921589907
548046.8	89.3781600967753	14.8276770668424	90.5997544670147	-9.4194777181523
467390.6	89.9801874171469	13.3815058787446	90.9697687542832	-8.45881084221235
398593.7	90.5321624867347	12.1942134973947	91.3497196894691	-7.67127462322708
339937.5	91.0293077464098	11.235687304975	91.7200934256271	-7.03639154959852
289906.2	91.4188119237093	10.4640063003274	92.0157301845495	-6.52978799672179
247234.4	91.8430032528252	9.91689707160278	92.3768482577059	-6.16272831484918
210843.7	92.1068375456021	9.56159317489989	92.6018012065328	-5.92663532578758
179812.5	92.5678380754173	9.36273780430643	93.0401284669624	-5.77551770732182
153343.8	92.956507448919	9.23250603743602	93.4138718008852	-5.67205528050828
130781.2	93.3251553300227	9.34324862524254	93.7916889294886	-5.71711726517973
111531.3	93.7723152477519	9.59060933792308	94.2614814990536	-5.83964887333082
95109.37	94.2442196796454	10.0192178043195	94.7753009408868	-6.06839081388089
81109.37	94.6689443573892	10.4342585608644	95.2422321108521	-6.28966138478247
69171.88	95.1488862962218	11.2329853141977	95.8096577724831	-6.73299893792084
59000	95.689882645395	12.1247939589412	96.4549857147687	-7.22142253995806
50312.5	96.2984891776493	13.1385948050018	97.1906461103529	-7.7692446766165
42906.25	96.9455425347173	14.3405710433572	98.0004601785127	-8.41440088351176
36593.75	97.6128591876499	15.7580989635575	98.8766300079713	-9.17040723503098
31203.13	98.416420689417	17.389483951081	99.940912610408	-10.020332828328
26609.38	99.2710588040798	19.3289251006348	101.135307690386	-11.0181216398145
22703.13	100.161619766654	21.5005718179213	102.443275341905	-12.1151925780413
19359.37	101.161013792401	24.0202371168324	103.973662543239	-13.3572676750597
16500	102.32270434824	26.8994675808468	105.799419569629	-14.7291291718312
14112.02	103.535588057189	30.1208604043469	107.828030798332	-16.2209164647015
12011.13	104.913691677916	33.9009443300604	110.254962373394	-17.9072916839542
10236.38	106.43201765548	38.1911535012939	113.076693389822	-19.7395820648928
8750.684	108.102062860154	43.015723845693	116.346072097813	-21.6984846593994
7449.463	109.963362135941	48.6497349837023	120.244491458963	-23.8654454180519
6363.206	111.976268210441	54.9216969888392	124.719996161283	-26.1268525396537
5414.761	114.395661850742	62.3342950233141	130.276366952425	-28.5860045850891
4620.567	116.85275899442	70.1762401970091	136.305803151577	-30.9870357917864
3941.215	120.093736495164	80.094620757517	144.352533125194	-33.700678501085
3361.769	123.472544114636	90.8592448495546	153.29993974158	-36.3480872892664
2867.244	127.210580552032	103.134495221181	163.765856969372	-39.0330076242951
2442.658	131.700253972776	117.259024662325	176.336711325956	-41.6801986885145
2083.003	136.741481676526	133.245531348553	190.925651591005	-44.2581420736143
1777.843	142.508196020162	151.34452220952	207.879172443391	-46.7223991730043
1513.548	149.266848970728	172.453154099392	228.080430025197	-49.1221698725522
1292.065	156.668183233108	195.870808729288	250.819244376957	-51.3452690359716
1101.762	165.348491075386	222.55552187098	277.256350362208	-53.3893532658804
939.101	175.349383062018	253.440018093274	308.187035599081	-55.3215216496662
801.2801	187.011358285769	287.288603747446	342.794384392518	-56.9377668347948
684.3433	199.851739696458	326.095010746621	382.46395110329	-58.4973866010307
582.9476	215.597598634683	371.321590898037	429.37401924673	-59.8595937589542
497.0677	233.297653785559	421.417777448725	481.685310562477	-61.0310059710992
423.5089	253.329010322101	478.852960263558	541.734016860625	-62.1196830776273
361.5036	277.247820589359	543.037035605145	609.717619935961	-62.9533939653221
308.1262	304.666568986639	616.390505813024	687.574704242765	-63.6979526200946
262.7298	336.064021601501	697.800618300393	774.509347597164	-64.2843176276315
224.2111	371.989443429436	791.229619995427	874.311419107088	-64.8198612787403
191.2854	413.941998523021	895.620463185716	986.652923888755	-65.1943464936378
163.1722	463.735750261097	1012.17442089053	1113.34985713175	-65.3847403689598
139.1537	519.359033850928	1145.1215563179	1257.39301126836	-65.6037821340383
118.6706	580.682594436618	1290.90109003653	1415.492105149	-65.7804823180566
101.1982	654.376094864646	1458.42122154463	1598.49946292829	-65.834798717035
86.24196	737.627984187502	1644.34499654305	1802.21128359377	-65.8397261540731
73.61024	833.740079353275	1849.57975570395	2028.80945202596	-65.7354478353594
62.69291	944.277895681946	2086.71117125956	2290.4201048133	-65.6523116592859
53.57697	1065.56569477642	2339.8217815972	2571.03018642743	-65.5152601546906
45.65746	1205.85243405211	2627.89707774274	2891.3531683138	-65.3512223379446
38.96512	1361.53728231952	2945.64891733585	3245.09342166723	-65.1926849160319
33.18414	1538.03372536797	3305.32843329771	3645.64723915186	-65.046523382494
28.30617	1738.93251053863	3700.986558126	4089.15489797556	-64.8332111953668
24.17237	1952.25308489507	4138.1171737552	4575.51153984011	-64.7433141173108
20.61345	2197.93051340751	4630.34015846883	5125.51934196887	-64.6072366409672
17.55618	2470.22439653351	5187.73695993676	5745.83530348054	-64.5377941561974
14.98558	2772.67300638479	5797.24666781356	6426.17962150221	-64.4394173027734
12.76553	3101.77540035561	6490.51927204597	7193.59792141953	-64.4571789944225
10.8809	3471.08318529861	7271.52449653691	8057.51121519537	-64.4823891374082
9.278505	3877.85829961673	8138.7190075933	9015.34980333358	-64.5235848028781
7.923394	4304.16355155637	9115.76527850222	10080.8234034375	-64.7248648763076
6.75822	4820.18317188009	10205.9176800624	11286.9358774951	-64.7189634110178
5.761429	5382.7850789626	11468.4469343672	12668.8456574662	-64.8567024649672
4.919708	6012.36361959492	12848.3753424764	14185.5301358597	-64.9228790903048
4.191257	6680.4450143772	14433.7043342183	15904.721512738	-65.1635786600393
3.564097	7487.56863036357	16277.3408556829	17916.9056850364	-65.2975934883204
3.051758	8329.60531302178	18214.8308590837	20029.0386163627	-65.4254776681936
2.604164	9307.92935707886	20502.3748625226	22516.325719792	-65.5822962167209
2.214424	10372.0827259301	23051.6967615329	25277.6744116069	-65.7746954443258
1.892567	11652.9485212789	25955.3852135216	28451.2430452849	-65.8217925750856
1.607507	13041.8143939509	29325.8278479474	32095.0635091086	-66.0242758598848
1.376413	14571.3809619744	32847.4536488865	35934.3895781567	-66.077560934832
1.17375	16348.4636579949	36976.8651454391	40429.7021997537	-66.1484931098692
1.001604	18290.0393932164	41615.513154397	45457.4138739678	-66.2744865290184
