EC-Lab ASCII FILE
freq/Hz	Re(Z)/Ohm	-Im(Z)/Ohm	|Z|/Ohm	Phase(Z)/deg
6999984	17.2984904722373	5.0154010167055	18.0108861518931	-16.168611147584
5969734	20.37041130493	-1.22042267145935	20.4069372574386	3.42858001902064
5091109	12.5462076111824	-4.38233998909877	13.2895533861355	19.2541034659225
4341796	7.09434481470242	-7.1440574956923	10.0681321927979	45.2000445817637
3702781	5.65813609118315	-5.82956993433526	8.12393929357273	45.8549754486439
3157797	4.29739947298529	-4.71972021419442	6.38305578314099	47.6815133333194
2693047	2.83623492419392	-3.68170108188016	4.64748871989324	52.3907852317925
2296687	2.54785682970511	-3.35811890985538	4.21527425411482	52.8118461858562
1958656	1.86306972255674	-3.17223044626915	3.678868684167	59.574031593861
1670375	1.40179556605854	-2.9922273395495	3.30430859039661	64.8978981304371
1424531	1.24758639408687	-2.45826337708857	2.75672462205524	63.0918778644052
1214875	0.834718858028608	-2.26730827607584	2.41607996364164	69.7886085738943
1036062	0.818070248345528	-1.85291646855056	2.02547238210103	66.1783442109955
883578.1	0.730569686554323	-1.50696413887615	1.67471579164072	64.1360934460312
753531.2	0.71687129658423	-1.37367153792285	1.5494766697068	62.4415134711522
642624.9	0.652145683290026	-1.15822091458983	1.3291988862571	60.6179606965894
548046.8	0.614840692365338	-0.997300166890406	1.17159579201528	58.3459538557776
467390.6	0.516602596847591	-0.864852187719635	1.00739642131244	59.1488396140944
398593.7	0.521724170924296	-0.787478441554331	0.944626066991316	56.4745304574316
339937.5	0.481812240828821	-0.68393947515727	0.836609969514404	54.8365988197572
289906.2	0.488651367603402	-0.58196505468428	0.759910181491439	49.9812456018376
247234.4	0.452427972540594	-0.516078312226066	0.686314719853288	48.7600777347634
210843.7	0.4521365553888	-0.413885111675738	0.612966842811002	42.4709377415745
179812.5	0.421761074432891	-0.379333122525115	0.567253049133665	41.9683047862181
153343.8	0.4250741930308	-0.309100425071009	0.525576961405144	36.0234551321233
130781.2	0.417073337901559	-0.266858044004902	0.495139762934134	32.6125285157284
111531.3	0.394034610813166	-0.240155325645095	0.461451898852291	31.3613777672351
95109.37	0.397384791863484	-0.204849758276613	0.447077282212339	27.2708659100355
81109.37	0.382914759439975	-0.180006502774734	0.423114705532867	25.1780057830273
69171.88	0.391328580025371	-0.163395137274391	0.424070782334259	22.6624632313952
59000	0.378586404201078	-0.125900090698876	0.398971801364316	18.394706880272
50312.5	0.373151314599401	-0.109820431742338	0.388976131421113	16.3994386545084
42906.25	0.392086953786563	-0.107627697847547	0.406590581142245	15.3495908977563
36593.75	0.384072148217187	-0.0867100239357829	0.393738546864678	12.7220923929556
31203.13	0.372634568825421	-0.0808172581153065	0.381297719758437	12.2368372475255
26609.38	0.375380517302146	-0.0673974304672421	0.381382939319017	10.1786811741683
22703.13	0.374846168710003	-0.0628744149600781	0.380082678180866	9.52180798036266
19359.37	0.372185182459654	-0.0565751324679229	0.376460563215178	8.64325168604291
16500	0.369995094547663	-0.0503361404677123	0.373403397181278	7.74726601559528
14112.02	0.367801151558963	-0.044921362323621	0.370534230377045	6.96332797156343
12011.13	0.366503817915538	-0.0403333635587979	0.368716461203771	6.28007007129198
10236.38	0.364975947460423	-0.036453274491651	0.366791880288805	5.70370432319571
8750.684	0.363386915795259	-0.0330311339099234	0.3648850591331	5.19379709567227
7449.463	0.362108779830105	-0.0301434839058953	0.363361250069449	4.75857434378633
6363.206	0.360219339487722	-0.0270509155807206	0.361233614956756	4.29460458044529
5414.761	0.356690269088923	-0.0266089924685647	0.357681403686186	4.26634630198944
4620.567	0.356254494443784	-0.0269559443273546	0.35727284775921	4.32703169981852
3941.215	0.362471017285648	-0.0210806103526364	0.363083503487741	3.32846194685728
3361.769	0.354911144737097	-0.0177313624302273	0.355353798167726	2.8601193696238
2867.244	0.360828108102069	-0.0182606546675488	0.361289876837707	2.89713187023146
2442.658	0.359561959985419	-0.0268737415114175	0.360564836127122	4.2743522412608
2083.003	0.348041843635836	-0.0285285032783558	0.349209107012883	4.68597887226987
1777.843	0.352442178063649	-0.0117215763057765	0.352637043189369	1.90484975611398
1513.548	0.347644488193973	-0.00832664123710544	0.347744192080818	1.37206317791537
1292.065	0.356294468958116	-0.0112360874483854	0.356471595321835	1.80627866999747
1101.762	0.343332837874704	-0.0145794390276408	0.343642252357679	2.43157272196673
939.101	0.354351599446779	-0.00999126170742583	0.354492427762564	1.61507807009996
801.2801	0.360490448975366	-0.0235012817722021	0.36125569067822	3.72997816461346
684.3433	0.338852555898819	-0.0182803447262724	0.339345289701321	3.08798697657851
582.9476	0.339681397121132	-0.0238963417040662	0.3405209049339	4.02408714113663
497.0677	0.352033899291717	-0.0069359474902995	0.352102220410663	1.12872399161875
423.5089	0.341371333154388	-0.0114587324633863	0.341563595321972	1.92251232606448
361.5036	0.338686064425463	-0.0129451220010705	0.338933365751488	2.18887066473828
308.1262	0.334976965176919	-0.0192758874238872	0.335531111873575	3.29339177317511
262.7298	0.344949736385308	-0.0111513986583727	0.345129938319369	1.8515904642676
224.2111	0.348526533592138	-0.0215927716743003	0.349194777175046	3.54519755681039
191.2854	0.333956038495119	-0.0196297203683333	0.334532452191252	3.36393834761619
163.1722	0.332254460330325	-0.0140671457379913	0.332552117717823	2.42436777769296
139.1537	0.344313409312162	-0.0206616432356274	0.344932786689466	3.43410104033452
118.6706	0.329411821488238	-0.0186356822651963	0.329938534866251	3.23791971832393
101.1982	0.325893272929175	-0.0147047620793716	0.326224854001501	2.58351368078408
86.24196	0.338531724500249	-0.0252402498155523	0.33947135181612	4.26396967305524
73.61024	0.329164913544441	-0.0359054636398867	0.33111741516857	6.22523801029796
62.69291	0.262936722826235	-0.0551797349343595	0.268664332128451	11.8520617106274
53.57697	0.313763879565488	-0.00807774298231525	0.313867841697225	1.47473435001384
45.65746	0.31209715700835	-0.0339712595726823	0.313940570633439	6.21209435847766
38.96512	0.328239001415486	-0.0165494552034418	0.328655939422622	2.88634708565371
33.18414	0.321239613935084	-0.0262515420119753	0.322310460610835	4.67180160458715
28.30617	0.327600875054956	-0.0226752774515604	0.328384685307153	3.95947927424209
24.17237	0.327591301026229	-0.00778745006087276	0.327683848986349	1.36176999112585
20.61345	0.312633053467503	-0.0127769756426081	0.31289403514127	2.34031429618947
17.55618	0.304416983588887	-0.0140489359115122	0.304740992479847	2.64234269535693
14.98558	0.324159757908603	-0.0107936503879302	0.324339407929504	1.90709116700854
12.76553	0.310824001572778	-0.00866551817992149	0.310944771879253	1.59694567475745
10.8809	0.311723284031508	-0.014033069635207	0.3120389925166	2.57758471352007
9.278505	0.310629936943946	-0.00640753918577323	0.310696015880824	1.1817048259767
7.923394	0.31590039688297	-0.00679646708326723	0.315973500021175	1.23250498296638
6.75822	0.317134000207945	-0.0208238450423503	0.31781693883467	3.75679717308795
5.761429	0.30592033229273	-0.0192735095356527	0.306526863227215	3.60496851399844
4.919708	0.319483931946178	-0.0243420508819662	0.320409922151188	4.35704953166321
4.191257	0.310821993934574	-0.00507062162844385	0.310863351196572	0.934616776826531
3.564097	0.298481689612203	-0.0266179612366996	0.299666205792635	5.09603502596248
3.051758	0.338067565837737	-0.0160326974673829	0.338447523937661	2.71519141421884
2.604164	0.316331458504103	-0.00767158602280471	0.316424469457465	1.38924961993812
2.214424	0.297770077082623	-0.00860048647517695	0.297894255019128	1.65441276865128
1.892567	0.299722476753118	-0.0247825302487985	0.300745302334976	4.72674481939343
1.607507	0.303276087261602	-0.0326451450467003	0.305028016090042	6.1437576822524
1.376413	0.32429754785862	-0.0378987395560271	0.32650453902978	6.66558472374575
1.17375	0.313584973080417	-0.0109898291165257	0.313777487538313	2.00715366226577
1.001604	0.300174150420308	-0.0362131943647588	0.302350650779279	6.87895420665247
