EC-Lab ASCII FILE
freq/Hz	Re(Z)/Ohm	-Im(Z)/Ohm	|Z|/Ohm	Phase(Z)/deg
6999984	-11.7280075544143	32.2402080884274	34.3071009964628	-109.989848494571
5969734	-12.1531171545801	33.7467888043104	35.8684263827628	-109.80529878876
5091109	-13.0938085135124	37.7720054804572	39.9771462138584	-109.119067237532
4341796	-13.2176231197233	42.8872705885535	44.8778736068327	-107.129012927704
3702781	-12.5549176716294	50.1563539771003	51.7038277308129	-104.053260891882
3157797	-11.0178484718015	57.8342122236618	58.8743500047272	-100.786026360928
2693047	-10.2215668179425	65.8649260561271	66.6533488475467	-98.8213540814248
2296687	-11.0730750654151	77.5394291494036	78.3260880181035	-98.1272157126238
1958656	-10.5349114598895	89.8534211201517	90.4688987799842	-96.687143590342
1670375	-10.2770092427883	105.03883716711	105.540391473573	-95.5880386519426
1424531	-10.0915355907453	122.202211198875	122.618185896194	-94.7208097332326
1214875	-8.99930977318152	141.995734131213	142.280624428823	-93.6264030487532
1036062	-8.18247239976308	166.116433035324	166.317834819217	-92.8199649521065
883578.1	-7.93663455664591	193.93358719565	194.095920644043	-92.3434932496758
753531.2	-6.74527577671703	226.545642638795	226.646038888679	-91.7054474490181
642624.9	-5.45805935047155	264.48440311296	264.540715017353	-91.1822223905046
548046.8	-3.8056076117214	309.492271347555	309.515667896091	-90.7044901809245
467390.6	-1.90938746542544	360.825313523156	360.830365462189	-90.3031905412149
398593.7	0.583472421355429	420.876267926865	420.876672368655	-89.9205693256265
339937.5	4.53732744988266	492.51391030404	492.534810123471	-89.4721725551571
289906.2	-101.588585648225	501.050133691144	511.245026583066	-101.461429009829
247234.4	-107.501852910516	604.354069790023	613.840769296858	-100.086215709956
210843.7	-110.701476015512	724.415893991547	732.825493729296	-98.6884278729545
179812.5	-115.230304420936	860.416710923759	868.098461865819	-97.6278829941673
153343.8	-107.266760270793	1027.99182915763	1033.57310272367	-95.9570234720068
130781.2	-108.608701013313	1210.4035567458	1215.26648111378	-95.1273805846574
111531.3	-127.906892391797	1390.26296310662	1396.13440603235	-95.2565252716799
95109.37	-90.6415248532439	1668.59662453959	1671.05672598289	-93.1093659344271
81109.37	-92.4360707647444	1964.87153926953	1967.04463421902	-92.6934558709417
69171.88	-78.6851494785792	2289.47574882826	2290.82748307706	-91.9683777812036
59000	-51.820749325081	2712.56061892799	2713.05556548693	-91.0944452562906
50312.5	-0.474640122478762	3129.3603805336	3129.3604165287	-90.0086902345176
42906.25	-0.154828750221509	3715.30698797827	3715.30699120437	-90.0023876987712
36593.75	5.902319979523	4310.37814527527	4310.38218637836	-89.9215433538782
31203.13	-670.212847148357	4806.6007155139	4853.10165758574	-97.9379104571126
26609.38	-683.130713851377	5629.08956517687	5670.38948441729	-96.9194206804881
22703.13	-696.347074662212	6673.57689705784	6709.80833178823	-95.9569088804478
19359.37	-548.183884467755	7824.38340993426	7843.56304984187	-94.0076491656332
16500	-569.828978078304	9184.85140717129	9202.5105507179	-93.5500850704418
14112.02	-490.063679885806	10787.7284502745	10798.8539913829	-92.6010377785871
12011.13	-413.944148783389	12706.9543237304	12713.6948973806	-91.8658183358752
10236.38	-440.451586922491	14924.3715167231	14930.869457925	-91.6904359547856
8750.684	-175.5631403835	17429.0577383567	17429.9419409025	-90.5771216630669
7449.463	-99.0299714261589	20407.1426007222	20407.3828812381	-90.2780376940087
6363.206	-33.030359688389	23298.9785243687	23299.0019375006	-90.0812266913812
5414.761	243.374394246636	27692.2028783957	27693.2723121339	-89.4964659656707
4620.567	538.941497410029	32305.0746077368	32309.5698415976	-89.0442303779739
3941.215	1327.17809115611	37289.3504763348	37312.9610274041	-87.9616266240742
3361.769	-6489.44123121909	41138.3014901106	41647.0010563148	-98.9643643470895
2867.244	-6276.4920794307	48665.6489040632	49068.7246224793	-97.3489671394976
2442.658	-6567.07891225078	57336.5694786982	57711.4262951914	-96.5339346759241
2083.003	-5726.06389503808	68464.2126484941	68703.2475310177	-94.7808557101623
1777.843	-5380.32538301587	79807.2115753741	79988.3674084154	-93.8568466739548
1513.548	-4908.40239023605	94121.0822770963	94248.9816551691	-92.9852632760018
1292.065	-4677.38492490602	110886.684872563	110985.290970303	-92.4153994529647
1101.762	-2838.37531068484	129475.024530742	129506.132486614	-91.2558474671789
939.101	-1411.81863402638	152382.950639231	152389.490705146	-90.5308266732204
801.2801	-851.355498627163	177635.516489181	177637.556627429	-90.2745999472379
684.3433	678.169614207752	207306.46540789	207307.574666094	-89.8125667812444
582.9476	-712.913446801835	240549.922412083	240550.978834096	-90.1698059665084
497.0677	-57035.2436142714	248575.201225813	255034.604864894	-102.92275786631
423.5089	-80389.58356793	276421.756187862	287874.056559821	-106.215603610706
361.5036	-53329.6015216701	347754.518217803	351819.913221745	-98.7186227487579
308.1262	-59261.639161738	399747.704754007	404116.529397441	-98.4325449216491
262.7298	-81748.6403322076	485831.919903758	492661.643111717	-99.5514169039805
224.2111	-71855.4404722317	611098.123567374	615308.15121614	-96.7062803806994
191.2854	-44254.9551705601	727980.590678912	729324.510394629	-93.4788091207275
163.1722	-110808.819444994	724914.444021045	733334.538677358	-98.690834295694
139.1537	-94986.0565141876	964786.421623702	969450.973634863	-95.622817190107
118.6706	59962.5806778299	703365.478626182	705916.78518405	-85.1272617073416
101.1982	478371.123099945	499284.4451965	691465.030663937	-46.2254442293975
86.24196	497088.016640802	21568.9773818687	497555.742679336	-2.48454324308436
73.61024	264408.984901256	-32029.7287952322	266341.913380543	6.90698903156822
62.69291	49330.7215374783	25140.2045546956	55367.4089375705	-27.0045608564367
53.57697	83850.3858585417	54269.8571330909	99880.4515502028	-32.9118531270607
45.65746	382583.257778231	-62795.3707956942	387702.473200227	9.32114097177399
38.96512	405063.700489738	-307930.120480659	508819.772172498	37.2421592806783
33.18414	705264.563218396	-163638.56819296	723999.782549606	13.0628762303435
28.30617	-124857.159264222	-981643.279733897	989551.837382081	97.2486422295702
24.17237	590530.750645249	-270345.517639333	649471.528525554	24.5983501112714
20.61345	759951.930133741	16200.8213655006	760124.596843778	-1.22125896736355
17.55618	1417027.5880821	662853.01450485	1564398.06450403	-25.0691151540627
14.98558	143584.61912779	2428860.28376032	2433100.6598327	-86.6168373831227
12.76553	490646.017542991	2844436.83741842	2886443.21554984	-80.213174585843
10.8809	1268733.84991899	691620.341043432	1444999.75019905	-28.5959683211464
9.278505	1724292.18844402	58111.303274381	1725271.13077838	-1.93022548390253
7.923394	1274256.21798023	-2163891.57653459	2511206.01784454	59.5073393065078
6.75822	14772.7428683243	-1545166.09180987	1545236.70847248	89.4522336238866
5.761429	769589.207938334	653107.383698907	1009364.55436932	-40.3194067363449
4.919708	1257590.54813207	-384897.732533141	1315173.08794709	17.0172361266861
4.191257	665276.315260992	1098939.20670838	1284624.44149568	-58.8101069656131
3.564097	-1296074.22025831	2976717.5995926	3246637.65334884	-113.528493133079
3.051758	57970.2555042813	1558614.08435324	1559691.76905808	-87.8699533768533
2.604164	10486640.5817951	13648746.4327093	17212144.2556164	-52.4641123704134
2.214424	3948897.63144164	3570100.87055544	5323477.50343195	-42.1159560100233
1.892567	2722449.15969735	-3451989.41608952	4396357.62375298	51.7385358073935
1.607507	2703847.4001882	3362071.51617076	4314431.09150572	-51.1930398793833
1.376413	-294391.042396379	2413611.40302745	2431498.73342911	-96.9540846270935
1.17375	14278148.4893787	-7545429.73245158	16149273.4862009	27.8546583370723
1.001604	5990835.75229435	8163121.61221117	10125545.2923147	-53.7254159310364
