EC-Lab ASCII FILE
freq/Hz	Re(Z)/Ohm	-Im(Z)/Ohm	|Z|/Ohm	Phase(Z)/deg
6999984	4.33919533798679	1.89383668905005	4.73447289420885	-23.5788060923038
5969734	1.09698816586538	-1.84541406493539	2.14684328890352	59.2710515117958
5091109	7.21177738255564	43.5089783120147	44.10261813964	-80.5885765332128
4341796	-2.91422693037885	0.618868933567662	2.97921421832679	-168.010706097392
3702781	65.0007900383574	-58.488464457834	87.4414271398056	41.9812479028101
3157797	-1.07505476283513	3.36503171769114	3.53258845666487	-107.717555174862
2693047	-1.10323377889504	4.94698813289609	5.06851224304626	-102.571878512572
2296687	-0.217550827962077	21.4019015691101	21.4030072451659	-90.5823928747821
1958656	4.29934920976874	1.29510068844726	4.49017699214136	-16.7639715925045
1670375	5.84053879727746	0.381668891523831	5.8529962058129	-3.73886187522697
1424531	7.5173556077701	-2.59326349776038	7.95208468909185	19.0329073795343
1214875	5.65497687061001	-7.1031245301021	9.07926987688286	51.4758174695922
1036062	14.2058450343406	-17.810664945393	22.7821381555102	51.4240220849124
883578.1	4.41173656820392	-10.1767042916471	11.0918316696052	66.5626270041897
753531.2	-5.57125791308837	-6.02558166646374	8.20649432787069	132.756498371433
642624.9	-11.8859536885456	10.1128425588728	15.605943730092	-139.608099572946
548046.8	11.3948465821999	75.7789597545201	76.6308897906651	-81.4485288879246
467390.6	33.1624968621182	6.73428639319179	33.8393529984769	-11.4789286761264
398593.7	11.4485024312947	0.897360668489156	11.4836172040308	-4.48181510225752
339937.5	12.5341573803109	0.618773063569832	12.5494215539443	-2.82622318646386
289906.2	12.1765141025278	0.255243594802201	12.1791890116602	-1.20085594027895
247234.4	11.6020733875006	0.57600476647967	11.6163629583427	-2.84221329261037
210843.7	36.2316437349438	9.17360726638647	37.3749525486494	-14.2083105360573
179812.5	42.9220260680396	20.1652309670805	47.4229571172146	-25.1646444072449
153343.8	101.370631825328	36.4283221516293	107.717350744665	-19.7662933573018
130781.2	213.64933074274	48.1865233462633	219.015929920681	-12.7098425552957
111531.3	220.463782850417	46.0639674705643	225.224707010233	-11.8016643429677
95109.37	221.090555005947	50.0309202730215	226.680670759999	-12.7507975784917
81109.37	231.924467743572	52.416038216996	237.77384170784	-12.7351672898405
69171.88	238.289645142231	47.7316701850722	243.023182681543	-11.3269802688577
59000	243.388328717417	44.5043059283216	247.423749470457	-10.3622339334165
50312.5	245.594009704633	45.830568054919	249.833661805282	-10.570446796167
42906.25	257.119092760135	41.4447514950818	260.437891421897	-9.15668489583759
36593.75	259.183651376421	39.2355109590872	262.136587413956	-8.60814083235729
31203.13	262.928408477541	39.2984926419372	265.849053992038	-8.50076281197183
26609.38	266.343006248835	40.4902241027257	269.403146279987	-8.64408247484585
22703.13	271.625666101751	43.6272807500533	275.106964853426	-9.12465655508978
19359.37	273.805610085142	45.790725769399	277.608181940996	-9.4941742259035
16500	276.397771388368	49.170564526262	280.737372724559	-10.0872657579552
14112.02	279.068918785042	52.5737113134445	283.977915608101	-10.6688924045264
12011.13	282.121155507485	57.3818439705269	287.897590129435	-11.4968106889125
10236.38	285.77609524689	62.3886912107472	292.506966422253	-12.3152006851655
8750.684	290.427515023649	67.8871714020008	298.256281616626	-13.1566121256269
7449.463	297.116576274887	73.9528517982258	306.181782910742	-13.977007474163
6363.206	302.213546965926	63.3963142704805	308.791386914867	-11.8473348088176
5414.761	302.569969162496	46.9202820401867	306.186379686825	-8.81478952032713
4620.567	308.884975327311	21.2361092328817	309.61411517937	-3.93294559874958
3941.215	334.362086174716	59.7274386437211	339.654782975373	-10.1279801388772
3361.769	432.703452944055	181.995829641733	469.419599289048	-22.8117072778709
2867.244	541.905244358325	301.680276661628	620.219544346751	-29.10481786858
2442.658	648.988043890506	357.950158694916	741.157066499768	-28.8789865536292
2083.003	671.771784033945	455.32530507583	811.540795811614	-34.1293254163562
1777.843	631.095936077183	439.727789087813	769.183079006027	-34.8675700762264
1513.548	676.756068668892	475.721646477822	827.230234824468	-35.105072541464
1292.065	747.071845764146	595.086501013831	955.114802744849	-38.5393758359002
1101.762	876.334114588486	686.362462647486	1113.12843397476	-38.0687597621356
939.101	1042.53609182205	760.118360790389	1290.21758830139	-36.0959801298309
801.2801	1260.52338638773	807.293554335751	1496.87744672115	-32.6372516445883
684.3433	1490.06228383193	807.512483271635	1694.80441949446	-28.4546826584451
582.9476	1750.29465268247	755.599309040115	1906.42641794293	-23.3497776728562
497.0677	2013.5449488466	618.720683078789	2106.4611424603	-17.0811094616873
423.5089	2299.77160328824	398.225404769849	2333.99505147185	-9.82384841164383
361.5036	2528.42993541873	170.442576007829	2534.1682284406	-3.85649927789205
308.1262	2897.34804547691	-368.724453375567	2920.71625104973	7.25263155105884
262.7298	3132.06753249304	-733.597306921192	3216.83260938754	13.1822691756929
224.2111	3142.17260185165	-862.544944835962	3258.40949570327	15.3499289428554
191.2854	3058.42871036658	-897.384492120882	3187.36334657561	16.3524045491061
163.1722	3043.57360434652	-891.809473069132	3171.53975559675	16.3313197022453
139.1537	3063.24060986918	-839.19757845349	3176.11328664988	15.3207023657258
118.6706	3104.08313828743	-779.369646689689	3200.42952985713	14.0944065263853
101.1982	3113.15512361618	-691.934935959561	3189.12351270675	12.5309594020779
86.24196	3263.33869633732	-611.254294080055	3320.09205580867	10.6091099881824
73.61024	3214.83773832881	-513.779706038032	3255.63377395548	9.07994865833572
62.69291	3133.56792735158	-455.40011122661	3166.48657294354	8.26888106270443
53.57697	3077.66931064041	-414.856340778438	3105.50385109114	7.67694690539887
45.65746	3237.99434749712	-231.423774984206	3246.25389611645	4.08805444121622
38.96512	3095.54965917183	-311.629063212577	3111.19597027213	5.74860015010658
33.18414	2862.39657290473	-247.018517270825	2873.03537890703	4.93227967740953
28.30617	3046.045928263	-211.51424434194	3053.38076116411	3.97218289447573
24.17237	558.772943046155	-90.5811824454506	566.067268523519	9.2079646185018
20.61345	597.30425975284	-77.378606443402	602.295465244435	7.38135224931293
17.55618	604.477890509012	-48.2918090694046	606.40384145998	4.56766537940653
14.98558	610.542424319137	-36.8516446076651	611.653574831194	3.45411732090742
12.76553	617.931851060339	-13.933195422882	618.088914711751	1.29169266911899
10.8809	626.517815334698	6.17688388698791	626.548263764505	-0.564864880866159
9.278505	629.733604473823	36.395486201964	630.78446716725	-3.30773290678724
7.923394	640.996711181797	47.8786454738531	642.782349196282	-4.27172179202336
6.75822	646.469659344223	76.5619741592568	650.987523950958	-6.75412962140527
5.761429	652.471187670822	96.3055893408566	659.540307546751	-8.39630687634153
4.919708	660.434344493902	111.615927746514	669.799700443204	-9.59256253848337
4.191257	658.835720721014	133.101070598433	672.146116475002	-11.4214323613851
3.564097	659.335133997013	155.866075632125	677.507972245212	-13.3004818279843
3.051758	1667.67868802918	715.635971983004	1814.74159342392	-23.225188000305
2.604164	1003.93204581799	415.533341841796	1086.53003216777	-22.4849494473078
2.214424	1516.23326033037	676.036540337087	1660.11707527	-24.0304572630496
1.892567	977.905583905588	243.265803197769	1007.70907609249	-13.969467349579
1.607507	1631.17762255178	-75.4841966352718	1632.92323771062	2.64952300244551
1.376413	763.883563994681	630.440523506813	990.440989166321	-39.5331883202884
1.17375	920.663458675199	677.821187024479	1143.26845741455	-36.3616606594331
1.001604	1298.36523208869	259.278431043614	1324.00059694139	-11.2931872181009
