EC-Lab ASCII FILE
freq/Hz	Re(Z)/Ohm	-Im(Z)/Ohm	|Z|/Ohm	Phase(Z)/deg
6999984	49.1388070401922	54.2815456954925	73.2195913702411	-47.8467772797469
5969734	50.2601727859634	54.1059497392476	73.8480789571461	-47.1103317073535
5091109	51.4735034957309	51.0886409961457	72.5228984594389	-44.7849996845489
4341796	54.9876650307669	48.2006725408031	73.1228291227955	-41.2369127015777
3702781	59.1861497931601	44.6572695204316	74.1435907436297	-37.0353673532597
3157797	62.7906028145281	41.9460285655251	75.5124434396853	-33.7441258906897
2693047	66.7505903343838	39.5152063563792	77.5699222854836	-30.6248061441267
2296687	70.6381032627911	36.5895702472864	79.5521104902054	-27.383538060448
1958656	73.8983396838431	33.2347915103079	81.0278715922015	-24.2151960449336
1670375	76.8066694374418	30.0219812107101	82.4656524007947	-21.34939866356
1424531	79.1111669183903	26.8444472839672	83.5416128714972	-18.7433918056547
1214875	80.8278740355849	23.969474460611	84.3070633282305	-16.5177028730013
1036062	82.3026031432935	21.4187766682301	85.0440031873264	-14.5873221175363
883578.1	83.4833260232881	19.16665977398	85.6552775420295	-12.9302708782385
753531.2	84.4429245737882	17.1875940175519	86.1743633494711	-11.5048779346679
642624.9	85.2149435905617	15.4947617406752	86.6122061406064	-10.3055855962119
548046.8	85.8987773493515	14.0454534839428	87.0395008813991	-9.28635097445365
467390.6	86.3678968535555	12.9405740177728	87.3319647254994	-8.52128616019341
398593.7	86.7835829482297	12.0628445782164	87.6179347431247	-7.91336075082575
339937.5	87.1639022307472	11.4037310456546	87.9067172282806	-7.45372254841591
289906.2	87.5184215577379	11.0414409950911	88.2121733731008	-7.19052292606666
247234.4	87.8598918067406	10.8665121512964	88.5293266360161	-7.0505378775603
210843.7	88.2394064567126	10.8686766171346	88.9062482800887	-7.02190144695966
179812.5	88.6294118647806	11.0880025707089	89.3203025549341	-7.13095250410691
153343.8	89.0178664911605	11.5292634939048	89.7613751640981	-7.37965629423934
130781.2	89.4515621921383	12.1633444800747	90.274741359668	-7.74341000963405
111531.3	89.9280397088409	13.0243405772509	90.8663071404747	-8.24088634483434
95109.37	90.437955346959	14.0668411139593	91.5254051412171	-8.84101952818822
81109.37	90.8212936435109	15.3163401270337	92.10373311635	-9.57244026071837
69171.88	91.6253584365252	16.9333253643501	93.1769489547531	-10.4707177623465
59000	92.3468481330995	18.7868068436219	94.2384447637868	-11.4991827341843
50312.5	93.1593462549957	20.9485853035369	95.4856377727967	-12.6732019042971
42906.25	94.053777920903	23.3951634672346	96.919795784211	-13.9684073776581
36593.75	95.0565645382379	26.252147416917	98.6150379293733	-15.4387660489905
31203.13	96.1294919162952	29.5171318004609	100.559138251135	-17.0694153930887
26609.38	97.441403487656	33.3253986086657	102.982567971821	-18.88091886522
22703.13	98.8716387124689	37.6586659629009	105.800643021649	-20.8510571620891
19359.37	100.485539738453	42.5662153672631	109.129402029061	-22.9577771381615
16500	102.287143538285	48.2165762346265	113.081819745755	-25.2384642895695
14112.02	104.273073332191	54.494553406928	117.654282425932	-27.5921921007008
12011.13	106.551924265203	61.831476595255	123.192711077268	-30.1263500510967
10236.38	109.091466073689	70.2307339653668	129.743223188809	-32.7725613574864
8750.684	111.909667075402	79.6552938853507	137.363530199573	-35.4425790602637
7449.463	115.133435815168	90.5861714403507	146.49765356082	-38.1954178123272
6363.206	118.66831707687	102.914988975731	157.078529512251	-40.9334341462307
5414.761	122.865878475032	117.321498244343	169.883366000732	-43.6776441538996
4620.567	127.369383335933	133.590497572318	184.578928518386	-46.3656355427101
3941.215	132.704355501573	152.268663070637	201.980671655501	-48.9273756813637
3361.769	138.819983697031	173.409989732363	222.130620159901	-51.3216631748123
2867.244	146.036493368658	197.897349850677	245.947186349703	-53.5748769999437
2442.658	154.239372744886	225.831256885867	273.476764445147	-55.6675079438339
2083.003	163.709755453979	257.505930854534	305.139621249129	-57.5537824082297
1777.843	174.785495040227	293.242786377679	341.381459717722	-59.2032133088523
1513.548	187.830224510146	334.682972688904	383.787552491497	-60.6980601963487
1292.065	202.442816683561	381.025261508685	431.466503838405	-62.017811181653
1101.762	219.665231062155	433.854704019679	486.294887838226	-63.1464234465017
939.101	239.588041891693	494.077040247991	549.103406944185	-64.1303065723004
801.2801	262.482766143017	561.592084168145	619.905534353752	-64.9490632615423
684.3433	288.89024924616	637.525983912946	699.926393468398	-65.6226897412776
582.9476	319.70266132007	725.037794950012	792.394848393849	-66.2051013400281
497.0677	354.587334674447	822.931155587325	896.073582217341	-66.6895944515907
423.5089	395.576485012534	934.645580287305	1014.91039813644	-67.0601262577018
361.5036	441.660061890082	1058.60868088146	1147.04662045897	-67.3537098319268
308.1262	494.427617840055	1199.91332952809	1297.78683444631	-67.6057539660049
262.7298	555.679691813778	1358.43431265679	1467.69332685598	-67.7525457531174
224.2111	624.261464785521	1537.831323689	1659.70706949606	-67.9059838506535
191.2854	704.788804159366	1737.87097903927	1875.34604760169	-67.9251206410108
163.1722	794.282472941591	1966.55282899617	2120.89949692461	-68.0064233521399
139.1537	898.452829148859	2220.47558700441	2395.35578123338	-67.9706707857237
118.6706	1016.59245429693	2508.82807540094	2706.96851294089	-67.9419083044081
101.1982	1149.41067430296	2832.33437168218	3056.67513668265	-67.9118280201638
86.24196	1303.41331285426	3196.4362451783	3451.96913856646	-67.8158002936999
73.61024	1474.61821785536	3602.83734387794	3892.93408817467	-67.7410293014353
62.69291	1673.26964086336	4065.51058433827	4396.38574313054	-67.6290733482667
53.57697	1891.7950548265	4573.35014062653	4949.18377495064	-67.527258748072
45.65746	2143.04313291793	5153.06601569948	5580.92494410233	-67.4186832458947
38.96512	2426.26467369225	5798.25721720407	6285.42337664425	-67.2932627845405
33.18414	2746.84911196221	6530.08531866089	7084.29208269098	-67.1861769726306
28.30617	3105.56376298605	7348.51774285177	7977.79664462434	-67.0905503166233
24.17237	3508.72914724164	8259.07544439606	8973.48914441473	-66.9826050680206
20.61345	3952.71984236611	9286.97822150515	10093.1639558141	-66.9444460788649
17.55618	4473.50819406395	10453.9888348385	11370.934795402	-66.8327766045939
14.98558	5044.30416992149	11752.1691953744	12788.9986064349	-66.7698658386885
12.76553	5698.21488649718	13220.8935945858	14396.5857178727	-66.6839221694189
10.8809	6427.92864845908	14876.0487838176	16205.4032386795	-66.6308662775898
9.278505	7242.83768597587	16728.6599322173	18229.2830597686	-66.5893268374428
7.923394	8153.2481188211	18791.2066464815	20483.7716770577	-66.5446361294226
6.75822	9179.02093972923	21131.8571942841	23039.310186974	-66.5213740429403
5.761429	10378.6788539397	23762.552895913	25930.2120100141	-66.4059230472214
4.919708	11640.9532263089	26692.3230650515	29120.3005243111	-66.4372065428356
4.191257	13137.3457802458	30082.3622736234	32825.8796395658	-66.4085013572995
3.564097	14858.6605825799	33877.6611887951	36992.9144827913	-66.3178594341098
3.051758	16698.5402797347	38060.0558753175	41562.1113600622	-66.3109266447888
2.604164	18851.367624341	42717.3624298995	46692.0455139357	-66.1879126061742
2.214424	21328.3421463665	48185.725109354	52694.9929597368	-66.1244861782532
1.892567	24051.4930315287	54040.9988372942	59151.533136328	-66.0080611542826
1.607507	27348.3442635845	60932.2294103757	66788.2363510086	-65.8279232234935
1.376413	30777.2603550698	68291.2537459293	74906.1752671611	-65.7400314977204
1.17375	34801.8328022542	76611.2423921714	84145.4100190147	-65.5693473705509
1.001604	39393.6788656952	85917.1676756385	94517.8376602919	-65.3681818886805
