EC-Lab ASCII FILE
freq/Hz	Re(Z)/Ohm	-Im(Z)/Ohm	|Z|/Ohm	Phase(Z)/deg
6999984	25.132759817677	92.355972314833	95.7145821610858	-74.7767791383033
5969734	17.9540763586872	93.9038821623902	95.6048531355058	-79.1758917935382
5091109	15.5761397775432	99.2152624841397	100.430495568658	-81.0777678986955
4341796	15.2156820925601	109.475537316761	110.527870930075	-82.087319533716
3702781	19.0469746408009	120.087108363379	121.588243009121	-80.9874124544033
3157797	19.4910866825774	133.210182873967	134.628582705841	-81.6756493579145
2693047	20.5894294275651	151.477230318607	152.870127589235	-82.2595506469323
2296687	23.2737196246797	174.326947259357	175.873677865491	-82.3956281232759
1958656	27.3676021435933	199.897421278434	201.762148781325	-82.2042029239227
1670375	32.5045594019161	230.751200229475	233.029317445801	-81.9818380036324
1424531	39.7510114495148	266.842945012655	269.787509374111	-81.527081401637
1214875	48.9600143403044	308.41929781686	312.281197432775	-80.9798494115076
1036062	60.5901654163586	357.244752507811	362.346493483169	-80.3740038389363
883578.1	76.6228482877817	412.920372141447	419.969397229326	-79.4875808340894
753531.2	97.6070740934916	477.486885098579	487.361125197975	-78.4468602950137
642624.9	188.508134172729	622.923424227629	650.821718368985	-73.1632153956558
548046.8	237.584038572322	703.844751128587	742.861769830429	-71.3477986217838
467390.6	297.89883552844	788.893210569935	843.265209701278	-69.3126525334791
398593.7	372.444674338046	883.614932759261	958.900612596492	-67.1445229409246
339937.5	463.4679863161	979.921080717888	1083.99626326626	-64.6875080280651
289906.2	566.845157479135	1083.06512647732	1222.43343407683	-62.3737325639883
247234.4	691.48138822369	1184.44703182106	1371.51787500181	-59.7235735783902
210843.7	842.954249944	1286.64033688858	1538.18569230357	-56.7688187697446
179812.5	1002.81139596089	1374.08420100411	1701.0990821578	-53.8779029186325
153343.8	1189.1769919139	1451.02393775022	1876.06300161309	-50.6638961668462
130781.2	1389.48591991033	1510.23245279621	2052.18741422608	-47.3844633644338
111531.3	1601.25794402373	1544.36515058155	2224.65519162631	-43.9638423021454
95109.37	1812.05903575892	1554.37394700606	2387.39111085861	-40.6228050776005
81109.37	2031.76953645949	1539.6661669134	2549.24682108708	-37.1546915436737
69171.88	2216.26384249382	1504.85502415838	2678.88298797842	-34.1767147555915
59000	2393.53345356109	1461.36704914995	2804.38871158356	-31.4060684752553
50312.5	2552.42859313454	1413.73776051688	2917.79817303426	-28.9811678468129
42906.25	2713.11953337531	1332.5702912693	3022.70759147427	-26.1583308409182
36593.75	2823.8750940888	1279.34431938515	3100.16006595757	-24.3726964132371
31203.13	2920.83110999522	1222.21291002721	3166.23732063045	-22.7067242210691
26609.38	3022.32628395193	1195.28021503793	3250.10014601516	-21.5779801759275
22703.13	3106.25504808941	1167.53180674592	3318.42597379305	-20.5994713942472
19359.37	3183.28522427098	1154.85726625422	3386.2959298446	-19.9401574002342
16500	3258.82091499578	1157.72658499199	3458.35865716833	-19.5580575762394
14112.02	3323.52121647099	1175.18685922733	3525.17480849296	-19.4734374394766
12011.13	3391.35264345859	1205.93922724122	3599.38358223915	-19.5749999382415
10236.38	3464.54752433828	1254.96647450035	3684.83790695308	-19.9119564175579
8750.684	3529.98432184372	1322.20758779763	3769.48567017996	-20.5341771239141
7449.463	3603.82030346345	1399.12140356653	3865.88430783609	-21.217847553798
6363.206	3687.01824369207	1501.01460171635	3980.84769413297	-22.1516312499904
5414.761	3805.57767686768	1566.29252014025	4115.29995423431	-22.3709938714342
4620.567	3895.15425397969	1716.11824428933	4256.44082428956	-23.7772213767576
3941.215	3995.32761605495	1887.4566227202	4418.72552465772	-25.2867990091668
3361.769	4098.27410723586	2082.659521017	4597.09923087621	-26.938750924088
2867.244	4222.87995702157	2302.13216048691	4809.62863595128	-28.597314771965
2442.658	4358.51804660066	2553.98807621212	5051.68631805037	-30.3692898858102
2083.003	4507.18300706844	2841.11629174535	5327.91145219469	-32.2254038518703
1777.843	4673.00091916797	3158.98716887276	5640.57953792404	-34.0590177653157
1513.548	4852.08633686482	3518.49702868283	5993.54345619018	-35.9477960552762
1292.065	5063.1608889924	3916.8562708301	6401.35620272481	-37.7255007470728
1101.762	5288.7514278393	4372.76969715297	6862.36158256117	-39.5841357274315
939.101	5544.8477117697	4888.82507490521	7392.28968315905	-41.4022339437847
801.2801	5832.66299432356	5455.64508788757	7986.48990047213	-43.0870908248803
684.3433	6150.78292140966	6090.64929830222	8656.10417111613	-44.7185480394696
582.9476	6516.3436367831	6820.78083900559	9433.22774273946	-46.3076235659532
497.0677	6921.73460998984	7632.64206559761	10303.7679958674	-47.7963856416652
423.5089	7388.82839780568	8538.73786326206	11291.8036375827	-49.129371952037
361.5036	7923.53342324816	9547.00487152708	12406.7596062103	-50.3090347564319
308.1262	8489.68680989791	10669.5982868223	13635.0691135878	-51.4911039835663
262.7298	9149.43801107404	11933.2018140315	15037.0715717154	-52.5218550570066
224.2111	9904.54501915172	13326.5914943775	16604.1576990349	-53.3796530904088
191.2854	10744.5644755858	14900.1067530814	18370.0529945682	-54.204379999876
163.1722	11743.5562478008	16572.3355403817	20311.4110442445	-54.6776947048556
139.1537	12811.9972135954	18538.2039402712	22534.6905444087	-55.3511378380965
118.6706	14126.6621126185	20602.5893697272	24980.5778792582	-55.5625764532336
101.1982	15503.8237582301	22975.1840594454	27716.9196284806	-55.9882325288143
86.24196	17061.5662325751	25589.4870567776	30755.7944156469	-56.3069746798235
73.61024	18801.3608966901	28477.1337442591	34123.867275794	-56.566146408873
62.69291	20756.5110483549	31643.6214304715	37843.7779315897	-56.7372831727006
53.57697	22940.0844605172	35078.6958115627	41913.7492345389	-56.816895658334
45.65746	25447.0259928045	38955.2139554105	46530.2033757674	-56.8459045115015
38.96512	28167.5454874177	43177.87442933	51553.2681701241	-56.881152875058
33.18414	31312.3835891416	47860.1544547234	57193.1792302502	-56.8053849362298
28.30617	34708.0361223266	52944.1122450881	63306.6093934054	-56.7527587627471
24.17237	38589.0255715783	58467.2006392406	70053.7396942743	-56.574729316644
20.61345	42849.8590354364	64630.38371724	77544.8058788882	-56.4556744163938
17.55618	47677.7707337187	71385.9913412826	85843.6344868663	-56.2615563154035
14.98558	52919.2898304892	78676.4905329039	94817.9381696176	-56.0744798657153
12.76553	58820.6242980223	86766.2342357982	104824.831248471	-55.8658430141964
10.8809	65352.9743365241	95599.2663132024	115802.551674188	-55.6429509727346
9.278505	72860.1441237403	104862.918824752	127690.376873822	-55.2079155780477
7.923394	80726.2732313904	115343.044168218	140786.181949155	-55.0125999952655
6.75822	89457.2945504285	126849.093123893	155220.166133903	-54.8075097524984
5.761429	99035.8152702242	139384.97951776	170986.155057666	-54.6054447268896
4.919708	109813.072908939	153139.86340742	188442.905799468	-54.3565633198407
4.191257	121549.250656646	167957.219979387	207325.464134043	-54.1070516592171
3.564097	134386.051953086	184720.879141215	228432.515527543	-53.9637835625447
3.051758	148377.11790989	201946.435157318	250595.554214344	-53.6939720072396
2.604164	163387.273706082	221762.489326316	275452.360456959	-53.6184389811075
2.214424	180634.497609825	242336.537617867	302251.251761461	-53.2996338047408
1.892567	199251.78001837	266367.696268374	332645.489155963	-53.202305464082
1.607507	219546.394513739	292417.945930944	365662.24093616	-53.1009033934997
1.376413	241778.332910277	319544.45895504	400706.156071681	-52.8875969359505
1.17375	266333.366919949	351090.918423509	440679.356601122	-52.8164814144188
1.001604	292495.591317445	384567.031707768	483161.952989539	-52.7439564167112
