EC-Lab ASCII FILE
freq/Hz	Re(Z)/Ohm	-Im(Z)/Ohm	|Z|/Ohm	Phase(Z)/deg
6999984	16.0517538751553	95.9928221256395	97.3256425723109	-80.5069300474066
5969734	15.159159312178	95.1220934780487	96.3224417189402	-80.9451854649022
5091109	11.6171743235922	101.411760897204	102.074991979115	-83.464996552108
4341796	11.357951184418	111.766664503786	112.342291010152	-84.1974085016238
3702781	13.8792552902123	122.914895037927	123.696019133986	-83.5575865318012
3157797	13.2278014312691	137.195899244128	137.832106202111	-84.4928255407932
2693047	12.8252843906546	156.451279210717	156.976083166739	-85.3135875823181
2296687	13.5265593027062	180.471535613174	180.97774165114	-85.7136267148785
1958656	15.0976143999276	207.744756670878	208.292635215005	-85.8434016554756
1670375	16.6675561131117	240.394755060492	240.971877378622	-86.0337955307976
1424531	18.804149251986	278.789252484982	279.422696519495	-86.1412824131641
1214875	20.9670165655148	323.115422318366	323.794984401604	-86.2872720593634
1036062	24.1567657204765	375.41450171855	376.190905566125	-86.31826907608
883578.1	27.4751443148131	437.092201230414	437.954878876316	-86.4031814213184
753531.2	31.6453321674418	508.682385055402	509.66576882663	-86.4401944948839
642624.9	90.4552583286662	677.996291400675	684.003746270716	-82.4007274476525
548046.8	111.108215934951	778.662562319692	786.549694301965	-81.8792212625245
467390.6	131.223831079393	886.415289016583	896.075754858653	-81.5791632652144
398593.7	153.580602187339	1050.33750609731	1061.50641923775	-81.6811497527477
339937.5	251.624700041808	1181.03761170744	1207.54495980015	-77.972737719543
289906.2	243.876553024507	1426.38971088	1447.08789657693	-80.2976858606248
247234.4	281.117499323908	1545.58572782149	1570.9431213356	-79.6914965133764
210843.7	248.928995908702	1783.9313167628	1801.21530859894	-82.0562652212199
179812.5	273.509396741309	2063.10230269583	2081.15316627457	-82.4482256488689
153343.8	303.322660338892	2383.15053732156	2402.37614036835	-82.746507477014
130781.2	336.146997491357	2760.41791101504	2780.80956690225	-83.0570506019749
111531.3	370.695591009807	3205.66468530241	3227.02669585938	-83.4037473638085
95109.37	973.020288034529	3730.04952274383	3854.87197232908	-75.3796453303399
81109.37	463.828391408493	4328.83392258485	4353.6122824613	-83.8841724750258
69171.88	509.623391406393	5020.83278368428	5046.63034536783	-84.2042266993858
59000	1265.10273675186	6352.77027464975	6477.5130333339	-78.7373498971451
50312.5	1321.40432689592	7283.62138520538	7402.51645578451	-79.7171650225983
42906.25	1695.81485442342	8500.91957892029	8668.41517855216	-78.7183849941262
36593.75	1838.77175038481	9625.80269122596	9799.85504997018	-79.1853455971579
31203.13	2018.08685069281	11080.9144514211	11263.1851452709	-79.6782611883089
26609.38	2169.08486579465	12774.5403718224	12957.3844145468	-80.3632322323878
22703.13	2382.54612347167	14746.3443839347	14937.5767352028	-80.8221141305081
19359.37	2632.8218587895	17073.9184501233	17275.7182826527	-81.2339561936481
16500	2905.01897747135	19795.3736159772	20007.3974283412	-81.6512986516214
14112.02	3232.14574077286	22882.5096278104	23109.6519436453	-81.9601801989764
12011.13	3666.08290942205	26617.6132893672	26868.8946762061	-82.1579079340761
10236.38	4140.87542625086	30964.6640599736	31240.3148134385	-82.3830803475625
8750.684	4798.02331514577	35907.3858198265	36226.5287344311	-82.3890964044114
7449.463	11493.8746427727	46879.2806565797	48267.7543416113	-76.2239559372447
6363.206	13236.3093263522	53203.0085560733	54824.8119376664	-76.0290929911207
5414.761	15106.4343431524	60650.287410387	62503.2936854253	-76.0136804264317
4620.567	17187.1059776814	69198.904673294	71301.3675876675	-76.0515529366898
3941.215	19630.7172304603	79100.6236006535	81500.1454783644	-76.0622672474588
3361.769	22268.3132449674	90531.3952993827	93229.8842090297	-76.1810986941689
2867.244	25487.8464624474	104050.909849433	107127.130820293	-76.2361026425015
2442.658	29363.5713483778	119777.691833148	123324.428979857	-76.2255602190711
2083.003	34199.4958454118	137791.546776947	141972.236297326	-76.0610067403095
1777.843	40335.9596799566	158413.537936716	163468.157892999	-75.7146537531529
1513.548	47803.8987744992	182990.578330988	189131.606285021	-75.3594199201718
1292.065	57642.2257361085	209802.471287426	217576.890193153	-74.6373212109684
1101.762	69987.1953051166	240849.870243265	250812.414969583	-73.79696401285
939.101	85813.8443152428	275709.410379329	288755.423928067	-72.7113808784157
801.2801	162515.565616541	349845.637674415	385750.280968766	-65.08347916028
684.3433	194138.90259532	386763.679337192	432754.037711212	-63.3452970971916
582.9476	230371.907284952	424954.303929072	483381.191291044	-61.5374433662153
497.0677	271507.23894466	465341.672169178	538756.951376554	-59.7382412979455
423.5089	319581.785830665	510717.010590833	602465.254385308	-57.9636764148663
361.5036	373711.857259847	553472.848160241	667826.883186963	-55.9722813837978
308.1262	435274.460966545	597453.430152377	739198.523788135	-53.9248052437419
262.7298	501820.681364648	635390.341460093	809657.262220289	-51.6989100462823
224.2111	577652.638974136	677319.205466043	890193.168591478	-49.540749919363
191.2854	653448.985431055	714190.511839228	968020.487263598	-47.5430294342363
163.1722	739957.185558429	745463.422257423	1050358.20098826	-45.2123860926708
139.1537	824884.543280413	763724.880319492	1124148.65678964	-42.7952662310863
118.6706	912447.123549095	794588.826153389	1209930.22770771	-41.0504149392626
101.1982	985163.710125824	806692.042922714	1273302.63011733	-39.3120094226341
86.24196	1078129.64377734	817086.337437586	1352772.56463111	-37.1575391439155
73.61024	1156491.62796617	835890.752742091	1426949.97672503	-35.8587068477114
62.69291	1223374.65402643	846288.653093759	1487565.13419398	-34.674156713324
53.57697	1286260.30341668	852863.64154519	1543321.7290038	-33.546638797864
45.65746	1401007.90312795	899184.268340327	1664738.8663264	-32.6928514690278
38.96512	1435093.03109911	940125.123346078	1715612.79298556	-33.2286873286121
33.18414	1542734.62562189	1023167.4551404	1851189.28431189	-33.5530043589679
28.30617	1573548.06178785	1062412.79806917	1898624.35891291	-34.0260497737839
24.17237	1665820.5436127	1091764.75280449	1991709.90834217	-33.2404959887697
20.61345	1646253.94753584	1139833.44957068	2002341.71722449	-34.6979573801338
17.55618	1808888.00857672	1256194.84704124	2202294.55825183	-34.7783147109009
14.98558	1899575.52632454	1302546.09447045	2303261.49371525	-34.4385793862781
12.76553	1955997.44071571	1419172.73078276	2416604.48312996	-35.9627387945733
10.8809	1963349.57611097	1556211.83346196	2505301.74402649	-38.4014362467224
9.278505	2143700.7830048	1650067.41139728	2705212.65508106	-37.586501185974
7.923394	2424571.64655194	1920916.47316596	3093293.99930624	-38.3887452315603
6.75822	2470228.68664218	2037427.47959066	3202052.54468147	-39.5155755976661
5.761429	2618952.01382046	2144950.95751762	3385221.44930726	-39.3178593217224
4.919708	2569021.72786282	2297773.03270525	3446684.42826708	-41.8099449812218
4.191257	3335346.0403775	2701044.12234811	4291872.84992614	-39.0013918131598
3.564097	3029389.2329087	3068716.68640063	4312101.71793951	-45.3695025792516
3.051758	3467062.60760803	3518639.23715998	4939771.77674795	-45.4230168373168
2.604164	3377022.20227678	4006402.3288383	5239803.29546742	-49.8722461108919
2.214424	3328090.70935932	4152293.57178611	5321440.56398453	-51.2875951043138
1.892567	3875239.7685981	4217566.60123304	5727595.59500849	-47.4221754465093
1.607507	4226153.50947986	5216673.50427736	6713721.46695991	-50.9882303859359
1.376413	4945317.38453019	5690488.99657868	7539086.7519826	-49.0077387417087
1.17375	4976699.82064374	5876260.10854063	7700517.77272291	-49.7381969051431
1.001604	5448956.07755099	7012133.86280885	8880379.70162484	-52.1501028507919
