EC-Lab ASCII FILE
freq/Hz	Re(Z)/Ohm	-Im(Z)/Ohm	|Z|/Ohm	Phase(Z)/deg
6999984	62.6172320724654	28.1870145356088	68.6689561654145	-24.2347912015271
5969734	35.5724466805613	36.2369058487119	50.779053834527	-45.5301484858504
5091109	8.40893635140819	-3.10868514826093	8.96516223573518	20.2887621115257
4341796	2.97895463462437	-4.41064465525818	5.32240143075544	55.9648615803509
3702781	2.46549181289042	-7.13570985823961	7.54963608794541	70.939222418076
3157797	2.05184518603767	-5.50958527990528	5.87925153603883	69.5739785838383
2693047	1.46143509489312	-6.20537476679319	6.37514458917905	76.7476966577738
2296687	3.15608202549559	-8.51186341949338	9.07814257564652	69.655911548542
1958656	0.897541581747135	-11.0726723477645	11.1089897745886	85.3657840374545
1670375	-5.63530604906815	-7.78563261131169	9.61107431169816	125.897334127025
1424531	0.517333283575155	-13.6245895321171	13.6344077115572	87.8254918519512
1214875	4.36280041858625	-12.1343177555884	12.894793324672	70.2243429770913
1036062	11.8738837582915	-10.2622100013422	15.6940138147341	40.8357849492066
883578.1	14.208910125903	-1.13165916207927	14.2539040064505	4.55367203117605
753531.2	1.51881173917397	10.3110808493695	10.4223403025083	-81.6206454095819
642624.9	29.7518954032116	-9.34896500921289	31.1861896811254	17.4443303263326
548046.8	8.70387378236445	7.18486808846416	11.2862636983176	-39.5389694644413
467390.6	6.07710648616102	3.51137638062557	7.01861719504316	-30.0194934223048
398593.7	5.4764557203062	-4.45763900608439	7.06131098062106	39.1443562422009
339937.5	8.94060457409313	-4.78548099216167	10.14077109872	28.1580280304382
289906.2	6.29271691093353	-3.14288242656572	7.03391754773714	26.539725926825
247234.4	4.36690319916373	0.0844128810354802	4.36771897966789	-1.10739792952618
210843.7	-2.10026242230319	-15.8009176762659	15.9398902648253	97.5713893555674
179812.5	0.171416298116264	-25.8725033967213	25.8730712432949	89.6203967367575
153343.8	27.1207093591932	3.00481828648836	27.2866599106715	-6.32225695374746
130781.2	103.155517553241	-30.9841019874582	107.708288342384	16.7183240449664
111531.3	-3.51228982328658	-158.094980911182	158.1339911882	91.2726924263557
95109.37	0.655750116388255	-171.198684752958	171.199940623114	89.7805384404966
81109.37	0.249306633700462	-352.46309615622	352.463184326855	89.9594731599159
69171.88	-54.2708968208414	-226.571298643712	232.980436111783	103.470333631116
59000	-37.9211284956362	-370.015521178951	371.953623318437	95.8515419419232
50312.5	-38.2880848201029	-376.584916505428	378.526322438204	95.8054188394152
42906.25	-0.290335123050316	-465.524385256304	465.524475793425	90.0357338424478
36593.75	-27.3616091803482	-500.311941762564	501.05957403004	93.1303361897289
31203.13	-36.8426223996198	-580.237158282497	581.405657589457	93.6331639507357
26609.38	-22.2301801833716	-786.820261914944	787.134235992112	91.6183578641582
22703.13	-124.389331182911	-862.996299953032	871.914743220205	98.2019294091089
19359.37	-88.8547094188297	-909.655001125385	913.984343661492	95.578928623
16500	-83.410856604043	-1120.71233575333	1123.81204411997	94.2564847360586
14112.02	-102.46750009241	-1333.40649669229	1337.33783091499	94.394338381567
12011.13	10.0653577102816	-3.26136978218408	10.5805462378872	17.953323113215
10236.38	1.88003683221702	-1.45559256311954	2.37766444232602	37.7483331152087
8750.684	2.12973638471906	0.510009580246423	2.18995133287006	-13.4670578477627
7449.463	1.97849581668815	-0.90054388226395	2.17380426454075	24.4734109344652
6363.206	0.622894174767473	-2.1711949425004	2.25877945609982	73.9923426209896
5414.761	4.85745443604911	4.0946750518929	6.35304866807168	-40.1297920836243
4620.567	1.98973177949764	-0.459859774324658	2.04218108070386	13.0135044571371
3941.215	1.29755560406417	1.02272913870854	1.65215781231753	-38.2450646052753
3361.769	4.61239639577052	-1.04353581725431	4.72897108403186	12.7483109416608
2867.244	0.434866500753065	2.14350974867752	2.18717692840629	-78.5317153444726
2442.658	1.66277235009263	4.07258720985966	4.39895197406667	-67.7905901507141
2083.003	1.80083636174465	-0.566516421510565	1.8878433350315	17.4628024856476
1777.843	1.04628741744967	1.02902650201052	1.46751930200373	-44.5234673693835
1513.548	3.18982496448029	0.812005913047423	3.2915553932519	-14.2819470718875
1292.065	3.33836135642742	-0.538444958226505	3.38150551073445	9.16233998927553
1101.762	2.52910282056826	-1.29780629642341	2.84265056945847	27.1645765094608
939.101	5.20906051240651	3.91962068182419	6.51902889327059	-36.9600749694016
801.2801	4.52027814194716	-3.2862395498122	5.58858522877796	36.017129678065
684.3433	5.22679200624406	-0.263652180876225	5.23343741235315	2.88769181759888
582.9476	4.56734625230256	-1.18046349525571	4.71743000499781	14.4913860643196
497.0677	-4.03989182887187	3.56748047486515	5.38958652658345	-138.553456159449
423.5089	6.3674439309473	-8.19944049024314	10.3814819061055	52.1681395621826
361.5036	-0.888005573961019	6.46428131441514	6.52498941081766	-97.8218292078191
308.1262	2.69863828598525	7.55169543176368	8.01939851190261	-70.3353821977877
262.7298	72.1029214635874	-5.08008606603861	72.28166128433	4.03017367179431
224.2111	71.6574649807093	13.8635101426454	72.9862261042233	-10.9496875607641
191.2854	-21199.3744624114	-67697.0116021419	70938.6978838636	107.387989851103
163.1722	13757.7551680469	-51984.3676695198	53774.0672561016	75.176417200407
139.1537	157.477444105375	-55.2022303611285	166.872501146248	19.3176330262466
118.6706	-14822.6948101549	-66663.8056862471	68291.8389707636	102.535782171478
101.1982	257.514867184454	-251.387255478785	359.874226693414	44.3101437231004
86.24196	164492.825272157	-494320.700320766	520971.059015401	71.5943423610286
73.61024	148913.931688595	-185700.604773846	238033.765807139	51.2737581735614
62.69291	202595.656093378	-249427.39759971	321339.425749892	50.9150121092961
53.57697	114339.469082874	-205306.914728697	234998.815796101	60.885703874254
45.65746	196152.159269717	-260149.548234548	325811.996453187	52.983790820175
38.96512	306895.692164928	-185656.901517011	358682.939307528	31.1718891652294
33.18414	139181.670750376	-297917.392778419	328825.65348944	64.958860839839
28.30617	505953.906351933	-1193496.7483727	1296311.63063863	67.0266655224662
24.17237	920131.732521922	-257145.974790465	955388.118800277	15.6138963286502
20.61345	480470.092632713	145726.599601894	502083.411144023	-16.8725528242597
17.55618	213417.038616184	-342323.529953477	403400.832338643	58.0590738877556
14.98558	464653.923791545	-1417894.45728295	1492088.45612068	71.8556684113878
12.76553	855686.214832593	-1533881.32870394	1756414.19625358	60.8447373919022
10.8809	1288999.3036388	-2291817.8374356	2629438.76231588	60.6450616002991
9.278505	3716250.1539225	1525341.3405891	4017111.07785671	-22.3157836582954
7.923394	2071347.19397765	1114718.93584706	2352249.45614513	-28.2874190893126
6.75822	1388832.09295219	667826.617843877	1541053.85172444	-25.6807991665664
5.761429	561321.453181038	-6313975.3718202	6338877.40611485	84.9196790981657
4.919708	1453875.72928455	1275131.01292324	1933833.94745292	-41.2525888268524
4.191257	6374950.11006814	-2006303.42482271	6683205.99250936	17.4696607904553
3.564097	1718168.59733492	-2513375.64422026	3044529.59549212	55.6430999417613
3.051758	253410.290544114	-4585159.66732273	4592157.00408825	86.8366239933349
2.604164	29077289.6244151	-24535988.7549937	38046070.9678055	40.1583311113998
2.214424	3438296.36807174	-3662112.40320822	5023240.90288598	46.8054551349864
1.892567	-7560323.70250403	24880374.6934164	26003683.1885685	-106.90229352817
1.607507	3020403.55034249	454267.38843057	3054373.3345996	-8.55315407275859
1.376413	14142323.7837568	19595415.7735598	24165794.8626419	-54.1814158514472
1.17375	20647873.3356747	6282428.99534806	21582483.3457056	-16.9231793750375
1.001604	3070094.04241981	6642187.12833056	7317385.27597541	-65.1930859864885
