EC-Lab ASCII FILE
freq/Hz	Re(Z)/Ohm	-Im(Z)/Ohm	|Z|/Ohm	Phase(Z)/deg
6999984	2.18318349925723	0.928806697677764	2.37254548388015	-23.0466887288099
5969734	6.24255375650174	6.22480940287285	8.81576596246226	-44.9184530141908
5091109	6.49812801082158	-2.72488507170972	7.04632289205161	22.7499538867117
4341796	2.40253576973744	-5.28743363333289	5.80767875762492	65.5636177925996
3702781	1.63701703921949	-5.42049453326881	5.66229509756353	73.1954156237422
3157797	1.67770279463881	-5.77650224195617	6.01520280775831	73.8048135346433
2693047	0.69256876998072	-7.16779143994999	7.20117251756774	84.481079905993
2296687	3.04343726959371	-9.04404646808096	9.54239419279877	71.4012555840695
1958656	-1.01427131773519	-7.70058640261844	7.76709580539421	97.5034365610649
1670375	-2.2670501925886	-7.81805008353903	8.14011201915801	106.170912902686
1424531	-2.78109044145614	-10.2933877571768	10.6624713628293	105.119306165503
1214875	19.4560480385993	-3.73405526915737	19.8111325782603	10.8642480943542
1036062	14.0807615593218	-11.0533558652155	17.9009642749649	38.1318080379118
883578.1	-10.8172950136003	-11.5402428403684	15.8174295075381	133.147943137067
753531.2	15.2639641476935	-1.20120778295678	15.3111561170249	4.4996558620823
642624.9	14.9022997501172	-12.6469316000277	19.5454193287871	40.3198135363795
548046.8	16.0243346910006	-0.741641522974168	16.041487912217	2.64988396585645
467390.6	8.94600982287965	-12.9627288030511	15.7500295165599	55.3891535878034
398593.7	6.82898892849359	-14.7178341823566	16.2249725055186	65.1089757821633
339937.5	-0.0721744385311327	-12.9490353107084	12.9492364495962	90.3193479510376
289906.2	2.24748273722648	2.96698702516511	3.72212179564683	-52.8561931191993
247234.4	3.44660830348673	0.656713245575361	3.50861526596716	-10.7877696878601
210843.7	3.3100886314192	-0.190563912488761	3.31556953668501	3.29491755978355
179812.5	-1.3401284971977	7.16916915065786	7.29334838738324	-100.588069442711
153343.8	11.393859708211	0.886689225919463	11.4283094477598	-4.44988473729267
130781.2	0.623725486214426	-18.6477329031596	18.6581611074011	88.0842968880118
111531.3	18.2497247974093	12.9242099660472	22.362639791126	-35.3056134993377
95109.37	44.6615756576909	-34.3655999661895	56.3529129793999	37.5770874894
81109.37	93.1991277314952	-106.623928823373	141.61475773253	48.843551955936
69171.88	229.777164836827	-217.748989895	316.563055457745	43.4604301241875
59000	-37.6171466986454	-219.164350837061	222.369202911684	99.7392897650039
50312.5	91.1919377720712	-275.498580686415	290.19896187763	71.6850988757773
42906.25	-87.9465864167095	-475.419094210741	483.485177851931	100.480525264565
36593.75	-52.5677495319673	-535.60215580516	538.175656820327	95.6054565689146
31203.13	-66.5713533221225	-613.861648301781	617.460823323163	96.1893578579324
26609.38	-83.2142800324078	-724.35137633748	729.115582609035	96.553472536738
22703.13	-16.6663307357943	-791.532184273844	791.70762616102	91.2062293221206
19359.37	-94.0419966997818	-1038.01017075421	1042.26148913431	95.1767695465977
16500	-87.5773407384349	-1269.27629326289	1272.29403018721	93.9470302309084
14112.02	1.08461732138132	-1327.02988160574	1327.03032484916	89.9531706241695
12011.13	-81.783181632172	-1505.16438254272	1507.38459169288	93.1101107795608
10236.38	0.519121369427017	-1.16021159842791	1.27105387349334	65.8945009192877
8750.684	1.70369513903812	-0.156366789776754	1.71085583838242	5.24397043683408
7449.463	1.09640704310852	-0.500063312679674	1.2050608784896	24.5173854452415
6363.206	1.21752293772565	0.110633060482045	1.22253907011585	-5.19205587693287
5414.761	2.7563383325035	0.127772575912296	2.75929825034979	-2.65409807043963
4620.567	6.06187623265974	1.00242076686485	6.14419977327617	-9.3897297494291
3941.215	0.44009168752395	-1.5631217792166	1.62389358952148	74.2756129549023
3361.769	1.83578403788433	-1.0056091245935	2.09316811202937	28.7131267310948
2867.244	1.91381368381992	0.0459591729307536	1.91436544629097	-1.37566192582659
2442.658	1.06616655789549	-1.14233490513649	1.56257485090088	46.9752740958852
2083.003	2.64494934103782	0.0757787912817574	2.64603466376851	-1.64109665653464
1777.843	0.00771762291655559	3.02493831312621	3.02494815822062	-89.8538197424938
1513.548	1.47233153931867	-0.724856883317416	1.64109038842019	26.211902394763
1292.065	2.99960318424097	0.91151084642619	3.13503927982747	-16.9028279141544
1101.762	4.1244170553152	-1.4711668938694	4.37894371690163	19.6311612613202
939.101	3.45907130220744	-2.74337738451677	4.41489453414611	38.4178113805073
801.2801	2.95981939171507	1.1352777395398	3.17007671476057	-20.984974587545
684.3433	3.27009795415173	-0.609798358851866	3.32646879862201	10.5630269927201
582.9476	4.98579737768748	0.785752487961246	5.04733419377919	-8.95604653513868
497.0677	4.31032127827711	1.27297560338984	4.49436718668982	-16.4535545182585
423.5089	5.80514820798624	7.97338361457011	9.86278824581472	-53.942916439646
361.5036	4.46030181648117	-4.45058926751473	6.30095525473896	44.9375496975025
308.1262	5.45831259341661	-8.94778548197402	10.4812232777894	58.6160461604023
262.7298	13.5552304830564	-0.223116466981847	13.5570665856084	0.942992273875753
224.2111	6.72340467685199	5.63718529923968	8.77394030904469	-39.9778837834013
191.2854	35.8715519455322	-0.0708382643334888	35.8716218903008	0.113146158396388
163.1722	12.5322158397931	-4.16218203134937	13.2053092776068	18.3722870417485
139.1537	29719.1069704197	-77731.3511261169	83218.9177231411	69.0765939218852
118.6706	89.564037135331	7.432421039696	89.8718956653873	-4.74378859492518
101.1982	111060.789124779	26075.7234600908	114080.858319815	-13.2130312797135
86.24196	45.3842063312264	-29.4262415239642	54.0890920107003	32.9585950239874
73.61024	102144.203336589	-204500.676339424	228591.261640835	63.4587427406275
62.69291	181750.528004798	-124498.777512369	220302.519350318	34.4110716825338
53.57697	176661.856810833	-61011.3014444428	186900.483027187	19.0526801530443
45.65746	202817.995010782	-25948.5943464671	204471.192711225	7.29083064726021
38.96512	266002.732754423	-24282.0293072553	267108.724642418	5.21578320514482
33.18414	-5361.93209876243	-223095.003209003	223159.429047166	91.376798857731
28.30617	-258750.341190224	-769970.328928469	812284.461562741	108.575043811055
24.17237	-274016.652982511	-890814.812559048	932006.521643679	107.098015910987
20.61345	-291477.426005987	-1032626.15613523	1072975.24118951	105.762680473655
17.55618	-309178.912196673	-1199315.35946537	1238526.91985143	104.455878334521
14.98558	-333148.093963428	-1387923.22182836	1427346.67204638	103.497549126385
12.76553	-362692.110534234	-1611925.56406092	1652225.64776029	102.680683197867
10.8809	-394770.774152795	-1867282.32872801	1908556.32856489	101.937385050244
9.278505	-430503.919990231	-2161836.02608569	2204284.15337246	101.26244076758
7.923394	-472417.905400194	-2504780.38223872	2548941.63146014	100.680888605522
6.75822	-514890.634732211	-2904077.56799007	2949369.23538544	100.054015481869
5.761429	-571477.149234027	-3361701.17456628	3409929.75282145	99.647845700901
4.919708	-637518.963533518	-3886782.4603793	3938719.12214834	99.314842630371
4.191257	-727585.413333367	-4510583.38202455	4568888.59350843	99.1632379977794
3.564097	-807477.630696612	-5201101.35306342	5263409.10522007	98.8247918281956
3.051758	-946070.541041991	-6014390.59583487	6088344.90710689	98.9394406830013
2.604164	-1028937.76387762	-6989278.99020121	7064611.36403139	98.3747334801204
2.214424	-1168059.49093289	-8069489.23522522	8153589.36246939	98.2363641725963
1.892567	-1280544.34840417	-9351888.51159003	9439153.16972023	97.7969628395104
1.607507	-1475187.11432536	-10861607.3361349	10961327.061385	97.7343958482821
1.376413	-1650241.65005918	-12546853.9862491	12654913.7672228	97.4928941376345
1.17375	-1898019.85724674	-14533565.2754986	14656977.8261305	97.44046849938
1.001604	-2156207.48841893	-16853811.2688943	16991179.6241645	97.2905827401738
