EC-Lab ASCII FILE
freq/Hz	Re(Z)/Ohm	-Im(Z)/Ohm	|Z|/Ohm	Phase(Z)/deg
6999984	10.722711019308	-2.26893662707677	10.9601370895295	11.9476081525434
5969734	7.10256235799783	-1.79223036169839	7.32519499526404	14.1621301377697
5091109	4.9611578067141	-1.2633930541519	5.11949692766775	14.2870922328878
4341796	3.96445823843679	-0.999785021605652	4.0885815650096	14.1541201877938
3702781	3.40512491870868	-0.650323353386472	3.46666932025116	10.8123553068492
3157797	2.90935535431103	0.97532526057702	3.06848626224363	-18.533087646952
2693047	2.86717396349366	0.780921144825951	2.97161982281923	-15.2358587754228
2296687	2.85921208892121	0.636408644630707	2.92918243412627	-12.5484403444074
1958656	2.85555174823616	0.532179415962118	2.90471869853663	-10.5569078034681
1670375	2.85480487104982	0.443528814991335	2.88905324656667	-8.83099849635138
1424531	2.85597493861404	0.354560054756177	2.87789952611626	-7.07687674740246
1214875	2.85861873496283	0.275946068185357	2.87190656262132	-5.51374990650261
1036062	2.85952529109122	0.202914080441674	2.86671571915176	-4.05894818522357
883578.1	2.84771730596669	0.156373546850478	2.85200745806472	-3.14306311759325
753531.2	2.825440147662	0.133431298190887	2.82858903684455	-2.7037821056444
642624.9	2.81400720986828	0.113027608501598	2.81627623245204	-2.30010984770514
548046.8	2.80724101921612	0.0927349849420503	2.80877231498065	-1.89203269023691
467390.6	2.80291717894126	0.077326839470372	2.80398362193978	-1.58027432179253
398593.7	2.80061066696725	0.0642861142179394	2.80134839183062	-1.3149547556013
339937.5	2.79421497817606	0.0547621390619503	2.79475155177308	-1.12276179280261
289906.2	2.7915143461482	0.0446877264936273	2.79187201312137	-0.917136407454884
247234.4	2.78756738995676	0.036504751896737	2.78780640476727	-0.750277346525706
210843.7	2.78463531773741	0.0301984096116708	2.78479905859177	-0.621328611069153
179812.5	2.78168924114475	0.0255095926320236	2.78180620705625	-0.525418512840567
153343.8	2.77980335320628	0.022631888196644	2.77989548092374	-0.466465739383966
130781.2	2.77831888520519	0.0190022499025358	2.77838386717695	-0.391867092824169
111531.3	2.77730329745349	0.016138716173414	2.77735018753591	-0.332938039820287
95109.37	2.77675108202551	0.0141615866210898	2.77678719423463	-0.292209163066074
81109.37	2.77696749404685	0.0126119289587787	2.77699613318869	-0.260213824687261
69171.88	2.77595847030779	0.0110634439663586	2.77598051662219	-0.228348261249044
59000	2.77553710684342	0.00952922237759913	2.77555346508473	-0.196712224703557
50312.5	2.77658472022438	0.00900232727915017	2.77659931399544	-0.185765464957126
42906.25	2.77685552943867	0.0080988137511347	2.77686733967583	-0.167105031710629
36593.75	2.77732037234278	0.00803067478821697	2.77733198274311	-0.165671376715652
31203.13	2.77776006056209	0.00701183128106853	2.77776891044446	-0.144630017351488
26609.38	2.77822345463098	0.0067782480217371	2.77823172332834	-0.139788695869971
22703.13	2.77947308980058	0.00604320384229818	2.77947965943956	-0.124573801620272
19359.37	2.77892127196356	0.00540575622238232	2.77892652979021	-0.111455703717634
16500	2.7799800481619	0.00456014436206973	2.77998378827914	-0.0939851319242846
14112.02	2.77994131554042	0.00449090180398633	2.77994494298855	-0.0925593264511015
12011.13	2.78015328436107	0.00427379122274579	2.78015656930236	-0.0880778797607063
10236.38	2.7803624571786	0.00295596014223217	2.78036402850213	-0.0609143517640105
8750.684	2.78060866889072	0.002607809341931	2.78060989176472	-0.0537351504839757
7449.463	2.78228334794113	0.0023112046350036	2.78228430788397	-0.0475948076301823
6363.206	2.78260042297111	0.00201879866535486	2.78260115529823	-0.0415685349438214
5414.761	2.78285477907549	0.00127848448341897	2.78285507275277	-0.0263225233562689
4620.567	2.78243127846154	0.00123913387057472	2.78243155438078	-0.0255162227694931
3941.215	2.78368306369978	0.00113394198813641	2.78368329465717	-0.0233396134015706
3361.769	2.78219427346523	0.000891567261763727	2.78219441631869	-0.0183607018351309
2867.244	2.7824123275981	0.000855294377797666	2.7824124590539	-0.0176123272814429
2442.658	2.78365951029223	0.000806416439882621	2.78365962710024	-0.0165983867897117
2083.003	2.78386885109777	0.000585738263937462	2.78386891271873	-0.0120552841109824
1777.843	2.78386191034062	0.000734411184376657	2.7838620072132	-0.0151152110525022
1513.548	2.78444721889196	0.000689804488994439	2.78444730433625	-0.0141941584785175
1292.065	2.78543371905325	0.000659052014089045	2.78543379702128	-0.0135565595849401
1101.762	2.78604340882213	0.000405388542544138	2.78604343831555	-0.00833693126003212
939.101	2.78610260045039	0.000507277686310781	2.78610264663151	-0.0104320889477988
801.2801	2.7862775124808	0.000761437838354688	2.7862776165242	-0.0156578708394265
684.3433	2.78693322403204	0.00032584962750527	2.78693324308129	-0.00669905118855934
582.9476	2.78670239751075	0.000540548932315287	2.78670244993708	-0.0111139144535824
497.0677	2.78777620100122	0.000442973460402965	2.78777623619513	-0.00910421342095951
423.5089	2.78772545108338	-4.56943884359263E-05	2.78772545145787	0.000939151164817196
361.5036	2.78903758536172	3.72293566489087E-05	2.78903758561019	-0.000764810420999199
308.1262	2.78958835591568	5.15444514711312E-07	2.78958835591573	-1.05867932820621E-05
262.7298	2.78991443720971	-8.37653675580078E-05	2.78991443846721	0.00172026853762361
224.2111	2.79114018910902	0.000131494829027896	2.79114019220648	-0.00269929068948837
191.2854	2.79188947333852	4.50304411571713E-05	2.79188947370167	-0.000924124773682095
163.1722	2.79218344580801	-5.62523608071992E-06	2.79218344581367	0.000115430197350898
139.1537	2.79236530909741	0.000431274123742566	2.79236534240204	-0.00884919563592473
118.6706	2.79273423842223	0.000169289768780636	2.79273424355323	-0.00347315155181946
101.1982	2.79389188883166	5.41520787026019E-05	2.79389188935646	-0.00111052456021421
86.24196	2.79373943092352	-9.77471596477908E-06	2.79373943094062	0.000200466072289916
73.61024	2.79446339926952	0.000178355676583004	2.79446340496126	-0.00365688364685744
62.69291	2.79587656746246	1.62335247694925E-05	2.79587656750958	-0.00033267293224848
53.57697	2.79675282086404	5.0760000938184E-05	2.79675282132468	-0.00103989662576623
45.65746	2.79707243351172	-4.2663270329349E-05	2.79707243383708	0.000873922784630527
38.96512	2.79743046619736	-3.97174421985596E-05	2.79743046647931	0.000813475737244226
33.18414	2.79791999347168	5.90362517670134E-05	2.79791999409451	-0.00120894381251501
28.30617	2.79870378027451	-0.000129298883311011	2.79870378326128	0.00264703980336142
24.17237	2.79923124299931	0.000100603111262651	2.79923124480713	-0.0020591845325994
20.61345	2.79983713169823	1.27832611896775E-05	2.79983713172741	-0.000261596257255352
17.55618	2.80099387069825	0.000146008079868663	2.80099387450375	-0.00298667084966553
14.98558	2.80117558921204	7.61351681858057E-06	2.80117558922238	-0.000155728324434731
12.76553	2.80163405446304	0.000326566311442571	2.80163407349579	-0.00667855648822751
10.8809	2.8026910928432	-2.05141573198775E-05	2.80269109291828	0.00041937359335703
9.278505	2.8031930042069	0.000110442076176201	2.80319300638254	-0.00225737750942869
7.923394	2.80410136479204	0.000342565007804974	2.80410138571689	-0.00699957901126136
6.75822	2.8048497944454	0.000136679713524556	2.80484979777559	-0.00279201073060101
5.761429	2.80572244908292	0.000216668493579742	2.8057224574489	-0.00442459667204678
4.919708	2.80593782930081	-5.51914783186848E-05	2.8059378298436	0.00112698105400596
4.191257	2.80640492996916	-0.00011328263986343	2.80640493225552	0.0023127871118802
3.564097	2.80636541085721	2.10094168557709E-05	2.80636541093585	-0.000428935915183087
3.051758	2.80701633299312	2.89113699856249E-05	2.80701633314201	-0.000590128194335304
2.604164	2.80791945622718	-5.15484311989514E-06	2.80791945623191	0.000105184909833045
2.214424	2.80915278277544	2.77738716402399E-06	2.80915278277681	-5.66478845679263E-05
1.892567	2.81008565722225	-2.2779206277815E-05	2.81008565731457	0.000464452881353892
1.607507	2.81165906921005	0.000170537497778683	2.81165907438191	-0.00347520044889485
1.376413	2.81287404525043	1.62295237652829E-05	2.81287404529725	-0.000330581177930017
1.17375	2.81390473748627	8.82887655428201E-05	2.81390473887134	-0.00179770607546672
1.001604	2.81524795907802	0.000118098948140609	2.81524796155513	-0.00240354362662893
