EC-Lab ASCII FILE
freq/Hz	Re(Z)/Ohm	-Im(Z)/Ohm	|Z|/Ohm	Phase(Z)/deg
6999984	4.70679703962255	-2.22952781565286	5.20814099780041	25.3461001409628
5969734	4.94539375694356	-2.7794423694441	5.6729374486484	29.3371407953497
5091109	10.6968510913221	3.6483676107115	11.3019117627421	-18.8329336498778
4341796	22.0022017039486	-11.6124702271154	24.8786322895147	27.8244978387366
3702781	1.32749460784899	1.1568079480861	1.76080849686254	-41.0696090253995
3157797	17.513874400018	-38.1138295579832	41.9451999646515	65.3205118001256
2693047	0.227625475923458	-0.159855790308166	0.278149655733076	35.0794269505539
2296687	-2.90665425553574	-11.4982062021293	11.8599066112642	104.186702762368
1958656	3.20990655955245	-2.10423903982734	3.83814044268723	33.2466552850674
1670375	-0.167273169484386	-1.2410266404171	1.25224895106936	97.6764125194149
1424531	17.190402367324	0.203043564755033	17.1916014448825	-0.676714722251064
1214875	4.37509732939311	-1.05950628117775	4.50155864135055	13.6130990601636
1036062	0.34453325516769	-0.326649283233637	0.474766172082103	43.4736883675668
883578.1	2.09871922144532	2.668531069198	3.39494925407422	-51.8160168900291
753531.2	0.182096427012628	2.05045768882548	2.05852759087516	-84.9250076056604
642624.9	-0.241873426091652	0.953853018234472	0.984041835820167	-104.22887245609
548046.8	-0.287329499321619	0.567161047339817	0.635790763380541	-116.867232796865
467390.6	-0.406667899290226	0.375755864889763	0.553688766647996	-137.26246765546
398593.7	0.232801360768945	-0.185433760952848	0.297627541193671	38.5384476442721
339937.5	0.354305756469606	-0.235550599279418	0.425460519776387	33.6168719643912
289906.2	-0.0144362247492691	-0.496041010537376	0.496251033973686	91.6670019809648
247234.4	0.0758033945560661	-0.0395014890444351	0.0854781975883339	27.5242221174644
210843.7	0.00805700564199489	-0.0830110809881835	0.0834011684974611	84.4562708334639
179812.5	-0.00698282454753629	-0.0687059634643317	0.0690598961353386	95.8032415997937
153343.8	-0.00448597739777569	-0.0537651759187042	0.0539519984317779	94.7695111458187
130781.2	-0.00280875877565762	-0.0445084123683296	0.0445969494181957	93.6109331882846
111531.3	-0.00192253146637274	-0.0373888461607292	0.0374382417384933	92.9435519485163
95109.37	-0.000487436891505196	-0.0321383373201874	0.0321420335453336	90.8689290681271
81109.37	0.000513915811821482	-0.0290131891139572	0.0290177402983741	88.9852157250755
69171.88	0.000286158287370888	-0.0253084931087351	0.0253101108255243	89.3521951928568
59000	0.00117379301456616	-0.0213733863226203	0.021405593496491	86.8565629246054
50312.5	-0.00114084225339938	-0.0187553612772508	0.0187900265483405	93.4808717687899
42906.25	-0.00151806306700562	-0.0158123315971024	0.0158850352852025	95.4838749247878
36593.75	-0.0015412861621394	-0.013044617707129	0.0131353574050631	96.7385379045653
31203.13	-0.00144064554698205	-0.010616995036023	0.0107142915392001	97.7274057631816
26609.38	-0.00113867143100721	-0.00870665468263609	0.00878079770809355	97.4509536270309
22703.13	-0.000717665034629741	-0.00732193524103848	0.00735702241235483	95.5980081175779
19359.37	-0.000443311172191853	-0.00625580790730662	0.00627149562453089	94.0534284934642
16500	-0.000569165324955993	-0.00556922700750134	0.00559823531375867	95.8352699405415
14112.02	-0.000280899359852583	-0.00463417533241668	0.00464268084859866	93.4687250635332
12011.13	-0.000262097395155102	-0.00400056052356237	0.00400913700779017	93.7483857633365
10236.38	-0.00018849160828465	-0.00340106726729697	0.00340628648869596	93.1721621087735
8750.684	-0.000132838511518914	-0.00285839657197737	0.00286148161497405	92.6607972766192
7449.463	-0.00012147131489576	-0.00238808974215219	0.00239117709442756	92.9118673824455
6363.206	-7.25674876389901E-05	-0.00199956740499933	0.00200088376658865	92.0784429736482
5414.761	-4.96575728082845E-05	-0.00166700595876077	0.00166774540655375	91.7062495899312
4620.567	-3.49462859150407E-05	-0.00142135348048425	0.00142178302120399	91.4084261280222
3941.215	-2.49842527744841E-05	-0.00119509182879381	0.00119535295713711	91.1976349551936
3361.769	8.47384204339357E-07	-0.00100959961067171	0.00100959996628787	89.9519101170202
2867.244	-4.60775554639034E-06	-0.000872726881695324	0.000872739045445326	90.3025029918607
2442.658	-5.21266421417256E-06	-0.000740878385303118	0.00074089672267973	90.4031143806857
2083.003	-3.89672134880945E-06	-0.000617962519688559	0.000617974805454966	90.3612884616412
1777.843	9.60998436263842E-07	-0.000524468322707451	0.00052446920313929	89.8950154079637
1513.548	1.58710520979075E-05	-0.000437989174026276	0.000438276632800466	87.9247281420678
1292.065	2.61682309494246E-05	-0.000367857035948296	0.000368786625581363	85.9310069023511
1101.762	1.25947746963148E-05	-0.000310571552577516	0.00031082682899013	87.6777260365869
939.101	2.07213267810693E-05	-0.000267330554473253	0.000268132427614686	85.5677516602381
801.2801	3.46605035020084E-05	-0.000209701088659456	0.000212546223414987	80.6147034086707
684.3433	3.18584420321461E-05	-0.000174933345492672	0.000177810673734661	79.6785476672065
582.9476	3.7677381048461E-05	-0.000167419937747652	0.000171607169425111	77.3170448187953
497.0677	4.57024041707638E-05	-0.000139099155626881	0.000146414769893953	71.8115506611627
423.5089	2.75002705961038E-05	-0.00010567728952202	0.000109196860777129	75.4135071360321
361.5036	4.132173961941E-05	-0.000106485944148884	0.000114222337861092	68.7913182356896
308.1262	4.30923018387937E-05	-8.36105097664384E-05	9.40620211412098E-05	62.733721946669
262.7298	3.70897439028079E-05	-7.66869498068282E-05	8.51853119584056E-05	64.1892066336398
224.2111	4.30157372278616E-05	-5.66600047584594E-05	7.11386659172428E-05	52.794577237911
191.2854	6.59931353276251E-05	-7.99088391167794E-05	0.000103636463078212	50.448223393603
163.1722	5.38377250561909E-05	-1.50195784901007E-05	5.58935450409642E-05	15.5879699884205
139.1537	5.39211992081029E-05	-2.54670302177074E-05	5.96327540211714E-05	25.2814074763146
118.6706	6.30084503391813E-05	-3.90184279286228E-05	7.41114197149549E-05	31.7681548834662
101.1982	5.54363290481702E-05	-2.0741037599976E-05	5.91893336595422E-05	20.5129146601368
86.24196	4.6931655245176E-05	-2.83734927850509E-06	4.70173458946832E-05	3.45972256701718
73.61024	3.26846283687042E-05	-1.94039545865772E-05	3.80105036167407E-05	30.6964258685181
62.69291	4.79113375660452E-05	-2.60469612748385E-05	5.4533846911991E-05	28.5306797803913
53.57697	5.0008348561635E-05	-1.51770967378105E-05	5.226068494816E-05	16.8825853152524
45.65746	6.88261077698664E-05	-1.01724891466721E-06	6.88336248217661E-05	0.846769168803687
38.96512	5.23034511612704E-05	1.65716453018121E-06	5.23296970912262E-05	-1.81473266226463
33.18414	6.53133110916657E-05	-5.62952738173176E-06	6.55554740986469E-05	4.92629971690175
28.30617	6.02491491174594E-05	2.44397826538926E-05	6.50174049431948E-05	-22.0797021283897
24.17237	3.25816861967331E-05	-1.81461839807584E-06	3.26321791388964E-05	3.18776241998039
20.61345	4.65652491034234E-05	-2.18653206962245E-06	4.66165565711944E-05	2.68842339898813
17.55618	7.65424490713829E-05	6.0707105638883E-06	7.67828108146332E-05	-4.53473233830021
14.98558	6.71045784175038E-05	-3.60727106341641E-05	7.61857263343144E-05	28.2606791490138
12.76553	6.14343278301714E-05	-1.98678362495241E-05	6.45670779359178E-05	17.9211859104861
10.8809	5.03445481671856E-05	-8.61761758953265E-06	5.10767742039128E-05	9.71334204169694
9.278505	6.70564755379634E-05	-4.88614918747995E-07	6.70582556894549E-05	0.4174850671685
7.923394	4.64565800231886E-05	-1.07986143315188E-05	4.76951139943266E-05	13.0857601646811
6.75822	3.03614736501929E-05	1.680281973722E-05	3.4700919776468E-05	-28.961269022588
5.761429	5.31317282275876E-05	2.42505559722736E-06	5.31870420224689E-05	-2.61329889176396
4.919708	6.07450665148044E-05	-1.80054140459454E-05	6.33573834754398E-05	16.5103231766
4.191257	4.05154871059204E-05	-1.71357196630012E-05	4.39901987242496E-05	22.9255654509193
3.564097	4.28468791246024E-05	7.12434403712728E-06	4.34351393307037E-05	-9.44045943260999
3.051758	4.1279024629826E-05	2.14472874505164E-05	4.65182116313048E-05	-27.4549744383449
2.604164	3.72694779837972E-05	-5.90053551323815E-06	3.77336760537285E-05	8.99644578927336
2.214424	3.8077496626523E-05	-3.00683077355752E-06	3.81960309540623E-05	4.51505410282644
1.892567	3.64707437137124E-05	-3.84884796202063E-06	3.66732706158864E-05	6.02426733407787
1.607507	3.48866949430108E-05	-1.59109292817552E-06	3.4922958934672E-05	2.61130442567911
1.376413	3.31120308467299E-05	-2.06913062215861E-06	3.31766165894949E-05	3.57569438137182
1.17375	4.15160814895719E-05	-9.80514929464007E-06	4.2658246271254E-05	13.2884497142865
1.001604	5.16688046517331E-05	1.31196186651764E-05	5.3308439932703E-05	-14.2473060435939
