EC-Lab ASCII FILE
freq/Hz	Re(Z)/Ohm	-Im(Z)/Ohm	|Z|/Ohm	Phase(Z)/deg
6999984	36.2615975596651	75.2952141373593	83.5719613840067	-64.2848905854266
5969734	34.9533575459813	79.5980069538447	86.9343425509247	-66.2925919953446
5091109	34.7747733457203	82.3608840427268	89.401342727868	-67.1093433323036
4341796	37.9795485099184	87.5542619197077	95.4368633459945	-66.5496208622402
3702781	43.7266509869868	93.5073310925041	103.226164195813	-64.9378905845372
3157797	49.8663517123715	101.229587213023	112.845391400894	-63.7748435562012
2693047	57.972784981929	110.722444825819	124.981212935255	-62.3640495772506
2296687	69.0179600450122	121.244500270755	139.512392477084	-60.3494726737911
1958656	82.4043443481469	130.885974612719	154.666138239013	-57.8059411338668
1670375	98.0497880988516	140.528248460579	171.353288738874	-55.0956330389359
1424531	115.860762948276	149.075699500909	188.804874334965	-52.14585723353
1214875	135.539257330433	155.861225978898	206.551717594724	-48.9892895007055
1036062	156.270573474742	161.405406713852	224.660182165396	-45.926033674396
883578.1	178.461630425202	164.830425604978	242.935429155855	-42.7261331435258
753531.2	201.129158776974	165.728726281764	260.612642105691	-39.4882340516825
642624.9	223.920952347409	164.207067939963	277.67706794334	-36.2535664418037
548046.8	245.790970356376	159.859031934429	293.203190978103	-33.0394164505686
467390.6	266.413970338154	154.341071384972	307.892140054922	-30.0849137433529
398593.7	285.364843860326	147.4240891463	321.196133494855	-27.3216070523723
339937.5	302.832624124113	138.957400682358	333.191772765015	-24.6484380817218
289906.2	318.129700127593	129.724988983608	343.562336221638	-22.1843528696703
247234.4	331.688458853457	120.434352721563	352.87627725882	-19.9556960156382
210843.7	342.847838125567	111.440331309799	360.504629026887	-18.0063961937779
179812.5	352.899077026838	102.369226596401	367.446890203659	-16.1764262919096
153343.8	361.389733952053	94.3041497108508	373.491382040633	-14.6251144137031
130781.2	368.648227584629	86.8784712303299	378.747124694839	-13.2607987710935
111531.3	374.444283306934	80.3860205761035	382.97576111982	-12.116401518989
95109.37	379.641370193501	74.7408085595385	386.928621875576	-11.1375088555859
81109.37	384.239485196237	69.7912697995269	390.526315789474	-10.2946764797926
69171.88	387.899700525229	66.6437737531041	393.582990292539	-9.7486247827211
59000	391.380512213346	64.3097690938117	396.628858936514	-9.33118492192264
50312.5	394.678992365869	62.8614932531205	399.653693025537	-9.0496277318174
42906.25	397.743814715348	61.8120806064682	402.51816785484	-8.8334908627602
36593.75	400.575305750178	62.3497154911306	405.398646518059	-8.84712152870636
31203.13	402.920491773554	64.6485520268822	408.073961396969	-9.11540901627637
26609.38	406.198971879669	67.0448956338764	411.694817536798	-9.37241496486025
22703.13	409.386826855419	71.0951329999364	415.514249983111	-9.85187177740367
19359.37	412.056468164211	76.2276057372314	419.047945744152	-10.4808361970085
16500	415.846612370024	82.3653972061517	423.925068469125	-11.2033875428701
14112.02	419.628475865667	89.8158770284424	429.132787751916	-12.0811130483869
12011.13	423.694996922817	96.880073592769	434.629956488007	-12.8795641133694
10236.38	428.204783417426	107.932685214795	441.598008463852	-14.1471988576286
8750.684	433.197212668739	120.306265126542	449.592507158052	-15.5208823601886
7449.463	438.642882618233	135.199126909983	459.00586313124	-17.1304182095363
6363.206	444.582648112815	151.819930846435	469.790402632088	-18.8544539446629
5414.761	451.713104121525	171.441283990556	483.15302161058	-20.7835455450888
4620.567	458.819333537326	193.436341982162	497.928508148586	-22.8600878340917
3941.215	467.051395486675	218.388787882755	515.587692540221	-25.0603431702193
3361.769	476.383580775781	247.019190238232	536.618855780065	-27.4080950315473
2867.244	486.359277873816	280.22781391258	561.313615427386	-29.9494493318501
2442.658	498.058087802615	318.00697992536	590.923259067406	-32.557977204054
2083.003	510.885529732778	361.377381365215	625.777625241364	-35.2738659079095
1777.843	524.598579178264	410.547912753662	666.148075087095	-38.0465347292625
1513.548	540.433958791935	468.132654808675	714.994437960004	-40.8996410954739
1292.065	557.967409879996	532.845194882671	771.525522713114	-43.6806693710578
1101.762	578.576922453148	607.942431605822	839.252795850068	-46.4177403245994
939.101	601.672793090695	694.110024619329	918.585258004179	-49.0803955197093
801.2801	627.346039395518	792.174864268834	1010.49694147216	-51.623285346903
684.3433	657.259081389595	904.525770679043	1118.10391730447	-53.99657393716
582.9476	692.472161542117	1034.04588092858	1244.49531070879	-56.1908647826402
497.0677	733.412062911651	1182.08158103321	1391.11829771673	-58.1828327715039
423.5089	779.540901453039	1354.30620457126	1562.63537422472	-60.0751977772619
361.5036	834.031506182952	1543.46501906309	1754.39243568172	-61.6148499643375
308.1262	898.072294934807	1765.36516591218	1980.66857801744	-63.0367593245137
262.7298	971.032457134101	2014.85218891415	2236.634385853	-64.268847767163
224.2111	1056.65158329739	2300.93054335409	2531.9545678832	-65.3340908998702
191.2854	1157.73011927835	2618.79544521308	2863.28982342917	-66.1504984621521
163.1722	1270.30698439329	2991.52781627876	3250.06438554192	-66.9922307589788
139.1537	1402.66678115299	3407.05434549714	3684.49364392464	-67.6232864745359
118.6706	1556.19223537719	3880.92268703489	4181.30304763843	-68.1499492798201
101.1982	1734.39679507963	4415.63635826401	4744.04644699075	-68.5558325818908
86.24196	1936.85441202584	5024.6833090484	5385.05778702639	-68.9199472606965
73.61024	2167.6759103306	5706.44981866414	6104.29261955548	-69.2000090309564
62.69291	2435.33275595764	6495.66973831293	6937.18754117795	-69.4481570520276
53.57697	2738.61205849	7361.91930523158	7854.79801545834	-69.5949488391401
45.65746	3087.87244990169	8361.41349936651	8913.37152677091	-69.7307971323656
38.96512	3482.52697563531	9482.70216367336	10101.9619114785	-69.8342160143867
33.18414	3944.01386617408	10766.9758079632	11466.6042674297	-69.8818861029416
28.30617	4450.77890941728	12208.9811694376	12994.9472525361	-69.9706945611869
24.17237	5034.23873284115	13809.0042531536	14698.0324561777	-69.9700643076122
20.61345	5716.09382992154	15644.6716416067	16656.2144392464	-69.9292124168194
17.55618	6478.88057992164	17743.6656881224	18889.5094065658	-69.9409580516196
14.98558	7328.44145466994	20077.6430617861	21373.2965419706	-69.9476616578226
12.76553	8312.35365583827	22757.2156798591	24227.7957891211	-69.9346555158732
10.8809	9412.75715228448	25776.4130998107	27441.2731027549	-69.9393537697932
9.278505	10642.1922618664	29199.521534477	31078.4219995307	-69.9749917446504
7.923394	12054.3286108268	32980.6529716888	35114.5313039596	-69.9227952895139
6.75822	13640.9518086103	37319.2246688935	39734.1175330745	-69.9215920781442
5.761429	15433.9435157217	42242.8723718209	44974.0689583279	-69.929613487276
4.919708	17412.1522529875	47769.703555126	50844.1503402883	-69.9731009839264
4.191257	19796.7182073635	54149.057786162	57654.4058239339	-69.9177532609168
3.564097	22404.1469770715	61307.461727433	65272.8938015688	-69.9257173742691
3.051758	25252.7424576043	69262.6842603186	73722.5910598283	-69.9684600257859
2.604164	28530.5232855296	78252.4253962075	83291.2530781904	-69.9683454342268
2.214424	32321.9372046636	88657.7063739141	94365.7592781692	-69.9696632371556
1.892567	36509.475943937	100313.181707952	106750.532823371	-70.0007748454313
1.607507	41434.9054666802	114031.080178743	121325.754222933	-70.0306259465576
1.376413	46619.361872504	128766.538645379	136945.925007323	-70.0974328254698
1.17375	52702.0393767887	145734.012416362	154970.666028913	-70.1184030807716
1.001604	59687.6032927622	165182.49969107	175635.611967005	-70.1330135045474
