EC-Lab ASCII FILE
freq/Hz	Re(Z)/Ohm	-Im(Z)/Ohm	|Z|/Ohm	Phase(Z)/deg
6999984	11.1598320338944	-1.86009155111169	11.3137876771333	9.46291937817911
5969734	7.62008216113331	-1.51660361245157	7.76953915362573	11.2563288431402
5091109	5.49662034489961	-1.09643890780705	5.60490976684883	11.2810118649544
4341796	4.51426638239215	-0.832729650665062	4.5904291348732	10.4516439973466
3702781	3.95097210639646	-0.526681144768557	3.98592192770726	7.59300285883426
3157797	3.79807898043869	-0.32522398576385	3.8119777783411	4.8942157992478
2693047	3.66001780948611	-0.230397325810005	3.66726237041964	3.60200403036643
2296687	3.59677320385123	-0.127172559414069	3.59902074734366	2.02498640068142
1958656	3.59063923665264	-0.0590749713507192	3.59112516908413	0.942573441727512
1670375	3.59283546599711	-0.00841375340318128	3.59284531770754	0.134175829421531
1424531	3.64301501161944	0.0258188002394945	3.64310650205705	-0.406060231437812
1214875	3.67224426673618	0.0430822490113115	3.67249697545916	-0.672155124117413
1036062	3.70532879409001	0.0527790858541142	3.70570467039888	-0.816071809013963
883578.1	3.74346322037229	0.0545828126816927	3.74386113066715	-0.835361006144838
753531.2	3.77269569717441	0.0544680035654231	3.77308886549081	-0.827145937278252
642624.9	3.80581974609611	0.0527328165251723	3.80618505720803	-0.79383016036478
548046.8	3.83892448639152	0.0480264909031829	3.83922489000643	-0.716755877763782
467390.6	3.87843351228598	0.0454313718155724	3.87869959119909	-0.671123227128382
398593.7	3.92398373208728	0.0419213560297896	3.92420765630171	-0.612088520707078
339937.5	3.9719552402212	0.0405613882887778	3.97216234015436	-0.585081009117996
289906.2	4.0335381596343	0.0368957904448146	4.03370690365309	-0.524084323318825
247234.4	4.08477521618118	0.0340455189228136	4.08491709390616	-0.477534080774524
210843.7	4.13220789592194	0.031874752492033	4.13233083077408	-0.441955636232301
179812.5	4.1603438851118	0.0309470890683434	4.1604589848608	-0.426191905710646
153343.8	4.17765734865436	0.0306753847030114	4.17776996757749	-0.420699532286522
130781.2	4.19364838731491	0.0303213904107097	4.19375800245381	-0.414259200190354
111531.3	4.21806404168537	0.0306129811858048	4.21817512846209	-0.415821999872353
95109.37	4.2535264878221	0.0315948995797927	4.25364382856436	-0.425581247292596
81109.37	4.30605384047231	0.0330673929084297	4.30618080548415	-0.439981682036516
69171.88	4.35181968952213	0.0356837584909849	4.35196598570491	-0.469799551610715
59000	4.40722525698524	0.0385243696457428	4.40739362808284	-0.500820231484231
50312.5	4.46302474807112	0.0422031021601535	4.46322428337712	-0.541782244765283
42906.25	4.5275097549694	0.0458297886416176	4.52774170540569	-0.579957620513937
36593.75	4.57914596125809	0.0501249672532292	4.57942029593795	-0.627155018887838
31203.13	4.61024096350428	0.0540027753331954	4.61055723761418	-0.671112340930275
26609.38	4.64474036134877	0.0589648949073893	4.64511462540741	-0.727329813872921
22703.13	4.65285963046582	0.0624356779938686	4.65327851677772	-0.768793050633153
19359.37	4.64231233852957	0.0661220473152698	4.6427832141513	-0.816028264221533
16500	4.63147428331339	0.0692739114606539	4.63199232639718	-0.856920835017815
14112.02	4.6257837346583	0.0731849400665715	4.62636263119115	-0.906406053867674
12011.13	4.61689116258951	0.0754251497255665	4.6175072236444	-0.935945465953439
10236.38	4.62189351542832	0.0785565511482116	4.62256106500354	-0.973740626909244
8750.684	4.6422445758929	0.081928058917557	4.64296746803647	-1.01107226500879
7449.463	4.70156380768432	0.0856010027794892	4.70234300848034	-1.04306450941551
6363.206	4.78442074990072	0.0894357841030405	4.78525659411893	-1.07091255009005
5414.761	4.92042393734558	0.0947821856983923	4.92133674786933	-1.10355280976306
4620.567	5.09747176554442	0.100282242840715	5.09845809326229	-1.12703090133413
3941.215	5.14701351526422	0.100022097364929	5.14798529002112	-1.1132908004491
3361.769	5.25280605294234	0.100323404552079	5.25376400453318	-1.09415973966968
2867.244	5.36872752359975	0.100750090820707	5.36967278364873	-1.07509227720553
2442.658	5.50440231956373	0.0994395869167174	5.50530045747411	-1.03496231323456
2083.003	5.64261933641265	0.0975081287788696	5.64346177543854	-0.990009763501984
1777.843	5.84726963725478	0.0966259198756993	5.8480679526792	-0.946724520953235
1513.548	5.93224975581045	0.0915182627857467	5.93295565108458	-0.883845840684398
1292.065	5.99019684400551	0.08489276219591	5.99079836173834	-0.81193849147989
1101.762	6.02697463194425	0.0767694862947487	6.02746354349203	-0.729774051826949
939.101	6.02204398007017	0.0693032961038798	6.02244274732024	-0.659346079649468
801.2801	5.98340718299576	0.0616644849225803	5.98372492902423	-0.590464520561046
684.3433	6.02443903759836	0.0552318091740746	6.0246922137553	-0.525270632433644
582.9476	6.34656344047507	0.054096281605021	6.34679398686126	-0.488360920454434
497.0677	6.55319434719931	0.0509299091852434	6.55339225194209	-0.445280567613225
423.5089	6.51108594036859	0.0454041985373279	6.51124424853732	-0.399538080968499
361.5036	6.58906523546156	0.0404251999276276	6.58918924253639	-0.351516368214743
308.1262	6.6286975545846	0.0353270434251256	6.62879169005582	-0.305349778210061
262.7298	6.71044508821451	0.0330353787069781	6.71052640395585	-0.282063627500354
224.2111	6.75690359373807	0.0284756995537245	6.75696359621209	-0.241460858756849
191.2854	6.66075550496799	0.023943261172649	6.66079853896791	-0.205958904080276
163.1722	6.52677879432985	0.0207746047301165	6.52681185681918	-0.182370690020976
139.1537	6.39581991560461	0.0176959741144099	6.39584439619543	-0.158525733573678
118.6706	6.29408076835617	0.0156149477790196	6.29410013784219	-0.142144469140431
101.1982	6.25392566819809	0.0129588654790099	6.25393909432618	-0.118723386869971
86.24196	6.24195957145332	0.0111695117019796	6.24196956494097	-0.102526328367859
73.61024	6.18504932452909	0.00942435250093909	6.1850565046148	-0.0873032981174689
62.69291	6.1479443774183	0.00844753910453105	6.14795018105598	-0.0787268074737147
53.57697	6.18753401737117	0.00748026820608726	6.18753853891334	-0.069266300247853
45.65746	6.2704298947037	0.00678137851852944	6.27043356168363	-0.0619645261067058
38.96512	6.35950633127645	0.00601577426461487	6.35950917658629	-0.0541989197120884
33.18414	6.49691268547472	0.0054673755098692	6.49691498596659	-0.0482163579759181
28.30617	6.62165290081223	0.00447730479156346	6.62165441450196	-0.0387411773009232
24.17237	6.76335251005573	0.00466063506841955	6.76335411588041	-0.0394825904174004
20.61345	6.87615489879699	0.00326536312372663	6.87615567412825	-0.0272087400963095
17.55618	6.93993543014408	0.00354177484046396	6.93993633391101	-0.0292407234575851
14.98558	7.02066539666512	0.00273303214426519	7.02066592862783	-0.0223043245023928
12.76553	7.10889381959013	0.00295250291716406	7.10889443271457	-0.0237963810854268
10.8809	7.07721113248792	0.00100025410346479	7.07721120317312	-0.00809787034959173
9.278505	6.90323170472319	0.000916249381792222	6.90323176552898	-0.00760473130490059
7.923394	6.73646804127425	0.00102147895009312	6.73646811871982	-0.00868799968984263
6.75822	6.69820218038478	0.00195214352350868	6.69820246485397	-0.0166984481390533
5.761429	6.62945890186953	0.00121636981823516	6.62945901345899	-0.0105126009771706
4.919708	6.53571254882558	-0.00143014856418788	6.53571270529857	0.0125374968505204
4.191257	6.54607188808421	-0.00142898133157972	6.54607204405467	0.0125074394845878
3.564097	6.67646251991959	0.000925150073197859	6.6764625840181	-0.00793941314177035
3.051758	6.57880927496048	0.000958262129077536	6.57880934475019	-0.00834564021851811
2.604164	6.4535480973064	-0.00153803026302296	6.45354828058055	0.0136549135200522
2.214424	6.41352277930046	0.000175235207832193	6.41352278169441	-0.00156547940560666
1.892567	6.45259517862485	0.000251685281796551	6.45259518353338	-0.00223483792272604
1.607507	6.39744291367311	-0.00116362770567895	6.39744301949894	0.0104215006877448
1.376413	5.99165115153913	0.00446703080712302	5.99165281671964	-0.0427164329680542
1.17375	5.69650137970653	-0.00399622625365553	5.6965027814285	0.0401942956722001
1.001604	5.51569615493791	-0.0016140852388048	5.51569639110675	0.0167667447082329
