EC-Lab ASCII FILE
freq/Hz	Re(Z)/Ohm	-Im(Z)/Ohm	|Z|/Ohm	Phase(Z)/deg
6999984	2.85535604027829	2.47118045435292	3.77621383858616	-40.8746945130739
5969734	8.65281602269681	5.2194019911051	10.1051166379904	-31.0984932716732
5091109	13.1874058743671	-0.496465219673957	13.1967477588093	2.1559914816647
4341796	4.50039972955321	-9.34304011126699	10.3704385754175	64.2805934019632
3702781	1.72814672338684	-7.45506254734643	7.65274125280609	76.9488621396442
3157797	2.98932131274234	-9.49947158626856	9.95871489345584	72.5321023843192
2693047	1.73210519061654	-11.3337080861478	11.4653010153843	81.3108471297547
2296687	2.2961426478337	-9.3278449461705	9.60629805903394	76.1710146369746
1958656	-2.0564481373336	-9.53343977648902	9.75271515596995	102.172698816704
1670375	8.30224345382175	-15.1722152270331	17.2951831809305	61.312500135847
1424531	11.342151370649	-9.85567962346145	15.0259381921738	40.9887704100845
1214875	7.45995841733073	-9.97839091020199	12.4587023700346	53.2177925132843
1036062	16.6391421847523	-11.4163072744849	20.1790268454616	34.454467505937
883578.1	-1.56005680892903	-14.1832290070969	14.2687687736132	96.2769058090284
753531.2	2.1302710034048	-12.379961530387	12.5619067836777	80.2364939681049
642624.9	1.21301849431343	-15.0793858235275	15.1280960693125	85.4009063502961
548046.8	7.12237179156824	-2.37901520347452	7.50918725799869	18.4703544979631
467390.6	10.7395951488712	1.71347527157235	10.8754264959103	-9.06499445988281
398593.7	10.6653329646358	-4.1400790464088	11.4406984820447	21.215263514142
339937.5	8.61218992358802	-8.57314540357158	12.1518985097281	44.869826086118
289906.2	19.8933378091719	0.816432700861515	19.9100841671969	-2.35012906322006
247234.4	14.4673331767153	-12.3587208813373	19.0273937014214	40.5056122901845
210843.7	24.5415140925612	-5.56238112768	25.1639821523731	12.7704385717088
179812.5	7.24443399101816	-37.4555009056968	38.1496575600211	79.0533361211597
153343.8	89.2561825802411	-75.2698172868332	116.757061984235	40.1409647606294
130781.2	145.563478124241	-91.002334005784	171.668724461174	32.0125041943556
111531.3	-20.5029009504868	-202.561349551207	203.596339061859	95.7796930344138
95109.37	-23.3943050801656	-235.810094127153	236.967706665783	95.6656744331828
81109.37	-26.041805336471	-275.147294629483	276.376933493203	95.4067548055632
69171.88	-31.5319683175556	-319.533912376502	321.08594828272	95.635766036277
59000	-36.8548738005987	-371.490037006134	373.313714344486	95.6656744331828
50312.5	-42.4225561125737	-431.799524135631	433.878441860024	95.6110715553068
42906.25	-154.877689288369	-508.780020422838	531.830995543479	106.930769530588
36593.75	-164.584476916209	-587.130111942068	609.762099831473	105.659261591634
31203.13	-173.108849690414	-679.486252788847	701.190588620646	104.292871841806
26609.38	-186.633978217486	-787.519433250497	809.332502481192	103.332537281387
22703.13	-198.021029701836	-912.289855931397	933.533668080324	102.246610372276
19359.37	-215.432526998692	-1062.07104474667	1083.70017891404	101.466413742646
16500	-237.119155124253	-1228.41937289644	1251.09537983086	100.925312400925
14112.02	-258.135261949406	-1420.01686134122	1443.28850198256	100.302908348074
12011.13	-284.433015104186	-1648.15163588011	1672.5148594065	99.7914862201403
10236.38	17.7627211183113	39.4274636492816	43.2439493032531	-65.7476518363956
8750.684	575.552160114234	-1889.82783989567	1975.5276645638	73.0617445701382
7449.463	-357.586462085998	-2683.1039508192	2706.82745825603	97.5912709910585
6363.206	744.446624860248	-2162.62172228798	2287.16713227906	71.0048260856185
5414.761	-506.679309129125	-3443.28039529656	3480.35972320868	98.371009254452
4620.567	45.7747931741853	-10.4288740636823	46.9477699616881	12.8346270334973
3941.215	9.43054077869212	4.7067387308463	10.5398524116338	-26.5235685170023
3361.769	-736.145816709152	-5329.59551689248	5380.19507426439	97.8641707888793
2867.244	-835.331990837802	-6173.35181913087	6229.61092024883	97.7060344374232
2442.658	-1598.02134644527	-7159.72330246362	7335.89190157103	102.581962569766
2083.003	8.7966426264007	2.79613258167613	9.23034554666946	-17.6335668269084
1777.843	13.9173596205093	-2.68745186012339	14.1744592950512	10.929336099881
1513.548	12.9767171679005	8.23407419391962	15.3686423045973	-32.3962197593327
1292.065	77.2773408665575	100.998146085711	127.170802168409	-52.5790878111623
1101.762	15.8812466922831	-3.16842522629047	16.1942247395714	11.2827880341193
939.101	29.6153513161455	15.1310268653154	33.2568339981066	-27.0633234079053
801.2801	-7.53241256162729	-26.9693955475959	28.0015273726496	105.604773305317
684.3433	81.3204693532283	47.7988684685182	94.3278885733167	-30.4463297909435
582.9476	-7576.52633604178	-32851.5814780959	33713.9460302811	102.986986435144
497.0677	70.1640669691584	-313.676678232218	321.42814867471	77.3914720363828
423.5089	15655.4865589961	-13155.781067974	20449.1768760352	40.0413560479459
361.5036	-8664.9680584768	-54423.7959652152	55109.2663598219	99.0462973117932
308.1262	-12395.8647103264	-45534.6132524526	47191.720311588	105.228569217034
262.7298	-10789.0985538024	-33178.175806434	34888.3361232132	108.013831650724
224.2111	-41306.2607433006	-143516.747083684	149342.773076154	106.056607822557
191.2854	-15491.4843078101	-25588.1454067198	29912.1926881758	121.191402572497
163.1722	8765.63892844133	-65698.763969574	66280.9475864188	82.4003836729755
139.1537	-494.428102631062	-100724.597232705	100725.810728131	90.2812462576614
118.6706	-8036.28556633759	-248540.294610794	248670.18303553	91.851952757233
101.1982	-159381.469115134	-171439.433841051	234081.037619536	132.912572074827
86.24196	-46863.5899303553	-157055.058527736	163897.79580675	106.614554123456
73.61024	-64848.2645066724	-332510.251391819	338774.799372943	101.035664072267
62.69291	609415.913955626	486986.532818377	780092.071058817	-38.6284822321989
53.57697	575340.154558206	169465.488968709	599778.997130163	-16.4122499908075
45.65746	246747.454369791	79743.5720510609	259313.215092164	-17.9097382137394
38.96512	158775.018067047	-258903.944193094	303711.637381467	58.4809427123104
33.18414	660556.940714432	-604800.42521914	895610.979315943	42.4769595280013
28.30617	280470.385568681	-787002.809199998	835486.121290912	70.3850576386255
24.17237	40748.088328084	-658041.362341837	659301.783142663	86.4565810878246
20.61345	-312223.798593575	-1017718.24288031	1064534.6975555	107.055387851029
17.55618	581172.22883208	-413389.499288736	713198.45603299	35.4243532728006
14.98558	-361954.361119222	-1359538.70842484	1406896.03711102	104.908228513777
12.76553	-1253938.63612874	-844413.188871999	1511752.53818784	146.043332344738
10.8809	1738902.87296459	-2164960.25307017	2776839.22814738	51.2284601302783
9.278505	465492.777892366	92985.4916175995	474689.190862103	-11.2965504803583
7.923394	1361244.45788971	-1671960.55664907	2156023.78862705	50.8488755910042
6.75822	1766554.98558323	250296.7459849	1784198.69357076	-8.06435231857658
5.761429	1382744.82363268	-1208940.62592464	1836714.6442205	41.1633621094167
4.919708	3340153.98930817	1690992.40650577	3743806.08354005	-26.8513519420187
4.191257	1406312.40394056	-2102887.48655652	2529792.55248194	56.227253332209
3.564097	887536.735814353	-3690971.87108362	3796181.60926878	76.479265930755
3.051758	5009333.34569386	-2226220.82918091	5481740.57654677	23.9610606149033
2.604164	5576050.36902524	-6623564.52280744	8658172.13421515	49.9076377138971
2.214424	53324.9575790446	-14935532.2524482	14935627.4463117	89.79543534317
1.892567	17374929.3094221	-3457005.1627235	17715503.1879569	11.2529082851032
1.607507	11669637.3128194	-3997151.40570591	12335220.0780076	18.9076530759408
1.376413	16177.2342983203	-14715576.7116599	14715585.6036944	89.9370132143468
1.17375	9172091.31011202	-9347608.43716144	13095993.3756674	45.5429941996172
1.001604	7039057.60794344	-14990561.6611161	16560956.220088	64.846847590891
