EC-Lab ASCII FILE
freq/Hz	Re(Z)/Ohm	-Im(Z)/Ohm	|Z|/Ohm	Phase(Z)/deg
6999984	6.13533925528439	5.81814763618504	8.45536691657312	-43.4799851737353
5969734	6.32302538438669	5.92378067523314	8.66440000807119	-43.1328243160876
5091109	8.39132618692973	12.6112383190207	15.14786080985	-56.360809794254
4341796	2.11056114985667	-1.0349789818654	2.35067008748303	26.1224522237871
3702781	12.3093390394405	0.23677668366489	12.3116160915545	-1.10197889469983
3157797	24.0050199995539	6.44688360298487	24.8556491238796	-15.032859828608
2693047	-0.550742595606494	-20.1166063515267	20.1241439199013	91.5682240570842
2296687	1.435522775462	-29.1600818713953	29.1953951914569	87.1816591775627
1958656	0.662528716113678	-29.092393632541	29.0999366248517	88.6954136722983
1670375	11.676428219946	-26.521043281019	28.9776588545251	66.2375307512325
1424531	21.6052691419225	-29.3007185283987	36.4049414362303	53.5963056214816
1214875	18.2058141672804	47.8533462907689	51.1995548878874	-69.1706735918457
1036062	46.4410676623924	-24.8864789864285	52.6887995874346	28.1856216778517
883578.1	24.5351864641178	-30.4150073748666	39.0774621545747	51.1075660355057
753531.2	-8.68540128267866	-33.8636364037914	34.9597206214429	104.385232638381
642624.9	0.733788803559299	-0.807130278255301	1.09082780231596	47.7249893708139
548046.8	-0.269045779589608	-0.818970469378936	0.862031473456587	108.186234651279
467390.6	-0.186329267508615	-0.665630942731711	0.691218596286445	105.638463223671
398593.7	-0.177823928295952	-0.432455409986463	0.467588527555118	112.352268075455
339937.5	-0.131102477747836	-0.492175367462394	0.509337267445024	104.915734260893
289906.2	0.0145479233776619	-0.295172490562626	0.295530778870063	87.1783933181304
247234.4	-0.0174073986617054	-0.170403823311262	0.171290631755689	95.8327489262429
210843.7	-0.119145070243161	-0.14888624249702	0.190689960323372	128.668272615836
179812.5	-0.0650552009670415	-0.174245967450374	0.185994183633734	110.473252986323
153343.8	-0.0464555460738114	-0.122702175968596	0.13120191213715	110.736870867863
130781.2	-0.0333443173530843	-0.100752780997118	0.106127123669665	108.31205618309
111531.3	-0.025657581093538	-0.0840524077841785	0.0878812762873259	106.975173759711
95109.37	-0.0194484758719018	-0.0687290234198366	0.0714277388273239	105.800094617677
81109.37	-0.0139618874436654	-0.0541606456633147	0.0559312957087239	104.455362672505
69171.88	-0.0100817723848558	-0.0476963982947058	0.0487502671244708	101.935150514843
59000	-0.00614542445432675	-0.04033151913774	0.040797030255666	98.6636760962048
50312.5	-0.00318769660096482	-0.0335943331934249	0.0337452312531809	95.4204484968668
42906.25	-0.00340544520696445	-0.03143776069864	0.0316216674892801	96.1823677728318
36593.75	-0.0024236835800256	-0.0260468732391365	0.0261593931051875	95.3161128823735
31203.13	-0.00133313561089175	-0.0216282741444134	0.0216693214712166	93.5271667586365
26609.38	-0.00106128623358611	-0.0186685789780118	0.0186987210666361	93.2536940030206
22703.13	-0.000570599426971625	-0.015816017688049	0.0158263071881832	92.0661816768324
19359.37	-0.000180350370362411	-0.013374652269201	0.0133758681803512	90.7725575669861
16500	0.000262659646979808	-0.0114671839157528	0.0114701916744164	88.6878506294026
14112.02	0.000466842368388695	-0.00992268369279608	0.00993365962091534	87.3063347937831
12011.13	0.000566675813604521	-0.00849026645874128	0.00850915659852089	86.1815040503823
10236.38	0.000658965857718099	-0.00731388370044008	0.00734350943249896	84.8516690078837
8750.684	0.000741954655617757	-0.00612447590905514	0.00616925456368835	83.0925166894935
7449.463	0.000796190308333525	-0.00525294448086494	0.00531294125001714	81.3812636427763
6363.206	0.000935984160726551	-0.00449962083195021	0.00459593885734474	78.2492471514731
5414.761	0.000784694342219535	-0.00381459562979098	0.00389446851695219	78.3759281199766
4620.567	0.000976266102761036	-0.00327297040311054	0.00341546933276201	73.3911380065589
3941.215	0.00093248974222403	-0.00287715043997968	0.00302448867969915	72.0423953568209
3361.769	0.000930507074509731	-0.00244713061324169	0.00261807021563161	69.1809868321581
2867.244	0.000893622009746016	-0.0021370249525669	0.00231634106819269	67.3071856589622
2442.658	0.000885599235909237	-0.00183116775006036	0.00203407505650705	64.1904098450096
2083.003	0.000878235895289182	-0.00154094811519618	0.00177364578805946	60.3197934600033
1777.843	0.000799765451812272	-0.00131728962987351	0.0015410635116324	58.7368256636159
1513.548	0.000839452987141381	-0.00132982578146361	0.00157261499632487	57.7378164520257
1292.065	0.000821121119205713	-0.00108088313284789	0.00135740496510095	52.7769301378209
1101.762	0.000768900731328415	-0.000902471305498568	0.00118560650803108	49.5691800851574
939.101	0.0008242245210559	-0.000679245928634736	0.00106804545440571	39.4920384914422
801.2801	0.000757322657062705	-0.000661136630467981	0.00100530555108737	41.1206996719913
684.3433	0.000719864324016513	-0.000691417272379792	0.000998129495374655	43.8452514977092
582.9476	0.000666933284503689	-0.000574594472074384	0.000880317450308307	40.7464493697898
497.0677	0.000720312970734968	-0.000555995999860802	0.000909935342576739	37.6638734066285
423.5089	0.00064864941865467	-0.000200060607625258	0.000678800644552161	17.1411439794611
361.5036	0.000736177628419414	-0.000373922011938157	0.000825696779451823	26.9270912329571
308.1262	0.000669580917583851	-0.000356731987305811	0.000758680641613838	28.0473096661071
262.7298	0.00078429449279627	-0.000336939205505148	0.00085360756770134	23.2487480248408
224.2111	0.000765710068522373	-0.000249191827265681	0.000805238148507971	18.0269023532657
191.2854	0.00080717950698302	-0.000317572562861398	0.00086740480121781	21.4764062180067
163.1722	0.000625424695763644	-0.00021222430852436	0.000660450760617088	18.7435293155256
139.1537	0.000785141307295187	-7.71289634800914E-05	0.000788920623021548	5.61049383021045
118.6706	0.000599904768999657	-0.000186425295371614	0.000628203886188971	17.2630579391091
101.1982	0.000667045331121624	-0.000231465912491416	0.000706063695722023	19.1368648418829
86.24196	0.000633245174190556	-0.000206360800474188	0.000666021193812911	18.0496602368883
73.61024	0.000568219788288809	-0.000126709851373978	0.000582176188312606	12.570963315334
62.69291	0.000747938626904631	-0.000251324083466391	0.000789034843683222	18.5734983602425
53.57697	0.000592099075523613	-0.000229304591813716	0.000634950321728222	21.1700915215739
45.65746	0.000609338582765936	-6.55975588903402E-05	0.000612859321687752	6.14443950202861
38.96512	0.000597224420643981	-7.91826969633067E-05	0.000602450751607068	7.55248328356261
33.18414	0.000507940063616601	-0.000102246935924935	0.000518128887568407	11.3813826115054
28.30617	0.000554145269600491	-0.000243060836548018	0.000605107883012628	23.6833594307593
24.17237	0.000550463901475952	-0.000246024655909737	0.00060294165401275	24.0818057406492
20.61345	0.000555658721150895	-7.78997314370773E-05	0.000561092668414957	7.98048275652533
17.55618	0.00054540521990619	-0.000175672663682814	0.000572998899358746	17.8535253244591
14.98558	0.000466787718083366	-8.79845967596032E-05	0.000475007434700159	10.6744157176714
12.76553	0.00048197894271208	-2.98981044890535E-05	0.00048290537154798	3.54962193690439
10.8809	0.000471767109946617	-0.000142648176949077	0.00049286175385627	16.8237368201146
9.278505	0.000531859286392655	-4.7855591487084E-05	0.000534007919565508	5.14150954024642
7.923394	0.00043375650203707	-4.93200886827649E-05	0.000436551456539903	6.48693075364601
6.75822	0.000470951754956325	-3.05532589046078E-06	0.000470961665650974	0.371704364238839
5.761429	0.000374601815756692	-7.43785373090693E-05	0.00038191450244845	11.230224885994
4.919708	0.000475797287554397	-6.66699128889124E-05	0.000480445560005228	7.97649497027122
4.191257	0.000439206756193793	-9.67516128635479E-05	0.000449737089062011	12.4231115563005
3.564097	0.000366472347039153	-2.92913895196671E-05	0.000367641083999569	4.56982027367402
3.051758	0.000364804007574375	-0.000118314509991434	0.000383510478627166	17.9690966413149
2.604164	0.000527034423263653	-0.000102390137255135	0.000536888278426692	10.9942407589135
2.214424	0.000740512267941215	0.000192315989059475	0.000765077681428079	-14.5584736925515
1.892567	0.000370305951513656	0.000110882899406891	0.000386550792402904	-16.6695882549126
1.607507	0.000275293423841407	4.65334273666118E-05	0.000279198547762714	-9.59413817241998
1.376413	0.000269648190845979	-0.000172351053259433	0.000320023487241398	32.5854963669541
1.17375	0.000465558106060152	-0.000250193765151363	0.000528527454574434	28.2538552216738
1.001604	0.000584779438948116	-0.000168264065088384	0.000608506193737206	16.0526101123818
