EC-Lab ASCII FILE
freq/Hz	Re(Z)/Ohm	-Im(Z)/Ohm	|Z|/Ohm	Phase(Z)/deg
6999984	48.2667920041805	53.7538505406004	72.2437516904821	-48.0786189219687
5969734	46.7650270427236	47.0333038135998	66.3257070970906	-45.1638737561571
5091109	47.1188579904017	43.3229274219981	64.0083027327811	-42.5966504114042
4341796	50.0428516820715	39.8006803026196	63.9404500846306	-38.4963524350638
3702781	52.6762638812525	35.4760805277318	63.5085904905585	-33.9592314357157
3157797	55.0131862852816	32.489017071726	63.8904288258108	-30.5647315193072
2693047	57.5645530059386	29.7922766296488	64.8171081547999	-27.3636220474893
2296687	60.089372050099	27.1144799887826	65.9236502208222	-24.2866037749408
1958656	61.8943337567984	24.1413449086021	66.4357816631523	-21.3078363051013
1670375	63.5471983937893	21.4873115987441	67.08167397614	-18.6820165666403
1424531	64.8176162423207	18.9439174816973	67.5292187492949	-16.2917913439592
1214875	65.8674981690878	16.740454981494	67.961534326722	-14.260002788334
1036062	66.4806651870475	14.8009532873012	68.1083479606222	-12.5513681587405
883578.1	67.1111944887404	13.1718261644181	68.3915888849732	-11.1042200076888
753531.2	67.6144915509503	11.7335124010901	68.6250302802123	-9.84480720778971
642624.9	68.0313007364877	10.5230263846498	68.8403367524482	-8.79278221141615
548046.8	68.3523553723107	9.51365608854429	69.0112609442382	-7.92383441932075
467390.6	68.6266540946974	8.71462008807176	69.1777583874519	-7.23702418071948
398593.7	68.8534899785893	8.08244681096728	69.3262506463735	-6.69509205019499
339937.5	69.0384827681165	7.64166515079558	69.4601119290806	-6.31618933069702
289906.2	69.2129493015975	7.36773743748622	69.6039934628269	-6.07626898356394
247234.4	69.4072877783146	7.24446753788287	69.7843385484825	-5.95873815104876
210843.7	69.6171228170152	7.27015554390058	69.9957066608509	-5.96182066398656
179812.5	69.8624163155175	7.45258721748878	70.2587949631715	-6.08901156492765
153343.8	70.0775527461984	7.72142341534541	70.501657983733	-6.28771332827902
130781.2	70.3324637982066	8.16176894230765	70.8044485621748	-6.61931265221099
111531.3	70.6161356019043	8.754632773642	71.156743899281	-7.06718230150885
95109.37	70.9346543452534	9.47434772448105	71.5645753979227	-7.60765338965575
81109.37	71.2752063074102	10.3631120336475	72.0246424856508	-8.27259382921688
69171.88	71.6623027999432	11.4226048203376	72.5669452538299	-9.05646884789126
59000	72.1162157110349	12.6959643264178	73.2252420867162	-9.98453442528827
50312.5	72.6180347045061	14.1835331486174	73.9902127103496	-11.0517026961871
42906.25	73.1719601054143	15.8505124828302	74.8690489564058	-12.2225705984267
36593.75	73.7932103461808	17.8424054022203	75.9196241016304	-13.5926272781435
31203.13	74.50636928693	20.1040393473003	77.171053267389	-15.1004860371673
26609.38	75.2939958713748	22.7447234051547	78.654359428169	-16.8084560357184
22703.13	76.1759303054347	25.7503114705132	80.410514851771	-18.6771750732715
19359.37	77.1743656476372	29.1741320580434	82.5046222611519	-20.7080354372686
16500	78.3353136805758	33.1435021773747	85.0582924000702	-22.9331170346591
14112.02	79.579374091848	37.5587534635688	87.9973678162445	-25.265714162306
12011.13	81.0270908524538	42.7766067560076	91.6254742829194	-27.8309035068862
10236.38	82.6533292923465	48.6709997546898	95.9189191986131	-30.4920059863713
8750.684	84.4459462517471	55.3123322368017	100.948362719894	-33.2249115367422
7449.463	86.4914977259603	63.1113320053024	107.069227168049	-36.1175749091294
6363.206	88.7667254664554	71.8526617144221	114.20304963303	-38.9886091247505
5414.761	91.3836804003746	82.0664524442997	122.824588988974	-41.9251954417124
4620.567	94.3891277160602	93.7970425031137	133.068375707114	-44.8197323860897
3941.215	97.7017365426193	106.885225640028	144.810499562577	-47.5701647154137
3361.769	101.543954623799	122.105094764227	158.810669943871	-50.2527130051705
2867.244	105.933155795979	139.468634768911	175.138041502122	-52.7815768255394
2442.658	111.051533546868	159.56817648281	194.407937207204	-55.1639983630509
2083.003	116.963917640091	182.437664661073	216.711927490631	-57.3353708967259
1777.843	123.55445884577	208.531310582174	242.386080033054	-59.3533282511766
1513.548	131.482828914081	238.745734251926	272.556893001701	-61.157400460705
1292.065	140.497956877191	272.784857454077	306.840763822062	-62.749249102917
1101.762	151.408194354418	311.421208500041	346.276782966013	-64.0716929898585
939.101	163.511238102291	356.551220345154	392.25590845182	-65.3642284798941
801.2801	177.85219053457	407.323355921161	444.45890468841	-66.4121682871884
684.3433	194.404542251274	464.78916701202	503.807598016996	-67.3022009261446
582.9476	213.990717255443	531.534816331114	572.99327050468	-68.0707665125331
497.0677	236.528590732329	606.398917165215	650.895860313281	-68.6915089877778
423.5089	262.77641080197	691.968383153678	740.183548424498	-69.2056240173487
361.5036	294.478952148377	789.424562078045	842.560972553631	-69.5429815671217
308.1262	331.402119098298	898.974226115513	958.113784350705	-69.7638567971447
262.7298	373.715415758825	1023.43783689002	1089.53578094247	-69.9399840233679
224.2111	422.920035135881	1163.22450254289	1237.72072756155	-70.0199689315681
191.2854	480.870290556771	1322.07499211576	1406.81147319676	-70.0124631844519
163.1722	546.781232039869	1498.14951359777	1594.81086051113	-69.949380531208
139.1537	625.511564747849	1702.16609142568	1813.45915874405	-69.8226422669251
118.6706	715.908640367883	1929.13390745656	2057.68870683882	-69.6399260260579
101.1982	821.128470281138	2181.76431077125	2331.16869240761	-69.3756778909435
86.24196	942.688987788675	2467.56615610123	2641.50435593701	-69.0915481203381
73.61024	1079.08670503463	2783.11209165561	2984.98593492535	-68.8073610539533
62.69291	1238.49783749549	3141.40544347617	3376.72993497892	-68.4831815334682
53.57697	1417.29776227614	3531.32925873519	3805.13065223156	-68.131958405053
45.65746	1623.89677631196	3975.3026157521	4294.19045070452	-67.7801623188427
38.96512	1853.89587354041	4464.82051277698	4834.4133171714	-67.450654290863
33.18414	2118.78014222202	5017.98379095894	5446.96159499964	-67.1087130787289
28.30617	2414.15966833646	5622.0184971556	6118.43598369568	-66.760755809746
24.17237	2738.13375647675	6307.14065070876	6875.85628530588	-66.5327759030634
20.61345	3110.84954366152	7068.0139059029	7722.31865810625	-66.2442343574355
17.55618	3527.87185585176	7921.65533163307	8671.70704212854	-65.9944247587585
14.98558	3985.70309696018	8872.13528753208	9726.28468313518	-65.808557250018
12.76553	4513.01476663591	9936.83920669128	10913.6646321715	-65.5738737371325
10.8809	5096.84733835513	11137.3251568249	12248.1780048848	-65.4094348499299
9.278505	5745.07563616501	12477.0154516014	13736.1497023277	-65.2761648667825
7.923394	6472.44588310353	13957.0522649238	15384.7932594338	-65.1209506000815
6.75822	7291.99561854142	15643.8605593146	17259.8833512891	-65.0085935764564
5.761429	8238.2898666928	17531.5351359185	19370.7032435479	-64.8305755895092
4.919708	9275.15879342547	19577.7479627762	21663.7205008107	-64.6502657713816
4.191257	10420.3063546625	21964.2315044264	24310.7023778635	-64.6193260504445
3.564097	11792.5443161195	24628.9883369699	27306.613996434	-64.4145509344648
3.051758	13189.3831793361	27465.8871678494	30468.5868817113	-64.3492337458198
2.604164	14894.4365574511	30715.5317512269	34136.3168945416	-64.1305357554184
2.214424	16732.7984272779	34443.5278946576	38292.86039248	-64.0893400899485
1.892567	18825.381730256	38413.4421329852	42778.3535657236	-63.8917842421874
1.607507	21243.7806381972	43126.1255519716	48074.535056808	-63.7753019224373
1.376413	23752.3496513377	48036.8844095609	53588.3977903511	-63.6894155489472
1.17375	26738.2036231211	53654.8629750485	59948.1096771426	-63.5112256746615
1.001604	30036.3055149028	59970.668541716	67072.0562851994	-63.3960038620607
