EC-Lab ASCII FILE
freq/Hz	Re(Z)/Ohm	-Im(Z)/Ohm	|Z|/Ohm	Phase(Z)/deg
6999984	22.2837847106453	94.5057089809071	97.0973536766801	-76.7323986846438
5969734	19.2350409796931	93.5608659542641	95.51765511989	-78.3825171346206
5091109	15.9303448430074	98.5323220110586	99.8117947324267	-80.8160980736592
4341796	15.0876401266557	107.826666050199	108.877117871905	-82.0346074165639
3702781	16.2798171870966	119.188907434717	120.295586382572	-82.2221937986898
3157797	16.4282465139409	133.839067418693	134.843551017571	-83.0021612452014
2693047	16.6361440990955	152.461061571154	153.366021614597	-83.7726748880933
2296687	17.5690838384194	175.73934047005	176.615368798329	-84.2909725095686
1958656	20.0097566178245	202.135513885897	203.123500200789	-84.3466067114758
1670375	22.8082441038097	233.781772037145	234.891747270794	-84.4277375352663
1424531	26.467046985275	270.491953066934	271.783739855948	-84.4115228296642
1214875	30.3954169209268	313.016551623152	314.48885983425	-84.4536925233858
1036062	36.2538416711176	363.023587518641	364.829365773671	-84.2969885664175
883578.1	42.7272646740402	420.955140934041	423.118009337021	-84.2042839951653
753531.2	50.2037247465303	488.103145837358	490.678198980503	-84.1275076506178
642624.9	101.665264852184	638.480861673164	646.524273945202	-80.9527485077979
548046.8	126.178445728709	731.17070240927	741.978164252951	-80.2088774023796
467390.6	153.646652460865	834.686090345272	848.709704921716	-79.5699148692497
398593.7	182.677422824462	953.479813940423	970.821711954183	-79.1541193973232
339937.5	216.614647778876	1088.20035933231	1109.5503267916	-78.7419908552856
289906.2	251.134310316127	1242.8585650243	1267.97707174547	-78.5765206440518
247234.4	292.071879997853	1425.66314407546	1455.2736455597	-78.4221658140436
210843.7	334.635733476694	1630.93742667007	1664.91380072143	-78.4049770801897
179812.5	382.763753481529	1869.8609824216	1908.63516276996	-78.4312758429862
153343.8	442.582864598175	2147.8165366598	2192.94219421881	-78.3565048507216
130781.2	510.980043457043	2466.79817385605	2519.16530528484	-78.2970891273665
111531.3	595.404480836231	2838.65875294455	2900.42928054944	-78.1540215659224
95109.37	688.235871629515	3265.57103046631	3337.30771281559	-78.0987884344718
81109.37	804.442602190863	3753.77244190474	3839.00188145605	-77.9043265588044
69171.88	951.619626598598	4315.67052189998	4419.34293389007	-77.5650782483074
59000	1664.32406331327	5298.56914030977	5553.81036067731	-72.5620680770046
50312.5	1848.22755245717	6014.81892489438	6292.37568688722	-72.918906191812
42906.25	2359.03491423843	6918.22388222055	7309.36846869295	-71.1712130293245
36593.75	2649.54797359931	7741.7252339741	8182.56769374721	-71.1068698689313
31203.13	3036.42053755985	8783.84226114721	9293.85466583327	-70.9306280511491
26609.38	3502.98801641078	9965.09929580479	10562.8655685078	-70.6321170398859
22703.13	4060.65304527209	11314.7363824917	12021.3211653029	-70.2578610081065
19359.37	4772.54645881081	12873.7125710229	13729.8825582312	-69.6592347037538
16500	5594.00073642447	14593.8832893586	15629.2761733401	-69.0276060304015
14112.02	6588.37973496266	16500.7562368787	17767.4338023519	-68.2342886672634
12011.13	7907.68455008124	18665.6750558249	20271.6279620863	-67.0401300306518
10236.38	9450.56238658945	21065.5920933007	23088.3585311766	-65.8377780975697
8750.684	11316.9502233642	23513.3988330962	26095.0816638376	-64.2985842767303
7449.463	13644.732886159	26270.539574788	29602.7023274081	-62.5529537623052
6363.206	16383.6908165663	29051.4645685644	33352.8547256661	-60.5789995665205
5414.761	19617.7097777952	32001.3671749238	37535.8766780542	-58.4905684032686
4620.567	28420.2690419343	34823.8735573711	44949.0140265134	-50.7816160754337
3941.215	32756.8570949606	36999.3723785061	49416.2447292693	-48.4803941166483
3361.769	37535.0072389737	38822.1936476589	54000.365628819	-45.9657682974883
2867.244	42714.2966532401	40313.5935903866	58734.120975391	-43.3437873762548
2442.658	48196.5710818082	41289.5660350646	63464.4603491414	-40.5863649618302
2083.003	53871.0865712609	41629.3265197211	68081.530497293	-37.695351707893
1777.843	59594.9002321305	41416.6199062262	72573.332141596	-34.7981104027226
1513.548	65297.8525163704	40526.4873180865	76851.8426427935	-31.8254105559336
1292.065	70600.5461130724	39017.3288658927	80664.6704778076	-28.9271952225115
1101.762	75522.7375572219	37020.4855564434	84108.2649860991	-26.1136286737421
939.101	79816.7747423316	34579.5589687604	86985.4207826925	-23.4240330031051
801.2801	83650.2462135642	32052.437450602	89580.8151230757	-20.9654367267311
684.3433	86879.8541889228	29371.2903470034	91710.3143628701	-18.6787449776301
582.9476	89502.2628076758	26797.3046918659	93427.782733205	-16.667892299839
497.0677	91744.4594403345	24292.1907432355	94906.0396871818	-14.8305025945237
423.5089	93633.698853067	22008.5867727474	96185.4846254901	-13.2272578217666
361.5036	94990.4657075492	20105.7367296652	97094.9495328139	-11.9508740119757
308.1262	96302.7992989286	18361.5434763919	98037.622531583	-10.7947196659151
262.7298	97345.2414414918	16728.0138088705	98772.073367385	-9.75059575753635
224.2111	98298.3576783483	15494.3299689089	99512.0162766584	-8.95757633245168
191.2854	98878.6514497847	14579.6943362906	99947.7623534798	-8.38784428970744
163.1722	99605.8207114334	13885.5563728932	100569.022046468	-7.93617593022786
139.1537	100360.319995329	13301.6367710607	101237.973954214	-7.54991070306247
118.6706	101018.050050062	13107.2819229824	101864.848084731	-7.39293172635253
101.1982	101653.255271857	12912.0150103878	102470.017268437	-7.23895504848907
86.24196	102408.210895657	13108.5380775605	103243.767024359	-7.29435433770027
73.61024	103015.932851408	13365.9767467878	103879.409680848	-7.39263951787701
62.69291	103722.386806281	13964.690615743	104658.23478726	-7.66792282012556
53.57697	104584.957314852	14768.3368921754	105622.521609315	-8.03753789376446
45.65746	105624.360381005	15898.92802806	106814.237900843	-8.56008686207967
38.96512	106341.823303862	17094.965645109	107707.108558337	-9.13244305152561
33.18414	107530.105491531	18626.7260873611	109131.473515908	-9.82744658659725
28.30617	108783.840732907	20472.9847229453	110693.573020607	-10.6583270627842
24.17237	110037.593349595	22827.3043605508	112380.415440325	-11.7197772148876
20.61345	111321.198561222	25224.7255461149	114143.313549169	-12.7672873038356
17.55618	112710.256443349	28171.1258130622	116177.511752924	-14.0331630676637
14.98558	114592.666344213	31426.7543404521	118823.90360635	-15.3361607670384
12.76553	116333.265805693	35467.4669111631	121619.776114382	-16.9553165777664
10.8809	118554.917475212	39282.5017359879	124893.488221733	-18.3323232355381
9.278505	120794.982524258	44450.3858024804	128713.886589696	-20.202709580275
7.923394	123168.617773536	50043.296657406	132946.756051378	-22.1118622494304
6.75822	125476.950344456	56351.904467064	137549.998926973	-24.1849266846168
5.761429	128161.59206724	63813.832087519	143169.825196875	-26.4694927602979
4.919708	131355.116131486	72494.053414618	150031.844334453	-28.8940266957514
4.191257	135108.961009972	81637.0551880633	157857.657796424	-31.1416828302701
3.564097	138642.105079194	92771.2477311298	166817.678039172	-33.7881405085117
3.051758	143629.294467659	105097.972248083	177974.599311071	-36.1940819635132
2.604164	147979.456384041	119121.439377287	189967.988964017	-38.8335896636999
2.214424	153938.214959275	135682.400250824	205199.141720117	-41.3932155880893
1.892567	159562.878350641	154425.116797326	222052.7614001	-44.0625572006684
1.607507	166714.2579751	175657.126793873	242175.700692012	-46.4962470016882
1.376413	174936.778066998	199478.890532744	265320.003182264	-48.750245778999
1.17375	182988.629185927	227381.379309231	291868.343723524	-51.1740978946763
1.001604	194046.227251622	258063.647267355	322878.900443367	-53.059335305463
