EC-Lab ASCII FILE
freq/Hz	Re(Z)/Ohm	-Im(Z)/Ohm	|Z|/Ohm	Phase(Z)/deg
6999984	22.8323701947617	93.3427404931055	96.0946633870679	-76.2548956581818
5969734	19.2902068340243	93.5025461736903	95.4716618723196	-78.343040342536
5091109	15.8069910735014	98.6286397645321	99.8872842187613	-80.8947651789307
4341796	15.3473307761797	109.171049862071	110.244540408767	-81.997766230337
3702781	18.5361382796293	120.052706660146	121.475268259628	-81.2228408124226
3157797	18.950652162145	133.551844342861	134.889667301653	-81.9237973789856
2693047	19.3944797478882	151.836951696737	153.070590726137	-82.7208962635716
2296687	21.4300449845547	174.996237703347	176.303516806575	-83.018318655024
1958656	24.791132443564	200.907155887579	202.430940161504	-82.965491946313
1670375	29.0255111585891	232.011181216098	233.819735068079	-82.869120445172
1424531	34.7612048932586	268.091509212223	270.335714764658	-82.6121488740558
1214875	41.3391532620851	309.739129989751	312.485606451296	-82.3979772502359
1036062	51.2094162107776	359.708692676273	363.335585781963	-81.8976132077482
883578.1	62.7982534400606	416.552482777335	421.259529913667	-81.4268137874892
753531.2	78.3540912420275	482.903651518617	489.21907185266	-80.7837259582343
642624.9	154.555013069047	636.673479292225	655.164384943841	-76.3551632723296
548046.8	196.883608176458	724.51667374181	750.791293035872	-74.7972910273689
467390.6	245.58984703981	822.01695859491	857.919724208893	-73.3656986804551
398593.7	305.553253357644	926.832118818469	975.899875556388	-71.7539111069726
339937.5	378.289771914429	1044.57070437328	1110.95954380434	-70.0922189095341
289906.2	463.217085206053	1173.44420581155	1261.56306706383	-68.4583724609391
247234.4	567.300424421306	1313.78509372041	1431.03495555858	-66.6450183351295
210843.7	698.537297555213	1462.71652208877	1620.95465083611	-64.472648854891
179812.5	840.400221096562	1619.48010871126	1824.55154877317	-62.5737521302684
153343.8	1018.7809170295	1780.41396405654	2051.28945795345	-60.2211301276818
130781.2	1224.76022483482	1938.72672927461	2293.18532594757	-57.7179921123142
111531.3	1463.73511731874	2087.34310313638	2549.41595740732	-54.9602030049008
95109.37	1729.24364913045	2218.48401033671	2812.81974221201	-52.0646232773363
81109.37	2023.27436656609	2291.73123908164	3057.06905950554	-48.5600524389053
69171.88	2304.14684007913	2410.7930891714	3334.81873262149	-46.2957404212821
59000	2598.14207113005	2470.39121683516	3585.13249211131	-43.5561828309098
50312.5	2891.33573035473	2531.67184419378	3843.06968871363	-41.2055948284958
42906.25	3210.56870096254	2507.06998305797	4073.46919511496	-37.9855777494385
36593.75	3461.79972376492	2507.47806717395	4274.51793595691	-35.9168620639171
31203.13	3719.76182838374	2503.30777007633	4483.65674997823	-33.9395789833427
26609.38	3947.56479570256	2509.40750750239	4677.64832527837	-32.4435059661648
22703.13	4411.63366475155	2313.81716262781	4981.59226091821	-27.6761476064213
19359.37	4574.9622342378	2349.65192299971	5143.06752862126	-27.1845498181991
16500	4732.55268398865	2419.00807828416	5314.94637691973	-27.0734991383468
14112.02	4887.62090125184	2509.42529800198	5494.18359727869	-27.1770841781285
12011.13	5049.00963085464	2626.54863573415	5691.33165334264	-27.4839317253108
10236.38	5210.72873425908	2783.56108313821	5907.61426005412	-28.1110454912374
8750.684	5379.48889399937	2958.68097860818	6139.43758774698	-28.8104837196434
7449.463	5560.49423375702	3174.85730128004	6403.03170436757	-29.7249300902501
6363.206	5746.96140571257	3431.86367240014	6693.67265891376	-30.8440197965438
5414.761	5946.88043443809	3740.49193095177	7025.43000726773	-32.1692310696357
4620.567	6176.31915645649	4081.59600045865	7403.13070486881	-33.4585637255965
3941.215	6418.46432487522	4472.57108025711	7823.07972333455	-34.8698962848746
3361.769	6672.38032417455	4935.5230482602	8299.40039703708	-36.4901292562573
2867.244	6961.90009876296	5443.79010224112	8837.58471882528	-38.0232841019361
2442.658	7279.26044618547	6044.37160261658	9461.60983733307	-39.7047204249947
2083.003	7637.64039107058	6702.83146921022	10161.7666007416	-41.2703505185015
1777.843	8036.62914318876	7459.29160811086	10964.8729714477	-42.8662958089486
1513.548	8478.77933039221	8312.50054024728	11873.8100104852	-44.4326363701214
1292.065	8971.72228433548	9255.33885950761	12890.0387180006	-45.8914614010378
1101.762	9528.89039304701	10321.4289026749	14047.4783045099	-47.2863615307515
939.101	10180.0900787055	11526.153856582	15378.1161634368	-48.5485245280673
801.2801	10869.3517983176	12862.3243970764	16839.8989727141	-49.8004029329604
684.3433	11662.0805975149	14355.2401772187	18495.3249338465	-50.9098726778738
582.9476	12558.9928686039	16002.7664893619	20342.4884708505	-51.8751289457527
497.0677	13572.5878674419	17859.7033994113	22431.7664693259	-52.7667658665353
423.5089	14748.044454935	19886.5947657083	24758.4625253717	-53.4390974616536
361.5036	15924.9159760128	22169.2337384801	27296.1146208472	-54.3090250115787
308.1262	17633.453126365	24541.2927324886	30219.4261716103	-54.301931794075
262.7298	19169.5766495399	27387.1927915903	33429.4929355251	-55.0100274147654
224.2111	20905.9147294114	30501.9244479475	36978.7055709326	-55.5733938964057
191.2854	22872.5222000126	33981.462734664	40962.0810186375	-56.0559675993546
163.1722	24997.1500551011	37796.5799146682	45314.8867826362	-56.5209400388372
139.1537	27277.6566420635	42170.6531141612	50223.8442968798	-57.1036037390175
118.6706	29887.897018695	47063.2593317773	55751.5629119959	-57.5820865233092
101.1982	32909.5860704673	52422.00006214	61895.9364243283	-57.8801391683363
86.24196	36261.7610758634	58407.4395370855	68748.4131424231	-58.1662742912246
73.61024	40144.5411414243	65086.1472600417	76470.8490119689	-58.3340936294184
62.69291	44148.7973344694	72351.1013389221	84757.2897810862	-58.6083685259475
53.57697	49100.1506379193	80517.5280787424	94307.4605775038	-58.6248697104473
45.65746	54877.7123319188	90312.8477991756	105678.634493363	-58.7154543378575
38.96512	60539.7439151563	100204.227511833	117072.404111968	-58.8611575051592
33.18414	67677.0447757141	111662.233779541	130570.42866672	-58.7804850476048
28.30617	74998.5155220082	123794.071949138	144740.283198055	-58.7911420625943
24.17237	85844.3108672498	136295.08392943	161076.365775999	-57.7955705977749
20.61345	95642.6672251173	152327.470607151	179864.332471747	-57.8763003511089
17.55618	107286.305734707	168974.117403377	200156.448186041	-57.5874150308039
14.98558	119210.225908007	186018.364526995	220938.701685187	-57.3461425032743
12.76553	133537.126481902	205812.581925014	245338.507021796	-57.0233323519197
10.8809	149632.517202227	226967.029375342	271852.759095327	-56.6043397754964
9.278505	167427.17705968	249957.314711405	300849.661452211	-56.1849117511488
7.923394	186604.111174734	274513.162467028	331931.575290693	-55.7935529291847
6.75822	208687.595847159	301302.764530343	366515.850372251	-55.2928451120199
5.761429	236820.041614926	330555.928635366	406633.685356347	-54.3810687247385
4.919708	260710.254275973	361082.250295841	445365.274985995	-54.169790537784
4.191257	291168.059003445	395579.780114397	491184.487763191	-53.6449268199764
3.564097	323436.041962809	431719.507949422	539437.305703507	-53.1601472295162
3.051758	362009.952954984	473752.753590601	596232.234597515	-52.6153732283279
2.604164	397793.832237612	509330.27578536	646264.081314965	-52.0096823543613
2.214424	440524.292886728	555585.427019799	709039.363745148	-51.5890625777998
1.892567	485879.700348136	594745.683506138	767985.358753393	-50.7527676504489
1.607507	540048.716336926	652924.608810533	847327.068378881	-50.4050796716297
1.376413	585738.68795229	704751.807895756	916386.884070482	-50.2690938685333
1.17375	648049.486207777	763601.795243333	1001526.75364815	-49.6795775931232
1.001604	712488.116021712	826388.787743315	1091126.82305039	-49.2330543946439
