EC-Lab ASCII FILE
freq/Hz	Re(Z)/Ohm	-Im(Z)/Ohm	|Z|/Ohm	Phase(Z)/deg
6999984	2.03845139144604	2.63593800685148	3.33218445636679	-52.284123408651
5969734	7.6462492106038	3.5542163695862	8.43193815160511	-24.9304822859529
5091109	12.8068552122645	-10.0561833463523	16.2831926821296	38.139669018861
4341796	-31.9150346136793	-1.1467744002267	31.9356309772856	177.942127335071
3702781	-26.2525462006892	-17.963595895998	31.8101706932553	145.617681998735
3157797	-26.3377503301604	-8.1528096967799	27.5707344553201	162.800170612693
2693047	-18.0410250125097	-12.6833555462674	22.053255800789	144.891687176525
2296687	4.68377525669913	-18.1832145363686	18.7767686658507	75.555314190327
1958656	-4.41254308152696	-14.29342174569	14.9590254243548	107.156056535634
1670375	2.84046337718425	-13.020483057775	13.3267104438766	77.6935353859757
1424531	12.1870001764421	-3.61810635836207	12.7127364057082	16.5352296519544
1214875	-0.65551967190721	-26.9634007286605	26.9713678721452	91.3926697886562
1036062	9.0235703195721	-8.54885079237597	12.4301114710436	43.4525290361927
883578.1	16.5710867465782	-13.5972324888431	21.4356163269982	39.3702333937753
753531.2	13.5526728550932	-1.30021572795124	13.6149000163935	5.48006800955805
642624.9	21.8087939234973	-14.5143321155252	26.1971244444374	33.6448208456377
548046.8	14.3267283063687	-6.37368720939088	15.6805303675501	23.9833658618678
467390.6	8.74536368827129	5.29396718409267	10.2228897375636	-31.1884304567748
398593.7	9.04121253987593	-5.46804336115219	10.5661261771119	31.1651683702925
339937.5	5.75884726139911	-7.98638798289231	9.84615228367968	54.2052738140364
289906.2	2.89848234829427	-7.44032946167918	7.98496727743481	68.7159169898504
247234.4	8.8266541950645	-3.97633393321862	9.68096357950569	24.2511663353119
210843.7	6.17796502377411	-4.15137970928402	7.44319859506861	33.8997412278473
179812.5	18.9181347705512	4.21453415984613	19.3819019030963	-12.5591202777086
153343.8	4.3473871681222	3.00838270312454	5.28678935442036	-34.6831521507076
130781.2	16.2334515648917	16.8192846154514	23.3754846941244	-46.0154150904364
111531.3	3.42461493926516	0.247529618928736	3.43354895035517	-4.13412368569151
95109.37	5.83730083055096	-2.80386414201578	6.47578065666471	25.6566375363458
81109.37	4.95863284898543	0.110254274696538	4.95985843912165	-1.27375106872226
69171.88	5.56482175225447	0.77062530325618	5.6179270636404	-7.88426595398901
59000	4.78603133760433	6.76205758786429	8.2844142089905	-54.7100037949231
50312.5	3.27619215625356	-2.53357986889752	4.14155308993862	37.7158807856925
42906.25	3.0751958282893	3.80985136159539	4.89610016030904	-51.090589296036
36593.75	3.25954753745416	-0.965356653565182	3.39949461207192	16.4973284938065
31203.13	-1.83934224318234	-5.31576407795254	5.62499134399384	109.086465938989
26609.38	6.42050814231721	-0.640730731861303	6.45239960606232	5.69892929293109
22703.13	5.20741018733705	-0.184374887818187	5.21067317708947	2.02778186176387
19359.37	0.948322095222387	-2.83652254053889	2.99084852830634	71.5138990865922
16500	3.88771281644762	2.91392192246332	4.85852363515744	-36.8523245264493
14112.02	-1.12004873695544	3.77640382485144	3.93900177983053	-106.5199014957
12011.13	1.47838895190584	-4.80780180075205	5.02996938841897	72.9074470359094
10236.38	5.18154047975826	-3.95608834809211	6.51912545985146	37.3616095218072
8750.684	6.00730381912527	11.3795792752517	12.8678873035559	-62.1703325467168
7449.463	9.27995746645825	-18.395957448782	20.6040981612074	63.2310493128425
6363.206	19.9048875859323	-0.670725939845337	19.9161849533233	1.92993957796276
5414.761	6.41676255643498	7.62386809402302	9.96484853977862	-49.913768362305
4620.567	-19.836645980585	-52.165145445491	55.8094519154981	110.820121635496
3941.215	1.60015673094296	7.33180120303903	7.50438608045099	-77.6883214700401
3361.769	73.9368486703909	-14.0015108771786	75.2509129389939	10.7231916147709
2867.244	19.2336978069687	-15.7708135907595	24.8727500016439	39.3502944625047
2442.658	450.199695112791	-210.286336091017	496.890439258228	25.037075354159
2083.003	403.436696519537	131.500145929755	424.327063098907	-18.0533730034007
1777.843	131.229923779366	-19.1023307149707	132.612940295743	8.28202471452473
1513.548	35.0144843808566	-19.3223299715926	39.9920811159954	28.8915916251221
1292.065	12.3439144778343	-2.92086106134006	12.684780407076	13.3126743698647
1101.762	9.01975106285296	7.04499152320513	11.4449908168539	-37.9920693612574
939.101	19.89142283999	23.9943915838086	31.1672830076094	-50.3411662295828
801.2801	19.6087479001643	9.26138491642558	21.6858535636113	-25.2817798988814
684.3433	7.31098228278025	10.7785747193237	13.0241366285513	-55.851410207337
582.9476	9.09676241872458	0.427333695989317	9.10679419941221	-2.68957561711414
497.0677	5.65087392307389	4.19759751486214	7.03933242511343	-36.6058037055163
423.5089	25.5980281541217	-10.1578778169683	27.5398171221899	21.6443000407139
361.5036	16.4735203768555	3.99103208208781	16.9500799610777	-13.6186223733086
308.1262	149.94131018162	9.09799651397598	150.217076391298	-3.47228180188645
262.7298	17.9929771766139	15.1831976101669	23.5430821547971	-40.1590186607539
224.2111	323.539739251196	-226.994813387675	395.227286734655	35.0534203962329
191.2854	7748.42840650406	-5327.4913173066	9403.20724575909	34.5107663388866
163.1722	-44732.7675987974	24590.2895909956	51046.0854445965	-151.20172867008
139.1537	32806.9921561792	6036.78890104565	33357.7810198969	-10.4263192628018
118.6706	40786.4215186392	39109.3105740186	56507.259302422	-43.7974668175953
101.1982	-39657.4506809957	60616.1179501067	72436.366211019	-123.194291136936
86.24196	46128.6345988756	24833.2494686276	52388.3690252681	-28.2957040590301
73.61024	-53712.3713648093	54885.2155356845	76794.5683107193	-134.381234791086
62.69291	-38515.656344412	61901.9069761221	72906.1168278857	-121.89006730788
53.57697	-35404.9654078538	82218.4721008641	89517.5330878364	-113.2977057332
45.65746	-9859.13328545404	76876.1803140413	77505.8037105438	-97.3081152487048
38.96512	-74881.9052505529	-496330.671890536	501947.642282802	98.5795658918796
33.18414	-81203.397885765	-569250.725535256	575013.374062386	98.1184494583584
28.30617	-275113.496027112	-847154.989832989	890707.029553035	107.991199817817
24.17237	-297450.397970078	-1001595.61384371	1044830.37519184	106.540184201648
20.61345	-90727.960091926	42427.1964124669	100158.023831664	-154.93775726901
17.55618	-344611.433843288	-1358264.19992548	1401298.92497451	104.236378203206
14.98558	-375459.954455491	-1511626.83885704	1557557.66421428	103.948925277389
12.76553	-413356.877650114	-1769045.11642424	1816696.04839255	103.151826392803
10.8809	-197318.965771871	237374.187923415	308676.658245455	-129.735291917708
9.278505	229402.352772306	101894.128910999	251013.650951498	-23.9494582195519
7.923394	36028.2480869954	152714.045194786	156906.386931741	-76.7255231911022
6.75822	-84919.9281047324	195338.627479572	212998.998999798	-113.496121017654
5.761429	123586.176850738	-115729.456445088	169312.876644564	43.1196577459555
4.919708	245490.681573282	-49148.2404151198	250362.186192758	11.3211762063931
4.191257	179986.578252603	54802.2540401193	188144.772446534	-16.9344265365559
3.564097	143585.079865145	131764.750961756	194881.052839658	-42.5418928349235
3.051758	154735.620751227	132169.564921684	203499.155332042	-40.5027532307868
2.604164	-607089.196037409	1792911.8135375	1892905.19125172	-108.706365737699
2.214424	517576.984901778	592442.020023761	786685.122771399	-48.8584603177653
1.892567	172108.651119576	-69756.3023517685	185707.645259939	22.0629030058365
1.607507	278760.818843938	30680.5542326209	280444.095196465	-6.28072324317843
1.376413	189313.257355842	-440679.516468776	479622.711770234	66.7519322597009
1.17375	270230.301142497	-564306.593774233	625672.715908758	64.4115715539301
1.001604	614099.51640364	403049.150682886	734552.131515102	-33.2779101327918
