EC-Lab ASCII FILE
freq/Hz	Re(Z)/Ohm	-Im(Z)/Ohm	|Z|/Ohm	Phase(Z)/deg
6999984	319.855911304253	-9.30936279879833	319.991356495756	1.66711524296933
5969734	-308.83847745269	-454.92422379393	549.852029685992	124.171757135429
5091109	594.097814493113	88.8062567276623	600.698563690203	-8.50167381486608
4341796	37.0423249944499	-698.503816676137	699.485322041946	86.964393581649
3702781	492.973745936336	-236.520971696553	546.777179694604	25.6309518383901
3157797	615.902676688182	167.59286674817	638.297325810267	-15.2221593545413
2693047	1129.17506814167	-475.56331564276	1225.23336621963	22.838876936516
2296687	173.861679871771	-917.24019976426	933.572422360158	79.266992082964
1958656	668.830987105902	57.2832069874984	671.279565543171	-4.8952517069414
1670375	964.067519230637	-919.267961856734	1332.09600529832	43.63734230259
1424531	242.226374838405	-725.60561982717	764.968713211284	71.5396248915936
1214875	-738.974417331996	-4853.59400152378	4909.52726044971	98.6569724900018
1036062	482.6012749835	-443.559249692809	655.476009174819	42.5861423654415
883578.1	1132.41252719124	-492.657282945271	1234.93697417263	23.5115007401098
753531.2	1614.72634062734	333.764121873996	1648.86010448615	-11.6785758198398
642624.9	1137.58944371069	-9790.9404785656	9856.80603427177	83.3726357555329
548046.8	1347.58373981884	425.761621023403	1413.24268749589	-17.5336429874375
467390.6	472.610357196164	-1583.90118651583	1652.90759523191	73.3857522032846
398593.7	1444.48583877719	-2424.63619393789	2822.30402532779	59.2154746056681
339937.5	1937.72698122192	1856.95870261529	2683.85571090811	-43.780667695042
289906.2	650.071876604471	-3118.42490530188	3185.46187149667	78.224667262062
247234.4	3552.8290745943	-10231.3459474339	10830.6525347901	70.8504712556103
210843.7	5437.85031479877	-5628.00630176982	7825.89745517522	45.9844753694994
179812.5	13516.8587298984	-11820.0577855693	17956.0361989563	41.1686505098658
153343.8	8573.85812534278	-14481.9121897526	16829.6412268715	59.3728088162111
130781.2	35700.061546465	-44921.6976378178	57379.9033903414	51.5252178906884
111531.3	12082.7424792271	2245.97003771032	12289.7130653898	-10.5300991082339
95109.37	16122.4785232839	6069.1027802663	17226.964976199	-20.6282109572509
81109.37	28248.4428708943	-35905.6231864751	45685.7559972396	51.8064026582268
69171.88	7329.76861177154	-98468.9552599795	98741.3827019551	85.7429048582096
59000	91977.7412950113	-68965.658103815	114961.588765223	36.8628612203017
50312.5	30925.8280118109	51488.199371773	60061.9805930803	-59.0093243909801
42906.25	-28525.869599562	-85997.8992645549	90605.5401966555	108.3509027216
36593.75	139054.308884538	-52046.2791004992	148475.304301973	20.5202427903365
31203.13	71226.7105654122	38064.212662749	80759.6965299152	-28.1204591878114
26609.38	74333.0668677887	-243632.277413257	254719.632984074	73.0328674972636
22703.13	169718.073481924	-110583.345459889	202565.793656078	33.0870922687014
19359.37	98504.2869411574	16892.1403741558	99942.1780441374	-9.73079433613663
16500	238084.54195773	-166530.87739711	290545.662927316	34.9712926258789
14112.02	260165.120032949	44729.1587389171	263982.17235876	-9.75526536356667
12011.13	16614.825855259	117954.454002391	119118.871960755	-81.9821817783095
10236.38	27582.1495398054	-113774.180818081	117069.804792105	76.3727530766402
8750.684	-27686.8413906902	-79820.8790647898	84486.2942782381	109.129724252521
7449.463	165785.288834128	-69358.1687483626	179708.980203944	22.7025530883205
6363.206	247844.02758297	-128501.770741609	279176.229454224	27.4057630933211
5414.761	371518.309956946	-33090.9747265773	372989.098019795	5.0898785944538
4620.567	70286.6465478998	-67235.4166107689	97266.7154260544	43.7289754427653
3941.215	373919.785543643	-349339.571311549	511716.857358775	43.0535326868194
3361.769	1247006.76915647	-112912.530148215	1252108.27079231	5.17384326749904
2867.244	1287824.10032854	-384922.325727734	1344119.08335186	16.6410664158709
2442.658	621993.420088921	646841.055569695	897373.481781377	-46.1218821079276
2083.003	1200103.08390564	-1601604.37139604	2001345.54099853	53.1553000065694
1777.843	2439643.38220796	-2163921.4929833	3261045.24043231	41.572471163874
1513.548	3217364.35108137	-1022612.55345614	3375969.46107268	17.6324266408961
1292.065	2727368.55854647	-966170.673446071	2893445.18254193	19.5066976394839
1101.762	1539189.13373595	947524.001503126	1807458.13861216	-31.6164299297376
939.101	2111426.55888152	-3262065.91161606	3885768.40860051	57.086363438962
801.2801	1847206.2081968	-3731816.88941382	4163967.82789145	63.6651221384336
684.3433	3826057.96697123	-1557437.70437833	4130899.63199825	22.1493050413422
582.9476	3352613.26063737	-992090.786941764	3496320.89558958	16.4843108927011
497.0677	1941220.60138403	1283315.69435664	2327066.09158825	-33.4681722278209
423.5089	766503.251665143	2277768.37366029	2403280.2580765	-71.4011409925105
361.5036	4003859.95084863	-2328978.19384771	4631957.8941769	30.1858459885431
308.1262	7276741.37649758	-817225.527105341	7322487.46141532	6.40783965960615
262.7298	7393315.37236166	7279608.74250689	10375635.6739808	-44.555999912991
224.2111	6382161.2112856	5283072.34972587	8285097.17379805	-39.6175277077317
191.2854	8159729.09547895	182186.588989153	8161762.73024481	-1.27906066860974
163.1722	1952351.31820087	11476142.1059602	11641027.1585403	-80.3451267660617
139.1537	3119788.76516865	6567247.85115174	7270613.88589228	-64.5898187239953
118.6706	233177.870128585	7559149.15113279	7562744.7271602	-88.2331513231867
101.1982	2035839.18040104	9286423.428821	9506960.67456953	-77.6348072119748
86.24196	185418.53360529	8103489.82250784	8105610.85520964	-88.6892257281109
73.61024	3223766.1519558	11047889.1040145	11508628.1483545	-73.7327927397954
62.69291	1661688.05952905	10993421.9744619	11118297.2579331	-81.4046403208176
53.57697	2180249.86750475	10236639.0676586	10466244.2588671	-77.9765192409908
45.65746	2396767.14202222	11823421.4975619	12063904.369734	-78.5406534860767
38.96512	-3163772.55774411	12271415.2187789	12672690.6483514	-104.456966954332
33.18414	6758910.32379997	6383554.6219985	9296915.53028251	-43.3640471638906
28.30617	-2185680.86737691	11275988.7615978	11485866.2453337	-100.969888517386
24.17237	8699830.089712	9976604.10426702	13237056.811963	-48.9108172010844
20.61345	7259340.16681664	8280241.08288544	11011830.5493801	-48.7587484726787
17.55618	16990921.8787272	4328762.478953	17533670.7762009	-14.2931312080484
14.98558	9073805.48072183	36360943.8679574	37476021.4653414	-75.9881265087688
12.76553	20629996.2909745	-5220974.06216671	21280397.4850904	14.2020423777785
10.8809	18564192.8878841	8966320.82496255	20616114.2486823	-25.7800812933067
9.278505	21743796.1303224	9794757.57297955	23848059.5871124	-24.2497625887138
7.923394	19291276.8699931	6979652.69207404	20515089.9334297	-19.8903043424799
6.75822	-9772153.63129178	16095361.9806481	18829648.5331421	-121.263652550463
5.761429	8585720.61275677	-311196.056311222	8591358.53202392	2.07582093513882
4.919708	17805781.8638115	-614283.218027851	17816374.8179474	1.97586844777824
4.191257	29318444.4845451	20604657.2895583	35834663.2328741	-35.0990965916608
3.564097	12595112.530186	9199119.62436161	15596815.7490997	-36.1433522803324
3.051758	35895928.0236025	629618.47000759	35901449.387085	-1.00487114279209
2.604164	87428993.246703	26179303.9003088	91264367.706333	-16.6695424182889
2.214424	11231882.6599473	-21857365.3829625	24574368.9557057	62.8026487694232
1.892567	17993620.8138484	-22953372.2401362	29165522.2340834	51.9063723343212
1.607507	21641110.7149358	18255541.6249752	28312585.0638424	-40.1495877754461
1.376413	26928402.8196007	45555525.8184053	52919229.1233165	-59.4121710167366
1.17375	33574657.8738738	-691715.98584882	33581782.5964131	1.18025925345958
1.001604	55054340.430302	-3280312.12510123	55151979.5461021	3.40983283996396
