EC-Lab ASCII FILE
freq/Hz	Re(Z)/Ohm	-Im(Z)/Ohm	|Z|/Ohm	Phase(Z)/deg
6999984	37.3243674572042	72.6622197122265	81.6878606623303	-62.8118160941453
5969734	34.9167092198905	70.4920437407769	78.6657791768313	-63.6494803906266
5091109	34.430254030518	72.8147671463638	80.5446007326697	-64.6930084228983
4341796	38.0787282248075	77.2763264551089	86.1488257239489	-63.7677388795416
3702781	45.6712943699535	80.7295414885408	92.7530376773557	-60.5017648557368
3157797	53.5937460902043	84.6368825789772	100.17829861137	-57.6572012902508
2693047	62.782923940087	88.4003700179139	108.42656942729	-54.6172075504237
2296687	74.0036470964754	92.1491677559123	118.186331281104	-51.2325625080915
1958656	86.4064063577421	94.0636366429171	127.726406033169	-47.4295666020665
1670375	99.9296844991903	94.6670960898507	137.65101135187	-43.4508961064765
1424531	113.471075626661	92.9151974670875	146.659193111851	-39.3121526620829
1214875	126.209431970491	89.8351883322174	154.916693035318	-35.4430546152337
1036062	137.890435250712	85.0230616907635	161.995966471089	-31.6579292628389
883578.1	148.538080386974	79.0571208960774	168.266424724079	-28.0234574330958
753531.2	157.583029681098	72.5600825723908	173.485955703584	-24.7239997557436
642624.9	165.115140628885	66.0022800645043	177.818195465508	-21.78831298252
548046.8	171.131362498057	59.3856280398374	181.142474445193	-19.1376841715299
467390.6	176.261556647119	53.2631802793578	184.13338297315	-16.8139048643501
398593.7	180.250521899578	47.651079905848	186.442688409237	-14.8079738940191
339937.5	183.308920681807	42.4812769089964	188.166998406596	-13.0477902515977
289906.2	185.782948302446	38.1038383795869	189.650221141993	-11.5905523137738
247234.4	187.81891702884	34.1998869908617	190.907249375381	-10.3199038115122
210843.7	189.135641160003	30.9426845101625	191.650046912858	-9.29130705938153
179812.5	190.667337811472	28.2932227543829	192.755130053503	-8.44055640685948
153343.8	191.710075554762	26.1862575650156	193.490240463114	-7.77806822666151
130781.2	192.608797334278	24.5597805023677	194.168307478026	-7.26664036914979
111531.3	193.452291077481	23.436971504862	194.866827747685	-6.90778544290345
95109.37	194.136259121512	22.7127474899559	195.460369395531	-6.67291858352342
81109.37	194.825702430142	22.5262825222483	196.123654187021	-6.59540885299813
69171.88	195.638263038063	22.8383002214059	196.96679395663	-6.65842275130662
59000	196.360219889387	23.5174889431876	197.763515950747	-6.82961681091375
50312.5	197.173493103542	24.6801509276618	198.712093825375	-7.13459078610599
42906.25	197.96988766891	26.0968459827577	199.682552552517	-7.50956301512936
36593.75	198.917575101842	28.1054255745471	200.893296630633	-8.04219031106092
31203.13	199.757888918805	30.142479294834	202.019264535185	-8.58091387793268
26609.38	201.117363293985	33.7416878104801	203.928162142027	-9.52388208758103
22703.13	202.402767384925	37.4210117630164	205.832972009938	-10.474785762692
19359.37	203.916842349212	41.6216915663622	208.121223815638	-11.5362416443734
16500	205.527705011805	46.7119441362819	210.769170545435	-12.8045582084088
14112.02	207.448038011524	52.3280203622278	213.946045043745	-14.1573172922906
12011.13	209.549971296585	59.1362473507837	217.734439676255	-15.7593817719898
10236.38	212.130168074133	66.7555730187403	222.385958945749	-17.4683487171044
8750.684	214.80213157768	75.3713717572327	227.641822631259	-19.3353316925382
7449.463	218.131372828479	85.3838967031256	234.247103777714	-21.3770324180192
6363.206	221.542859978806	96.7402571419673	241.743492486319	-23.589262572065
5414.761	225.786128567479	110.055034351037	251.180187195364	-25.9860137840326
4620.567	230.237179593874	124.584543975178	261.783245195037	-28.4184373483251
3941.215	235.555801402922	141.605088497343	274.842748972777	-31.0123089601296
3361.769	241.561351616088	160.851503763111	290.215597198781	-33.6589557144435
2867.244	248.350306919939	182.595207811048	308.251333918911	-36.3245329943086
2442.658	256.012668376742	207.690764151356	329.663373584562	-39.0507578567883
2083.003	264.97235580361	236.277564288093	355.017516083402	-41.7235945119177
1777.843	274.940001772758	268.243801413934	384.118134916593	-44.293711293536
1513.548	286.743444832526	305.703130436491	419.137456108488	-46.8329742978866
1292.065	300.384443082479	347.691438821568	459.478128179986	-49.1749622037956
1101.762	315.323302450205	395.526555784606	505.835982704806	-51.4373032466035
939.101	333.492853231887	449.938509217028	560.055484066701	-53.4542865728025
801.2801	353.708045897202	512.265598087512	622.515401188094	-55.3757807528651
684.3433	377.981744257725	581.740011020827	693.751857233279	-56.9864682473809
582.9476	405.703549914209	661.651990585136	776.13061211259	-58.4847242337583
497.0677	437.862339594681	751.683137849679	869.91434530238	-59.7788067098408
423.5089	478.41135292093	853.382912887135	978.335228135717	-60.7247600296018
361.5036	518.559444483453	968.21917274052	1098.34068663841	-61.8273600105515
308.1262	569.782578592118	1099.13832733925	1238.04573804574	-62.5982174281205
262.7298	628.016759481056	1245.24742436133	1394.64913080947	-63.2367788907938
224.2111	695.798477607873	1408.73936219074	1571.20403258998	-63.7145111003739
191.2854	774.927768675659	1592.96030882705	1771.45013820965	-64.0584576647909
163.1722	865.364239152088	1799.34313298366	1996.61988786517	-64.3155438274661
139.1537	968.01140157346	2029.69034521777	2248.70828945118	-64.5023280686788
118.6706	1086.68147079113	2287.6501742561	2532.63103091128	-64.5913084142626
101.1982	1225.81801537103	2574.36296060694	2851.31100719531	-64.5379087477564
86.24196	1383.52640788445	2897.60001237234	3210.95486623743	-64.476774151016
73.61024	1562.40769607331	3251.09540624343	3607.04022007605	-64.3320450119659
62.69291	1770.66334090061	3654.42031431652	4060.79259510979	-64.148583925965
53.57697	2004.29939140833	4087.39963223116	4552.36771405422	-63.8784916213403
45.65746	2270.50195470908	4578.74248446615	5110.77898811844	-63.6241556560818
38.96512	2574.78667693682	5117.90908941545	5729.09415870019	-63.2933298251732
33.18414	2920.33163845968	5719.31682480364	6421.75379636051	-62.9507583594645
28.30617	3284.54177373989	6357.6849302545	7156.00253883602	-62.6779731532027
24.17237	3746.07919940232	7101.88999680669	8029.31820859889	-62.1894120412947
20.61345	4238.20302948145	7905.87664678109	8970.24249801667	-61.8050146565414
17.55618	4797.25743767168	8791.11108329854	10014.854617127	-61.3789632400821
14.98558	5431.26808486414	9767.08183298651	11175.6234967862	-60.9224877647014
12.76553	6133.00252275244	10835.0340636791	12450.3687939424	-60.4886441222283
10.8809	6918.15648122788	12004.3913137112	13855.1903599864	-60.0450601972381
9.278505	7794.43568220809	13298.019277104	15413.9723724388	-59.6239362178169
7.923394	8773.19818405997	14697.0895323029	17116.4671324815	-59.1655699817123
6.75822	9849.86663253946	16234.3862093514	18988.8169266332	-58.7536133270132
5.761429	11059.791088123	17914.3411619968	21053.3274847787	-58.3100294020229
4.919708	12348.5289073424	19742.0924475781	23285.9696036946	-57.9743334298558
4.191257	13844.8901929083	21816.0730115578	25838.3828073529	-57.6000201022968
3.564097	15474.6228474544	24059.2068329185	28606.1074894874	-57.2513122586022
3.051758	17187.5957588374	26502.2523081047	31587.7005394766	-57.0352441444804
2.604164	19132.4304327935	29147.0069614553	34865.4256976278	-56.718644855625
2.214424	21330.3595866044	32223.5683837585	38643.7912151048	-56.4974716875486
1.892567	23626.9651491092	35486.2215531507	42632.2108537256	-56.3440565083244
1.607507	26341.0585410004	39241.4226425347	47262.4651924806	-56.1282576843663
1.376413	29127.9392349708	43277.4328755878	52166.7810045546	-56.0574171825763
1.17375	32205.6231888201	47768.9009144102	57611.3709223362	-56.0122910266318
1.001604	35694.4079003118	52759.3403507549	63699.5977192999	-55.9196265624253
