EC-Lab ASCII FILE
freq/Hz	Re(Z)/Ohm	-Im(Z)/Ohm	|Z|/Ohm	Phase(Z)/deg
6999984	-0.0723202871074511	-0.00263975201090366	0.0723684476687405	177.909583332308
5969734	-0.0446449095905525	0.010408565014551	0.0458421877533211	-166.876421550371
5091109	-0.0288244665078249	0.0144924201083573	0.0322626736346794	-153.307577750304
4341796	-0.0202797347915728	0.0145931151107006	0.0249845282495125	-144.26154819344
3702781	-0.0160740401592826	0.0139373368954329	0.0212749647891371	-139.072384034499
3157797	-0.0125509335099073	0.0129321504043776	0.0180212775921009	-134.142941644091
2693047	-0.0100479057883297	0.0112273456698552	0.0150669738674216	-131.826931644613
2296687	-0.00865978107402656	0.00977761482549464	0.0130611469605774	-131.530483281412
1958656	-0.00753791656434873	0.00885399609897409	0.0116281311074365	-130.409663242577
1670375	-0.00578578154871508	0.00987604374572628	0.0114460258691369	-120.363478558533
1424531	-0.00561496034536376	0.00740687324331639	0.00929459794302926	-127.164831361413
1214875	-0.00559811220124453	0.00684161834581142	0.00884005666313663	-129.29153610538
1036062	-0.00430010199751739	0.00645324159464654	0.00775468917932429	-123.67740914979
883578.1	-0.00390365914561442	0.00579273757134922	0.00698529622103887	-123.975576386376
753531.2	-0.00325366599996284	0.0055325663863089	0.00641838244873499	-120.459506284997
642624.9	-0.00283135873669516	0.00527463643948397	0.00598651667203827	-118.226345982695
548046.8	0.00262428156171768	0.00479591170222663	0.0054669573595123	-61.3129012063036
467390.6	-0.00158625286709277	0.00443775656369366	0.00471273609243783	-109.669164016637
398593.7	-0.00146709466435318	0.0038247525033586	0.00409647390643728	-110.985763734068
339937.5	-0.00105718511052342	0.00332266351472154	0.00348679411350514	-107.649716971919
289906.2	-0.000714738922873054	0.0029967228480233	0.00308077905013238	-103.414814020768
247234.4	-0.000724292749324074	0.00208865472672848	0.00221067377833289	-109.125255181719
210843.7	-0.000496639718188528	0.00218894112721959	0.00224457440690117	-102.783185347416
179812.5	-0.00027078811133235	0.00206629201567756	0.00208395990731391	-97.4660797128224
153343.8	-0.000189088891872912	0.00184051657453252	0.00185020427795383	-95.865808591022
130781.2	-0.000108745721238017	0.00177491399955455	0.00177824220445424	-93.5060246159962
111531.3	1.48421473430933E-05	0.00130413711841935	0.00130422157357439	-89.3479553051728
95109.37	0.000782337744260954	0.0013244214185436	0.0015382276944563	-59.4295889337085
81109.37	-8.5891982530432E-05	0.00116946862468648	0.00117261856406468	-94.2005640552538
69171.88	0.000396572429956613	0.000997256892946838	0.00107321526392969	-68.3141016881251
59000	0.00403491056817145	-0.00352463942712628	0.00535757280719495	41.138381149549
50312.5	0.000193767699389988	0.000566934818692593	0.000599133549363489	-71.1305330258702
42906.25	0.000263053668431192	0.000386074491677138	0.000467173143062471	-55.7312552281201
36593.75	0.000111422588040642	0.000373534959775844	0.000389799126859484	-73.3905650487637
31203.13	0.000614212837361241	0.000298870909374139	0.000683067515000875	-25.9471729751007
26609.38	0.000855491425087143	-0.000146991502899149	0.000868027695596276	9.74942692363428
22703.13	0.000805121038403229	0.00104703904582022	0.00132079924665015	-52.4415034558175
19359.37	7.64378790884955E-05	0.00106841847202047	0.00107114928031255	-85.9078594074278
16500	-0.00484768127897349	0.0109088893751363	0.0119374989500092	-113.959357395017
14112.02	0.000243258111580055	0.000194451172278797	0.000311425379906797	-38.6374948583163
12011.13	-0.000150456311243784	0.000790540030651194	0.000804730166984609	-100.775713120616
10236.38	0.000143676252767518	1.56423244502965E-05	0.000144525250124412	-6.21343507971826
8750.684	0.000156979558273149	-2.98704319785743E-05	0.000159796196519879	10.7735775232747
7449.463	0.000109045063986209	-1.06652387728818E-05	0.000109565383665823	5.58609213067362
6363.206	0.000513300227689107	0.00074809202388759	0.000907258948674478	-55.5441959671658
5414.761	0.000591926986348968	-0.000805051895160175	0.000999242768835062	53.6742336111974
4620.567	0.00062637313212435	-0.000227827010000664	0.000666519652473287	19.9875467394695
3941.215	0.000475956932192351	-0.000639124855998076	0.000796878650019258	53.3249069730841
3361.769	0.00109267368917765	0.000389783155691769	0.00116011495097776	-19.6325478191844
2867.244	3.48840613634176E-05	-1.03106730904166E-05	3.63759222121464E-05	16.466085105238
2442.658	0.000411811948383806	-0.000433809871788664	0.000598147210720709	46.490150730748
2083.003	0.000751115008313833	-0.000142944208124379	0.000764595842488432	10.77507294312
1777.843	0.000615675386984194	-0.000532616326675059	0.000814086195423415	40.8628457458706
1513.548	0.000207438701255732	-0.000305079634694103	0.000368923295935283	55.7862820947645
1292.065	0.000297843400022433	1.27479020857051E-05	0.000298116084679291	-2.4508029044447
1101.762	0.000200142901739109	-0.00071942498844169	0.000746745937458569	74.4535163502904
939.101	0.000480412606907778	0.000513328226927926	0.000703066242566727	-46.8971111934735
801.2801	0.0121451295687641	-0.000306159012448786	0.0121489878419139	1.44402782289939
684.3433	0.00034544636195126	-0.000104010597997181	0.000360765011442479	16.7565460594796
582.9476	0.000331055402009909	-0.000101547769957883	0.000346279697330585	17.0528454536535
497.0677	0.000638862950963601	0.000272989800105463	0.000694744054365016	-23.1372962745319
423.5089	0.000496960813888905	0.00102021056128865	0.00113481260122808	-64.0285492678851
361.5036	0.000695969098396822	-0.000111714788488723	0.000704878131232886	9.11915043067857
308.1262	0.00266809896958542	-0.00235918338976845	0.00356153034215099	41.4837200014082
262.7298	0.00172316584376918	-0.000920447587281066	0.00195359266124346	28.1093839136316
224.2111	0.00301667586679884	-0.000970289954241817	0.00316887927832998	17.8299767590792
191.2854	0.00338653396637168	-0.0027306751218683	0.00435031021038495	38.8803888564062
163.1722	0.00296935984478174	-0.000804055391215601	0.00307629695574811	15.1514391738883
139.1537	0.00727441777790442	-0.00112547067393772	0.00736096720855254	8.79485631863453
118.6706	0.00305473732289964	-0.00604783160143624	0.00677552117487998	63.2018284652909
101.1982	0.00904754737492324	-0.00508954124938527	0.0103808257682457	29.3591767521504
86.24196	0.0121919194205904	-0.00111968082118031	0.0122432260576814	5.24720764837657
73.61024	0.0100350423907339	-0.00193520273562981	0.0102199356853072	10.9151840423413
62.69291	0.0184089324482196	-0.00705298006423123	0.0197137850670427	20.9632422983757
53.57697	0.00870863966611549	0.0146259690851328	0.0170223199509791	-59.2294547758693
45.65746	0.00238681642298368	0.0143819404197121	0.0145786522996186	-80.5771173773101
38.96512	-0.00721340681263363	0.0224865164083204	0.0236151785516479	-107.785622560924
33.18414	0.017060658606442	0.016069735873848	0.0234372029717882	-43.286806723529
28.30617	0.0156984682138086	0.0127203452449676	0.0202051747681411	-39.0175778708723
24.17237	0.0366200802658252	-0.0200578433338256	0.0417534113322465	28.7107546858229
20.61345	0.0572744388999592	-0.0167506695922925	0.0596736649041712	16.3022592828762
17.55618	0.0842017633064229	-0.00777428528293011	0.084559898625597	5.27512043328196
14.98558	0.0553254468634069	0.0328914148546411	0.0643642000010546	-30.7318174715233
12.76553	0.0646090200896919	0.00741440330943406	0.0650330596957052	-6.54651263476166
10.8809	-0.00362342241874269	-0.0713183392026609	0.0714103262606357	92.9084869314543
9.278505	-0.015218955186769	-0.0929540749830469	0.0941917016139468	99.2982841500917
7.923394	-0.00164830273386753	0.0595404597401443	0.0595632709643302	-91.5857565656152
6.75822	0.0220229268599524	0.18546756989473	0.186770524414682	-83.22825039116
5.761429	0.208987489291544	0.0598806770812238	0.217397024285267	-15.9884674872169
4.919708	0.147874839019026	0.0894002834385761	0.172798665196814	-31.1557833216083
4.191257	0.133471082905779	-0.118679951847522	0.178604201917456	41.6428876768956
3.564097	0.328954135947158	-0.11956854932944	0.350010659188385	19.9752396060301
3.051758	0.251211863890302	0.306031434325978	0.395932619715596	-50.6184720728482
2.604164	0.108981798506	0.393578854278798	0.40838872038906	-74.5226150603832
2.214424	-0.0998266915178927	0.241673527793593	0.261479372753586	-112.443769435337
1.892567	0.320236638638681	-0.392940161006993	0.506905784992441	50.8208063886207
1.607507	0.320646042475453	0.0542893527186056	0.325209499205936	-9.60975127233729
1.376413	0.261700268241251	0.390144707528592	0.469787104133472	-56.1471824803395
1.17375	0.35419915541655	-0.15753951202392	0.387654149399349	23.9783811290501
1.001604	0.458132938633766	0.0190260321616337	0.458527839243187	-2.37809857094717
