EC-Lab ASCII FILE
freq/Hz	Re(Z)/Ohm	-Im(Z)/Ohm	|Z|/Ohm	Phase(Z)/deg
6999984	25.3199616079031	88.6330629876493	92.1787410979251	-74.0568576687214
5969734	21.9835073781816	86.6881889565714	89.4321905200627	-75.7701733635011
5091109	19.5421767342643	91.1647892141948	93.23580569707	-77.9011179951516
4341796	19.4322329051376	99.2429631457354	101.127530423843	-78.9213839409411
3702781	23.5042235054031	109.872455908727	112.358377925311	-77.9251249267676
3157797	27.9560279177782	122.098979506502	125.258533814942	-77.1037326316681
2693047	33.6628180568811	136.535256554634	140.623830135473	-76.1499297901138
2296687	41.6372898386248	154.930733135211	160.428164531418	-74.957318139549
1958656	52.8489412136845	175.10551461056	182.906948567944	-73.205556976716
1670375	67.8633889566222	198.262489993978	209.555373348645	-71.1044061504122
1424531	87.4843894940703	222.545162095645	239.123122213907	-68.5397897636272
1214875	111.794974268738	247.851930468346	271.898318694017	-65.7219833271738
1036062	141.572335823428	272.803412997192	307.350660343227	-62.5727781020167
883578.1	177.112206809696	296.874953796077	345.692742174931	-59.1801804054881
753531.2	218.760985743361	317.327194623305	385.425631388085	-55.418156711393
642624.9	265.325215832301	333.958646539436	426.527663528299	-51.533376809691
548046.8	315.832513437913	343.592374262205	466.69679257056	-47.410561592002
467390.6	368.126264132986	346.650649351947	505.651677581154	-43.2790546045609
398593.7	485.728150064855	331.910541503252	588.299620369084	-34.3458003305125
339937.5	529.780202013671	311.610906319035	614.628684152161	-30.4635758205769
289906.2	567.03383571762	288.549289522419	636.229568106143	-26.970401112691
247234.4	599.45228316999	263.713231668239	654.89518883148	-23.7458290191624
210843.7	624.986848230893	239.530612802288	669.315676591416	-20.969682343993
179812.5	645.929941103222	217.202819378158	681.470875063222	-18.5859258148189
153343.8	662.610842015233	194.376123145595	690.532551879524	-16.3489897206471
130781.2	676.101951705189	175.369973139996	698.475823904227	-14.5411474488267
111531.3	687.523863161274	158.514062970528	705.560607301475	-12.9831205052613
95109.37	696.233996088832	144.401535208278	711.051039434112	-11.7172332822772
81109.37	704.392226398034	132.177778099753	716.6863844342	-10.6278457080832
69171.88	710.682704565364	122.553885857539	721.172213487959	-9.78415962517511
59000	716.196233421301	116.331603747165	725.582584408726	-9.22596695242481
50312.5	724.691349656888	110.555300942936	733.07573062686	-8.6738820097706
42906.25	727.65632009227	102.716514694854	734.870330440195	-8.03482780339349
36593.75	731.989596835051	101.04257295324	738.930559270458	-7.85934228990082
31203.13	736.653032441114	100.65580330011	743.498003321246	-7.78067518462936
26609.38	741.686894202001	101.458395041378	748.594185761139	-7.7893784135374
22703.13	747.138563223082	103.536963666643	754.278420412754	-7.88968613473095
19359.37	752.552371619721	107.780906606491	760.23140941386	-8.15050225265245
16500	758.311273419196	112.819706094549	766.657859463987	-8.46225431856108
14112.02	764.714436128527	119.485422726486	773.992852077781	-8.8805708047861
12011.13	771.704709875054	127.931422062128	782.236925741926	-9.41275692321541
10236.38	779.51444050345	137.927528443026	791.622868578093	-10.0340780858332
8750.684	788.11206539024	149.422002051317	802.151832454863	-10.7355617735678
7449.463	797.511949753721	162.81668248592	813.962273140286	-11.5386996333145
6363.206	808.063289116315	177.637613989472	827.358085185218	-12.3981993513682
5414.761	819.189953401941	194.878444445427	842.050941371211	-13.3814579531701
4620.567	831.78211576227	214.578949501873	859.014326813753	-14.4654826424017
3941.215	846.222355940529	235.209027458536	878.302659845415	-15.5333671105445
3361.769	860.38383205515	259.931359116876	898.790659672346	-16.8101405316361
2867.244	878.286292773436	286.348538370136	923.786932956089	-18.057572784039
2442.658	896.994923004459	316.412735857184	951.166079771774	-19.4301676667883
2083.003	917.724126681636	349.622583425189	982.065946632137	-20.855188187792
1777.843	940.259455463809	386.948660724751	1016.76797236428	-22.3688280909686
1513.548	965.240654814573	428.088280859237	1055.91150098665	-23.9174871745836
1292.065	993.587948092822	473.5273326796	1100.65668825023	-25.4816848736026
1101.762	1023.48287009809	524.507536328882	1150.05449481754	-27.1339232674213
939.101	1056.54473444755	581.993304398832	1206.23504436487	-28.8479895369126
801.2801	1094.17361361649	644.864320710757	1270.06530889569	-30.5134804445328
684.3433	1133.72106818247	714.149185329921	1339.90019006947	-32.2074874616166
582.9476	1178.24982302948	793.890134947644	1420.75127726009	-33.9716015945126
497.0677	1227.59800242706	882.554599575985	1511.91913698969	-35.7134162100221
423.5089	1283.88061711725	980.946473332681	1615.73680485195	-37.3815656418116
361.5036	1341.47537504375	1090.74012243449	1728.9506055805	-39.114212932599
308.1262	1407.41805509413	1216.05235217109	1860.0023938226	-40.8280213710825
262.7298	1481.66520795032	1354.92885839792	2007.77588385008	-42.4417799193803
224.2111	1563.56529037023	1510.34304739774	2173.90720548814	-44.0080689143515
191.2854	1653.43094869874	1684.89067596519	2360.65467446411	-45.5399288754133
163.1722	1756.79164448294	1879.26707137465	2572.53991371915	-46.9291968300008
139.1537	1873.87264754224	2097.99611702769	2813.00309389631	-48.2296448671872
118.6706	2000.72198516024	2349.20206829986	3085.71528492307	-49.580284007227
101.1982	2150.14001143189	2617.6825226958	3387.53064316582	-50.6006358966858
86.24196	2313.35006987166	2926.65518726616	3730.53603801479	-51.6756880668456
73.61024	2496.83155959061	3267.3044516077	4112.10970384585	-52.6134079830906
62.69291	2712.98588717948	3654.25902770861	4551.2527358547	-53.409160416858
53.57697	2949.39512538255	4073.89669854785	5029.46974501979	-54.0964404808513
45.65746	3217.20012117552	4545.66116733724	5568.96867183947	-54.7109778231748
38.96512	3520.27463966397	5067.5353938916	6170.27134792348	-55.2133758658353
33.18414	3868.2958660775	5651.31991280448	6848.43994383923	-55.6085849641826
28.30617	4252.81544801722	6308.167202215	7607.85204154201	-56.013093167545
24.17237	4698.47653356399	6996.00057362756	8427.31901393609	-56.1149020381618
20.61345	5193.93975304212	7773.89433028389	9349.35522999587	-56.2520910526279
17.55618	5758.19974459611	8645.34583814501	10387.4380363879	-56.3345511385031
14.98558	6385.66344120905	9575.048397435	11509.0507600591	-56.3004143130693
12.76553	7104.41169952079	10626.0590100334	12782.2453301835	-56.2339512088341
10.8809	7897.84303019917	11757.6920090075	14164.012352026	-56.1100662743709
9.278505	8791.49043693206	12996.7360471294	15690.935344377	-55.9240727149155
7.923394	9744.86275350144	14324.9876074261	17325.3461736697	-55.7737114007393
6.75822	10857.4568489913	15812.1125640722	19180.9090756043	-55.5243888161882
5.761429	12080.9684010734	17446.139693229	21220.6877292748	-55.2984715575681
4.919708	13424.129950051	19142.4712319216	23380.3650480655	-54.9589940639531
4.191257	14851.1495990668	21052.3714931663	25763.5205261265	-54.7993909405414
3.564097	16498.5173056985	23206.5919238757	28473.6190535683	-54.5894190973598
3.051758	18167.4031001352	25390.4401845884	31220.6500279857	-54.4154691107581
2.604164	20075.670235032	27943.8834277623	34407.748493764	-54.3054726732489
2.214424	22106.5655087645	30751.7371384578	37873.0719063836	-54.2886964690075
1.892567	24347.5230429733	33780.7654218293	41640.6290876203	-54.2177814827041
1.607507	26784.8556755359	37334.3327841141	45948.6767817558	-54.3431217299669
1.376413	29292.2082262279	41023.2154326602	50407.7143620215	-54.4716533521486
1.17375	32139.4437557109	45284.525747983	55530.4611645378	-54.6358229491875
1.001604	35093.6468741061	50098.6610779051	61167.3106546565	-54.9891144552431
