EC-Lab ASCII FILE
freq/Hz	Re(Z)/Ohm	-Im(Z)/Ohm	|Z|/Ohm	Phase(Z)/deg
6999984	2.14542546775744	2.44278139451278	3.25115846723595	-48.7080818148553
5969734	5.96881252875227	5.50181202853705	8.1176756895521	-42.6686196400506
5091109	12.5875767201583	-6.6582939571648	14.2400830793183	27.8769406657249
4341796	4.89565356813695	-7.5486748865338	8.9972171476406	57.0347857782443
3702781	3.70216583906603	-8.44900092554191	9.22451345815895	66.3380275484984
3157797	2.9455767073689	-8.61487498950185	9.10453146645882	71.1235429407696
2693047	3.24242544345702	-15.692496052921	16.023974386129	78.3256797213436
2296687	3.36713505074396	-13.0146668049	13.4431823052622	75.4945806640431
1958656	4.17667698067573	-12.8180590784843	13.4813674803568	71.9521545040878
1670375	-5.93699636889496	-13.1824829028028	14.4577239345258	114.245377926347
1424531	-7.86414283198097	-23.4375507740548	24.7217218002346	108.548458569361
1214875	10.2318932809235	-2.72334807396025	10.5881190418388	14.9044542571412
1036062	15.1949907846671	-16.1848033713917	22.199901015922	46.806681264668
883578.1	-0.532515972995677	-11.9186102456303	11.9305005531511	92.5582378312908
753531.2	45.3475423247232	-13.7069116045637	47.3738221028015	16.81815621119
642624.9	12.5521017341337	-0.162341365914992	12.5531515032333	0.74098798179325
548046.8	10.2970201105953	-4.16804742200061	11.1086111854745	22.0372115783028
467390.6	12.9765944603182	4.70940901370767	13.8047287929155	-19.9466260937413
398593.7	12.0295400001312	-0.632258386799491	12.0461439175545	3.00863003012171
339937.5	4.16633402236259	-6.78374583048126	7.96100161276632	58.4432420893908
289906.2	3.37953988250084	6.16723497176462	7.03250147631484	-61.2780080765801
247234.4	5.65173129878855	-2.04487404099435	6.01028922076457	19.8908200044955
210843.7	6.60201303677227	-0.0528269366470039	6.60222438447426	0.458450460900543
179812.5	3.80061309719022	-1.70083922789455	4.16383404972854	24.1093306331273
153343.8	1.77552895555115	-2.42600440585364	3.00632673693693	53.8005822641796
130781.2	5.65282095595118	4.66897269554976	7.33169085490039	-39.5551555221538
111531.3	3.10176520033623	1.17108700801061	3.31547766367805	-20.6842806070824
95109.37	2.90987177606669	1.06612219718961	3.09902731393092	-20.1218824241159
81109.37	3.99682001056738	3.0524150618506	5.02909613217765	-37.3693673703533
69171.88	3.63887044655661	2.91899681439981	4.66496736637024	-38.7355795032648
59000	3.26491687636439	-1.58307310355551	3.62847111891081	25.8675375711555
50312.5	2.99541515910049	0.219211033575364	3.00342561962339	-4.18556899315851
42906.25	1.76736148714262	-1.78232434139583	2.51002921978352	45.2415152669753
36593.75	1.14220069161994	0.910024890725614	1.46039984993057	-38.5453632448593
31203.13	3.48704486249625	-1.63399190743971	3.85089748326802	25.1072856023743
26609.38	2.8984738443186	0.700841002076807	2.98200079416338	-13.5930226190222
22703.13	5.47775929572744	-3.32090715739113	6.40579981344562	31.2264576656377
19359.37	4.04723600301097	-4.49574409764293	6.04911846929447	48.0052803241919
16500	1.11370234427972	-9.77736743646349	9.84059179619147	83.5016658509964
14112.02	13.4325713623997	2.9576513241206	13.7543329449681	-12.4175309473759
12011.13	11.8133702609704	-4.21793208418543	12.5437900169598	19.6489687895928
10236.38	16.2993328739972	-4.75063477818595	16.9775375992243	16.2493924671195
8750.684	21.0888802035954	9.28688955665893	23.0431591991893	-23.7672060744988
7449.463	13.3937850540636	-0.871930856347922	13.4221362492231	3.72468002388189
6363.206	16.9468770985965	5.05420277252543	17.6845019455098	-16.606580086182
5414.761	6.43278823104433	13.3498857957387	14.8189141027516	-64.2724001054928
4620.567	14.5041102844181	-12.8841963303339	19.4003023229318	41.6151164125656
3941.215	22.4756502088444	2.23073567347236	22.5860805354809	-5.66811275791998
3361.769	5.93603132620834	-1.28116523582814	6.07271374817069	12.1792492595369
2867.244	6.67610679475332	-4.02844616143076	7.79735727092825	31.1073053625623
2442.658	8.80344177021742	4.24366691545448	9.77288575042867	-25.7362213740894
2083.003	2.73247444829673	-0.71541570101717	2.82457717824392	14.6718333923181
1777.843	5.81107384156115	0.708421613925318	5.8540960339879	-6.95056820146587
1513.548	4.90803994040845	0.0227716331118325	4.90809276643374	-0.265830988319164
1292.065	1.27950256385845	-1.18541259418497	1.74422757384829	42.8139847622532
1101.762	5.16933646054303	-2.32020714740028	5.66616277997261	24.1724705821507
939.101	6.77557969038483	1.73704660411592	6.99469878162212	-14.3791608209873
801.2801	4.80566266166651	6.54823321706553	8.12242278404763	-53.7255419817513
684.3433	5.43798140087138	-1.2792635260642	5.58642612815576	13.2379091071781
582.9476	3.9282001769782	-0.0607320631907581	3.92866962391991	0.885752644226594
497.0677	6.67307827294689	6.83476319374748	9.5521705152013	-45.6857810117418
423.5089	24.2692603782803	11.7073256680844	26.9454722283235	-25.7523444064444
361.5036	10.7870383044558	-9.76732397414692	14.5520037451116	42.1598503067082
308.1262	9.46301177411021	10.7899633573451	14.3517211891047	-48.748595660549
262.7298	19.1996396335089	-2.60488399017387	19.3755408352611	7.72634732649505
224.2111	32.617495604912	-14.1108178735628	35.5389392159827	23.3940329329521
191.2854	288.05311357329	-107.003781815208	307.285544017325	20.3786420008478
163.1722	52.0705638868412	-1.31575941876844	52.087185049124	1.4474861961508
139.1537	85.2515998160183	-13.8944965182403	86.3764568889343	9.25680354095875
118.6706	18430.2917912789	17201.8483660324	25210.6969899615	-43.0254692140139
101.1982	-34880.8153605504	47186.7101302484	58679.2714093562	-126.4721253871
86.24196	1155.57070689924	51509.5885236804	51522.5489813685	-88.7148369415532
73.61024	-18933.8828498324	72575.3432002988	75004.4822688107	-104.621749616211
62.69291	-57409.6730539531	65071.4678367437	86776.5318884672	-131.420532680527
53.57697	-37544.18649055	76640.9561257058	85342.850286943	-116.098896393595
45.65746	-35517.4365823651	90056.4144571731	96807.2625698324	-111.523828399475
38.96512	-32921.1297863635	95713.7059484424	101217.164022687	-108.980869817346
33.18414	-30762.2783118876	84740.3864195773	90151.266532852	-109.951804096975
28.30617	-50581.5835182303	97707.4123954102	110023.793009596	-117.369888670534
24.17237	-64343.3298868256	82980.0085477717	105003.551937604	-127.790272090578
20.61345	111713.78971075	110178.10389697	156905.020282556	-44.6034694663176
17.55618	109180.851872283	107132.72005809	152963.649677309	-44.4575199271639
14.98558	151338.970216341	117020.024857543	191303.8685542	-37.7123169882068
12.76553	35686.8283051393	-147891.748112105	152136.513941048	76.4336584902626
10.8809	-60268.9805387037	126684.462388615	140290.067452643	-115.442344056154
9.278505	138254.042936484	-104193.139282363	173119.584859128	37.002972319523
7.923394	138920.224657151	237711.336200754	275328.001077154	-59.6976758860503
6.75822	229829.152490414	-45504.2028771515	234290.571329592	11.1992335988554
5.761429	103968.127690873	176346.396479987	204713.026275864	-59.477774684279
4.919708	-154219.604345628	229621.978702857	276604.30124627	-123.886252266115
4.191257	351278.367149395	175558.788145845	392705.206640277	-26.5545598041409
3.564097	492302.310101117	122909.221084762	507413.284373359	-14.0180197931384
3.051758	357024.445075161	351622.633173049	501103.712359802	-44.5632592882553
2.604164	-1054863.13655375	2398419.42530943	2620143.50304742	-113.740659404616
2.214424	-717854.949379084	1598898.78855804	1752653.15005577	-114.178571047434
1.892567	854900.197913881	285342.126607607	901262.712870195	-18.4575889982876
1.607507	417041.852994046	-320918.918712505	526225.103483586	37.578731878272
1.376413	503091.08556416	335534.468503491	604718.132627132	-33.7011368673211
1.17375	1891762.69743139	-3341564.461464	3839898.32593417	60.4844615303239
1.001604	1512783.33160056	-462887.791089278	1582017.22983917	17.0132827178997
