EC-Lab ASCII FILE
freq/Hz	Re(Z)/Ohm	-Im(Z)/Ohm	|Z|/Ohm	Phase(Z)/deg
6999984	23.3254522497226	-176.057832164842	177.59627526848	82.4529811985685
5969734	219.008106502219	-609.461447646376	647.617021765876	70.2342551469471
5091109	134.875071203322	-176.542236962879	222.167608494034	52.6208277865375
4341796	372.627049573517	191.110167526749	418.776807149066	-27.1520401929034
3702781	834.064687961186	-514.076120978642	979.764339963564	31.6476217521045
3157797	537.463709380148	-404.867229046927	672.892793880872	36.9904302733876
2693047	742.821674263679	-678.504786753029	1006.05804276029	42.4090582997004
2296687	5.69453456296298	-1087.91116401023	1087.92606757168	89.7000951660602
1958656	154.504635999937	-408.122713093656	436.389540993365	69.2646386702472
1670375	2275.58797983701	-2455.70307794827	3347.95135284599	47.1801351555343
1424531	-180.981986258071	-1275.1190472521	1287.89870099127	98.0782278211402
1214875	-2842.44838759127	-4003.20434450157	4909.70038392939	125.376400899692
1036062	1079.60057755378	-543.716003657897	1208.7863747115	26.731059452931
883578.1	1520.64018185808	526.215212983113	1609.11435673672	-19.0881004039393
753531.2	1152.49475854419	-374.84968624818	1211.92262779115	18.0171506115925
642624.9	3220.75331573424	60.1970901991685	3221.31581973602	-1.07075498669639
548046.8	530.985595405371	-498.596352823166	728.384531395717	43.1981472343105
467390.6	976.585864877106	114.264039273089	983.247792852222	-6.67346862300675
398593.7	675.330130459624	284.080165670664	732.647477054337	-22.8142397513254
339937.5	448.404486294419	38.2948714912048	450.036754622875	-4.88135919928286
289906.2	669.78221620441	-2270.22251345419	2366.96397896925	73.5623950915235
247234.4	1960.85728157225	-1059.03170468527	2228.56667618976	28.3728642853004
210843.7	-143.941346052153	-1266.10047305388	1274.25645729993	96.4860354042511
179812.5	579.081734126904	-3.67232673632999	579.093378293242	0.363344222458526
153343.8	51.1401969931527	-262.262935915532	267.202483715127	78.9660173531818
130781.2	-725.753046109417	-2134.76974709643	2254.76370315278	108.776381180264
111531.3	52.5715505568176	-485.657573575984	488.494674177376	83.821891962695
95109.37	-302.372084983221	-404.500618962597	505.024384082813	126.778829694833
81109.37	-307.111228136764	-431.135818529198	529.334866097552	125.463433188772
69171.88	-179.729535996749	-1087.16451069287	1101.92076821325	99.387207199896
59000	-44.9871634529837	-908.720375787776	909.833262882503	92.8341743054258
50312.5	-467.795768468254	-543.788319996778	717.313472591811	130.703877070377
42906.25	-345.185738883651	-980.258725700628	1039.25952660578	109.399071712012
36593.75	-213.73644667631	-1099.12416771979	1119.71300104247	101.004437872432
31203.13	-109.98846406899	-1108.20005825139	1113.64484075339	95.6680235601428
26609.38	-322.968534001756	-1221.64016563548	1263.6112409476	104.808648448983
22703.13	-318.898042955611	-1433.31698866502	1468.36424357061	102.543402510154
19359.37	-99.0758710882752	-1648.02499592094	1651.00042865291	93.4403636526742
16500	-172.882014932981	-2076.32932545257	2083.51425692785	94.7596562717424
14112.02	-394.498948242176	-2151.85006824689	2187.71299223146	100.388680130005
12011.13	-484.897169219934	-2488.85936944181	2535.65498946047	101.0246632826
10236.38	-361.273685146342	-3386.40103951449	3405.61751757358	96.0894913142411
8750.684	-293.851427167933	-3839.91353113453	3851.14068658088	94.3760610279024
7449.463	-1498.60235139114	-4273.63470457812	4528.77053909442	109.323842353511
6363.206	-979.535867523025	-5285.12909057833	5375.1353489788	100.49994853382
5414.761	-1623.90395906216	-4962.3560632781	5221.30651915885	108.120401800619
4620.567	-2588.26053591467	-6264.41995021873	6778.05649979931	112.448868759714
3941.215	-2026.67996891637	-7987.49494483859	8240.6011425277	104.237294935678
3361.769	-1884.01724775951	-8927.58147353197	9124.21130599279	101.916472090722
2867.244	-2177.64836603209	-10676.7129712934	10896.5293684487	101.528064001402
2442.658	-2173.37918366484	-12289.7124433245	12480.4090083456	100.028805338884
2083.003	-1496.7528622864	-14300.7770282747	14378.890525461	95.9749570509944
1777.843	-2503.04295423556	-16404.6302011104	16594.4905334852	98.6753644352255
1513.548	-3355.17868139002	-19664.7466241441	19948.9218700119	99.6825096475065
1292.065	-3171.94264984401	-21506.3934584241	21739.0473517688	98.3899741574708
1101.762	-2777.34685379728	-25774.1985396796	25923.4057544359	96.1502821363045
939.101	-2818.28693870399	-30506.5024789894	30636.4070146852	95.2781830763358
801.2801	-27688.404612582	-53863.471034952	60563.3656753252	117.205335191772
684.3433	-28626.0291115098	-61132.7792161264	67503.0831694424	115.091808477093
582.9476	-29846.2462716835	-74510.5161258293	80265.9045289308	111.829272200059
497.0677	-52319.3502331536	-81560.3325272872	96898.9280166765	122.679373966452
423.5089	-7983.51951962609	-103491.014928389	103798.491100923	94.4111833407439
361.5036	-32626.9735311429	-113779.487574216	118365.075906929	106.000572550194
308.1262	-34761.3167484269	-124008.578197867	128788.495638162	105.658917816957
262.7298	-77655.964909918	-193814.798246116	208793.258763958	111.834543411775
224.2111	-66661.0181346272	-177663.814530847	189758.062628169	110.566530515371
191.2854	135805.775811189	-340422.402279543	366511.419627621	68.2513055137788
163.1722	-408743.143529277	-537101.322681539	674943.544460167	127.271745285984
139.1537	-462531.917274594	-792946.064160335	917986.511428724	120.255361422592
118.6706	-130971.537717507	-324594.585484313	350021.697352923	111.973714860212
101.1982	4212090.75278225	-1858632.12669014	4603935.47870064	23.810006021795
86.24196	672317.856524507	-6730134.01715478	6763631.80466424	84.2952696930321
73.61024	2293806.50602956	-9633639.04552106	9902956.60631165	76.6070355190692
62.69291	-5830257.66141646	-9316501.99277543	10990410.0824261	122.03829148948
53.57697	-2005170.70162631	-10918094.7396125	11100698.2791991	100.406728300552
45.65746	1413029.4542354	-16808869.4178063	16868157.6748441	85.194756135608
38.96512	-5866245.97533032	-11158000.0462374	12606101.969876	117.732857433749
33.18414	-9087346.24937201	-11401479.7597546	14579904.0658047	128.555972887991
28.30617	-5621479.02436541	-9184096.11453698	10767945.3872331	121.470318427167
24.17237	-7947325.69688068	-7127410.08754291	10675203.0560692	138.11325268545
20.61345	-7097303.83467462	-12953612.0270271	14770503.9273692	118.718402137153
17.55618	16587495.7455247	-16471014.8115733	23376042.0950782	44.7981204180574
14.98558	16887354.9074558	-3420655.45792436	17230311.6493056	11.4507448821839
12.76553	9449485.38413532	-3766967.89029502	10172650.6433427	21.7343346286407
10.8809	5333584.48579003	-8724684.80538911	10225812.8488863	58.5616724656444
9.278505	7575224.63143023	-17435270.1288501	19009804.6460925	66.5161601270046
7.923394	441630.557347476	-12233195.319284	12241164.3755378	87.9324630723021
6.75822	5285601.60133145	-11475546.1830121	12634308.2314166	65.2693466690204
5.761429	18098734.0739825	-5536519.32041545	18926627.3082678	17.0092089879764
4.919708	7984089.27566531	5860103.79158838	9903862.78226745	-36.277653587511
4.191257	14578322.5928595	-3617034.58150216	15020333.8440016	13.9343049296919
3.564097	15728055.012389	-3878851.83550672	16199296.4672713	13.8538272777878
3.051758	-2173043.00571247	12370102.3922211	12559520.2575062	-99.9634308544591
2.604164	32247298.5372861	-21878222.4272427	38968511.3845623	34.1549824664221
2.214424	17467439.4384783	-11442455.0831044	20881600.0073215	33.2277419482501
1.892567	11760827.2935438	-9711209.54487358	15252037.5508654	39.5473403778282
1.607507	13975816.0842798	1389618.1558775	14044731.1772336	-5.67826728892309
1.376413	715677.270001461	-10646584.1200401	10670611.3873521	86.1542885551136
1.17375	190329.563143055	-15705158.7564034	15706312.0084392	89.3056710198921
1.001604	23231390.2869181	-10109814.1818969	25335860.7009037	23.5176657659854
