EC-Lab ASCII FILE
freq/Hz	Re(Z)/Ohm	-Im(Z)/Ohm	|Z|/Ohm	Phase(Z)/deg
6999984	81.5918774276263	-7.58580003595534	81.9437540289087	5.31166196258202
5969734	12.9034816768419	112.220700352642	112.960105466585	-83.440760437374
5091109	69.4040706298142	25.1188738176136	73.8097747039877	-19.8963146697508
4341796	49.6346367131318	87.502932083767	100.600001416008	-60.4366195544305
3702781	20.0855412853255	-77.8256661906	80.3757630553839	75.5286716528534
3157797	29.3302268177223	-44.8044031482485	53.550879980163	56.7901098814117
2693047	149.706481919232	-24.3005665880077	151.665910029681	9.21991651810823
2296687	-42.0981503763662	-117.470143158838	124.785771620281	109.716318443176
1958656	0.741197369539423	-73.4974440458417	73.5011813157601	89.4222106354217
1670375	75.4223898585899	-26.736788115078	80.0212017573574	19.5191136349044
1424531	-12.6989885537905	-75.568413997188	76.62799426019	99.5392129029443
1214875	1279.96192004007	345.785919100782	1325.84705701715	-15.1177607146905
1036062	54.3123597825193	-3.34392065747325	54.4152022003897	3.52315758930509
883578.1	87.6949964469229	-17.1973291351554	89.365320629474	11.0951271674801
753531.2	98.4854179659576	-5.01140091593385	98.6128373543201	2.91296613185769
642624.9	229.850488554738	-111.880597272657	255.633556355456	25.9546787222169
548046.8	47.5446998913998	-33.8111016557899	58.3411439975377	35.4182856497502
467390.6	0.433907927413413	-53.087105912006	53.0888791575224	89.5317028700712
398593.7	0.346108612312038	-77.2847347629674	77.2855097579989	89.7434107753721
339937.5	-12.7593271134097	-73.6370556344312	74.734305314864	99.8302181670912
289906.2	-18.1861972395731	-91.5577918872714	93.3464890893575	101.234480427177
247234.4	-7.40388885951771	-101.310216823175	101.580399698971	94.17982298307
210843.7	-16.1610879962901	-117.096517284801	118.206493584124	97.8580401404714
179812.5	-11.3189274879401	-139.632046101709	140.09006537948	94.6344076977268
153343.8	-17.3287520231725	-167.817762561848	168.71006809893	95.8954305090303
130781.2	-16.611820872757	-200.029619511404	200.718213609492	94.7473376791471
111531.3	-27.6152829137429	-220.81877825043	222.538843077829	97.1283210925928
95109.37	-23.1572884268094	-257.249900024195	258.290090924412	95.1438244733777
81109.37	-29.9832249380238	-306.831247084363	308.292730963657	95.581163158401
69171.88	-33.4380870601041	-360.878430526018	362.424264205862	95.2937675283634
59000	-41.1033488144255	-412.784359608732	414.825762002978	95.6865300969256
50312.5	-44.8607205938046	-479.262674128659	481.357658155709	95.3475109695467
42906.25	-166.395396584242	-577.970239845578	601.445779893402	106.060905006021
36593.75	-180.54780822005	-662.824213541339	686.974125502379	105.237220879741
31203.13	-189.407197516293	-756.635029901466	779.981829881292	104.053948441237
26609.38	-198.623407045159	-884.433909392017	906.462684233981	102.657306519826
22703.13	-219.193824822819	-1026.45944325437	1049.60226823617	102.054096553112
19359.37	-241.849978862798	-1191.64710150982	1215.94170370651	101.472601686834
16500	-252.719603226089	-1380.13642806675	1403.0836603466	100.376590720528
14112.02	-274.237389888023	-1582.34937359681	1605.93763457203	99.8322808151537
12011.13	-298.526212704616	-1871.02459249674	1894.69019245875	99.065262214812
10236.38	-352.224759310521	-2146.8689833847	2175.57089355658	99.3171917573311
8750.684	-382.758136896321	-2485.87111221799	2515.16579531454	98.7532866953633
7449.463	-423.507660002541	-2595.89029810196	2630.21010146732	99.2659120346669
6363.206	-503.553968584081	-3356.55224380831	3394.11395870725	98.5319530991043
5414.761	-1128.98934895055	-3990.39354414183	4147.0299718199	105.797630899158
4620.567	-1347.24982493423	-4643.96595838844	4835.44226658286	106.177845692007
3941.215	-1479.15915684792	-5197.79046006962	5404.15927578729	105.885006962916
3361.769	-1402.22719607163	-6192.77525449091	6349.54379952118	102.758318979107
2867.244	-1618.727522026	-6959.83326265211	7145.59709432901	103.093155514582
2442.658	-1676.82674776943	-7793.41007560891	7971.76194756451	102.14261853246
2083.003	-1864.2852958112	-9213.38392690158	9400.106544538	101.439083655819
1777.843	-2070.8925222758	-10718.3849874339	10916.6099397967	100.93533916234
1513.548	-2158.49770639843	-12954.5015369776	13133.096452097	99.4598009525391
1292.065	-2486.55319845535	-15281.1354389419	15482.1202395549	99.2421915819484
1101.762	-2589.48203293773	-17045.0937909808	17240.6681872322	98.6382940658805
939.101	-3407.18972555147	-19946.724152831	20235.6306117461	99.6933958456139
801.2801	-3714.09319612736	-22798.8176818984	23099.3631072799	99.2526194138198
684.3433	-4165.96407539538	-26623.0820506231	26947.054654483	98.8934894678318
582.9476	-19161.3113188602	-44015.2324697057	48005.1720215699	113.525112682088
497.0677	-19753.1211837908	-50638.4673412638	54354.7621756711	111.309828662994
423.5089	-19799.5190841455	-58008.2097620034	61294.1543359236	108.845938256593
361.5036	-22079.8947139899	-66723.0501724051	70281.4852922885	108.310337309704
308.1262	-218806.883283305	-89987.3438282287	236588.61811468	157.644409893208
262.7298	-209568.869290017	-100585.496695764	232457.637261136	154.360674177754
224.2111	-211783.714750027	-118753.977845897	242806.196559199	150.7192409108
191.2854	-195921.601479921	-142533.484786881	242283.033272966	143.964011210428
163.1722	-223993.524020256	-157473.506348731	273808.334432641	144.891744472304
139.1537	-208664.159676239	-194403.90963646	285190.483037796	137.026237156528
118.6706	-214240.6958304	-218499.206049536	306008.135176455	134.436181443639
101.1982	-196945.78718349	-268839.228735656	333259.919577057	126.225696239414
86.24196	-211183.541221445	-320386.996493307	383726.87631287	123.390930252225
73.61024	-1002640.59975289	-605016.456097508	1171039.31805112	148.892250389467
62.69291	-1222211.89697931	-1187705.52282042	1704243.62403264	135.820332885116
53.57697	-1103464.49202868	-1027150.51754644	1507538.41439084	137.051332707954
45.65746	-1124374.12551023	-1092304.28827474	1567592.3680282	135.828869956263
38.96512	496084.511982026	-1585930.27147663	1661708.35859196	72.6301354630661
33.18414	-866901.554398813	-1202853.48569564	1482691.74580195	125.780450736818
28.30617	-947102.609832672	-1788731.76696156	2023997.20545491	117.900447588825
24.17237	29409.1399999756	-1208356.5691177	1208714.39788125	88.6058030731398
20.61345	1167071.86292377	-1709768.32507106	2070112.18503845	55.6829205085229
17.55618	-1859088.88131793	-2010193.34742009	2738081.21914817	132.763603048093
14.98558	4816643.78262701	1093135.26275756	4939129.68359846	-12.7866590068889
12.76553	-202568.361614804	-1691863.17426164	1703946.8716923	96.8275755459286
10.8809	-485632.505078223	-2155998.42074513	2210015.41176618	102.693861227155
9.278505	-325193.7736986	-2508738.01229432	2529726.74508192	97.3857510299451
7.923394	-623065.92896422	-2843506.82233479	2910969.28882813	102.359253874799
6.75822	-294619.376448669	-3533961.79873562	3546221.44992408	94.7656150328118
5.761429	-1182406.65504741	-3480748.10530756	3676097.50557607	108.762572897401
4.919708	-866382.936039017	-4224259.64068356	4312190.73137629	101.590459105292
4.191257	-147494.968519247	-4213062.76980767	4215643.80232461	92.005047080092
3.564097	434200.249042779	-4748738.34562731	4768547.54946409	84.7756948042493
3.051758	3090886.46627492	-4905248.98627852	5797848.45997098	57.7842260334313
2.604164	621749.760165208	-8554276.90604577	8576842.43469433	85.84288599346
2.214424	1202404.26966464	-10520261.5130522	10588752.4444911	83.4797215674429
1.892567	1954719.59952824	-12174924.5793716	12330844.1408594	80.878836952226
1.607507	2688456.5086962	-12879307.6851943	13156913.1960751	78.209254697373
1.376413	-485541.846193978	-7483171.75816398	7498907.28350394	93.7124040138023
1.17375	4183374.89573241	-17556916.3790141	18048433.1247324	76.597753602788
1.001604	3874737.74066735	-22551033.7166464	22881492.8325989	80.2505887298651
