EC-Lab ASCII FILE
freq/Hz	Re(Z)/Ohm	-Im(Z)/Ohm	|Z|/Ohm	Phase(Z)/deg
6999984	2.38960778151478	2.35453152209081	3.35470476167356	-44.5763857513418
5969734	8.76660087401954	3.82377141071927	9.56423121248092	-23.5656223334379
5091109	21.2426327714751	-3.6865799739795	21.5601558196664	9.8454088134746
4341796	2.20491349173786	-7.6199277144057	7.93252430685312	73.8615936521408
3702781	2.90280628034282	-6.64660488213299	7.25283673884859	66.4074127374888
3157797	2.21316429858147	-9.61840519362227	9.86974238170457	77.041967781353
2693047	2.67487939842315	-10.074694044505	10.4237440436003	75.1307524641351
2296687	0.485000298467349	-11.0240674064842	11.0347309651038	87.4809150339595
1958656	-1.38238642882583	-12.282272877648	12.3598227851216	96.4216922438579
1670375	-3.61714993828042	-12.1048757198311	12.6337559683792	106.637071364804
1424531	6.1358984679456	-16.2567574693115	17.3761737279803	69.3216479708627
1214875	15.1685892591666	-0.299809187402531	15.1715518541168	1.13231128037406
1036062	25.2387075823983	-7.62307991258334	26.3648195097831	16.8063761989221
883578.1	21.4161419526193	13.3542810190082	25.2386203598648	-31.9460754675881
753531.2	21.3761704016311	4.24915941486035	21.794403336005	-11.2427153659278
642624.9	10.4658274854612	-5.12145829265519	11.6517329182762	26.0748394310118
548046.8	13.4888116701278	3.30864869361757	13.8886715149417	-13.7818866970312
467390.6	7.68302139064453	-1.45152040482329	7.81893401780062	10.6985487000023
398593.7	2.14088113590768	6.40741635559558	6.75561665520174	-71.5242123269046
339937.5	3.08697839644875	-12.362326197381	12.7419207590769	75.9794748460624
289906.2	5.45139803578323	-1.0716938849305	5.55574192413027	11.1219816993379
247234.4	5.15736695502617	-3.08295997861957	6.00858353845279	30.8700492691765
210843.7	1.92334695486009	-6.55233010811641	6.8287841783511	73.6411194925744
179812.5	12.2162836770765	-9.28675500807279	15.3454033983721	37.2419071792485
153343.8	7.519163903835	8.34089786884032	11.2297997787654	-47.9659295828223
130781.2	22.4633953697978	-8.46581794620646	24.0057119252516	20.6500062717777
111531.3	11.6917092106022	-18.8457435231045	22.1778744068027	58.1849527153459
95109.37	32.1068868510248	-32.6281600312396	45.7760746491952	45.461359172967
81109.37	2.6134327325024	-118.057533014186	118.086456175308	88.7318537880686
69171.88	78.1719559654404	-110.087601309679	135.019015925838	54.621871426876
59000	208.287990708152	-168.913079808777	268.17068371417	39.0406451517042
50312.5	-46.6357296632497	-333.062066823304	336.311212477126	97.9707982345531
42906.25	-90.7344079230522	-273.153359017783	287.828925446774	108.375138836334
36593.75	-99.9947926698925	-401.175851832184	413.450145306992	103.996022408149
31203.13	-80.7316799354795	-700.806549732395	705.441297552836	96.5714061157256
26609.38	-185.478153678972	-782.642324086337	804.32030494289	103.332537281387
22703.13	-199.248777305711	-905.92506202116	927.577648100612	102.404116470157
19359.37	-215.301235037923	-1049.24680720323	1071.10853055842	101.595902204346
16500	-235.129274999776	-1216.69178502846	1239.2032422963	100.937745585079
14112.02	-259.323725575666	-1407.75450131034	1431.44036921067	100.43749613415
12011.13	-289.527046727044	-1633.84104081528	1659.29577153648	100.048858861713
10236.38	-319.396939826596	-1892.70350243586	1919.46371502656	99.5785178076902
8750.684	9.92735019027118	7.84932299848821	12.6555977075314	-38.3325953676375
7449.463	730.774913955178	-2191.64697308478	2310.27020703161	71.5597357102027
6363.206	-615.150331129432	-2212.64638227408	2296.56568442516	105.536763215035
5414.761	-175.047280311075	-3128.86514852569	3133.75791470927	93.2021278014588
4620.567	-507.486339460414	-3690.03014259322	3724.7637291492	97.8307100536436
3941.215	5.93639585372353	0.29008167077492	5.94347904074923	-2.7975300330415
3361.769	2.45140278500884	1.03501537455179	2.66094577921229	-22.8901280112904
2867.244	3.61176672130312	-1.27450475239713	3.83004193358187	19.4366993856528
2442.658	2.3009708445763	0.80964966703503	2.43926206278048	-19.3855972799051
2083.003	2.66013124307437	-1.63145644754615	3.12056859732651	31.5207574371066
1777.843	7.57281754512023	0.423717089165723	7.58466226956296	-3.20249545672438
1513.548	-0.268081832996344	-4.23610681665884	4.24458111376449	93.621131837038
1292.065	6.57485959456427	-1.1058772039949	6.66721404175308	9.54765983607896
1101.762	8.02577213440989	-3.40246027370551	8.71721023422141	22.9741178944787
939.101	3.09598501409516	0.387911299163385	3.12019204273077	-7.14165535571995
801.2801	5.89584137935044	2.99445098246009	6.61269099964735	-26.9256531088913
684.3433	3.81156832812529	-3.36088259401942	5.08169114869751	41.4045085862314
582.9476	9.01821792429181	-0.49176597839495	9.03161604074956	3.12126379236191
497.0677	0.421961295669512	-7.17389222876138	7.18629118843135	86.6337969338586
423.5089	13.8887413268123	3.7745621297937	14.3925138497337	-15.2041283727285
361.5036	15.2608774995491	17.0119901076539	22.853931597849	-48.1058000397697
308.1262	22.5975839132739	1.42995180728752	22.6427816508622	-3.62079017055318
262.7298	16.0878980987869	8.8450017778091	18.3590446833815	-28.8016544400204
224.2111	21.9074296253279	22.9610055835568	31.7355203233982	-46.3451408423783
191.2854	2386.1478168675	589.172314204988	2457.80906902208	-13.869686749557
163.1722	10268.090508806	-16352.3281757612	19308.8663433363	57.8741231114874
139.1537	19089.215578465	-13814.1772445061	23563.311404464	35.8919040223612
118.6706	426.883456811676	-17.4513505042328	427.240020754034	2.34099554300788
101.1982	103584.178486749	-121563.143518861	159709.986835394	49.5656220172497
86.24196	-45093.9599141494	-153961.239058469	160429.200437944	106.324866662238
73.61024	-86654.3147060999	-171914.262976107	192518.788879948	116.750635885556
62.69291	314584.001142729	-234168.427640314	392170.81262953	36.6630708371396
53.57697	340970.556816653	101832.712726515	355852.247424544	-16.6285415584694
45.65746	-22668.8312245456	-533783.95253009	534265.087655681	92.4317860459054
38.96512	169698.734112436	-467771.838295205	497602.404597725	70.0601905687863
33.18414	34219.3340719553	-424116.928078683	425495.160380499	85.3871553632129
28.30617	311225.153277333	-518793.456208233	604985.740523678	59.0403787034762
24.17237	-280219.078264451	-875788.0181422	919525.630172874	107.742708022068
20.61345	-297135.785947564	-1013633.69135466	1056287.33569042	106.337930099967
17.55618	239841.821940287	-1171247.61582805	1195552.20594273	78.4272651384203
14.98558	-59454.7537601185	-1648851.23285027	1649922.80298702	92.0650930570217
12.76553	1049272.83376788	1189574.63923188	1586209.72824747	-48.5858641875759
10.8809	546886.172102847	-1830776.80367391	1910714.05241804	73.3681623989741
9.278505	-19271.3222706865	-3131129.5165949	3131188.82112751	90.3526367989347
7.923394	-232098.377248477	-2508948.83888284	2519661.47187533	95.2852877529954
6.75822	-944400.716341562	-2677354.03165045	2839034.57601724	109.429610362493
5.761429	-481621.32332986	-2911809.57558188	2951371.56311033	99.3918481580366
4.919708	-2149120.83649644	-3109372.16408025	3779803.6489506	124.651265514174
4.191257	419121.89955227	-2509351.44278446	2544112.38550674	80.5177589497346
3.564097	-1890075.11678954	-3593978.50864712	4060673.03137354	117.739904814629
3.051758	344946.318914005	-5810903.60206286	5821132.93400859	86.602799917142
2.604164	1976479.64266057	-4500952.81353717	4915795.76544224	66.292534699565
2.214424	-823722.479194593	-13567681.5894891	13592663.5519493	93.4742827541459
1.892567	5208807.69320541	-8219051.28371597	9730595.13026562	57.6356007813744
1.607507	8335525.8372108	-7218555.71398568	11026719.2572734	40.8925249596584
1.376413	3218729.54344817	-11551695.5489705	11991742.5727028	74.4301969680286
1.17375	8986844.6452536	-14580996.0673936	17128012.8151304	58.3528293493192
1.001604	1155077.04064392	-20639776.1105391	20672072.0021725	86.7968607223528
