EC-Lab ASCII FILE
freq/Hz	Re(Z)/Ohm	-Im(Z)/Ohm	|Z|/Ohm	Phase(Z)/deg
6999984	1.78280394875666	1.7164990487173	2.47482502491585	-43.9144877176728
5969734	4.91909369477945	1.85804966681279	5.25831069283302	-20.6926515204693
5091109	6.98091621862971	-3.57774398358547	7.84432554548888	27.1352983661296
4341796	2.92701932810652	-4.77045631812768	5.59684693646999	58.4678792745814
3702781	0.861816148830295	-5.879338203858	5.94216667468431	81.6607524552411
3157797	0.507789606541196	-7.43970242075159	7.45701162623798	86.0953884937741
2693047	1.27208604154331	-5.70162159473616	5.84180551770178	77.4227555319969
2296687	-0.338904754434708	-6.71131341777947	6.71986489627918	92.8908398313642
1958656	-1.51310404523899	-9.78754224134528	9.90381073010974	98.7880652335277
1670375	-4.63672268293904	-10.1622111790236	11.1700373000968	114.525840767063
1424531	8.07741252889883	-15.357239920192	17.3519281674502	62.2570783568996
1214875	12.898342349497	1.25733750230902	12.9594804278389	-5.56763314938789
1036062	5.85560534904538	-6.19490027029736	8.5243711417734	46.6127980763737
883578.1	9.11682413065497	-5.6449400881403	10.7229581192871	31.7648947536119
753531.2	12.5485884144957	-18.1667756619586	22.0793751983236	55.3654617829748
642624.9	9.19248694104377	1.22560568113152	9.27383013899231	-7.5942805547174
548046.8	0.308615378421489	9.45863508903124	9.46366848527839	-88.131222131433
467390.6	16.8226588495768	3.63529872966839	17.2109630068504	-12.1938539537348
398593.7	13.0655516328126	-4.87179440456839	13.9442827061873	20.4491387279607
339937.5	11.798144785966	-9.8836452551202	15.3909929478146	39.9538768517853
289906.2	2.10486600502583	-34.6486322797912	34.7125075406445	86.5236171498549
247234.4	38.5211152601478	-55.4595546749783	67.5250955247935	55.2169167450092
210843.7	61.7237857532056	-79.1299203693974	100.356215678825	52.0446671573319
179812.5	15.9816868897499	-93.9683086357867	95.317665433604	80.3477623719193
153343.8	-21.7898567140326	-137.239045527972	138.95809970292	99.0217174223821
130781.2	-14.6073784195322	-150.494132362293	151.201386831506	95.5439209017175
111531.3	5.28893369260147	-173.865386155654	173.945811454773	88.2576166210388
95109.37	-6.6726522058016	-180.207616867135	180.331110639267	92.1205553715904
81109.37	-10.398424502326	-215.658942405086	215.909487219554	92.760491932972
69171.88	-18.960952575959	-269.229355193458	269.896208607074	94.028504829376
59000	-23.4027525806492	-295.851468731774	296.775639800673	94.5228528150149
50312.5	-31.2723827181025	-342.080969332892	343.507425684801	95.2233510153418
42906.25	-43.3224892458356	-397.537809950028	399.891420781091	96.2193808463972
36593.75	-42.0168982729901	-479.387316086009	481.225122541031	95.0090075041834
31203.13	-34.3068768992353	-565.093443957334	566.133873042533	93.4741681625869
26609.38	-55.5408134643424	-636.335281056777	638.754547442042	94.9882664319996
22703.13	-62.6331190277154	-769.850903854272	772.394537632406	94.6511953611242
19359.37	-58.8797217395643	-859.854196817706	861.867774903524	93.9172937213411
16500	-97.2260512599953	-1071.0690109482	1075.47279428964	95.1867963080125
14112.02	27.72547353828	6.16942311765394	28.4035854167481	-12.5449682201689
12011.13	14.1039100817717	9.87050619684943	17.2147370638283	-34.9859374271224
10236.38	52.3845896054016	-14.0563259158649	54.2376762627177	15.0203235120505
8750.684	24.0613741481917	12.2186859912492	26.9860336702528	-26.9220663930938
7449.463	14.4521479512796	-11.0186674845495	18.1734865543391	37.3227744424532
6363.206	21.6170410995217	-3.5984284326264	21.9144964140896	9.45094456026088
5414.761	11.7908189171878	49.4279480585629	50.8148153594786	-76.5830858832327
4620.567	3.26066866329586	-20.8780547636244	21.1311412575066	81.1234326349674
3941.215	6.60454417105236	-15.2333426502483	16.6034554237139	66.5604497645682
3361.769	0.762092081701783	-4.79237510753472	4.85259142235475	80.9643795510391
2867.244	37.1443058953972	-37.7857480470256	52.9854906169995	45.4904711585376
2442.658	92.8248547403658	-40.0062900889983	101.078963707861	23.3154059347263
2083.003	73.6742230918805	5.28679758548103	73.8636675023792	-4.1044593688064
1777.843	5.14821068288476	-2.68086608199749	5.80440489498909	27.507680825919
1513.548	-520.429649294227	-9480.15924043877	9494.43343459425	93.1421964160881
1292.065	73.4869718059022	178.772806122967	193.287483387522	-67.654226195473
1101.762	103.643128976125	105.693571454508	148.030501015064	-45.5611913391906
939.101	4.83662139935637	63.9680812402666	64.1506689296539	-85.6760979792974
801.2801	-3213.61642711237	-16913.795877237	17216.382358598	100.757951428967
684.3433	-3391.26450485752	-19663.6427635962	19953.9349922824	99.7851836843939
582.9476	-3830.07430221061	-22839.0187153741	23157.9412954101	99.5198469294688
497.0677	-4335.12593409369	-26359.6290818518	26713.7298443564	99.3393079282231
423.5089	-4846.50593439244	-30513.3186670307	30895.8125940695	99.0250405775938
361.5036	-20148.7887499917	-51533.8734181146	55332.7551958697	111.354576666794
308.1262	-6235.04761765705	-40772.9342936355	41246.9149113915	98.6943866340239
262.7298	-7167.01441373925	-47397.573991172	47936.3757062982	98.598588090678
224.2111	-23772.4736863043	-77993.1075146307	81535.6077119363	106.951338715434
191.2854	-23022.0365711739	-84220.1387330319	87310.0563285559	105.288615193964
163.1722	69873.7213644569	-77524.5894679241	104366.656119126	47.9713325748304
139.1537	-29667.7185903657	-118504.149769974	122161.397499626	104.055208948386
118.6706	-32336.8080535163	-136242.320877506	140027.280032069	103.351960550642
101.1982	-33265.4978348331	-150714.486780039	154341.98998189	102.446687234336
86.24196	-39027.5306359149	-180589.471644078	184758.505666788	102.194757691817
73.61024	-40990.8825266433	-200370.958173707	204520.838375366	101.561753919756
62.69291	618733.886226026	549563.110922425	827557.390669127	-41.6116729362168
53.57697	-214473.113440529	-347856.271751358	408659.641004135	121.656185935907
45.65746	-222774.148038526	-402742.783267821	460250.008700274	118.948845762355
38.96512	-151908.868602809	-420838.26296813	447416.079212871	109.847926848718
33.18414	-246784.502403296	-544771.270242559	598062.143516987	114.370798387701
28.30617	-262233.501696876	-626460.082814772	679130.800930496	112.713976331521
24.17237	-277434.215890574	-721764.419670384	773248.745003148	111.025928075506
20.61345	-297975.397538509	-832121.737231332	883864.199473608	109.701994498298
17.55618	-330932.716574555	-982769.806408663	1036992.26385154	108.610166123896
14.98558	-348746.602954982	-1108726.48614672	1162281.64149482	107.460812786864
12.76553	-385673.404072091	-1280770.05751949	1337578.37708564	106.758423825813
10.8809	-422208.697433688	-1474241.577412	1533508.53038347	105.981206576718
9.278505	-471183.695012769	-1689029.39440686	1753520.56435512	105.587355388345
7.923394	-508388.019624306	-1877487.42468251	1945100.87356375	105.151277210471
6.75822	-591372.282771654	-2247744.75851054	2324237.00948121	104.740237288244
5.761429	-665894.482390483	-2557576.24746614	2642841.60011172	104.59361738847
4.919708	-758410.923529543	-2967891.31676219	3063260.68055616	104.334525873512
4.191257	-838649.327547297	-3379506.01884661	3482009.9979776	103.936835867912
3.564097	-963971.237523529	-3875197.96010635	3993294.35138271	103.969036095998
3.051758	-1083990.11248164	-4420654.53889717	4551617.41760334	103.777668192425
2.604164	-1216772.72062652	-5043969.12099308	5188656.89241374	103.562522540353
2.214424	-1360452.11386188	-5787761.97713819	5945504.07098657	103.227628709099
1.892567	-1509511.26485326	-6654964.46437561	6824014.67472199	102.779862192204
1.607507	-1642089.1841604	-7583672.33843543	7759416.41011019	102.217618707842
1.376413	-1777505.42289388	-8663268.4495982	8843740.4845586	101.594870880315
1.17375	-1891035.3185986	-9909917.72258156	10088730.536818	100.8034442779
1.001604	-2012394.61565317	-11517167.4384903	11691658.4749697	99.9112343993227
