EC-Lab ASCII FILE
freq/Hz	Re(Z)/Ohm	-Im(Z)/Ohm	|Z|/Ohm	Phase(Z)/deg
6999984	121.139837798902	122.16907387096	172.046920671172	-45.24236897409
5969734	212.782280106439	221.884327772808	307.423085727936	-46.199615291993
5091109	549.812505161424	67.635822770241	553.957033851623	-7.01307216733669
4341796	282.572868153462	-346.570972171648	447.167602324313	50.808292990375
3702781	-11.0092369947574	-926.139575854828	926.205008226455	90.6810562071037
3157797	532.64855722526	253.114721178635	589.730063326849	-25.4170781526236
2693047	654.51947558419	-755.171706942219	999.339807515455	49.0839994242406
2296687	-832.896830760692	-2471.1303161813	2607.71972616719	108.626438125278
1958656	1048.58244125352	-1083.76691750209	1508.00393486794	45.9453137042022
1670375	626.672112607411	-2183.88567604445	2272.01993449705	73.9890194657779
1424531	1072.4350276248	-1590.20557086577	1918.03822852651	56.004263887922
1214875	44.1561377604406	-5048.98365632565	5049.1767374836	89.4989296841898
1036062	479.350118196487	-926.076377230486	1042.78185268029	62.6332824451825
883578.1	1254.40661086867	-711.85989059331	1442.31773518408	29.5743625112677
753531.2	828.768525001326	1895.11303881666	2068.40776877427	-66.3793378055274
642624.9	4925.43284541811	591.624901726451	4960.83750379574	-6.84934374780011
548046.8	575.620381106444	365.806613875454	682.021481993165	-32.435948652847
467390.6	-38.1657286013739	-486.547298406995	488.041900277854	94.4852094878748
398593.7	372.35584566621	-13.9409205252452	372.616726767451	2.14413984967242
339937.5	184.841678411393	-194.81744240801	268.552195940267	46.5051335770906
289906.2	349.833156732322	-28.2240972698394	350.969852289336	4.6125606333596
247234.4	976.734474512236	-182.638340777018	993.663422504057	10.5913540261113
210843.7	59.803022571506	-189.022391492246	198.257070477034	72.443637700751
179812.5	258.227085901264	-225.870975491038	343.072769922552	41.176156256982
153343.8	-383.481902473032	-337.002190189159	510.518212913727	138.691137917619
130781.2	893.52198220805	-1102.95254237074	1419.46674614486	50.9884366507421
111531.3	58.9998545084963	-511.032630243736	514.427188245193	83.4142324914594
95109.37	-223.34997956954	-863.377647499584	891.799403215561	104.504064085091
81109.37	-248.306011662302	-358.908818540909	436.430309962622	124.676876727616
69171.88	478.563680160771	-432.911112784595	645.317927491107	42.1326520001734
59000	599.869166015141	-1144.61982196987	1292.28385162937	62.341990702138
50312.5	-55.9094272725316	-634.674594442185	637.132407658169	95.0342749429486
42906.25	-187.032109613484	-713.979010115084	738.069804904242	104.679217283063
36593.75	-132.774899627947	-967.258969729876	976.329395488076	97.8160996298678
31203.13	-298.791236974578	-1197.76071221056	1234.4662518708	104.007023197815
26609.38	-319.055192238116	-1334.8559706851	1372.45643944271	103.442545178052
22703.13	-434.991474505384	-1629.97218300667	1687.0171606323	104.942319502587
19359.37	-358.008623745036	-1685.38241155441	1722.9869552184	101.992503590135
16500	-445.536315275451	-2055.34783450575	2103.08281554405	102.230739441351
14112.02	-482.427258877913	-2842.75342457809	2883.39783815188	99.6315736995193
12011.13	-455.829559090637	-2812.51651976311	2849.21563958946	99.2059806492962
10236.38	-626.915659454416	-3167.22266031564	3228.67195981352	101.196321438022
8750.684	-586.912288090016	-3843.73983386813	3888.2903626627	98.6816096751924
7449.463	-1405.5403684	-4776.43339155698	4978.94162158812	106.397345823322
6363.206	-646.034597594248	-5424.02377866754	5462.36163695152	96.7922813457485
5414.761	-2007.74075178509	-6768.49003862823	7059.99152473912	106.521964143763
4620.567	-1868.74518337721	-6908.51591733877	7156.80101305874	105.136208420459
3941.215	-1891.72209247447	-7660.19147338917	7890.31975804151	103.871919749724
3361.769	-1828.57877350815	-9308.46259348679	9486.36791323568	101.113815515523
2867.244	-2465.32537548236	-10535.9304904683	10820.520343633	103.16981726757
2442.658	-1732.97155596164	-11686.0851875601	11813.8807097703	98.4351232317271
2083.003	-3170.61143361313	-15240.1310657899	15566.4501979549	101.752376978196
1777.843	-2514.56746814065	-16250.2440037696	16443.6455731045	98.7962012342186
1513.548	-3941.21664619385	-20079.0763317398	20462.2211645771	101.105106557037
1292.065	-2287.00495923961	-22772.5196486786	22887.0715215608	95.7348877348346
1101.762	-4452.32976183679	-27227.5019450487	27589.1301507635	99.2869968815277
939.101	-2022.14434298935	-31509.5713904327	31574.3908405635	93.6719531934661
801.2801	-26878.3430922931	-55119.5321688885	61323.7976148261	115.995592103133
684.3433	-31763.6743668657	-61627.3387258422	69331.5216024715	117.267271929426
582.9476	15395.8939301193	-78927.6521393171	80415.221333604	78.9622931275134
497.0677	1783.26324609959	-96856.4364215746	96872.8512230925	88.9452232709753
423.5089	152936.504906573	-51380.9926381992	161336.855484185	18.5704387656165
361.5036	-39505.956730363	-131078.174678667	136902.185863749	106.772403996014
308.1262	-31282.2222216403	-128506.00820272	132258.729660169	103.681411282843
262.7298	-22691.2525036579	-145671.972873397	147428.683169228	98.8537834926292
224.2111	-62714.7278657012	-155512.560519713	167682.120605229	111.963115141002
191.2854	1294272.33066643	1154394.73050685	1734291.80351828	-41.7305903265962
163.1722	6206084.27136651	6549382.77050014	9022743.30000731	-46.5416768252641
139.1537	3751442.02564638	-2345393.60962623	4424272.64709821	32.0135355183868
118.6706	31243684.6601449	-24227657.7469032	39536656.8015513	37.7914940259159
101.1982	3355893.86011399	8951047.0956404	9559459.59292277	-69.4481570520276
86.24196	3759492.00855686	10892916.8852065	11523429.1090118	-70.9588175746695
73.61024	1110102.9253628	9900789.77574517	9962829.25119161	-83.6025637187189
62.69291	1720777.481261	9523307.50426643	9677523.49316871	-79.757673138714
53.57697	1666554.07379434	9400455.0434437	9547039.20096103	-79.9468065068867
45.65746	1079883.60535019	10478419.0036984	10533917.2874184	-84.1159911989357
38.96512	1185928.9833915	9065346.73158881	9142589.28955993	-82.5468889811904
33.18414	1160339.65778918	9788263.20467387	9856798.90661317	-83.2394803639445
28.30617	-2188980.29963242	11319669.1134772	11529377.4155757	-100.9446783744
24.17237	8517966.79447434	8834845.9170798	12272337.2138444	-46.0461600057232
20.61345	183273.937342197	10549916.8875894	10551508.6917063	-89.0047535858894
17.55618	2000296.02966605	11405967.6768457	11580038.1196068	-80.053032882104
14.98558	2786682.45281929	-4313476.43427598	5135336.21507932	57.1358841811952
12.76553	-7203691.13387009	9744265.03107709	12117915.1238186	-126.474589105619
10.8809	24008374.4140518	3599958.83952802	24276773.7900157	-8.52773766496659
9.278505	-706289.569662199	28176159.1554394	28185010.0178955	-91.4359281021885
7.923394	6440247.60049955	5602968.85851154	8536395.56166362	-41.0230332862333
6.75822	5515137.15858225	4311152.74016342	7000198.27054872	-38.0145464955603
5.761429	7911397.85222885	-6464849.8299427	10216873.2643584	39.2541979811054
4.919708	9175985.06947214	-2603701.82049852	9538237.00508867	15.8413834916289
4.191257	10922738.7035798	-4767685.85808965	11917929.7375051	23.5808744699443
3.564097	7077120.39365863	-1223065.28616195	7182027.69143599	9.80498664102812
3.051758	9643064.17438661	-3539228.95060587	10272041.0939669	20.1543118353203
2.604164	4540304.66073364	-3208570.88159832	5559612.71263748	35.2483234494026
2.214424	6541433.73558146	-3796598.703237	7563366.7787847	30.130555561313
1.892567	5248778.567795	-3212201.71038294	6153691.27288095	31.466229043744
1.607507	7467046.87399933	-2194388.95350262	7782810.02580414	16.3768182807566
1.376413	4341795.80260227	-657589.233229966	4391311.23824703	8.61231196510585
1.17375	14845214.1036583	-9045665.54432541	17384028.5009906	31.3552929554508
1.001604	22935894.4159576	-3032791.96833424	23135537.1621916	7.53246986777869
