EC-Lab ASCII FILE
freq/Hz	Re(Z)/Ohm	-Im(Z)/Ohm	|Z|/Ohm	Phase(Z)/deg
6999984	2.09639520177585	1.87737538017115	2.81414483637597	-41.8452563701358
5969734	5.86478972070725	1.97015273429015	6.18686190766728	-18.5686912443414
5091109	7.88331719424694	-3.13134161209323	8.48245190241219	21.6635285043185
4341796	2.98515200430446	-5.10176737864858	5.91093587130209	59.6671945313493
3702781	2.702432245282	-6.3352850067032	6.88759581831703	66.8984375679159
3157797	3.23790901000901	-7.26279880906175	7.95187407458181	65.9716783342918
2693047	2.20830642552186	-7.42261569963437	7.74414882950087	73.4317034184541
2296687	-0.0810797270413314	-8.43528784901481	8.43567750793462	90.5507083087114
1958656	3.77565796835746	-11.3057613554468	11.9195567417726	71.5328066938316
1670375	-5.24475263622612	-8.42413877551977	9.92338371345261	121.905823647246
1424531	-5.04385258461161	-8.10044138869255	9.54241057526538	121.909032210898
1214875	-4.86169315763896	-12.2386844739495	13.1689581217318	111.664947904416
1036062	11.5603578431105	-1.50865652647869	11.658384020766	7.43522747078908
883578.1	6.86620748396186	8.6477257934173	11.0420997374117	-51.5507775379292
753531.2	7.03038095240069	-2.48134875962615	7.4554240659252	19.4403090197621
642624.9	6.89043476813925	-0.317543297234413	6.89774782371759	2.63858924884103
548046.8	6.0450563944953	-3.78462859531955	7.1320488232442	32.0494485129856
467390.6	-0.210750506717534	3.89208374933156	3.89778548510465	-93.0994537645714
398593.7	4.73067313509291	-1.61872422942366	4.99995364398641	18.8897309561091
339937.5	1.78313595368943	3.98220080794114	4.36319803631545	-65.8782862136855
289906.2	4.40313229974728	-2.10179314957388	4.87904790842163	25.5170306399842
247234.4	6.07265484217683	-7.40375605679879	9.57563264650427	50.6409606663071
210843.7	1.4796427038004	-9.93754282065629	10.0470940994542	81.531206697762
179812.5	0.686960843918246	-7.63527986977203	7.66612117637224	84.8588309803228
153343.8	23.1913943792687	-12.5652434240998	26.3766206243646	28.4491135086764
130781.2	19.0694479143004	-1.97327569679365	19.1712717557228	5.90784803968524
111531.3	8.3742940939172	-58.6006900843125	59.1960275688247	81.8672464446062
95109.37	0.587859674158673	-158.823314505173	158.824402436797	89.7879295960537
81109.37	109.009919789737	-44.2051414246509	117.631871280441	22.0732850010842
69171.88	46.9550810402248	-198.481002319277	203.959525193502	76.6901143993631
59000	-88.833477329576	-317.582896812984	329.773078104612	105.627233250886
50312.5	51.2215240894131	-351.95092900583	355.658686043388	81.7195379250215
42906.25	-91.2218063548992	-398.642996270104	408.947009317658	102.889125243736
36593.75	71.456659149216	-773.729358631921	777.021991030969	84.7234983491129
31203.13	-79.7697503070686	-529.812805971467	535.784305887557	98.5622625664667
26609.38	-185.863871821204	-763.23507768224	785.540045225565	103.686338719881
22703.13	-200.003731049806	-883.080290527039	905.445907799666	102.761298359642
19359.37	-216.876464342433	-1020.39297078172	1043.18608867566	101.999207196338
16500	-236.135997097903	-1182.47465327979	1205.82192498502	101.293208601178
14112.02	-258.698830471825	-1367.64468993846	1391.89693684711	100.711312664443
12011.13	-284.149627391977	-1584.65482919158	1609.92917186663	100.165856843479
10236.38	-315.866805097445	-1835.23375421084	1862.2177024068	99.7656458235799
8750.684	-360.591312530509	-2123.16185142712	2153.56503083327	99.6389648550765
7449.463	-89.8806319090581	-264.533446849205	279.385884565224	108.76623982729
6363.206	-456.80422672496	-2849.79425515083	2886.17348720489	99.1066870634
5414.761	16.1739710772034	4.69665371061122	16.8420870584263	-16.1924232735497
4620.567	1.28639881973829	-0.350916965077204	1.33340340475156	15.2584734195967
3941.215	14.3348117546825	-5.47746214046064	15.3456645194127	20.9123120799666
3361.769	1.76609360336841	0.674300111141281	1.89044102149312	-20.8970141068366
2867.244	3.46271164130409	2.40279068163863	4.21470935778404	-34.7569491147204
2442.658	3.00001688331745	0.197148042433903	3.00648775996598	-3.75982296320403
2083.003	3.10138338792654	-0.704359548421462	3.18036181783758	12.795476827356
1777.843	22.2831325409269	-40.9020558931124	46.5780653539819	61.4187838068437
1513.548	10.8640219659763	10.8697213491146	15.3680778070848	-45.0150250505601
1292.065	1.8905843078088	0.73456067074805	2.02827227066355	-21.2329564508556
1101.762	2.567600918639	-7.47465412514405	7.90335553849938	71.0420110465225
939.101	6.56795612294225	3.55939856191821	7.47043276895523	-28.4547686021144
801.2801	6.8830298171339	16.743064155331	18.102659936404	-67.6525646178671
684.3433	13.9416579330938	8.50616724935304	16.3317086429241	-31.388450023055
582.9476	9.09790011291058	4.53432538327145	10.1652296159938	-26.4913224522924
497.0677	14.6843993780835	6.77308759571823	16.1711564420833	-24.7612190941153
423.5089	3.94381053592792	-6.64098045626212	7.72374669210167	59.295631401207
361.5036	14.8947060324182	1.64044788337576	14.9847701700836	-6.28501469706396
308.1262	66.9433875322288	-95.1818653732529	116.36582243177	54.8804816572863
262.7298	1925.50849101387	1851.46072766815	2671.23375522697	-43.8768558496886
224.2111	17695.2949589577	-53703.5234890747	56543.7167050957	71.7629638401356
191.2854	-9853.72536448953	-60944.7782572658	61736.2284269624	99.1842655488607
163.1722	-184.82089572575	-11773.5595304575	11775.0100968417	90.8993531270485
139.1537	-12349.4162382347	-104421.145394682	105148.864411189	96.7447831445322
118.6706	214.468797365365	79.6061791579411	228.766275494165	-20.3638367714217
101.1982	2862.79304326819	-500.112048602031	2906.14797794979	9.90921912311832
86.24196	9187.22051012672	24380.6307043593	26054.1776735333	-69.3523585086817
73.61024	-87537.3567510128	-180999.928204301	201056.615998868	115.809896481731
62.69291	-61794.0474563814	-166127.402246156	177247.90006682	110.403581318435
53.57697	-19283.3723796924	-142008.60349541	143311.869421379	97.7329061580148
45.65746	-146412.034950812	-135889.592594846	199756.014562844	137.134640771366
38.96512	190601.504666416	-264482.404635508	326005.944643472	54.2212707956765
33.18414	-286276.64058375	-501837.042515423	577749.714136271	119.702915516527
28.30617	105699.863491111	389913.340924545	403986.230672507	-74.83247063599
24.17237	292329.734426876	-138639.730607588	323539.25346553	25.373023427756
20.61345	131467.121409042	87179.310743411	157746.113211312	-33.5494061840145
17.55618	277631.788705492	-998829.606368854	1036696.67340972	74.4663506049014
14.98558	538576.425946873	-37196.5803858599	539859.381856155	3.95083792477593
12.76553	-366101.319275366	-1588637.12719621	1630275.46687098	102.977246152627
10.8809	472664.82969561	-264954.990795202	541860.857027397	29.2730611955423
9.278505	969286.018833287	-1003935.07292566	1395493.10888873	46.0059899347065
7.923394	1039592.43207804	-265259.629584389	1072900.3196575	14.314015519681
6.75822	342775.832206002	419842.145000915	541998.798765723	-50.7704319392728
5.761429	833357.67987666	892474.373065839	1221063.27812635	-46.9618439651674
4.919708	2043125.31149116	627344.826378379	2137269.88694446	-17.0691862099706
4.191257	1893905.22515175	-275715.048618839	1913869.32414207	8.28294144699694
3.564097	1902510.16915911	-272746.343358255	1921961.37098776	8.15840907022526
3.051758	2142236.81207396	-2074435.46717214	2982022.98221635	44.0788005541604
2.604164	925763.633822345	-4131732.36629832	4234176.50227586	77.3707882599786
2.214424	3812850.17955615	311680.606869048	3825568.10061455	-4.67324030161072
1.892567	3570616.39477304	-2480460.34028984	4347641.30746464	34.7872012863034
1.607507	214134.96309696	-4391167.56814138	4396385.60568988	87.2081871234772
1.376413	-167477.673033315	-4958406.81983063	4961234.41916501	91.9345159755114
1.17375	9235515.47196472	-3255370.18184888	9792455.3128299	19.4167318064925
1.001604	-993307.064584047	-8876959.51413617	8932360.78201979	96.3846791702925
