EC-Lab ASCII FILE
freq/Hz	Re(Z)/Ohm	-Im(Z)/Ohm	|Z|/Ohm	Phase(Z)/deg
6999984	2.39595872630728	2.58470631749583	3.52439001330314	-47.1702459039903
5969734	4.99336309288329	4.72452720815869	6.87421503286017	-43.4153727231784
5091109	15.9140925921283	-11.6079188142975	19.6977694734748	36.1074335561556
4341796	3.19365203564705	-7.58166128969371	8.22684637248276	67.157529082874
3702781	3.38764672530804	-7.57679756366909	8.29963924856449	65.9101999628742
3157797	1.21950487439786	-10.1813541707279	10.2541291628533	83.1697514002771
2693047	1.41062106883717	-10.4434839003864	10.5383209183189	82.3075072143847
2296687	0.205606218824541	-10.8324372103092	10.834388299877	88.9126219724324
1958656	-1.73852197194877	-12.8228140941292	12.9401321453665	97.7211032274351
1670375	13.6885447001677	-12.8413931173698	18.7690605306531	43.1710577897567
1424531	6.82987862469169	-14.7969599975645	16.2971551872572	65.2232235665124
1214875	5.74531314920669	-12.9591355975372	14.175606463845	66.0903378936634
1036062	20.4989858087164	-7.57920395793811	21.8552682852895	20.2911456159534
883578.1	1.35462283076147	23.237285054088	23.276735589394	-86.6637053307644
753531.2	13.0120413235266	9.53977599718951	16.1344521283407	-36.2470003454715
642624.9	5.61498271723295	7.40766972533019	9.29524618686338	-52.8380246275157
548046.8	-1.19347257417694	-8.15888883748654	8.2457166970358	98.3221359545274
467390.6	1.36367432025575	9.21739253253186	9.31772143554952	-81.5843771811501
398593.7	5.86257284957369	2.26549797867468	6.28508086725522	-21.1282312250616
339937.5	5.54299964623226	7.69492187673883	9.48349449133835	-54.23309091499
289906.2	4.5541062576968	-11.6524644846095	12.5107878397597	68.6530635197245
247234.4	-1.57903444985311	-6.95450682203812	7.13151561251868	102.792238080579
210843.7	2.48499434998021	-5.78207937180732	6.2934600007717	66.7431660054354
179812.5	8.50374942358919	-5.58026859671879	10.1711922541421	33.2733952253662
153343.8	14.4174098255538	0.567056805249421	14.4285570830335	-2.25236183689012
130781.2	18.4070223479019	0.659788844901312	18.418843422865	-2.05285449487879
111531.3	9.73592351348637	-23.3085389222113	25.2601700973824	67.3298174918699
95109.37	-27.688975774155	-31.001982454819	41.566841298692	131.769177498864
81109.37	18.3950295281979	-69.8470139628373	72.2286817744036	75.2455159104998
69171.88	95.4101672266198	-94.4453013920845	134.24982296172	44.7088192161083
59000	155.69819297407	-163.437746735654	225.729538061412	46.3892414038695
50312.5	23.5310519137561	-254.163067563081	255.250025107233	84.7104922071634
42906.25	-140.154788032399	-457.61422188809	478.59600989002	107.028401538879
36593.75	234.303537662404	-533.750679564049	582.913317480568	66.2996966720042
31203.13	-173.435470802393	-680.657344015075	702.40606666949	104.295106377207
26609.38	-185.188865516056	-786.89030149204	808.388064294221	103.243155865347
22703.13	-198.953475403514	-912.000269646886	933.448968723588	102.306312574529
19359.37	-215.580620998103	-1057.51863225924	1079.26857719725	101.522162536113
16500	-235.521131918333	-1226.7578827594	1249.16176153948	100.867787438294
14112.02	-258.88645702589	-1419.87229488576	1443.28082209097	100.333275111216
12011.13	-286.625662904768	-1648.26493208422	1673.00076418817	99.8648248179171
10236.38	-319.074335700972	-1910.27568575151	1936.7399482833	99.4826046727853
8750.684	-356.864302667837	-2206.79496694229	2235.46329798555	99.1858698306871
7449.463	16.2328364457621	-12.6427334543804	20.575317452554	37.9127777319892
6363.206	-5.13361951622749	12.341867607069	13.3669647028714	-112.584946236057
5414.761	9.9525769130319	14.8261915412666	17.856924226421	-56.1271919828674
4620.567	3.61645978521525	0.603255956126118	3.66642866106525	-9.47022459006703
3941.215	2.50600229447803	-1.01622873510825	2.70421307259411	22.073433970111
3361.769	3.4630130444514	1.21170426162951	3.66888083258255	-19.284882758677
2867.244	2.66097935282253	-0.251148182818388	2.67280499211611	5.39171046909754
2442.658	4.55346174708379	-2.73988514593712	5.31422473133027	31.0359434691787
2083.003	3.7638295516248	6.53054753504176	7.53753699832539	-60.0433413238527
1777.843	2.6317382986491	0.376833935502396	2.65858050235886	-8.14869170601984
1513.548	4.58699004376891	2.59943005694349	5.27233480372561	-29.5400652576512
1292.065	6.97568292575084	-2.92106186506415	7.56258915320301	22.7214606955598
1101.762	1.30635840429392	-6.7497764884181	6.87503126713408	79.0463460360591
939.101	6.36171420451539	-13.030721010874	14.5007274880665	63.9779570945751
801.2801	11.0745838896059	2.70496805681323	11.4001430042039	-13.7257597514201
684.3433	3.42546872213479	3.68754261077238	5.03307127632679	-47.1100681467677
582.9476	9.10658967425614	-14.0137870553526	16.7127557012013	56.9829502865189
497.0677	12.0087160564755	-8.7015146508129	14.8298893638275	35.9270836309823
423.5089	21.7070840387023	13.3055099545799	25.4604417207304	-31.5065079767417
361.5036	92.431501582521	0.287778368481715	92.4319495693396	-0.178385424781164
308.1262	85.6982034301057	85.1075780163671	120.778648390184	-44.8018790211935
262.7298	27.4800410395261	14.9581493232008	31.2873598552069	-28.5606798505443
224.2111	619.41489391115	-23.9005091535373	619.875830418286	2.20969710763349
191.2854	604.968785955409	-270.899140309114	662.852605185027	24.1223711525445
163.1722	35289.4391856585	-30893.6215260954	46901.6030540099	41.2000485970389
139.1537	-52280.289910914	-156082.917069925	164605.910325924	108.518378285116
118.6706	109341.627989565	-2852.20195857376	109378.821841437	1.49423496857112
101.1982	-27499.8587304786	-72992.8479460455	78001.269742683	110.643765226154
86.24196	14948.0835989904	-102560.161669698	103643.774366804	81.7075631071033
73.61024	177616.099896479	-8158.44617881136	177803.372258482	2.6299203974007
62.69291	242855.198965605	-34219.3052609002	245254.171253339	8.020412185268
53.57697	592707.082205745	-77253.8998091728	597720.545349224	7.42611171226855
45.65746	156520.510606535	-275381.722827355	316755.052852978	60.3871160009312
38.96512	343857.747715066	-109297.404141205	360810.300872472	17.6331944043415
33.18414	-251272.167934896	-657216.265327918	703612.764089936	110.923254038619
28.30617	-263119.726837412	-760002.265039158	804260.799439861	109.096320813065
24.17237	-281878.241683945	-875991.050237379	920225.8762015	107.837246058265
20.61345	-300096.576749369	-1020493.35834711	1063703.2715035	106.387032583009
17.55618	1227757.14870752	-559422.024740046	1349199.99183467	24.4961688180878
14.98558	793800.077293952	176386.484410977	813160.964750982	-12.5278768891401
12.76553	-37610.0789840015	-1834768.35031091	1835153.78574762	91.1743155729318
10.8809	82925.2993490977	-2807799.62081096	2809023.90803252	88.3083233859079
9.278505	813801.343031005	-1553923.05621308	1754123.56763988	62.3586064781968
7.923394	1977991.99662558	-1863213.50421334	2717354.7617118	43.2884625715569
6.75822	-880662.745421306	-2306318.69630192	2468739.11138557	110.899247107003
5.761429	-1440793.09984865	-2748368.79477503	3103129.99867306	117.665133822364
4.919708	1321994.13480069	-4237592.32002455	4439015.33711909	72.6737375512756
4.191257	-742783.907657743	-4383229.8225411	4445720.59521165	99.6179945997747
3.564097	2647678.99968338	-4254524.85213775	5011106.2454135	58.1051396944841
3.051758	4013110.1811429	-3902938.87025039	5598034.04338561	44.202639652
2.604164	2300607.95222131	-5436048.28114974	5902831.34307723	67.0612721732921
2.214424	2851065.78257521	-7564631.0902748	8084071.97076593	69.3488634661314
1.892567	-1388478.1476562	-9127210.33156358	9232217.50193959	98.6498105175627
1.607507	-6484609.04692385	-11034952.7005929	12799231.8361599	120.44031219886
1.376413	1156143.97258179	-14901171.6457302	14945955.4830346	85.5634544767747
1.17375	655187.557266903	-16839429.6556172	16852170.8352864	87.7718630023269
1.001604	1228833.26190737	-18225941.419864	18267319.7767456	86.142829399211
