EC-Lab ASCII FILE
freq/Hz	Re(Z)/Ohm	-Im(Z)/Ohm	|Z|/Ohm	Phase(Z)/deg
6999984	18.9939783593594	95.5027605642078	97.3732431898015	-78.7515592504643
5969734	18.6886882855072	93.7897778120535	95.6336211374808	-78.7307608825011
5091109	15.8754073630872	98.5716124325513	99.8418315962657	-80.8508193160441
4341796	14.7978318003432	107.685098740589	108.697085134615	-82.1755550341661
3702781	17.1859875660978	119.0135055407	120.247963266362	-81.7830789445015
3157797	16.977757016782	132.286206883196	133.371229149561	-82.6865760916433
2693047	17.422945405877	150.668424864255	151.672453918607	-83.4037473638085
2296687	18.5675381746712	173.223998928817	174.216265827157	-83.8819379396247
1958656	20.8282412604631	198.766743075231	199.855031927492	-84.0179581201888
1670375	23.388843694586	229.712267485769	230.899900049401	-84.1862931203982
1424531	27.2737220140042	266.0115462422	267.406055740447	-84.1460141874005
1214875	31.5123171300991	307.476512495685	309.087094307441	-84.1483633143606
1036062	37.1922111241967	356.519387749542	358.45408968181	-84.0444287703238
883578.1	43.9771935406525	414.177127795055	416.50532618476	-83.9390618317993
753531.2	53.1790445204189	481.096124047689	484.026333322696	-83.6922889094364
642624.9	117.921044477567	636.480325819961	647.311808857651	-79.5037955396916
548046.8	145.720571148854	727.725768625948	742.172001073993	-78.6767882581998
467390.6	177.104044463684	830.391952986004	849.068099830222	-77.9604764227272
398593.7	213.244644816721	947.26350127065	970.969319485709	-77.3132632973474
339937.5	255.038952774017	1080.83833714796	1110.52076904524	-76.7231167683627
289906.2	303.097995685531	1234.77812068429	1271.4343877327	-76.2084287809966
247234.4	360.992310609467	1411.37961537999	1456.8142870762	-75.6528889028378
210843.7	429.395757909699	1615.69763138043	1671.78334510163	-75.1168295897134
179812.5	516.143993277918	1847.62874353015	1918.36821171423	-74.3920379788729
153343.8	623.018438166069	2115.59050694984	2205.4194991863	-73.5908710939415
130781.2	756.707490261806	2420.575805889	2536.09807733721	-72.6399903371424
111531.3	930.60744771043	2758.49820345979	2911.24416018736	-71.3576534958601
95109.37	1140.26917798524	3137.53448417434	3338.31341213587	-70.0274173829048
81109.37	1417.01187455923	3542.4480182607	3815.34541224265	-68.1981350303907
69171.88	1760.02852956277	3996.16757708556	4366.58398854583	-66.2299104125572
59000	2181.05586183586	4445.96104014015	4952.12825388162	-63.8688086346026
50312.5	3350.55562096071	5095.24436711038	6098.17498352756	-56.6716852347361
42906.25	4212.16521826736	5450.2992079774	6888.25792798589	-52.302005421437
36593.75	4831.93183783289	5720.58183547846	7488.16545102132	-49.8136439876059
31203.13	5579.21030151177	6007.77088912497	8198.83520048504	-47.1181984178806
26609.38	6410.90581783663	6190.68740609774	8912.03253838252	-43.998832834694
22703.13	7269.43118773687	6304.01778034109	9622.12398424059	-40.9316808953776
19359.37	8169.9891218725	6291.35990580094	10311.6405928366	-37.5983327644435
16500	9037.93638865171	6202.94666292566	10961.7900667918	-34.4627180981869
14112.02	9851.06885273242	6010.1291117695	11539.7231111242	-31.3873327553545
12011.13	10638.2149674708	5717.69697786807	12077.403546493	-28.2565939599345
10236.38	11319.1763519593	5402.26268065231	12542.2563902004	-25.5135757044796
8750.684	11906.2864531172	5032.42641348653	12926.1352581055	-22.91230720754
7449.463	12405.3161016376	4639.85024999837	13244.6244916177	-20.5068584962422
6363.206	12835.8161393145	4311.993838018	13540.7336145938	-18.5689777232389
5414.761	13197.5676361248	3963.11588246496	13779.7706442427	-16.7145597122524
4620.567	13540.056968842	3661.55952049225	14026.4094066014	-15.1322278990175
3941.215	13731.8691142892	3409.99595914703	14148.9328860296	-13.9459989982905
3361.769	13924.1683598005	3163.33610859669	14278.9761484506	-12.7993843995188
2867.244	14133.8531960957	3026.39550450532	14454.2338405906	-12.0858915163983
2442.658	14317.7045271508	2891.19734490559	14606.700004244	-11.4163101186966
2083.003	14473.1012119393	2807.92387184777	14742.9676510916	-10.9795443914684
1777.843	14623.5739835199	2775.48150102644	14884.6301134432	-10.7466313181697
1513.548	14802.9832178633	2770.31219159288	15059.9781469705	-10.6000343367076
1292.065	14912.3715475201	2808.99910810835	15174.6268870322	-10.667637626955
1101.762	15079.5025138531	2893.10916910573	15354.5262619745	-10.860627001089
939.101	15234.9753382744	3017.36509981611	15530.9035700894	-11.2027458301395
801.2801	15401.8726911768	3188.48191081875	15728.4487248691	-11.6961025987928
684.3433	15530.1255820313	3373.29606821798	15892.2599701086	-12.2548453110264
582.9476	15791.3287139973	3675.2045635066	16213.3645841058	-13.101539422359
497.0677	16010.1124092406	3993.73701091618	16500.7161865442	-14.0066293921712
423.5089	16169.4474208888	4350.18396435708	16744.4059440948	-15.0581501856851
361.5036	16489.4169421144	4808.00502916522	17176.0817258002	-16.255695002866
308.1262	16742.530175059	5298.13523034271	17560.8243992632	-17.5598558065648
262.7298	17032.9447682304	5893.72101561945	18023.7941313016	-19.0865877953601
224.2111	17357.0361852815	6545.44948923068	18550.1917551609	-20.6617805544676
191.2854	17701.5365284811	7358.43596747405	19170.0541302461	-22.5723999955786
163.1722	18075.7178869136	8202.13928894872	19849.6011557563	-24.4069134527623
139.1537	18490.5558163195	9167.66209265251	20638.4757829032	-26.3723248478216
118.6706	18947.7153325707	10308.8164275666	21570.5264762221	-28.5491290213945
101.1982	19516.5844057067	11542.8568835104	22674.5366413137	-30.6016987562491
86.24196	20053.550640721	13053.5855864164	23927.8287765911	-33.0615669989283
73.61024	20652.1416635576	14731.5409949153	25367.8784169375	-35.5009405412758
62.69291	21323.4522392822	16682.1963042102	27073.7010571727	-38.0375049144112
53.57697	22045.1412438535	18861.7624409773	29013.0028580516	-40.5502055953795
45.65746	22873.805498174	21407.2795483773	31328.6226258141	-43.1031393727219
38.96512	23784.7512291428	24296.146273555	34000.251686983	-45.609382819339
33.18414	24806.5514936814	27617.0439094911	37122.3128496518	-48.0687583183145
28.30617	26011.3434746409	31355.8791902762	40740.4117449853	-50.3225164533513
24.17237	27292.0288371061	35683.2459647004	44923.811955607	-52.5897390965737
20.61345	28789.7840660435	40707.2242487663	49859.0991957211	-54.7305156839887
17.55618	30495.8944496266	46314.9848660423	55453.3804327968	-56.6372733895605
14.98558	32428.7551945896	52778.4766096451	61945.0704794617	-58.4321267081653
12.76553	34643.3371926325	60178.6494816	69437.9627096857	-60.0720465093887
10.8809	37265.331808301	68594.6951697898	78063.6737555898	-61.4861636435511
9.278505	40356.98061722	78190.900319065	87991.4926413038	-62.7002039156538
7.923394	43522.6232223094	89150.9302885084	99207.394399095	-63.9788165312678
6.75822	47986.7623443008	101137.216359149	111944.030181005	-64.6169769234845
5.761429	52788.0738329297	115226.589899868	126742.841055987	-65.3863446507861
4.919708	58081.2206306319	131187.900963682	143470.183484936	-66.119444149656
4.191257	64637.0686356937	149309.983054766	162700.40467568	-66.5919624433004
3.564097	71999.3559834167	169999.454617653	184617.772254803	-67.0460314959416
3.051758	80583.6312452848	192648.629692972	208823.409002095	-67.3007685316568
2.604164	90389.7543460367	218404.083288744	236369.734289171	-67.5170600993187
2.214424	101783.33620347	248872.161852622	268881.387369796	-67.7564991619038
1.892567	115656.570011183	280917.516163498	303794.491513952	-67.6225416294022
1.607507	132017.840670618	318575.761243543	344846.670140855	-67.4908759280812
1.376413	150004.501550624	359424.285353332	389470.367790933	-67.3469489299443
1.17375	170813.90893443	405905.597203899	440382.498888085	-67.1775826057036
1.001604	194954.247627246	457117.961705816	496954.715826287	-66.9024482724818
