EC-Lab ASCII FILE
freq/Hz	Re(Z)/Ohm	-Im(Z)/Ohm	|Z|/Ohm	Phase(Z)/deg
6999984	22.419148173687	86.5635644687833	89.4196225577749	-75.4799702402673
5969734	17.0909394739902	85.833675624655	87.5186841956738	-78.7387249958534
5091109	12.2281373416086	90.725503169827	91.545858826402	-82.323836511546
4341796	9.4475218422895	100.40132093917	100.844835838484	-84.6244339463348
3702781	10.7785134592652	111.899008192159	112.416922154898	-84.4980394567289
3157797	11.0033122151318	125.577710613684	126.058852456612	-84.9924447381473
2693047	11.1945638068049	142.257678768808	142.697461181038	-85.5005437108693
2296687	11.6223441436223	163.539256309624	163.951722277314	-85.9349603111375
1958656	13.1655249346415	188.535451006086	188.99456958567	-86.0054914157181
1670375	15.24990977933	218.334384660093	218.866313701262	-86.0045746832459
1424531	18.470729587323	253.426495221398	254.098713754496	-85.8314268375574
1214875	22.5420123929198	294.156145138952	295.018609660019	-85.6178281715326
1036062	27.7663073824828	341.221671621837	342.349524623679	-85.3479077542465
883578.1	34.2196663602919	396.832027902595	398.304712418891	-85.0714556180958
753531.2	42.6065532555416	461.472787914566	463.435488893502	-84.7249880393802
642624.9	106.437022020102	604.598060448952	613.89547510561	-80.0156187380819
548046.8	131.440473763784	691.138494897236	703.52613119348	-79.2320989532405
467390.6	159.601582434538	790.520538285657	806.470945891453	-78.5857452645535
398593.7	192.690601887705	903.273761016369	923.59794033795	-77.9578981126491
339937.5	229.390564348674	1033.2070514831	1058.36517433568	-77.4823431426905
289906.2	273.720097197961	1180.93160968245	1212.23849070933	-76.9502372383525
247234.4	325.669693964864	1352.41292311729	1391.07205571164	-76.4605875066337
210843.7	386.772775177851	1549.54291488173	1597.08372500597	-75.9850898324546
179812.5	465.314598053392	1775.88082542983	1835.82961662866	-75.3174794095682
153343.8	556.102611474141	2036.12872878996	2110.70374868009	-74.7240670211512
130781.2	673.535236709962	2331.43205965938	2426.77258182499	-73.8863454288904
111531.3	826.820477579755	2665.42244885498	2790.71835429613	-72.7659837562916
95109.37	1012.63847608762	3044.05534471646	3208.06945450841	-71.5997281643028
81109.37	1254.56917262359	3455.9789292168	3676.64713673857	-70.0483876382066
69171.88	1551.5825586772	3907.21077021717	4204.01051845643	-68.3416036622914
59000	1918.03969584554	4410.23706141248	4809.26888546434	-66.4954763506004
50312.5	2943.6627903429	5133.11191610301	5917.2619146433	-60.16721479916
42906.25	3701.63424322367	5479.08925537555	6612.30029104682	-55.957315726189
36593.75	4314.52868001976	5885.10181675985	7297.23105871967	-53.7538403672528
31203.13	5049.81828103995	6359.35307075621	8120.47019267122	-51.5477064841473
26609.38	5860.01583417609	6636.74432925733	8853.59592870172	-48.5566089625566
22703.13	6782.6682271549	6915.92324027693	9686.82520463021	-45.5573353332293
19359.37	7761.46012186605	7093.06453907481	10514.3629278619	-42.4236515347424
16500	8752.28536273118	7171.82335851545	11315.3678400848	-39.3319770017944
14112.02	9744.86625655273	7123.94274415291	12071.1630997211	-36.1685108571165
12011.13	10732.1902058261	6954.46900535765	12788.4536109926	-32.9432741325456
10236.38	11630.6369660831	6708.4572333432	13426.6568693928	-29.9760001960765
8750.684	12488.3784521242	6387.18281712966	14026.9633457465	-27.087479308548
7449.463	13256.5914879619	5971.30751749366	14539.3855216505	-24.2487369942606
6363.206	13905.668046313	5583.91031122902	14984.9143533789	-21.8782444380438
5414.761	14480.7018391483	5116.69888247734	15358.1031774193	-19.4606604806451
4620.567	14976.4896918869	4725.30274250652	15704.2583237647	-17.5112517968038
3941.215	15406.8628417476	4339.05871059809	16006.2129536765	-15.7288946877109
3361.769	15759.8911167955	3971.93457017439	16252.7053822739	-14.1455544687566
2867.244	16051.9223644381	3651.65363161093	16462.0407556052	-12.8161090375586
2442.658	16294.6449615192	3322.68292881096	16629.9632070361	-11.5253210687982
2083.003	16581.2339049522	3102.06729408553	16868.9104362959	-10.596573671625
1777.843	16779.9618999147	2894.26646751278	17027.7391261306	-9.78628529859505
1513.548	16920.0813747899	2701.68695204947	17134.4175890628	-9.07203038160701
1292.065	17135.2779720565	2562.88878324341	17325.8809327237	-8.5065554152806
1101.762	17356.9300520788	2487.76836108347	17534.3095744076	-8.1566500897942
939.101	17408.1193478111	2501.4391327846	17586.9217591556	-8.17707603519062
801.2801	17534.1741836717	2497.44199120963	17711.1400198518	-8.1062756404463
684.3433	17640.1491172161	2553.19076689605	17823.9626337631	-8.23565524016479
582.9476	17747.0124281118	2646.5560241824	17943.2636081815	-8.4818322864207
497.0677	17868.8244809911	2796.72046557369	18086.363197034	-8.89542187083589
423.5089	17994.7061884234	2965.32032083502	18237.394973319	-9.35758681712226
361.5036	17967.1832782558	3185.86796912877	18247.4499498192	-10.0549452087319
308.1262	18176.8476626264	3521.23080001855	18514.7740277144	-10.9635760577181
262.7298	18303.3702319188	3904.96992528714	18715.2919283694	-12.043326481798
224.2111	18450.0910706968	4303.71521950147	18945.3906058327	-13.1301758529596
191.2854	18599.0423396749	4796.77185340008	19207.6390055257	-14.46168393222
163.1722	18844.882881638	5309.21950390829	19578.4938788287	-15.7342633022512
139.1537	19030.4404710804	6038.07542779649	19965.370504829	-17.6034578947742
118.6706	19255.7778836616	6850.60738544844	20438.0968647884	-19.5839781868912
101.1982	19518.6561080372	7689.26174294974	20978.624416663	-21.501673656772
86.24196	19881.1344263472	8660.17543076246	21685.4362319523	-23.5378281507961
73.61024	20272.0052138174	9811.9189006841	22521.7216904624	-25.8275966832569
62.69291	20663.5032109761	11164.1035834627	23486.5402682537	-28.3815216775848
53.57697	21142.5727132411	12632.7980181814	24629.1690217688	-30.8585385470724
45.65746	21660.8957477994	14393.9180530883	26007.2928525069	-33.6045018055943
38.96512	22287.353767953	16365.279421332	27650.4703127481	-36.2892960899081
33.18414	22944.4096654223	18618.627106186	29548.2522361971	-39.0581833898132
28.30617	23716.9366560231	21236.3995724597	31835.1653230666	-41.8416066289808
24.17237	24516.3897584217	24142.2189272422	34407.8494172149	-44.5594204710279
20.61345	25474.0683471711	27527.2380691219	37505.6928194969	-47.2184201954049
17.55618	26525.6425579376	31467.7548469749	41156.1575978709	-49.8708939304953
14.98558	27785.6988420145	35886.2882042537	45385.7988936836	-52.2504334902973
12.76553	29161.1973480676	41082.3746876235	50379.9259700452	-54.6320070502719
10.8809	30710.9810321792	46951.6453900809	56103.6661974489	-56.8113780747669
9.278505	32423.5950637277	53722.9764138858	62749.0853449157	-58.8876281552943
7.923394	34547.2106022336	61404.2048484461	70455.5614090542	-60.6370401911672
6.75822	36983.0993462044	70215.3401695993	79359.5843763295	-62.2237895090025
5.761429	39849.9894668627	80389.8028188709	89724.8129436112	-63.6319478820956
4.919708	43077.0855414565	91800.1209722697	101404.622721399	-64.8617444935644
4.191257	46774.2273741775	105083.696551527	115023.52640823	-66.0054828442045
3.564097	51403.1077416296	120743.267349479	131229.63116509	-66.9394613460473
3.051758	56408.8343761118	137338.654901521	148471.757333948	-67.6706700841932
2.604164	62336.5995222469	156729.862205712	168671.578361675	-68.3106639413543
2.214424	69251.3474248138	179573.926530915	192464.397252797	-68.9112383022105
1.892567	77254.7795896045	204779.381796133	218867.302670465	-69.3305861124667
1.607507	86887.821476308	234333.263334529	249923.131834387	-69.6558542527625
1.376413	97506.9966021932	265435.702738441	282778.582418524	-69.8293458731281
1.17375	109950.13547115	301091.64344091	320538.936854904	-69.9392391782342
1.001604	124361.970773951	340471.968171456	362473.531289287	-69.9345982200936
