EC-Lab ASCII FILE
freq/Hz	Re(Z)/Ohm	-Im(Z)/Ohm	|Z|/Ohm	Phase(Z)/deg
6999984	0.887638419690153	2.61049720234994	2.75728083582121	-71.2206019912648
5969734	3.50032058242675	5.73729721022053	6.72077551017474	-58.612665709411
5091109	25.1733368248769	-0.491744624655127	25.1781393211369	1.11909314404039
4341796	4.20643993980251	-9.17889764179682	10.0968459870273	65.379297269906
3702781	3.85060168427188	-7.32961099363589	8.27951270600786	62.2848668099635
3157797	1.74878226264894	-7.78072566052807	7.97483110834051	77.3328011581614
2693047	3.96706738286474	-9.17489543438704	9.99581561715328	66.6171725862862
2296687	-2.6875146637754	-13.8829463872166	14.140683698405	100.956022938744
1958656	15.7529016203351	-18.3402822445312	24.1768455814447	49.3399396713256
1670375	-1.45882591749439	-14.7571070326385	14.8290384391673	95.6456782061327
1424531	0.168888480913587	-24.6933437513454	24.6939212953531	89.6081354399417
1214875	36.7442035169331	6.79620447550594	37.3674308371165	-10.4789970024862
1036062	18.6637054087152	-13.2367287410036	22.8811032807908	35.3451418576238
883578.1	10.3118774124349	-5.05068642782111	11.4823451072184	26.0952940242979
753531.2	5.76141136054789	20.0096603138084	20.8225926997444	-73.9372240810981
642624.9	6.58332498117627	-10.5394392191661	12.4265822679559	58.0095703342563
548046.8	7.80728935503643	-5.81860011224072	9.73703621947833	36.6963482258808
467390.6	6.43804858389149	-8.46056770102099	10.6315415341383	52.7307669282672
398593.7	-1.42508598917227	-6.72662180251732	6.87592255269331	101.961678460757
339937.5	4.9916390860903	-2.40970563369177	5.54284602048715	25.7688513205221
289906.2	6.91789342452376	5.26017345932082	8.69060839384748	-37.2483472248658
247234.4	5.20556220306792	13.3380098670314	14.3178345102545	-68.6802790149932
210843.7	5.45399399377179	-0.482870368136354	5.47532777799858	5.05950037215596
179812.5	2.0591583624364	1.19329059763081	2.37993185028182	-30.0924653270927
153343.8	2.7862105546862	-3.06533185111527	4.14236992704738	47.7309653206171
130781.2	4.8449439589523	-0.455515999990971	4.86631038792597	5.37109372875535
111531.3	2.01197174393077	2.93687966250971	3.55995680457488	-55.5860791819899
95109.37	2.53550464541575	-4.50783950807033	5.17198229283943	60.6437437973703
81109.37	8.04349587783272	-5.27750563475193	9.62028542516022	33.2697168363214
69171.88	2.8421044004856	-0.723043968727959	2.93263533429806	14.2735074035652
59000	8.36520742051994	-1.37631605612079	8.47767309316995	9.34309098490546
50312.5	1.15812437870589	-2.08993344244858	2.3893668346275	61.0072282226013
42906.25	4.62290767403355	-2.31609068839383	5.17064323266486	26.6110076061172
36593.75	1.27189743236221	0.890976938099131	1.55292079085641	-35.0116288546561
31203.13	-1.70328218895817	-4.05505122108558	4.39825085924505	112.784335548763
26609.38	18.8602381909972	-2.76927053242691	19.0624616433166	8.35311731774456
22703.13	4.58755119321864	-5.44937742554812	7.12329560501845	49.9076950096766
19359.37	4.10681874560605	-0.34509426713085	4.12129230490484	4.80325645743961
16500	1.69330660928346	-0.235367840310926	1.70958629302404	7.91334929166985
14112.02	2.06487784108912	-0.741645407796319	2.19402789625069	19.7568452832601
12011.13	-9.04937861542647	13.3154105826269	16.0994227321749	-124.200691504083
10236.38	2.40072048641008	0.180027388990625	2.40746105153455	-4.28852091457659
8750.684	1.48806031443839	-4.22994407701729	4.48405512835203	70.6185379401413
7449.463	5.02491945041287	3.09075440952897	5.89937100911278	-31.5950643335571
6363.206	2.9267947647836	-2.4928098101913	3.84450625502817	40.4217026210876
5414.761	-1283.56361237627	-3317.67583566716	3557.31759863892	111.150775579066
4620.567	4.26322406965008	-3.02476331897445	5.22726243877779	35.3557530359896
3941.215	3.84527010894148	0.865140356250941	3.94139189205195	-12.6797393527396
3361.769	14.3890864369439	-7.99247002053058	16.4598112236721	29.0501405061907
2867.244	3.03867166545853	-1.01549754785864	3.20386653282677	18.4791780480081
2442.658	5.74718437876532	1.03794952561251	5.84015988661641	-10.2373463228118
2083.003	17.0382609652167	1.7453631960371	17.1274233148161	-5.84885630509857
1777.843	17.5100872468414	1.04730530081452	17.541379757166	-3.42287106754996
1513.548	6.80676742029277	-1.75922315099307	7.03043020084469	14.491111044578
1292.065	5.85272835671205	6.41865111123982	8.68639806279228	-47.6404551777203
1101.762	8.9289427655257	-0.429907553591344	8.93928629224216	2.75652802730635
939.101	1.5779062634096	6.52712192119757	6.71514026288991	-76.4097088544261
801.2801	-0.195068345628062	8.10713569161327	8.10948215249876	-91.3783458437779
684.3433	8.08961867341937	7.32127008148859	10.910679442062	-42.1457383562142
582.9476	20.6602285279256	-1.73942271613248	20.7333218325359	4.81248795343475
497.0677	22.7806698343631	-10.1805180457636	24.9519912187861	24.0795253686246
423.5089	35.6448913657938	-0.252666877591239	35.6457868622685	0.406131220908628
361.5036	7480.38004754039	-64.4423379089529	7480.65762286682	0.493582227545682
308.1262	12978.0378095752	8555.14405098128	15544.1292814942	-33.3929371397422
262.7298	19064.015643994	-6879.85000169049	20267.4376407135	19.843573904709
224.2111	9303.92367250345	1450.78413853908	9416.35653107967	-8.86290078638426
191.2854	-4923.29234117289	-15107.6822814646	15889.6466730488	108.049756104479
163.1722	13415.045558244	-3533.08364488877	13872.4953548935	14.7547804923192
139.1537	21506.166491771	-3534.30036318917	21794.6432920801	9.33250845442939
118.6706	-61509.9587177955	-166132.475100733	177153.815382454	110.316892804032
101.1982	-72350.9021885351	-188324.870287727	201744.66490191	111.015844018312
86.24196	-88263.210662135	-214250.277580126	231718.742874955	112.389854106815
73.61024	-112387.807280517	-245545.882438523	270044.069751283	114.593850857345
62.69291	-118198.266914517	-251089.136182652	277518.620295189	115.208348092623
53.57697	-157892.885563329	-297995.294693586	337240.80264854	117.916891477545
45.65746	-180223.289728801	-355863.63983548	398897.686528298	116.859440570851
38.96512	-213658.239245037	-379384.62767619	435410.770324174	119.386929292512
33.18414	-264976.556142577	-414244.365195614	491742.787848991	122.605519706659
28.30617	-356374.24281076	-433842.112645956	561445.972150526	129.40097104425
24.17237	-374615.276314091	-431264.544067633	571249.255769972	130.979011403599
20.61345	5003.79137946366	-16593.0235990946	17331.0807605673	73.2187923017835
17.55618	44105.7137141218	23431.0670376615	49943.2566494763	-27.9793797899164
14.98558	465323.482653391	115209.468342087	479373.721749897	-13.9062128089966
12.76553	42092.584677871	-92398.5981538362	101534.657263704	65.5081554780309
10.8809	122323.609811709	-99314.3689378365	157563.985081896	39.0730974812204
9.278505	173106.237119578	-4388.84384091947	173161.864392711	1.45233571092879
7.923394	115670.966588881	36780.5437516292	121377.84357234	-17.6393938076848
6.75822	151745.150776405	40025.5116971928	156935.121533633	-14.7762492209028
5.761429	92071.2850874427	5884.38867016454	92259.1327060617	-3.65686989587036
4.919708	69918.890907292	149790.55775062	165305.361367826	-64.9778830386374
4.191257	108856.220867997	-46760.6186863707	118474.606062204	23.2465765147972
3.564097	235493.14987843	-27192.2824862568	237057.891381993	6.58674573113575
3.051758	82027.5923316123	-156089.27672948	176330.338324559	62.2773037670678
2.604164	867611.533020184	64117.1977663127	869977.463661581	-4.22652172452328
2.214424	459009.264803853	439511.482757149	635499.684225855	-43.7568842169661
1.892567	285705.902687964	192424.68443516	344463.527838166	-33.9605091315988
1.607507	318519.09845367	149807.475124644	351989.624396742	-25.1887716599978
1.376413	-128815.773431323	-693950.619143668	705805.189336683	100.515934056304
1.17375	644434.937720622	556649.600417416	851560.430386389	-40.8197765084106
1.001604	1323756.27126511	-364368.585888525	1372987.6664035	15.389755239195
