EC-Lab ASCII FILE
freq/Hz	Re(Z)/Ohm	-Im(Z)/Ohm	|Z|/Ohm	Phase(Z)/deg
6999984	2.13850186307327	2.00177758234058	2.92921554473705	-43.1086111196654
5969734	6.0357421958975	1.3052114059404	6.17525389514751	-12.2021561121862
5091109	8.03723011590273	-1.34549424059442	8.14907495900281	9.50362802952316
4341796	2.32537430397026	-5.83450853224368	6.28083238642693	68.2699839379001
3702781	2.41245308111954	-5.76282278827764	6.24740396946565	67.2846684176136
3157797	1.56824994154157	-6.9035028726594	7.07938978952012	77.2014792315174
2693047	0.10601967805348	-6.43408482375919	6.43495825094949	89.0559760127741
2296687	1.75806481887826	-7.77853148515748	7.97473159253424	77.2642754058637
1958656	2.69891190570134	-7.23206120522924	7.71925091902823	69.5350747495489
1670375	-7.69226824907595	-15.3310297138185	17.1525934745078	116.644982468134
1424531	-2.80562354320082	-8.88934065558155	9.32158252428941	107.51656158033
1214875	2.65862851122757	-10.9616529420698	11.2794565819059	76.3667943155708
1036062	8.66268057979446	8.72884585877153	12.2977552770309	-45.2179781607513
883578.1	4.01421128627955	7.93459769132467	8.89222878552216	-63.1645862086073
753531.2	17.1662945744388	-16.2375564710675	23.6292172863917	43.4073971506702
642624.9	7.96878044367503	-0.797406651184518	8.00857784671229	5.71435618156499
548046.8	4.99808848210963	1.36384456590087	5.18082623477513	-15.262902383353
467390.6	4.10257230288879	4.47070181352342	6.06780637511382	-47.4587244242607
398593.7	6.54278680226131	-6.81526794368858	9.44753599009361	46.1685724386529
339937.5	3.78556818096469	-1.38064904865802	4.02948113884314	20.037611791608
289906.2	6.22675447410376	-2.27755177014274	6.63021216451266	20.0909369736009
247234.4	4.95306302766812	1.58371269419791	5.20009415816833	-17.7313707225372
210843.7	2.21816556732619	6.63053473438794	6.99172720777895	-71.5029555927052
179812.5	5.13029707602738	-8.8955972358267	10.2689628624483	60.0269547309119
153343.8	12.6692283109576	-7.29372552445026	14.618747484692	29.9292067329481
130781.2	11.1610569889427	-12.3427815205902	16.6407165944093	47.8782899584791
111531.3	49.5313152187532	21.4743471386515	53.9860979542956	-23.4391877367864
95109.37	169.028412677873	-96.9685794765188	194.867928859767	29.8421228776662
81109.37	136.319102529709	-121.671517235144	182.720704411972	41.7504834212432
69171.88	-67.7010025027555	-174.881261457329	187.52834812045	111.162693101204
59000	221.832298406845	-225.969629750299	316.657294540882	45.5293520745151
50312.5	-100.830335371488	-382.039035001741	395.120969825936	104.784756108926
42906.25	-49.5567727879699	-463.07195057067	465.716120758648	96.1083989214804
36593.75	-61.0527384345511	-534.668026176556	538.142485858431	96.5142822235511
31203.13	-74.7369156560739	-657.428820082283	661.663252747623	96.485577038015
26609.38	-158.965966775949	-753.841347130861	770.419986265337	101.907763132236
22703.13	-227.226163890376	-918.182630717807	945.881109288165	103.899937385905
19359.37	-154.955649318447	-1007.3769819928	1019.22501789576	98.7447496242159
16500	-104.394675545698	-1232.85471888703	1237.26674818501	94.8400995461788
14112.02	-223.505396825282	-1486.33031010608	1503.04106835112	98.5517201430363
12011.13	-232.994944607193	-1497.59886720194	1515.6150603821	98.8431264776398
10236.38	9.43205329690906	-8.26336906193019	12.5398125045552	41.2214199227973
8750.684	27.6413587696936	-0.288904457074036	27.6428685273478	0.598827412538775
7449.463	0.830400930525043	3.55200007183052	3.64777606435769	-76.8414898488367
6363.206	26.4922052648166	-12.7289709008797	29.3915572909742	25.6633468721268
5414.761	1992.43556371894	-2721.71351584541	3373.05854350433	53.7939359537561
4620.567	586.334810192447	-314.225529726047	665.226422487132	28.1875181681535
3941.215	280.120033666055	68.9418718012675	288.47914127114	-13.8265774050514
3361.769	340.061323285638	-188.761268331905	388.937681405452	29.0337825611397
2867.244	6.00638890459241	-1.17789176758398	6.12079542946445	11.0952704069289
2442.658	-6.68569573351479	13.0152913307944	14.6320311599788	-117.188662119934
2083.003	10.605443533064	-0.560640341194959	10.6202518861458	3.02603591497999
1777.843	90.0666431820442	-27.0476216111185	94.0402788644308	16.7153675827435
1513.548	11.7951254975339	3.23008559466715	12.229408753143	-15.3149326807289
1292.065	13.0091034817054	-7.53562045799755	15.0340396794977	30.0818885261946
1101.762	14.5949199321306	-3.72517914938514	15.0628233581994	14.3183585397681
939.101	17.3823072829875	15.3521305917973	23.191216444762	-41.4510843253976
801.2801	1414.63984780675	587.326016076728	1531.71725464044	-22.5471039089236
684.3433	-3377.3260880684	-22521.0760217441	22772.9048801931	98.528687239672
582.9476	-6701.11077450252	-29780.7356112414	30525.3517450466	102.681198859883
497.0677	14588.7509252699	-17268.6365257659	22606.1376846771	49.8084759082938
423.5089	21.7369613943312	-27.2150880192531	34.8303963019995	51.3852901379615
361.5036	-48.1836544362708	-31458.1573900617	31458.1942908752	90.0877584102457
308.1262	413.368366038442	87.3163395553115	422.489703063435	-11.9273311761738
262.7298	19888.8134978302	-17854.2371069534	26727.1151646185	41.9144009168522
224.2111	-23573.0590182631	-83505.9833737499	86769.4552863823	105.763940980805
191.2854	8452.72249610261	-107007.308709433	107340.638319473	85.4834695685744
163.1722	52749.9346645492	-72800.3544333002	89902.4316285624	54.073533628202
139.1537	40211.5582959808	-78999.989240991	88645.1787784747	63.0235812952256
118.6706	-76336.6052917665	-136844.090448543	156695.827634816	119.154365723468
101.1982	25929.9395822824	-121674.350336913	124406.628829217	77.9697010432288
86.24196	89788.6662517253	-183578.116272131	204359.803682837	63.9365895417666
73.61024	-59097.8040562058	-191846.195215252	200742.404745072	107.121335293249
62.69291	-50275.6174300629	-175387.520773291	182451.144559237	105.995186746919
53.57697	-71854.0893664631	-158094.868220472	173657.702150904	114.441787858517
45.65746	-176758.074816767	-206730.403312414	271994.258517791	130.531015703586
38.96512	75775.9579309749	-202947.999826713	216633.068653011	69.5255636501497
33.18414	81194.5827192514	-216506.601080843	231230.769091254	69.4428858403124
28.30617	-264222.994717973	-328331.242321149	421444.178535999	128.825205755923
24.17237	121890.268237938	-343308.082434654	364304.374055646	70.4527812500099
20.61345	-245649.487060057	-427087.617029815	492694.127337718	119.906372829578
17.55618	422474.242424168	218950.070266646	475839.908773574	-27.3957477910623
14.98558	3921.75707490382	-1121995.5483162	1122002.40223447	89.7997325266334
12.76553	-369222.438363965	-1599279.02930475	1641346.58819074	102.999992577093
10.8809	2593320.33157196	-2104357.70020325	3339705.32720317	39.0577078348432
9.278505	623195.095900099	-329167.129437938	704785.872912012	27.842689248732
7.923394	3267492.09230253	-2463128.9218921	4091883.26557844	37.010031159559
6.75822	1152512.92228444	-1728384.67562557	2077402.13318701	56.3040468654904
5.761429	1039479.23501729	869005.3748763	1354875.42659686	-39.8956471510662
4.919708	2376207.86925904	-419743.920154405	2412995.81359669	10.0176399266909
4.191257	2427304.80905445	-2021710.46368004	3158974.80759379	39.7910307872532
3.564097	2619970.48462696	-926842.084189506	2779079.27007151	19.4817682458178
3.051758	3336095.88655735	-5567781.90274342	6490741.95148921	59.0708600581771
2.604164	6177445.70875927	-986936.321775494	6255787.62330597	9.07711824682777
2.214424	3537353.51151098	-1963244.26555612	4045639.36994365	29.0304364876162
1.892567	7436054.78397767	1165322.82946682	7526811.28016332	-8.90652579290552
1.607507	3065563.15707422	-3554408.48529295	4693772.16642791	49.2232854642369
1.376413	1026430.71654791	-22792485.6414354	22815585.9388031	87.4214993106044
1.17375	-6091005.88713415	-18101067.7083875	19098403.202905	108.598076714419
1.001604	5429688.81181933	-8967655.31138279	10483337.3682701	58.8061535568267
