EC-Lab ASCII FILE
freq/Hz	Re(Z)/Ohm	-Im(Z)/Ohm	|Z|/Ohm	Phase(Z)/deg
6999984	1.89876609959924	1.7206394481004	2.56240371747829	-42.1824993283498
5969734	5.27787011138244	1.30777383451298	5.43747968408719	-13.9167036662254
5091109	7.62904325251642	-3.95044054569325	8.59117462596492	27.3758432372594
4341796	3.19570876516416	-5.31428719530234	6.20114528985585	58.9797024729718
3702781	1.52917354865443	-4.97267288015343	5.20248472510182	72.9065303034372
3157797	1.00649395525063	-6.41281757262012	6.49132184548428	81.080174321435
2693047	0.625209220348721	-6.24227725274746	6.27350873669412	84.2804873819177
2296687	2.18391420105049	-7.40004549916853	7.71557869685187	73.5575249502649
1958656	-4.25107570188963	-9.67881240631695	10.5712371187043	113.711782331741
1670375	-1.61527163446085	-9.25710720800104	9.3969748490415	99.8978844826961
1424531	-10.2538515046308	-8.48435198361425	13.3088579247386	140.394598738322
1214875	14.7385801892353	-10.2624269022877	17.9594864046641	34.849372936653
1036062	4.33332408171018	-12.9628113612992	13.6679250797536	71.5157898473162
883578.1	-13.8770968523303	-10.31218246824	17.2891562636015	143.38366225974
753531.2	4.37196636641773	-10.9242463279598	11.7666158152219	68.1883374520939
642624.9	13.9451722956997	-4.47142943930222	14.6445044841882	17.778112619464
548046.8	11.5619114308725	1.9021276159176	11.7173326914694	-9.3424263538631
467390.6	8.76374821293538	-5.45438098653916	10.322478127177	31.8973053000666
398593.7	9.36202596490647	-0.248751651688038	9.36533008237298	1.5220068058589
339937.5	12.9252852735243	-4.54832413280147	13.7021987950477	19.3866400630922
289906.2	9.23748966720525	-19.5534954872939	21.6256884543208	64.7129473541689
247234.4	47.2449674489176	-8.53394629917572	48.0095322689828	10.2390365483074
210843.7	11.2292348773164	-81.3433508095149	82.1147759958568	82.140146242427
179812.5	19.2064618150469	-71.425174424244	73.9624480191573	74.9490102515196
153343.8	4.5791926553062	-131.29375947417	131.373590505229	88.0024785148671
130781.2	-10.9231534306284	-129.366872332922	129.827204152564	94.8263485590957
111531.3	4.18020125905633	-167.017309716214	167.069613716582	88.5662689852758
95109.37	-10.5543762019595	-191.113438287445	191.404652898151	93.1609894317684
81109.37	-11.9243635022449	-215.096162069296	215.426436125825	93.1730788412457
69171.88	-17.0342414659789	-260.207971460852	260.764939733264	93.7454636785814
59000	-19.601824207587	-300.147601971732	300.786991875723	93.7365255369773
50312.5	-13.537348146439	-343.255577722513	343.522417656336	92.2584663128783
42906.25	-31.844558893208	-396.41779953962	397.694792174774	94.5927536660208
36593.75	-48.6390980062402	-457.963657537684	460.539328917904	96.0625050020904
31203.13	-33.9593526225636	-538.198324925765	539.268647877329	93.6104748220485
26609.38	-51.906839717812	-645.129011624304	647.213845377895	94.6000875257985
22703.13	-52.4934216846611	-751.938931208916	753.769006783757	93.9933825165345
19359.37	-101.878953336487	-862.663273715015	868.658301606359	96.7353293409125
16500	-164.026949939854	-920.69582179833	935.192833902973	100.101570978865
14112.02	-69.9292065537808	-1174.65196223977	1176.73162884448	93.4069029174386
12011.13	-123.311462840653	-1371.19481727951	1376.72834786028	95.1387824447805
10236.38	-124.602666575312	-1598.66023818015	1603.50877192982	94.4567334854568
8750.684	9.63531668804102	12.9352331036649	16.1294632001499	-53.317968454185
7449.463	5.52623729693051	-1.23022384456904	5.6615147592965	12.5502566206179
6363.206	10.4519100371121	-1.48481681248564	10.5568510641443	8.08543716543739
5414.761	3.41921294267355	-1.31015393686311	3.66162811951518	20.9655398591342
4620.567	9.28281215005522	-5.06845028969901	10.5763788582086	28.6347059976752
3941.215	6.34346568342157	2.96660261244182	7.00287711850591	-25.0637408099444
3361.769	4.04164033321397	2.45666361652406	4.72969900816268	-31.2928348262036
2867.244	-43.842824273829	143.538577855933	150.085031143048	-106.984914042228
2442.658	7.81277423021102	10.5404202699592	13.1202096263595	-53.453404217798
2083.003	6.73998359947607	3.82866119373837	7.75151762286874	-29.5988278091198
1777.843	19.9994825031071	1.78829093472052	20.0792750083087	-5.10961985528503
1513.548	17.5720739426597	-11.6826196222905	21.1012175924857	33.6175537841674
1292.065	151.328104153299	34.3959973280816	155.187885283695	-12.8054348338354
1101.762	117.229219586291	-16217.7473727642	16218.1710601635	89.5858473817111
939.101	-2583.2380320563	-14985.6032528107	15206.6243322084	99.7806000220329
801.2801	-3547.7756386678	-17514.0788830044	17869.797735353	101.451287656855
684.3433	-3234.60888344898	-15269.6514805093	15608.4897080117	101.960303362049
582.9476	7.7944709584523	-33.1607595718877	34.0644940209993	76.7726776176415
497.0677	7327.17171338715	-8801.0968167801	11451.9321730352	50.2216243152067
423.5089	-1755.62466193946	-31673.2038989525	31721.8231376797	93.1726204750096
361.5036	-20197.238937496	-52873.7515163561	56600.0181988635	110.906351783663
308.1262	-19307.7132307775	-55947.486839258	59185.3788855904	109.039769878686
262.7298	46579.1132024105	62343.2675728887	77822.2127569486	-53.2351416753209
224.2111	-23860.9599039899	-80160.9014736487	83636.8072836824	106.576337838521
191.2854	-25525.203276133	-92121.164190598	95592.0754776202	105.487145069977
163.1722	-24432.1139645447	-99927.6512900766	102871.102284012	103.739165428592
139.1537	27583.9763683609	-212459.770960257	214242.922937434	82.6025804788771
118.6706	74797.9740936197	-316551.259974887	325268.254092216	76.7054123724931
101.1982	-35599.3558605957	-161188.060627583	165072.423579987	102.454192981452
86.24196	-36876.8761272503	-177518.129299934	181307.998232435	101.73547472324
73.61024	-201488.496272306	-266056.73510529	333742.116648411	127.137157499908
62.69291	-48039.0042514404	-246278.621772756	250920.117710315	101.037497537211
53.57697	-54064.1610142722	-273236.413683854	278533.78837942	101.192310733456
45.65746	-225502.296125593	-416907.127034057	473986.115967235	118.408661153106
38.96512	-226745.333210004	-489607.855089178	539563.988696003	114.849619217092
33.18414	1895776.89390255	-265842.835621515	1914325.58482252	7.98247664965239
28.30617	-261717.389118693	-646411.965099782	697383.98346339	112.041896837832
24.17237	-278758.642340855	-745891.778160447	796279.426713431	110.491988706224
20.61345	3220158.32104358	744225.500632726	3305040.27333681	-13.013401324734
17.55618	-323069.25732947	-998102.459014969	1049086.39478507	107.935909390586
14.98558	-350650.830019417	-1147564.56092873	1199941.84279608	106.991101986416
12.76553	3527419.27617515	-801010.329990402	3617223.28571009	12.793826708906
10.8809	-423508.658338787	-1529310.22230582	1586867.7763875	105.478894477727
9.278505	-468055.524893681	-1760650.5104836	1821803.00648826	104.887315554254
7.923394	-523432.978898276	-2024090.97457901	2090676.05256542	104.499136648053
6.75822	-584494.943348749	-2331419.13902686	2403570.16552898	104.074173851405
5.761429	-658143.469797558	-2681978.17215269	2761550.24266093	103.78763765806
4.919708	-740425.728442573	-3071127.85373682	3159122.75059673	103.554902201678
4.191257	-838286.596062248	-3537527.81517446	3635495.49033837	103.331448661577
3.564097	-947062.57430163	-4064004.72772473	4172896.11021072	103.117907291331
3.051758	-1081604.8141515	-4894772.81189198	5012850.47194035	102.460495517198
2.604164	-1202042.80137481	-5311914.53925477	5446222.81665772	102.750813231991
2.214424	-1340310.16741673	-6102194.60583012	6247656.38878315	102.387959060335
1.892567	-1490435.37774308	-6977453.19466171	7134861.64539461	102.057591595662
1.607507	-1642670.85054139	-8030576.39725072	8196860.66706631	101.560493412607
1.376413	-1794825.34138177	-9184410.94979687	9358140.97461749	101.057436468482
1.17375	-1935388.47291553	-10576047.8817997	10751675.0945708	100.370230889002
1.001604	-2095523.11323734	-12187772.5084703	12366608.9060962	99.7558482452832
