EC-Lab ASCII FILE
freq/Hz	Re(Z)/Ohm	-Im(Z)/Ohm	|Z|/Ohm	Phase(Z)/deg
6999984	2.69517230457798	2.43359679393961	3.63130102123707	-42.0803524126338
5969734	4.83475241077945	7.82249692844516	9.19599309857678	-58.2815533996049
5091109	2.71360188030053	-1.33270244974179	3.02319879999948	26.1565489421754
4341796	4.61810796608023	-10.7035396720904	11.6573016902878	66.6619205900859
3702781	3.59798393535066	-8.00528537855152	8.77667832332325	65.7984158970442
3157797	2.176628806686	-8.83795298568417	9.10203965818975	76.1644256223306
2693047	4.23640776720302	-11.4558608586663	12.2140860805523	69.7054723978208
2296687	0.979215311849647	-11.7984706641131	11.8390359674637	85.2556042534509
1958656	-1.0103357476115	-11.2840283627722	11.3291691846644	95.1164370907704
1670375	-0.341236470911599	-12.6130351666064	12.617650274244	91.5497175203015
1424531	10.1838157539204	10.9549891186032	14.9573356550728	-47.0893041562722
1214875	12.4047350149789	9.56037041609036	15.6613579642603	-37.6215604734581
1036062	6.96777152330018	7.39673014120916	10.1617644522388	-46.7104816508655
883578.1	4.9447932435599	-5.49553281594602	7.39268971029457	48.0196214578041
753531.2	25.2827278653244	7.56903590037465	26.3914121026748	-16.6664255278834
642624.9	18.3346971952203	4.09235219894315	18.7858581853642	-12.5823250684114
548046.8	12.0750469344482	9.30002487154395	15.2412998487814	-37.6029393451163
467390.6	2.04395603748576	4.4931146951843	4.93617624758837	-65.5388087200705
398593.7	8.22097458998768	0.396149826556816	8.23051382930033	-2.75881756665569
339937.5	7.02305480219549	3.81512623826917	7.99240182727139	-28.5120872999393
289906.2	-0.520847019936863	-2.88662816387416	2.93324117226126	100.22808006003
247234.4	6.55740502896081	2.33674313221769	6.96131662688942	-19.6136172936333
210843.7	2.93936546729898	1.49437708317409	3.29742812159198	-26.9488407108602
179812.5	4.060509967474	10.7453347877591	11.4869474142168	-69.299130729514
153343.8	1.88993363024386	-1.73161968407362	2.56327053917412	42.4969442958955
130781.2	3.91558128375781	-3.3161474839612	5.13114128874821	40.261618213128
111531.3	7.62536937923461	1.73677344260258	7.82065471432529	-12.8309486444525
95109.37	3.59592365022812	2.00605721267337	4.11763675410893	-29.1558283010805
81109.37	2.88041013114823	3.04432072259144	4.19102030365173	-46.5847116852564
69171.88	18.7051062978726	-8.64134836478351	20.6047058502726	24.7959002294546
59000	1.50953958701735	6.66684262969732	6.83560534363431	-77.2419300518536
50312.5	2.23106519395164	-0.816947073202111	2.37593232649332	20.1111681133469
42906.25	3.05530364424949	1.19083113032142	3.27917049564472	-21.2937816503867
36593.75	3.78093856958139	-1.80488080086773	4.18964093596207	25.5180906119052
31203.13	1.77261642864473	-2.46136003079118	3.03322636878252	54.2394106394703
26609.38	1.3700867364532	-0.823978976058665	1.59877422370754	31.022971704697
22703.13	1.44514901418789	-3.76550513877725	4.03329699171362	69.0038855776831
19359.37	1.46940022365594	-3.3015769821032	3.61379960512945	66.0080611542826
16500	3.79193703538693	-2.27406597415102	4.42155657377924	30.9515754338457
14112.02	8.97586433045987	0.696581725521551	9.00285324656313	-4.43760682470081
12011.13	3.24483535916842	0.855689660764521	3.35576538268827	-14.773046386828
10236.38	2.74447675906953	0.377140274775128	2.77026848300489	-7.82446061933326
8750.684	1.42675803543917	-1.7751387136196	2.27744504747783	51.2096098188185
7449.463	0.999740054795724	-3.39867819557736	3.54266759014389	73.608460898252
6363.206	2.83548179636551	1.86101716472117	3.39165769276721	-33.2781679637996
5414.761	7.89137752851088	4.68400231386075	9.17680320012036	-30.6916531300846
4620.567	9.41727930633419	-0.442993916192193	9.42769288549926	2.6932391092562
3941.215	3.35199611783756	-1.39837379099928	3.63198667857576	22.6447473763698
3361.769	26.6396096739881	1.56098192304036	26.6853043480208	-3.35348473264402
2867.244	9.39567053173201	-0.844514056292666	9.43354804578495	5.13613290429692
2442.658	12.1723552022928	-6.12202469071479	13.625175869856	26.69987908972
2083.003	15.7204367666012	-10.6140852540035	18.9681558911762	34.0263362526814
1777.843	9.20210314602654	-6.21446785727801	11.1039773531493	34.032386686998
1513.548	13.0232198812415	7.36957196078263	14.9637845132947	-29.5046278180223
1292.065	9.49106169552551	1.5384332037713	9.61493779650901	-9.20715674801067
1101.762	14.6751434092307	-10.3626421182056	17.9650824031368	35.2272787095874
939.101	18.9545781282508	-16.7944217212522	25.3244670816827	41.5420700232643
801.2801	4.42604890961979	-8.92638194360006	9.96344335826605	63.6259891210262
684.3433	10.3440223555557	5.81246053884811	11.8652221221477	-29.332282113247
582.9476	11.2594887181066	-3.73379962918867	11.8624342301275	18.346223191648
497.0677	-2.40600696432385	-19.3534527877002	19.5024358560185	97.0866097651072
423.5089	-3344.84311699784	-37310.9839500664	37460.6126324629	95.1227396265168
361.5036	2.72312160220626	-4.93942493162621	5.6403288836355	61.1319038388217
308.1262	12.109579931524	3.24560765346734	12.5369811022516	-15.0037764909272
262.7298	16.3760432700303	-4.86759077560151	17.0841515194822	16.5539768310111
224.2111	12.8636775922497	8.47015213982477	15.4018725637217	-33.3631032273498
191.2854	23265.5441036957	8461.91529927698	24756.6062491034	-19.9868420013815
163.1722	833.687176612096	1011.7437255979	1310.97661105535	-50.5111284299304
139.1537	16352.0902442376	-8193.1318391316	18289.8404774094	26.6129270147309
118.6706	43831.3873944189	8942.53721327309	44734.3211944744	-11.5313027481793
101.1982	-44076.035437311	65517.866083176	78963.8377737815	-123.930026241663
86.24196	-55070.0952298975	46674.2486478462	72188.6478296342	-139.717305328698
73.61024	-38338.9474353856	51676.8398255575	64345.7120934223	-126.571648156114
62.69291	-40938.6534305484	49580.3136687348	64297.5959752516	-129.546616915772
53.57697	-40336.5592612205	46920.2785011097	61875.2822026345	-130.685084054697
45.65746	-31823.6112056569	88998.2752508959	94516.8515546463	-109.67581032706
38.96512	-49568.5349795173	71025.1936147067	86611.8801783115	-124.911216465825
33.18414	28337.8038850889	52661.4125305448	59801.8018018018	-61.7147165080288
28.30617	-280969.148235778	-879025.596903345	922837.830971196	107.725805767112
24.17237	-295536.602646262	-1004304.16622717	1046885.25722973	106.39757500644
20.61345	-39429.6793980209	93806.4319779086	101756.30839342	-112.798487606303
17.55618	-375788.092148258	-1315557.06606933	1368176.55450068	105.941958967752
14.98558	27.0328418108903	-13.5274382805092	30.2285646831868	26.5837290854911
12.76553	-412879.124132406	-1789389.30619646	1836404.9826426	102.992887900434
10.8809	71059.6387167884	48291.1141019051	85915.6793359845	-34.1994669096361
9.278505	130128.521027254	72848.6711182347	149132.024959206	-29.2410156660606
7.923394	133674.759092849	-114202.683617388	175815.796116119	40.5083395692893
6.75822	161248.451618376	-168363.955860007	233125.470041679	46.2366799317601
5.761429	90450.4955598698	2518.25307026664	90485.5444010364	-1.59477301879831
4.919708	32915.6867511293	117199.070244795	121733.580003805	-74.3124541411292
4.191257	90531.8800149714	31183.121915502	95751.8062045946	-19.0059382561175
3.564097	166645.431103365	-1089.12672155638	166648.990109877	0.374456567007749
3.051758	116100.893074871	26337.1824296604	119050.680599129	-12.7810898571203
2.604164	306986.183891771	-180259.699704566	355997.298357744	30.4210967296459
2.214424	332963.652115944	106895.73223406	349702.003426121	-17.7988766099595
1.892567	141595.318853431	-63290.8438149823	155096.631917065	24.0838798478676
1.607507	185956.238108983	-132508.215282175	228337.797153499	35.4728140431128
1.376413	-83306.2616680703	111949.826904526	139544.605689587	-126.654383261731
1.17375	612225.633902828	-642225.319163163	887284.389236025	46.3699441853295
1.001604	438043.925042236	207632.868742739	484761.682116839	-25.3609569365906
