EC-Lab ASCII FILE
freq/Hz	Re(Z)/Ohm	-Im(Z)/Ohm	|Z|/Ohm	Phase(Z)/deg
6999984	-0.351213751042696	2.64374599970143	2.66697281760778	-97.5672640594425
5969734	7.41680145836504	-1.06915975607486	7.49346691837736	8.20289351343921
5091109	5.62030340651067	-1.32413586857184	5.77417926459457	13.2570516271134
4341796	7.5488142024745	-1.74623539168308	7.74815680705078	13.0248891285264
3702781	1.86291236676675	-7.57474443868677	7.80046125544308	76.1830467506723
3157797	3.45043779151166	-10.1768275487106	10.7458522188464	71.2708503898977
2693047	-2.5146500039324	-9.91520247444714	10.2291106530118	104.231049695712
2296687	-2.27992075492102	-9.62419783226998	9.89056229763454	103.327380661231
1958656	-5.28319881707073	-12.6327697964002	13.6930297038142	112.695355203179
1670375	4.30447022562773	-10.397490374429	11.2532781894726	67.5108721551312
1424531	-7.51791427221977	-15.2818365762461	17.030958990836	116.194924120059
1214875	4.89311230553746	-12.8896402742782	13.7871452605279	69.2124422151108
1036062	20.0438681555372	2.28776103591745	20.1740055812925	-6.5114304289658
883578.1	20.3645596192555	-13.5050176368293	24.4356458858219	33.5508557672362
753531.2	9.36761543058599	-10.0448459185955	13.7350336142173	46.9980319795078
642624.9	8.84413894960769	4.3840066734196	9.87108445271113	-26.3674432474071
548046.8	6.97667490116949	-5.99743940928069	9.20017783222702	40.6837219503788
467390.6	-2.09565452059947	-9.0630572420838	9.30219191604842	103.019702325246
398593.7	-1.50931701985454	7.35339858381897	7.50669758275457	-101.599110767999
339937.5	6.64416672320931	1.10030431574288	6.7346581971949	-9.40310258436746
289906.2	8.51188662791042	0.62398064572813	8.53472704968609	-4.19268054531167
247234.4	15.8384236151625	8.92810341328087	18.1814931502222	-29.4099121649093
210843.7	33.6140701269062	-16.9643828237059	37.6523039811087	26.7792108260338
179812.5	12.7477219129355	-1.38252396617948	12.8224719335468	6.18968597911009
153343.8	16.670316464608	-0.708952235282791	16.6853847513952	2.43519725297872
130781.2	8.90470867204281	5.80664150114011	10.6306595306555	-33.1078333408852
111531.3	1.43627731839926	-1.71268135334496	2.23521138898398	50.0163564555232
95109.37	0.178297121941885	-1.42784645684411	1.43893549821215	82.8822411786805
81109.37	2.38304456816223	-2.27412535091308	3.29401692854075	43.6602434256614
69171.88	1.93626872523695	-1.47098805443296	2.43165425844531	37.2240251664624
59000	5.94267820668504	6.91044850705041	9.11425931366913	-49.3059346261846
50312.5	1.73213882011182	0.458709943963109	1.79184812549195	-14.8327428595027
42906.25	2.21887513540976	0.582158900891609	2.29397381249809	-14.7011573722729
36593.75	0.266457518003897	1.52122875668263	1.54438872666793	-80.0648931084632
31203.13	3.08755790611612	-4.071334256849	5.1096747895157	52.8245887672199
26609.38	1.59286286328543	-1.1545264746295	1.96726802491533	35.9350592034905
22703.13	2.14858613057367	0.163529307329837	2.15480026797133	-4.35240169802911
19359.37	1.88849892124961	-1.75236985408676	2.57628187143274	42.8587556843647
16500	2.86228734654644	-0.0486855616296239	2.862701370753	0.97446828330906
14112.02	1.53615398681217	0.286836817877115	1.56270420466856	-10.5766977657119
12011.13	3.04440897668406	0.150100754670909	3.04810699514752	-2.82261068756556
10236.38	1.46162649681809	-1.01194615752966	1.77774774418076	34.6965020673341
8750.684	1.53359906698245	0.0265365956248677	1.53382863748099	-0.991317253190472
7449.463	2.1595484392897	1.2447522685734	2.49260058408025	-29.9589203242036
6363.206	2.34734773781124	-0.87770345056825	2.5060735722135	20.5014153971885
5414.761	0.600020806060815	2.9835501781184	3.04328714272186	-78.6289462823063
4620.567	0.00759442622111693	-2.55847972312959	2.55849099450729	89.8299274024368
3941.215	2.77831919685383	1.13680788704361	3.00189768840496	-22.2529588360593
3361.769	0.726090273204367	-1.0702415496008	1.29329967885788	55.8456233336062
2867.244	-0.343809204916411	1.56353380011078	1.60088810148433	-102.401538160079
2442.658	1.09237492854551	-0.805455858362565	1.35721852488293	36.40297664604
2083.003	1.21347854072686	-1.69684055844516	2.08609636632373	54.4299248359293
1777.843	1.08847112839137	-1.32326624927937	1.7134185022415	50.5605173918707
1513.548	0.715239126425453	0.841571093086206	1.10444959716963	-49.6392700122358
1292.065	0.353703730324795	-1.29395530226616	1.34142709571127	74.7116338369969
1101.762	1.55330696085236	1.14133018777843	1.92753653977473	-36.3074932294814
939.101	1.28626508732688	1.38166815745926	1.88771946332416	-47.0479767105094
801.2801	2.6123826558015	-1.94181768811342	3.25502673939902	36.6238977126865
684.3433	2.90835928449553	-1.44036278561812	3.2454889742387	26.3468797921399
582.9476	2.38919621061334	-0.146868538003156	2.39370610148036	3.51765662151404
497.0677	2.96708381893472	-0.796969845645271	3.07225443663966	15.0349855020279
423.5089	8.21901635120163	2.06491525165428	8.47443831636258	-14.1028920313312
361.5036	3.47192900108275	0.652185178328517	3.53265289766641	-10.6387605540804
308.1262	4.34018365179748	4.59402210934431	6.31998680951744	-46.6274486071952
262.7298	7.08551956272476	-3.89551764371515	8.0857680640896	28.8013679611229
224.2111	5.40429981828931	4.46662821388505	7.01122130067478	-39.5735703856893
191.2854	5.5057404017861	15.1535088870649	16.1227171705707	-70.0323448199429
163.1722	46.1292480056747	-3.86988463020582	46.2912899865639	4.79544074015623
139.1537	11.4391316131193	-4.43965660571855	12.2704638396014	21.2117971194814
118.6706	26.1152257421605	7.25200289983903	27.1034418777999	-15.5195760164157
101.1982	-1205.92451478508	6927.95655036251	7032.12883123386	-99.8743359173163
86.24196	5652.34782433367	-2023.69155668633	6003.69581540014	19.698724444522
73.61024	4691.8633324496	-7486.9592626061	8835.6177220559	57.9258039046082
62.69291	7951.83106841071	4696.59099526744	9235.23601849833	-30.5673785843207
53.57697	-361.045950051975	-15154.6018841244	15158.902085717	91.3647667440333
45.65746	-7827.42981005208	8274.31129753679	11390.0344547256	-133.410243215677
38.96512	7992.84907123416	-5834.8011750461	9895.98610689446	36.1295439974697
33.18414	7358.83583853624	5217.54367436409	9020.82185238253	-35.3373095245644
28.30617	2627.74751480742	-5417.13149350917	6020.82806759548	64.1228581209636
24.17237	9613.6079841572	1290.31389942983	9699.81280397271	-7.6444086322134
20.61345	4767.22165337453	-10060.517054993	11132.8525412945	64.6458539963591
17.55618	-870.070681004107	-10507.8291497379	10543.7894720079	94.7334148047254
14.98558	13970.4905432459	9393.29047672045	16834.7412216217	-33.9155663221488
12.76553	95.1968917215986	-214.621955510313	234.787205742827	66.080024653351
10.8809	22.1808935528588	-5.21422424824299	22.7855255220111	13.2287475120339
9.278505	23.5913619125593	6.80754587858466	24.5539210265568	-16.0960746907205
7.923394	33.7157960940642	-33.3867051150926	47.4492042578025	44.7190064057057
6.75822	-360.816355030243	-5461.32498771019	5473.23113557659	93.7798984420687
5.761429	2872.04281654124	653.981216380167	2945.55960242264	-12.8278661315147
4.919708	13772.5848434306	-8717.55715719216	16299.6900601946	32.3323578834874
4.191257	6401.92933787425	8330.10875548907	10505.9702610188	-52.4566811078105
3.564097	17300.0151905128	-4801.53021523611	17953.9749916223	15.5117207650445
3.051758	13969.1300209508	-6511.83059434148	15412.3499581222	24.9929862518237
2.604164	17802.3916728046	31353.2880489426	36054.8723580033	-60.4120969607989
2.214424	13519.9116603604	-28767.7542997344	31786.3445327366	64.8279972794311
1.892567	18383.1935195687	-18013.1982265852	25737.465188479	44.4175675801094
1.607507	26027.78039059	-8573.1877002748	27403.3738690134	18.2311618072298
1.376413	67781.4072763664	-26817.4189325924	72893.7111867054	21.5860130442152
1.17375	7100.28802221768	47115.42869971	47647.4313216978	-81.4300223511419
1.001604	23796.0606540049	-1476.75891793859	23841.839684697	3.5511626204155
