EC-Lab ASCII FILE
freq/Hz	Re(Z)/Ohm	-Im(Z)/Ohm	|Z|/Ohm	Phase(Z)/deg
6999984	25.9188849301129	82.6939210894546	86.6606784024299	-72.5973622771846
5969734	21.6382914757758	81.84309818893	84.6552324381279	-75.1905692579467
5091109	17.8873723751452	86.4363127164571	88.2677418228441	-78.308089917033
4341796	17.2599419210934	94.8446267431732	96.4023278617864	-79.6861107101022
3702781	20.5379430578557	104.831042049499	106.8239415217	-78.9153105883127
3157797	23.4048737983131	116.853147495319	119.174016451061	-78.6739234692241
2693047	27.0450750655421	131.173758958326	133.932785846326	-78.3501450191957
2296687	32.1725251915121	149.368393664256	152.79394098929	-77.8447389481108
1958656	39.9113422585953	170.116301394109	174.735432127814	-76.7965126619189
1670375	50.1802163584723	194.485272671035	200.854612592567	-75.5323385827423
1424531	63.9680933276704	221.654006662971	230.699838824664	-73.9021590640361
1214875	81.6667541541403	251.477851444647	264.406067444166	-72.0089346215853
1036062	103.744564579081	284.92992281886	303.229278924818	-69.993154506756
883578.1	131.445075435869	319.897485119449	345.849980254575	-67.6623621961638
753531.2	166.316738251311	356.705565574363	393.573522908086	-65.0023483364895
642624.9	208.934459085274	394.158090910144	446.110085991323	-62.0729297215446
548046.8	261.220520999384	429.340842365409	502.563149777447	-58.6827384477555
467390.6	395.083985847377	477.392568324722	619.67331729285	-50.38927749564
398593.7	464.420280296845	491.195748340171	675.987766115971	-46.6049542841583
339937.5	537.08455444403	496.098340649153	731.145253843028	-42.7282760056796
289906.2	608.565146918452	492.40995394923	782.827631597251	-38.9774536364793
247234.4	679.134610099218	479.771775399388	831.50753159818	-35.2391332063687
210843.7	745.742677250767	462.502502875353	877.51963273713	-31.8067951571698
179812.5	803.771340357921	434.437890901758	913.665501500377	-28.3911932051667
153343.8	856.723201313386	403.543174659615	947.006725151947	-25.2218886205564
130781.2	902.167591908169	370.468939958272	975.271038923637	-22.3251687069796
111531.3	939.302395140337	337.344942865617	998.04338582718	-19.7554529958179
95109.37	970.394362932165	305.700225300534	1017.40741463748	-17.4858239298559
81109.37	996.54020406599	275.639578063067	1033.95819804994	-15.4612603720273
69171.88	1016.18636330309	246.762765505293	1045.71821606156	-13.6490693505419
59000	1033.09607668568	221.9480653044	1056.66856078702	-12.1249958859159
50312.5	1050.02148754362	201.682023071046	1069.21502174883	-10.872624737319
42906.25	1057.90377278921	176.928325555949	1072.59686036538	-9.49451800058058
36593.75	1065.37373352865	162.381047034726	1077.67750117039	-8.66615280911429
31203.13	1072.12640284404	149.973144383591	1082.56499468236	-7.96308202828721
26609.38	1078.42422331704	139.853881034076	1087.45478686576	-7.38908144996925
22703.13	1083.94631904531	132.574934916015	1092.02368836022	-6.97307971323656
19359.37	1088.06651444827	128.115221794331	1095.58306390662	-6.71541486318828
16500	1092.78692081819	126.795885193413	1100.11838036336	-6.61842456762853
14112.02	1096.58335484562	125.631979169343	1103.75651677101	-6.53569519158959
12011.13	1101.23272052331	128.572447008103	1108.7129379965	-6.65931656546702
10236.38	1105.47111760085	133.912518796707	1113.55240314058	-6.90693746536666
8750.684	1110.5036220843	141.032224324625	1119.42323674306	-7.23772891880749
7449.463	1114.62982239267	151.351716593316	1124.85865026805	-7.73270142844305
6363.206	1120.17523590453	162.080794502399	1131.84042297503	-8.23312276671031
5414.761	1126.15870601784	181.833635919084	1140.74401260376	-9.17202297601324
4620.567	1132.75631586311	199.306618926785	1150.15651086093	-9.97895954594164
3941.215	1155.20734971828	200.930244894485	1172.55148465067	-9.86699213361718
3361.769	1148.32822164086	248.537032976149	1174.91632101076	-12.2123776792513
2867.244	1157.70170101695	278.244061441859	1190.66913383408	-13.5142466517697
2442.658	1168.30763421851	314.516632390423	1209.90224407737	-15.067220107582
2083.003	1181.0993440803	354.80890474015	1233.24167115364	-16.7205643099453
1777.843	1193.90552919957	402.32274248182	1259.87062898196	-18.6228071080915
1513.548	1209.44189909416	456.686405868727	1292.79239655475	-20.6865838974189
1292.065	1228.50302014128	519.234629610683	1333.72571058789	-22.9116597652315
1101.762	1247.45465412043	587.671649421813	1378.94926723969	-25.2249654039163
939.101	1270.75082560381	668.617401680597	1435.91674222528	-27.7515202043708
801.2801	1296.32387881432	762.323327880117	1503.85918722945	-30.4583160680176
684.3433	1326.62650193809	868.225763818906	1585.48221453393	-33.2031964363067
582.9476	1358.49996545046	988.084333623895	1679.83118392351	-36.0297003720902
497.0677	1395.01302035187	1126.90194585572	1793.31238843784	-38.9315367987775
423.5089	1436.65402263118	1287.91231146811	1929.42812842912	-41.8751647670416
361.5036	1483.30251057192	1466.47924085801	2085.84460153111	-44.6732328074527
308.1262	1539.14110837163	1676.38667430067	2275.79164978966	-47.4440223272377
262.7298	1597.67770904486	1921.65620693598	2499.06715388651	-50.2596400649137
224.2111	1674.02427497124	2188.18979383119	2755.09198521937	-52.5830354903707
191.2854	1757.80076756654	2501.43375440776	3057.29199883623	-54.9036234226316
163.1722	1851.93005201523	2860.61905548295	3407.75384940715	-57.0814703793916
139.1537	1964.74838936363	3271.33330229074	3816.0002369213	-59.0111578559245
118.6706	2104.91845659915	3735.20463055119	4287.47423794276	-60.5972196244056
101.1982	2246.0410973897	4286.05046442299	4838.89751852052	-62.343881462862
86.24196	2426.86121241419	4894.30582225167	5462.9556858945	-63.625301571672
73.61024	2636.03797812542	5588.61083401124	6179.0992285403	-64.7476685965538
62.69291	2877.75183639163	6387.98012867804	7006.26475065287	-65.7486831604269
53.57697	3159.54641521946	7281.36947923384	7937.32165425116	-66.5429172560372
45.65746	3500.85972019175	8310.29207969719	9017.59242981956	-67.1558675052682
38.96512	3886.29881292976	9469.60082751957	10236.04700536	-67.6868847897954
33.18414	4345.10465326123	10793.6196548862	11635.3839516425	-68.0721416112414
28.30617	4909.83943313293	12269.3340634096	13215.2594230567	-68.1901136212588
24.17237	5490.35909575495	13942.4413122936	14984.5157661864	-68.5060998452735
20.61345	6213.30909793705	15837.1578634874	17012.3713555615	-68.5786935979166
17.55618	7063.55583545521	17979.8699266867	19317.5967351315	-68.552165652002
14.98558	8017.7169277663	20365.8928516134	21887.2880087321	-68.5112564654296
12.76553	9161.97066717516	23084.8215931068	24836.4791081939	-68.3527190435169
10.8809	10462.8904154578	26116.7767661272	28134.6424270436	-68.1679974503668
9.278505	11962.2459705544	29485.4612600344	31819.612731412	-67.9176148938946
7.923394	13685.9838004984	33251.6229229133	35957.9835307143	-67.6285003904716
6.75822	15668.3220844614	37471.6339589169	40615.5101961489	-67.3083315745525
5.761429	17947.8927173103	42216.1825201937	45873.0086169459	-66.9675935737882
4.919708	20561.3215666466	47474.2514738367	51735.6018382712	-66.5823367523422
4.191257	23626.7646652717	53200.4960314807	58210.9679230961	-66.0536112989955
3.564097	27080.1687352516	59900.6345452687	65737.5201666106	-65.6729954356901
3.051758	30922.8547859284	66820.3831322094	73628.7073772647	-65.1664434490149
2.604164	35241.2540097221	74759.9925427786	82649.8788212909	-64.7611904005189
2.214424	40374.5902115849	83508.1143571303	92756.200322334	-64.1971134512126
1.892567	46021.6258699273	93187.4143133499	103932.113584395	-63.7170321146725
1.607507	52554.2521771394	104014.641784499	116537.52669186	-63.1944373097337
1.376413	59812.9475531404	115433.782858958	130009.795477586	-62.6087025557714
1.17375	67573.4714570627	128393.833162751	145090.145905857	-62.2422387500057
1.001604	76536.7689480602	142372.933612832	161641.359888281	-61.7384369607472
