EC-Lab ASCII FILE
freq/Hz	Re(Z)/Ohm	-Im(Z)/Ohm	|Z|/Ohm	Phase(Z)/deg
6999984	22.556449355408	92.1372770418076	94.8581637404071	-76.2437802769562
5969734	18.1664552913773	91.2370089345534	93.0280167324736	-78.7389541789714
5091109	16.1479788118061	96.4242205126254	97.7670063015839	-80.4930071729849
4341796	16.2987562854552	105.535997510387	106.787153848041	-81.2207208685806
3702781	19.5113362242092	115.736076847311	117.369211146965	-80.4307839564337
3157797	20.1163219642308	128.604841508278	130.168627820754	-81.1098535352228
2693047	21.59584218263	145.86755267704	147.45753057598	-81.5784757158603
2296687	24.6318061035759	167.557894440158	169.358713567219	-81.6371465940817
1958656	28.8109020155062	191.826345454909	193.97787215436	-81.4584410577804
1670375	34.206723438838	220.663716085313	223.299295845287	-81.1882914573762
1424531	41.444648335992	254.211495259023	257.567744870204	-80.7404103489224
1214875	50.0190710883998	292.661699726077	296.905335012867	-80.3012381989547
1036062	60.2528481502067	337.399434356311	342.737193800396	-79.8748430078183
883578.1	75.479936585356	389.260052819324	396.51054153431	-79.0261779216705
753531.2	93.4953369974419	448.73280955829	458.369406062776	-78.2305687273519
642624.9	175.466070917115	583.295934969597	609.116154600374	-73.2577534318524
548046.8	218.401348924626	657.969048223634	693.269368739461	-71.6373141956634
467390.6	267.814014634563	738.149052270262	785.231411624731	-70.0582998080624
398593.7	325.63543028802	828.053797323428	889.781728695647	-68.5325704954085
339937.5	395.11898458778	926.625235123986	1007.34966042098	-66.9062870897092
289906.2	475.519913643464	1032.35842147081	1136.61035480642	-65.2684872323277
247234.4	570.856367216514	1147.82206518704	1281.94090554982	-63.557062298272
210843.7	683.076424753743	1265.66141673686	1438.22537311463	-61.6442999950072
179812.5	821.32640540322	1396.71104991216	1620.30207713232	-59.5426335066878
153343.8	981.274891816376	1527.59654596501	1815.61329047611	-57.2847214276363
130781.2	1168.10802835788	1653.26581408477	2024.29351081692	-54.7570436299033
111531.3	1382.93823579302	1767.89601824076	2244.54327098629	-51.9656734661173
95109.37	1622.09971774231	1866.26353413272	2472.68013967299	-49.00381971039
81109.37	1893.90275770726	1940.59792083488	2711.60246828325	-45.6976928043025
69171.88	2159.50728672153	1982.12123802881	2931.25848803005	-42.5475192804717
59000	2441.43161076599	2003.63484812098	3158.34464785783	-39.3750519688323
50312.5	2724.27353157648	1990.15385039376	3373.77809333769	-36.1491162357514
42906.25	3018.28931749657	1913.10307197316	3573.51840181452	-32.3680302358122
36593.75	3249.23607772029	1837.17297448848	3732.65852000286	-29.4845513768809
31203.13	3462.60626044166	1740.74206388474	3875.54190376358	-26.6898637874611
26609.38	3672.71649525519	1634.06690226922	4019.82849082038	-23.9852623521696
22703.13	3836.79462435679	1518.04438318081	4126.19094793248	-21.5864427625616
19359.37	3984.57103889283	1410.72136325814	4226.9304617815	-19.4963041850802
16500	4106.8619013659	1303.94121196595	4308.89514390336	-17.6148024591178
14112.02	4212.37641251356	1203.02419926395	4380.79698967155	-15.9389582041397
12011.13	4376.91698550611	980.094670642063	4485.30800073227	-12.6216643506251
10236.38	4433.82628474134	924.161228334347	4529.11575246423	-11.7738300532803
8750.684	4492.59469107632	889.237076871831	4579.7543206127	-11.1960651422483
7449.463	4543.21266162696	856.203580024397	4623.18784597967	-10.6726567372404
6363.206	4582.43509919932	841.235337920137	4659.01151878159	-10.4024326523228
5414.761	4638.12328776439	829.914596324628	4711.78796951805	-10.1447620726966
4620.567	4674.50070843013	848.04244897506	4750.8033918883	-10.2826959322964
3941.215	4727.88936083392	861.144107893871	4805.67445660304	-10.3227686004878
3361.769	4764.44710066683	891.831892597278	4847.19715915355	-10.6022058467511
2867.244	4815.03226817125	941.460705434024	4906.20871991875	-11.0632019591354
2442.658	4859.32693272738	1001.15367233446	4961.38759973039	-11.641597123742
2083.003	4912.02539897477	1080.68161057618	5029.49960369924	-12.4078193127484
1777.843	4966.61970610825	1161.67205781938	5100.66596387384	-13.1645876981352
1513.548	5031.57424350846	1276.23312296642	5190.90650581325	-14.2326268648826
1292.065	5084.99206189369	1406.07631684388	5275.81224820511	-15.4569173519402
1101.762	5148.09702005157	1549.56837151901	5376.2500933156	-16.7517045661107
939.101	5216.43040903474	1728.28652783709	5495.28166108031	-18.3308564635826
801.2801	5305.18988736127	1925.07218626256	5643.66393961246	-19.9441050794427
684.3433	5381.32895658957	2144.7133619036	5792.96959630873	-21.7296134564089
582.9476	5479.89843328069	2418.66877604976	5989.92867130404	-23.8152772335102
497.0677	5583.04597330596	2718.95494363526	6209.92095968753	-25.9661779851652
423.5089	5702.39948838964	3074.14081449271	6478.24834909224	-28.3289298815698
361.5036	5832.74831585574	3467.46255505955	6785.59131445876	-30.7307116629787
308.1262	5972.79828546423	3931.89732800818	7150.81365697935	-33.3569382014742
262.7298	6134.01705175373	4459.03206957743	7583.47757883713	-36.0147175257475
224.2111	6311.85859137593	5064.57573009746	8092.55745752963	-38.7432284898298
191.2854	6510.73913610142	5746.75310197017	8684.17499324872	-41.4334773323532
163.1722	6735.5179362057	6541.1880057653	9389.05439305347	-44.1614267977962
139.1537	7005.71470171158	7455.63579141762	10230.6668177615	-46.7820097020097
118.6706	7304.6969393659	8496.90424565441	11205.1764437603	-49.314706610028
101.1982	7655.35153422567	9680.74276746799	12341.8470109808	-51.6637075193495
86.24196	8050.80583995974	11038.7927366952	13662.7383696111	-53.8960026553807
73.61024	8513.29340583302	12582.5050462446	15191.958328424	-55.9178102862147
62.69291	9045.67486595997	14357.3678025712	16969.3324559032	-57.7875491886431
53.57697	9670.49987676173	16340.5986171737	18987.7257994218	-59.3826063945078
45.65746	10436.7989160955	18639.8952148633	21362.8758652972	-60.7547830180666
38.96512	11268.3619042953	21238.2266525373	24042.4260704015	-62.0509281422116
33.18414	12248.9214507435	24209.2628000685	27131.6140697391	-63.1624089689859
28.30617	13372.8597202323	27583.0524280866	30653.8441039226	-64.1348902346614
24.17237	14710.763575375	31320.3681253321	34603.0638018789	-64.8411753087192
20.61345	16260.1590422393	35605.975830236	39143.0490240894	-65.4552714735404
17.55618	18072.1128239983	40475.4032648034	44326.7360784863	-65.9394208104259
14.98558	20160.7907949529	45922.5356654015	50153.1331764819	-66.2976913197212
12.76553	22607.8631518591	52128.6206253067	56819.966249465	-66.5539180457037
10.8809	25366.4634516463	59048.5101074704	64266.5077155725	-66.752276034378
9.278505	28680.5589119422	66685.1427063338	72591.2027539528	-66.7279826238645
7.923394	32576.3824847458	75037.4961761851	81803.7073009742	-66.5326613115044
6.75822	36876.3177981005	85097.4460088029	92743.9385165825	-66.5708775964396
5.761429	42072.9526652511	95845.0452416935	104672.852465932	-66.3000404466813
4.919708	47986.1118091929	108196.357631164	118360.123061845	-66.082259188752
4.191257	54189.2519647375	121398.153199198	132943.546773334	-65.9451503883772
3.564097	61822.9432402427	136831.307699818	150149.535722654	-65.6856578029625
3.051758	70340.0338625333	152954.777435241	168353.450526107	-65.3034949536102
2.604164	79768.0870389288	171606.364856982	189239.774279293	-65.0694989900788
2.214424	90985.1519858739	192246.154507434	212689.637276452	-64.6730121958483
1.892567	103276.379425068	214951.719242129	238474.84595298	-64.3374308152401
1.607507	117109.676687222	240945.382026754	267898.028163337	-64.0782820045025
1.376413	132467.273625877	268144.118314395	299080.000616018	-63.7099274380129
1.17375	149959.909965409	299063.471225285	334554.830211956	-63.3693613245871
1.001604	168699.820969637	333312.599735059	373573.177218777	-63.1546167429721
