EC-Lab ASCII FILE
freq/Hz	Re(Z)/Ohm	-Im(Z)/Ohm	|Z|/Ohm	Phase(Z)/deg
6999984	3.30318286287052	-0.901224195792617	3.42391911070392	15.2608683831803
5969734	3.89174882214564	2.15699817287017	4.44953368483004	-28.9973710932592
5091109	1.6968363541736	3.58837519555084	3.96934379424227	-64.6919198030876
4341796	-15.5101407571562	-21.9797096170423	26.9011542718207	125.208982631954
3702781	-5.24492721158644	-8.72498057501647	10.1801054753502	121.011723007944
3157797	-3.35534799858811	-6.4189892146176	7.24305065072766	117.597066436303
2693047	-4.03896452246974	-5.46484202567601	6.79541998550228	126.46742713318
2296687	-4.0068064655436	-5.47258001997616	6.78259759438552	126.210111787387
1958656	-2.63594427904433	-4.56149172749608	5.26834025308177	120.022282191533
1670375	-1.14152084901452	-4.15032805580139	4.30445035045207	105.3785695678
1424531	-1.35192760356584	-3.35676217184538	3.61877887188695	111.936988265544
1214875	-0.539619771341866	-3.33005922579917	3.37349728693432	99.2044909590288
1036062	0.19048767344147	-2.90096931373873	2.90721662642929	86.2431543091384
883578.1	1.54820688130732	-2.21642751197516	2.70360786046493	55.065140225079
753531.2	2.32539580795994	-1.47152527942608	2.75188159477614	32.3258891899804
642624.9	1.55213110180815	-0.644824338184271	1.68074667464046	22.5601730762305
548046.8	1.08565482273643	-0.35191115826602	1.14126590128813	17.9599178574369
467390.6	0.734750722356505	-0.478702362600412	0.876934761520276	33.0849150290799
398593.7	0.36871195057457	-0.824002855550915	0.902734295600077	65.8931831163589
339937.5	0.204074408085779	-1.45125417323928	1.46553233992976	81.9955889907155
289906.2	0.674452404230041	-3.48036362022618	3.54511170128186	79.032709640535
247234.4	2.74361388219511	-8.15005488226611	8.59946578099613	71.3948384567641
210843.7	-6.98873232813382	-15.5918586136044	17.0864986050663	114.143334143034
179812.5	-43.7808234623829	22.9110773633184	49.4133379665076	-152.376349445878
153343.8	-1.90263273764058	43.5750124023878	43.6165303205401	-92.5001399108645
130781.2	-21.6552823717961	73.1289348296152	76.2678986462609	-106.495321606289
111531.3	-5.70156395818172	117.268041751772	117.406564756255	-92.7835248363362
95109.37	23.7708103873399	105.273953414561	107.924310023285	-77.2760210406639
81109.37	30.5808004878085	73.6919718986893	79.7852873704943	-67.4624572214427
69171.88	27.1583136796012	53.11375896637	59.6543828520358	-62.9182716524806
59000	30.877982587215	35.7838441431086	47.2645037032511	-49.2089958968264
50312.5	35.7844248985385	16.5474831280225	39.4251729633661	-24.8168303777107
42906.25	1.75892996328499	12.1477524328996	12.274433746074	-81.761134660948
36593.75	4.69659333058677	12.6895413341179	13.5307962878464	-69.6897160584547
31203.13	7.03385498745999	11.0223163360278	13.0754186700114	-57.4561503999394
26609.38	8.35644337952338	9.41809548928821	12.5908962588265	-48.4181479817852
22703.13	9.38112205000297	7.70704106233977	12.1410021354764	-39.404742641776
19359.37	10.0791593952968	5.84122599539943	11.6494366921809	-30.0937945891774
16500	11.2255692436166	3.44916761100477	11.7435157449563	-17.0800953263899
14112.02	10.1493333057439	2.31850770066389	10.4107850092642	-12.8678127489913
12011.13	9.42880079000665	0.784302896235755	9.4613643503817	-4.75500882742723
10236.38	8.41731378484672	-0.603212923402722	8.43890023542941	4.0990002269344
8750.684	16.8367005589607	-19.3203878314344	25.6271705747854	48.9295643801411
7449.463	16.3956965135669	-21.0285592648606	26.6649426948708	52.0569169949918
6363.206	16.0866340452888	-23.8473641936414	28.765892544665	55.9977149803237
5414.761	15.9297681167616	-28.0821276231374	32.2856532239317	60.4356455261788
4620.567	16.1885667588469	-33.6821069687685	37.3704966994179	64.3297531807854
3941.215	16.0974740018144	-40.3192053818246	43.4139032092353	68.2356064701922
3361.769	16.4129721560417	-48.8430037551613	51.526931509859	71.4258354734806
2867.244	16.401127477357	-59.2686629265287	61.4961087193896	74.5318969766643
2442.658	16.5784117555441	-71.9069030374077	73.7932682618646	77.0171014130443
2083.003	15.5982183072135	-86.675963328791	88.0683089046986	79.7982385506093
1777.843	14.9022489455957	-104.156324851869	105.216999720979	81.857620753648
1513.548	12.3246445711668	-124.118040120863	124.728444018394	84.3292460902834
1292.065	9.24860984584265	-147.401190672423	147.691055232633	86.4097131401829
1101.762	5.61921202160231	-174.708213055185	174.798556208796	88.157807373127
939.101	-0.194839374065298	-204.090063313293	204.090156317265	90.0546987454667
801.2801	-6.86429505086872	-236.432201238978	236.531825193258	91.6629912763989
684.3433	-19.843745245543	-279.194470050289	279.89877872551	94.0654606071619
582.9476	-31.9331493174785	-323.871082173836	325.441552192992	95.6310677823569
497.0677	-48.5444663145655	-375.540688122076	378.665252756268	97.3655256197769
423.5089	-68.9448350624713	-435.472365544851	440.896327309516	98.9965072793963
361.5036	-93.898876343	-502.064155459729	510.769434457436	100.593397950205
308.1262	-126.191402178477	-576.226367770232	589.882273760998	102.352550268596
262.7298	-164.562827823789	-660.905016618656	681.084697591326	103.982099533727
224.2111	-211.129708691704	-755.358282136973	784.309816517148	105.61617516544
191.2854	-266.200571546182	-859.595886873921	899.871009101903	107.206763300503
163.1722	-333.670199999361	-978.11093978491	1033.45866530526	108.836427157194
139.1537	-416.292214434791	-1109.05656987773	1184.61203901867	110.573978966707
118.6706	-517.846006784841	-1253.20769779864	1355.98452076886	112.451217886674
101.1982	-629.100205882356	-1407.98632781024	1542.13895883016	114.07549594009
86.24196	-762.062502297834	-1586.13902854349	1759.70914507976	115.662016074808
73.61024	-915.487640126866	-1771.78640862007	1994.32813172654	117.32554173719
62.69291	-1084.66446713438	-2012.34057173058	2286.04715237828	118.324952019237
53.57697	-1296.00856167636	-2227.33308158567	2576.94603130612	120.193653868056
45.65746	-1540.84873366374	-2467.35935743588	2908.96493941738	121.984490752517
38.96512	-1803.06959958688	-2719.48033300808	3262.91790619564	123.545170490674
33.18414	-2130.28153525036	-3002.21652233086	3681.22309380796	125.358352729145
28.30617	-2487.19558887904	-3306.87094531237	4137.81794503945	126.947909540176
24.17237	-2884.62732196325	-3608.80355994615	4620.01492647988	128.636416162427
20.61345	-3323.65979028437	-3909.78699304768	5131.58345275198	130.367436253076
17.55618	-3844.77030268594	-4221.50916660309	5709.93855694872	132.325920588392
14.98558	-4355.76616290394	-4520.63307901788	6277.64464596473	133.93593199271
12.76553	-4952.88501548391	-4761.0820061653	6870.15078772191	136.131162488974
10.8809	-5587.49895392105	-4947.40739735454	7463.04123769039	138.476966293799
9.278505	-6182.28891925418	-5036.66293680594	7974.25042371556	140.830562324637
7.923394	-6802.63190800696	-4929.82719213949	8401.13069891145	144.069378148953
6.75822	-7307.38507365584	-4728.04699049169	8703.58000819121	147.09619958907
5.761429	-7555.36664046687	-5973.44178735184	9631.48855882417	141.669315240929
4.919708	-7999.6610669807	-5749.7239217473	9851.59389961238	144.293461942628
4.191257	-8427.66855704739	-5454.03216261239	10038.528982787	147.090756490016
3.564097	-8518.31019381934	-4884.73465281357	9819.48273518133	150.168341990782
3.051758	-8453.81927192185	-4317.76768023058	9492.63809605955	152.94443709975
2.604164	-8225.13029252485	-3806.64400218384	9063.29448315414	155.164992330559
2.214424	-7952.78108034741	-3360.51332066891	8633.64214513927	157.093109902733
1.892567	-7741.39500262573	-3085.83448162423	8333.76091777655	158.267043129177
1.607507	-7541.42079819471	-2873.03185966641	8070.15115856587	159.144814471317
1.376413	-7348.93798750682	-2706.19537181483	7831.37171475424	159.784120779124
1.17375	-7214.81744309275	-2637.40550037473	7681.76402335833	159.91991177657
1.001604	-7271.48600032407	-2597.2275033035	7721.40527085744	160.344301615423
