EC-Lab ASCII FILE
freq/Hz	Re(Z)/Ohm	-Im(Z)/Ohm	|Z|/Ohm	Phase(Z)/deg
6999984	1.46994719840348	0.853545405080409	1.69978955304123	-30.1421923341321
5969734	-0.437693920719168	-1.18346287437609	1.26180836233599	110.296495506525
5091109	1.03055448522515	-0.721485704590852	1.25800801624896	34.9956605209058
4341796	-1.31512882324468	0.463901413963941	1.39454951278421	-160.570104282484
3702781	-2.62016844819703	2.6401128487129	3.71960731137928	-134.782763613913
3157797	-0.863259827813304	3.33690526421976	3.44675996737426	-104.504465155548
2693047	-1.07290088494823	4.37575281011299	4.50536668475879	-103.776694164173
2296687	2.35474502691505	7.84979088409158	8.1953670488727	-73.302043069416
1958656	3.18145696330118	9.37035844638558	9.8957205812961	-71.2464423878252
1670375	4.43183251562465	10.7804625439313	11.6558788646611	-67.6525073220876
1424531	5.95738355163129	12.0373673663871	13.4308835113186	-63.668846364102
1214875	7.59766215665119	12.9639400107518	15.0262507249473	-59.6270874856901
1036062	9.07163075941018	13.7143688786563	16.4431869895995	-56.5165970187501
883578.1	10.0375019109626	14.1801221675653	17.3731778699135	-54.706955659453
753531.2	10.5359128574382	14.5070191114923	17.9292794958619	-54.0104796228478
642624.9	10.7346558736095	14.7311625163439	18.2274514347935	-53.919029829167
548046.8	10.6630042849432	14.9491405992626	18.36236545321	-54.5002897827493
467390.6	10.3897276415432	15.1764818964858	18.3921734229484	-55.6046945807537
398593.7	10.1194599075641	15.7605063443125	18.72957631795	-57.296409766657
339937.5	10.0110905953893	16.1899584014498	19.0351434969576	-58.2693493985686
289906.2	9.99572159896885	16.3826215077668	19.1912672262891	-58.6108895402461
247234.4	10.1545507379631	16.5407949248144	19.409090587522	-58.4538418086007
210843.7	10.3037641388753	17.3987772538688	20.2209051567756	-59.3654749564334
179812.5	11.2494756016718	18.4006257670851	21.5669592185112	-58.5598962964795
153343.8	12.9874420215511	18.4785632275331	22.5860786595878	-54.8989824644911
130781.2	-55.039447856013	25.1783681029122	60.5251273490648	-155.41778130977
111531.3	-120.158631712943	100.743995504781	156.803856474877	-140.022691833503
95109.37	-47.6303397980136	18.3330219814222	51.0367413168744	-158.948175356028
81109.37	-13.1770817878956	17.3617074056459	21.7959713819813	-127.197547251515
69171.88	-12.3376144153022	9.90392117050058	15.8210108404034	-141.244524331619
59000	-31.0095322529704	10.2956666227391	32.674023960244	-161.632998288232
50312.5	-38.7789361085335	14.2481112158833	41.3136122716219	-159.82571751505
42906.25	-65.9277841839213	76.937014977904	101.320170751494	-130.593468103255
36593.75	-174.267554156696	125.387084893057	214.688382288692	-144.264642165533
31203.13	-91.8058588633795	236.531859616367	253.723543123652	-111.212884204058
26609.38	165.08847105278	340.938455362113	378.805007384073	-64.1629078708433
22703.13	414.020525198737	299.36337721009	510.912347570959	-35.869340944389
19359.37	890.505687833583	407.225559796589	979.200202520204	-24.5744749599483
16500	1276.14452766668	478.650604419434	1362.95680658072	-20.559839903558
14112.02	1877.57611418964	518.878341884446	1947.9545164742	-15.4484261174164
12011.13	2651.30991774972	605.170755976755	2719.49920460505	-12.8576885847513
10236.38	2935.30859521791	575.673568607512	2991.22660571771	-11.0960324407964
8750.684	2989.40285035077	511.772169023336	3032.8930338329	-9.71460254884623
7449.463	3013.78222840976	449.494379636961	3047.11806755231	-8.48292090623145
6363.206	3042.97528160286	392.704068469826	3068.21039856114	-7.35352941878138
5414.761	3068.26118267034	347.762358355387	3087.90630411133	-6.46641313500237
4620.567	3089.98319949153	307.288286640852	3105.22499414238	-5.67919719942458
3941.215	3108.09296236798	276.888777749166	3120.40209876305	-5.09083486101387
3361.769	3473.25290484626	-180.003954516581	3477.91419742704	2.96674280459308
2867.244	3571.15851371954	-379.444022884974	3591.26034932232	6.06505619951323
2442.658	3484.3294810836	-330.647330141726	3499.98279848318	5.42088089636324
2083.003	3123.37821507988	292.458773560548	3137.04058129125	-5.34931617592022
1777.843	3128.45464457032	289.903057834104	3141.85808815026	-5.29428186082452
1513.548	3257.89786953091	-14.1820643445154	3257.92873759435	0.249414601573076
1292.065	3182.62472745962	143.077182125564	3185.83917294681	-2.57403982364159
1101.762	3192.73080545417	169.55319323541	3197.22978239481	-3.03989461812861
939.101	3218.20735167923	86.7019343885914	3219.37506106837	-1.54323603808409
801.2801	3228.98468788618	17.8601420436348	3229.03408146728	-0.316910863304431
684.3433	3242.89835636334	5.90132268453903	3242.90372587801	-0.104264911501404
582.9476	3221.36732455278	-132.693414862104	3224.09909618859	2.35877385043299
497.0677	3154.77441472091	-259.311056167132	3165.4136904405	4.6989426153425
423.5089	3023.29093921815	-418.788116351119	3052.15851317645	7.88646038234436
361.5036	3203.56143569815	161.862148855141	3207.64792761369	-2.89244908617185
308.1262	3758.16855358166	458.299886858997	3786.00972838489	-6.95275690024327
262.7298	4385.58180001957	560.653143332066	4421.2735350565	-7.28518128340022
224.2111	5054.10742963537	581.511040672406	5087.45093349502	-6.56342634887392
191.2854	6618.35823039896	415.168935593545	6631.3671977181	-3.58945510873747
163.1722	6971.35270101323	132.194361596749	6972.60595696921	-1.08634173055512
139.1537	7332.47389145955	37.9348627911448	7332.57201960888	-0.296419486127813
118.6706	7399.35803519637	30.8587724278505	7399.42238264993	-0.238948725304098
101.1982	7543.52114827933	125.055048318027	7544.55764638639	-0.949751456984911
86.24196	5590.71329398704	143.774903485016	5592.56169911746	-1.47313579776543
73.61024	3971.64479218016	-2456.63858105395	4670.01450460002	31.7386303682831
62.69291	1620.82612303509	-946.913933984468	1877.15830964969	30.2941923076024
53.57697	1680.72923370507	-821.296354405228	1870.66257213591	26.0426678508152
45.65746	1711.78923114904	-678.089633169736	1841.20284664403	21.6099626800517
38.96512	1747.68666331126	-538.497047630252	1828.76672744846	17.1251068907754
33.18414	1784.65270296231	-392.947285835484	1827.40056901495	12.4173304121476
28.30617	1838.31469442858	-270.303665581899	1858.08099591461	8.36476554971957
24.17237	1888.93036741496	-133.607262622139	1893.64960686179	4.04588990411475
20.61345	1946.69965060376	-11.5869398700966	1946.73413357766	0.341025854760574
17.55618	2010.91965291735	137.113879032128	2015.5887641859	-3.90065598924719
14.98558	2073.60494226371	274.913300387522	2091.74921520493	-7.55208794268397
12.76553	2163.15266664607	402.802066509049	2200.33610250842	-10.5482733294954
10.8809	2244.14596709254	545.58616562793	2309.51410165478	-13.6643845124057
9.278505	2321.12938177708	683.608885606543	2419.70302215562	-16.4105253878442
7.923394	2425.78568866546	812.950908460953	2558.38335417147	-18.5274898492935
6.75822	2532.18945258747	961.335477584212	2708.53268842325	-20.789063128656
5.761429	2603.60091278558	1083.33548591937	2819.99175319895	-22.591765969054
4.919708	2751.04697218975	1190.95062902231	2997.7696449132	-23.4081792609139
4.191257	2832.96878265194	1302.69082609398	3118.12692363057	-24.6945038884503
3.564097	2960.19802340237	1429.06873223571	3287.09747029337	-25.7694471966291
3.051758	3123.19333752568	1556.51655063046	3489.5673651545	-26.4904458268658
2.604164	3286.12636767972	1698.48578861546	3699.11887866403	-27.3328885913585
2.214424	3406.36873429015	1812.85213877284	3858.7278772936	-28.0216812639309
1.892567	3565.10833266406	1951.50806055694	4064.28113373687	-28.6958978901952
1.607507	4741.65725386804	3222.69101458109	5733.15365995201	-34.202182729585
1.376413	3242.71728976047	2183.00975726583	3909.05960834947	-33.9485916094601
1.17375	3425.85004581531	2456.66814449077	4215.6454913297	-35.6442086379482
1.001604	3336.29224405702	2515.60204335688	4178.40873758137	-37.0167061178723
