EC-Lab ASCII FILE
freq/Hz	Re(Z)/Ohm	-Im(Z)/Ohm	|Z|/Ohm	Phase(Z)/deg
6999984	-3.15812729382144	2.22698972598671	3.86435651093817	-144.809983394939
5969734	-3.78184674978177	1.69955647447287	4.14618584349009	-155.800918187374
5091109	-3.93507676355064	1.05332634659702	4.07361332571853	-165.014595195094
4341796	-3.82111300862025	0.560883765240161	3.86205841783328	-171.649446462709
3702781	-4.21950183476947	0.377396529524212	4.23634558011027	-174.889007132158
3157797	-5.02476076412149	0.214283322752571	5.02932779594497	-177.558073724995
2693047	-6.20434921372228	0.191437925263379	6.20730196180639	-178.232674232982
2296687	-7.95830149430716	0.0989081061928529	7.95891610005798	-179.287947900054
1958656	-10.3164070581258	0.151947455594745	10.3175259930959	-179.156167607174
1670375	-13.4845547015767	0.329232190524278	13.488573287605	-178.601372574149
1424531	-17.5846497818375	0.758855231493046	17.6010161414687	-177.528967469003
1214875	-22.9967904002819	1.70722616471561	23.0600735014438	-175.754287994364
1036062	-30.2712651296228	3.27960648803303	30.4484040840282	-173.816659322791
883578.1	-39.6746581193847	6.13366122031568	40.1459873070232	-171.211706707229
753531.2	-60.1860454130996	8.92520369251939	60.8442217751254	-171.564877892147
642624.9	-76.4141760640573	15.9662095363439	78.0643718382924	-168.198235183738
548046.8	-97.6978419149929	26.7925664403911	101.305034086711	-164.664288799151
467390.6	-124.321560836779	42.731307406895	131.460317668852	-161.031335307565
398593.7	-157.731990050425	66.352051428397	171.119769208657	-157.18529881197
339937.5	-198.637308234458	100.717290199159	222.712264520149	-153.113115874636
289906.2	-247.128607666117	149.074559945795	288.610071116768	-148.900500981716
247234.4	-302.49679455559	215.101283681535	371.17768380905	-144.58389424898
210843.7	-363.262715707285	307.150387232829	475.711215970687	-139.784398686508
179812.5	-539.360456397234	354.010320292534	645.161226980244	-146.721026824818
153343.8	-614.942427175866	509.457634656703	798.562001507052	-140.359476425481
130781.2	-686.741295676217	701.61461368441	981.772210506374	-134.386219523903
111531.3	-751.037318499117	925.099799773865	1191.58159322809	-129.071233833152
95109.37	-803.571429687109	1207.51420813853	1450.45427555156	-123.642802498964
81109.37	-859.292141500859	1506.121918139	1734.00871299536	-119.706181375959
69171.88	-893.564195863389	1878.94579877486	2080.59950179334	-115.434208055464
59000	-912.677826233141	2307.0444054223	2481.01485345977	-111.583988967964
50312.5	-921.094887879287	2785.43805633708	2933.78270466104	-108.298133308668
42906.25	-936.814637944035	3358.90679195227	3487.10144717491	-105.584032233133
36593.75	-918.401687656626	3993.06388191491	4097.31873606923	-102.952723558995
31203.13	-1658.22903047099	4339.38820208643	4645.42931125893	-110.913571051881
26609.38	-1646.96012086176	5320.3735443414	5569.45709122863	-107.200288877418
22703.13	-1657.87222976091	6299.07092878602	6513.58848071396	-104.74545120418
19359.37	-1630.47152455493	7506.20794525816	7681.24957997338	-102.255204739203
16500	-1588.06614206942	8941.84584071857	9081.77081360035	-100.070688553708
14112.02	-1519.88934307916	10373.191949313	10483.9484371346	-98.335715054272
12011.13	-1376.99397745529	12396.170076768	12472.4153629563	-96.3385560677844
10236.38	-1256.74270744601	14397.4323442238	14452.1783942498	-94.9886675024562
8750.684	-1135.41893652891	16954.2636507264	16992.2403496352	-93.8313500520715
7449.463	-954.159351132325	19831.7374991438	19854.6778443343	-92.7545331719026
6363.206	-730.432028368946	22971.4509404945	22983.0609201563	-91.821242219414
5414.761	-374.730281668144	27002.5980201548	27005.1980667069	-90.7950748083347
4620.567	-96.1347173333357	31064.4788860011	31064.6276388867	-90.1773117136246
3941.215	1305.17249563765	36712.377534693	36735.5704936401	-87.9639184552548
3361.769	-6413.77565519259	40116.0774494313	40625.560772547	-99.0835968642562
2867.244	-5749.0875283714	47630.1164511213	47975.827252443	-96.8824649027021
2442.658	-4906.07400750588	56481.1494510106	56693.8251088646	-94.9643740919427
2083.003	-3703.85175650111	66507.0178519649	66610.0738732192	-93.1875746734625
1777.843	-1709.48408802363	78312.0236454849	78330.6797066015	-91.2505189596842
1513.548	805.744005286104	92459.6504373338	92463.1612178386	-89.5007058533547
1292.065	4018.01369852382	107164.516887219	107239.815897606	-87.8527646429994
1101.762	8145.84109190369	126135.895205739	126398.650255641	-86.304976455233
939.101	14525.0008887937	146906.175595199	147622.491778276	-84.3533676134584
801.2801	20664.9210014931	167850.885421938	169118.179676008	-82.9813628772381
684.3433	30663.1247913075	194530.046308582	196931.88197645	-81.0423591069564
582.9476	41102.3538873232	225902.722517522	229611.505669702	-79.6880014708261
497.0677	44980.298487535	259998.804252624	263860.958583914	-80.1848704707636
423.5089	13849.7658422657	272520.464316471	272872.166930141	-87.0906734796959
361.5036	33559.3352079688	320874.25635144	322624.421531741	-84.0293026845324
308.1262	67477.0042540733	376603.501418909	382600.762393498	-79.8419552303778
262.7298	106502.618752258	448604.625785749	461073.65797393	-76.6447361419888
224.2111	139310.607259309	474204.518667212	494244.242070011	-73.6283998295226
191.2854	170249.990084953	532959.405930982	559491.543720039	-72.2842981379251
163.1722	225928.86063339	613740.703995917	654004.20626209	-69.7904420388387
139.1537	391938.568232742	564778.579217542	687452.314572667	-55.2405684427922
118.6706	477556.837551971	470265.416164633	670231.374029249	-44.5592428541114
101.1982	513290.640652526	523557.050452563	733197.972487696	-45.5672990692867
86.24196	419638.598632966	499593.292080482	652449.240136313	-49.971069871396
73.61024	267519.821553104	-4058.30071837205	267550.602183074	0.86911566872938
62.69291	34116.8647188654	39758.3904169142	52389.7897188864	-49.366948901788
53.57697	47622.9736359044	91579.948961781	103222.258596528	-62.5248788303438
45.65746	168975.97235674	217704.800091391	275587.117290954	-52.182452047905
38.96512	533610.634906336	85072.6458368876	540349.576436247	-9.05833669030339
33.18414	463435.795635574	134889.023151426	482667.365007335	-16.2283248089926
28.30617	373301.319087921	-1031972.45361271	1097415.60944257	70.1131318690564
24.17237	701998.032636892	-96219.1393018066	708561.472699474	7.80459617257607
20.61345	148843.655281596	477645.808402131	500299.862084442	-72.6919576091607
17.55618	207051.854009563	485874.189405656	528151.681034341	-66.9190640485406
14.98558	952113.498701503	1589236.61219824	1852617.91094682	-59.0741259176094
12.76553	1681008.33423377	51258.9968311674	1681789.67309218	-1.74657933253382
10.8809	893506.763820663	1335449.26672096	1606791.54870158	-56.214774311431
9.278505	434336.484935797	1035014.7079229	1122454.28760512	-67.2349929767757
7.923394	781552.270420733	726223.210613487	1066875.86111673	-42.8984272820996
6.75822	941638.455176629	263286.635330336	977753.973457023	-15.6212473771617
5.761429	644092.762172027	-439939.42436902	780001.399611909	34.3345359802602
4.919708	898975.576166889	750947.250488612	1171357.69923666	-39.8732445012765
4.191257	351055.17037539	1409288.72244899	1452354.7899426	-76.0122480319439
3.564097	1588449.5292428	654967.64193302	1718183.49396418	-22.4078923534406
3.051758	-239845.712069281	1349664.31251428	1370809.87816424	-100.076704610556
2.604164	2297342.12578343	2373907.19150285	3303515.73278652	-45.9390340867675
2.214424	2055109.28303405	3051151.69734111	3678722.71928726	-56.037684516112
1.892567	2262759.48242794	704651.054816836	2369939.57399172	-17.2972291420107
1.607507	3126780.79567633	-220173.601777664	3134523.01939706	4.02785834934418
1.376413	2102941.18598152	3842078.10728532	4379945.86886397	-61.306140304321
1.17375	3179068.84396366	3090698.37698568	4433835.26669208	-44.1924868398703
1.001604	4246498.32220934	3274666.38902322	5362479.64657444	-37.6374371339611
