EC-Lab ASCII FILE
freq/Hz	Re(Z)/Ohm	-Im(Z)/Ohm	|Z|/Ohm	Phase(Z)/deg
6999984	11.5047678036468	92.1187268517696	92.8343660451601	-82.8811525588697
5969734	18.6156260804287	93.8092497523416	95.6384696315428	-78.7759672525369
5091109	15.2391365790675	99.5744301831853	100.73379983889	-81.2988150160569
4341796	14.3451925663035	109.578399647077	110.51339384427	-82.5416750652547
3702781	16.3447789663607	121.600129467502	122.693697009963	-82.3445202879502
3157797	15.7047903176919	135.886545053361	136.791058061051	-83.4074142936974
2693047	15.7180366062675	154.491894183022	155.289413815025	-84.1907048954207
2296687	15.9205190521863	178.002865954725	178.713410842575	-84.8890831519057
1958656	17.2440068768273	204.892611782951	205.616969475788	-85.1892557407747
1670375	18.4330324890213	237.482031094182	238.196330323033	-85.5616783076098
1424531	20.3126806170585	274.974066588703	275.723307484477	-85.7751623820755
1214875	22.0608677560223	319.055927658859	319.817708797377	-86.0446244331255
1036062	24.6684408875953	370.735085973726	371.554889549002	-86.193192389403
883578.1	27.2605217520766	431.568611169582	432.428724986023	-86.3856489127874
753531.2	30.0822819864373	502.909300780157	503.808206067247	-86.5768449290226
642624.9	77.3493222066287	665.122375006243	669.604877057933	-83.3666769944636
548046.8	95.9295563019605	765.642714899303	771.628956591616	-82.8584634301825
467390.6	114.407650304333	880.201215234194	887.605368250953	-82.5942725908477
398593.7	134.041393549279	1011.12329062498	1019.9693152389	-82.4485121277664
339937.5	154.962640048462	1163.38495111813	1173.66007186874	-82.4128741529093
289906.2	174.317655522201	1337.54300711222	1348.85430677355	-82.5746774342542
247234.4	195.947411488675	1541.34417999572	1553.7494229366	-82.7549872523819
210843.7	217.143074527752	1783.32869138206	1796.500024025	-83.0576808555495
179812.5	239.325488356199	2063.46688452487	2077.29927379464	-83.3842667987741
153343.8	261.341073082961	2391.87446266756	2406.1094325989	-83.7644815916229
130781.2	288.797102241769	2775.63086222244	2790.61470819332	-84.0598986307924
111531.3	316.977804180066	3223.96288893422	3239.5079313945	-84.3847657006315
95109.37	352.28168019257	3749.78099948493	3766.29259701068	-84.6329710174822
81109.37	397.375578289334	4363.22205854216	4381.27995936914	-84.796206693315
69171.88	435.943430320965	5077.1140388322	5095.79568249621	-85.0923685776181
59000	1112.49005788706	6412.63818659932	6508.4224387427	-80.1580560459515
50312.5	1102.86990375996	7380.21492834698	7462.16419098475	-81.5008399346201
42906.25	1525.66193955998	8578.6275486057	8713.23676778719	-79.9156948986111
36593.75	1641.14426342867	9779.81085191124	9916.55458274424	-80.4739849741866
31203.13	1785.9007177878	11265.1835012475	11405.8669416478	-80.9917096378668
26609.38	1933.6936809622	13009.2669651465	13152.1936657823	-81.5454733468607
22703.13	2119.68533747745	15040.8727267253	15189.5002653631	-81.9782283695231
19359.37	2334.59803539681	17440.5467735567	17596.1080852414	-82.3756891920053
16500	2570.4606092904	20245.0973317432	20407.6268516373	-82.764039985545
14112.02	2820.54134925897	23434.4997061204	23603.6274750098	-83.1369782143956
12011.13	3169.69148478584	27277.1523265904	27460.6988832539	-83.3717763188402
10236.38	3639.11221284536	31722.9069961369	31930.9562334615	-83.4558865231654
8750.684	3949.13093043197	36823.2170667446	37034.3752512484	-83.8786720801925
7449.463	9886.4099503263	48576.7314884662	49572.5724953674	-78.4961919611745
6363.206	12122.0952558119	54612.5106274324	55941.6795459556	-77.4852079316662
5414.761	13307.5319631557	63142.4603281784	64529.5335737521	-78.0988457302513
4620.567	13133.5685794644	71631.769779344	72825.8269115596	-79.6103083938064
3941.215	15897.9607169771	81457.7342342211	82994.6240519924	-78.9565062537826
3361.769	19046.6652114547	92800.3043420419	94734.7451659254	-78.4014820376394
2867.244	20433.063059792	107875.722925639	109793.81431909	-79.2744978300802
2442.658	22423.3672728922	124782.957863256	126781.678380427	-79.8127343828261
2083.003	27213.1966383484	145111.911422542	147641.541945284	-79.378546965676
1777.843	27794.0744926283	168054.78376539	170337.667364954	-80.6090311264989
1513.548	31940.9590130942	194722.488768038	197324.789356773	-80.6845469638972
1292.065	39505.0149868063	224949.758319088	228392.294040153	-80.0394537823594
1101.762	44222.1732226115	260092.383409317	263825.033899496	-80.3505698651154
939.101	54005.052349408	301046.022821759	305851.68552104	-79.829808525121
801.2801	107670.294107261	394011.353267275	408457.878779016	-74.7161029077989
684.3433	145935.492027128	435192.628032581	459009.576509144	-71.4618745187944
582.9476	163820.323412246	516155.981026687	541529.403737705	-72.3913266540556
497.0677	197425.868431433	567770.474112788	601115.866368677	-70.8263497324353
423.5089	216605.478199084	644879.808504929	680285.161239908	-71.4335704037149
361.5036	269785.113329121	751589.124313283	798542.559391805	-70.2542513739971
308.1262	310513.151582748	833566.267129011	889522.983964577	-69.5690511468002
262.7298	382230.990458287	974925.640118874	1047177.41277585	-68.5917570356455
224.2111	456601.942479661	1103888.40607373	1194594.05110699	-67.5285192552213
191.2854	554417.255921686	1244389.78083859	1362308.48941025	-65.9854293213749
163.1722	653531.31120439	1361330.40792314	1510074.05588624	-64.3558227604638
139.1537	827012.740070522	1520724.67335442	1731055.63295576	-61.4614118668015
118.6706	980396.863537321	1680514.77213431	1945586.77765744	-59.7411060869212
101.1982	1211134.76283903	1836078.01259398	2199552.20035539	-56.5899012390591
86.24196	1469318.26478193	1945289.97154542	2437836.99959964	-52.9354847484675
73.61024	1662364.48702906	2011787.81151075	2609740.57834847	-50.4326675894652
62.69291	1772586.0604751	2027901.79766997	2693408.07208706	-48.8433399615518
53.57697	2288135.34775672	2211488.26129378	3182175.93785981	-44.0241117326152
45.65746	2435974.80467822	2108690.83978382	3221886.14119359	-40.8809569417747
38.96512	3092283.15284127	2092055.60565366	3733485.20212586	-34.0799536431498
33.18414	3163405.31824453	2006912.12845347	3746308.78316663	-32.3916590152834
28.30617	3732229.13674054	1932693.10048999	4202955.73969281	-27.3768745612906
24.17237	3832825.65396562	1952280.15787974	4301389.34630985	-26.9923797737122
20.61345	3669136.10894261	1761932.65441737	4070253.85751906	-25.650489699204
17.55618	3827653.19346595	1707664.08070716	4191305.95184693	-24.0434977824667
14.98558	4170544.53683107	1591276.83922848	4463810.4476732	-20.8844204944996
12.76553	4267706.16538858	1514190.92946792	4528365.05650534	-19.5347897601792
10.8809	4384328.53663082	1452712.74544604	4618734.78756864	-18.3322086439791
9.278505	4436546.74841684	1419345.54300254	4658056.33513907	-17.7405781543049
7.923394	4533896.66497795	1328876.9411665	4724630.45046512	-16.3357658547355
6.75822	4605302.24103701	1330087.83486459	4793531.30580737	-16.1095964946855
5.761429	4752290.06528537	1609911.8601377	5017576.81177101	-18.7146064060274
4.919708	4714798.85159825	1446452.86938932	4931688.76901176	-17.0554867890891
4.191257	4750416.14620454	1570733.98642731	5003364.74966983	-18.296564939544
3.564097	4784867.45687481	1577321.48088164	5038144.46338235	-18.2446950703508
3.051758	4742022.11356195	1864405.97088257	5095368.81391064	-21.4631078675817
2.604164	4910860.81255156	1827525.96250763	5239885.97813865	-20.4122287867984
2.214424	4961201.21487878	1983699.13199591	5343087.09837263	-21.7936300308588
1.892567	5054209.11373342	2148434.22181567	5491884.86503629	-23.0292880005718
1.607507	5050926.83282667	2367453.39781456	5578234.26017518	-25.1132672817555
1.376413	5152721.94030198	2578829.5390746	5762022.66445327	-26.5870064040792
1.17375	5210310.92238243	2894615.78546634	5960380.89834606	-29.0545923882589
1.001604	5377796.05324591	3252416.58188618	6284815.35229441	-31.1649678350642
