EC-Lab ASCII FILE
freq/Hz	Re(Z)/Ohm	-Im(Z)/Ohm	|Z|/Ohm	Phase(Z)/deg
6999984	2.67433429001951	2.56339022159108	3.70446127296844	-43.786557701176
5969734	5.4500863735972	-0.2463812813758	5.45565259299768	2.58839986486096
5091109	2.66072891858014	3.38388030954259	4.30466309105355	-51.8221991046385
4341796	-5.72835696328587	-22.550898320587	23.2670816512145	104.252764796147
3702781	-4.18948172983482	-7.17133331176269	8.30540659046967	120.293405820189
3157797	-3.90488036702808	-6.4185442398093	7.51304204960883	121.315276047804
2693047	-3.40269670025509	-4.47802048067593	5.62414546924953	127.229976662719
2296687	-2.41104146320681	-3.92114206923523	4.60309418374519	121.586628859578
1958656	-2.31594031995449	-3.20568939711454	3.95474703064096	125.84611170014
1670375	-1.67951854020972	-3.52682117975861	3.9063090201496	115.464402931267
1424531	-0.855556383208653	-3.11829121948226	3.23353009176492	105.342530522486
1214875	-0.266123185394197	-2.77410061609414	2.78683615916297	95.4796923328833
1036062	0.50370608979209	-2.34698538769447	2.40042917723998	77.8870232333914
883578.1	1.07057960770581	-1.35638929371669	1.7279851308807	51.7164482843912
753531.2	1.0430019627044	-0.371662939457046	1.10724271719035	19.6129984992145
642624.9	0.610653632573632	0.449766862710895	0.758411556984843	-36.3728906322177
548046.8	0.182873843857257	0.862840511048205	0.882007137314124	-78.0335858373859
467390.6	-0.0392510120850171	1.1895456996953	1.19019309929662	-91.8898825632707
398593.7	-0.180851646853594	1.3365172766688	1.34869779750834	-97.7062063247617
339937.5	-0.062618459624462	1.71859783776169	1.71973823573382	-92.0866935658981
289906.2	0.21315317000585	1.67802786507132	1.69151168776316	-82.7607168303332
247234.4	1.32947743186347	1.47051965855479	1.98240720035778	-47.8836814913313
210843.7	4.08179937714235	5.1188282383774	6.54702136007281	-51.4308288235185
179812.5	16.5729281100651	-1.46940820877867	16.6379417785197	5.06677579023853
153343.8	8.06979763165599	-2.99099955878097	8.60626005745287	20.3367817043356
130781.2	-16.4143966192156	33.7227686113423	37.5054334621938	-115.954281846104
111531.3	-11.4728019486072	60.7382492315091	61.8122973546598	-100.696530353329
95109.37	-2.36383907123199	56.7265541624394	56.775784294881	-92.386178605413
81109.37	0.485415721998382	43.7044373033201	43.7071329238489	-89.3636543487594
69171.88	1.18776540659207	31.892714433939	31.9148244649078	-87.8671458836572
59000	3.95451225365285	19.7621031852558	20.1538802583767	-78.6842367095364
50312.5	5.86654304424988	6.87675214916573	9.0391397495056	-49.5325738116265
42906.25	2.2170806696299	-8.86099144098631	9.1341456093539	75.9526031254707
36593.75	-0.299843552763351	-13.0966519543094	13.1000839145575	91.3115389648656
31203.13	1.2635273548037	-12.6977687925105	12.7604793673431	84.3173285681446
26609.38	3.1371384007635	-12.9711472854366	13.3451226763202	76.4038073891363
22703.13	4.4730801627584	-13.3739866569151	14.102197177809	71.5069090014916
19359.37	5.30544308811055	-13.7134805225865	14.7039883842629	68.8496453392339
16500	5.5356191231264	-14.0030891042644	15.0575424136308	68.4304121205367
14112.02	4.89682042050346	-14.2257074585042	15.0449195054544	71.0053417476341
12011.13	3.84700188382075	-14.1530942795611	14.6666117825579	74.7936240974801
10236.38	3.00001308115629	-13.5563576873556	13.8843405401422	77.521590751657
8750.684	4.56418030895601	-12.1220232175435	12.9528062125288	69.3676564818117
7449.463	4.42989360866267	-11.653006102997	12.4666157645352	69.1856850860782
6363.206	3.47603115007662	-10.8063047604956	11.3516084821937	72.1687325506473
5414.761	1.8374421776614	-8.6810263935481	8.87335410099967	78.0490556978544
4620.567	-0.103999031055298	-5.15116597065795	5.15221570353231	91.1566111770623
3941.215	-2.49048447728168	0.766981051332528	2.60591113906138	-162.883020309869
3361.769	-4.91079450201153	8.89304020772553	10.1588418029424	-118.907764688444
2867.244	-6.68997969658216	19.2996711592074	20.4262853988243	-109.118207800839
2442.658	-7.94574850809958	32.1429906956523	33.1105235569412	-103.885155074791
2083.003	-7.38458360939957	48.6678524750404	49.2249117786564	-98.6279235297887
1777.843	-6.8839215582768	64.3538200545616	64.7209589826619	-96.1057060198433
1513.548	-3.9678734162581	82.4462708296286	82.5416960884614	-92.7553353128158
1292.065	0.397336589885823	101.81991254613	101.820687815725	-89.7764131443716
1101.762	4.8635086319272	125.68627253547	125.780335585788	-87.7840097075837
939.101	14.4601173178525	148.952710189456	149.652948068624	-84.4551822136531
801.2801	21.9885679222216	177.145738374586	178.505209289666	-82.9242389850636
684.3433	36.8187730261805	206.207208044314	209.468457521853	-79.8763899938651
582.9476	52.2802243310561	239.196244517589	244.8429399583	-77.6709608488476
497.0677	69.5806081163996	277.134108206708	285.735498245099	-75.9059643609471
423.5089	91.0625698985541	327.532505138989	339.95578177044	-74.4626836750125
361.5036	118.806537550006	367.991410814054	386.69454585957	-72.1072541792297
308.1262	148.437656442745	415.707613350322	441.414269873137	-70.3497634384454
262.7298	187.691991715713	466.794334095866	503.115527586075	-68.0955755850622
224.2111	237.015335458625	520.688783870213	572.095340735096	-65.5251723245463
191.2854	293.988912523091	579.271652590777	649.603824020271	-63.0915340897282
163.1722	357.43852329073	642.590165515925	735.312463344694	-60.9151539049237
139.1537	441.658074785146	697.257774823398	825.36674246943	-57.648950698001
118.6706	530.21729966544	757.355165711047	924.509184320912	-55.0044926424644
101.1982	630.950122684503	812.149350572752	1028.43795386563	-52.1567491612154
86.24196	739.433349076729	858.222923343235	1132.83196630332	-49.2522542103588
73.61024	861.155470803124	901.965134273237	1247.04845468758	-46.3259467562414
62.69291	993.894041523164	941.507047995988	1369.03648132596	-43.4495095486123
53.57697	1122.61032348148	968.997847858899	1482.97362334681	-40.799608394022
45.65746	1256.47740515798	975.965671262622	1590.98851697793	-37.8381843566411
38.96512	1384.7457646964	1001.84438965582	1709.15564356482	-35.8852176048921
33.18414	1653.65653062687	1029.23865284085	1947.79673626037	-31.898204843805
28.30617	1768.44788804552	1006.78738700538	2034.95178698803	-29.6531041010525
24.17237	1893.16781618691	991.253579305036	2136.97637767266	-27.6363384988156
20.61345	2028.17340374269	976.862376273901	2251.16579971994	-25.7176231640595
17.55618	2160.26495085649	956.316518201269	2362.47453761593	-23.8782452951951
14.98558	2282.55898958339	934.539967562445	2466.46315437705	-22.2654894230388
12.76553	2409.55952996506	914.527831906675	2577.27342045375	-20.7838320239864
10.8809	2534.38111204542	908.652158449094	2692.34774242607	-19.7242898213407
9.278505	2653.58810019259	897.805634324312	2801.35409445293	-18.6925532604928
7.923394	2782.08205876458	895.724756302465	2922.72191984678	-17.8465868055601
6.75822	2907.63163047287	890.388942894275	3040.90680030722	-17.0258877893926
5.761429	3036.40567877449	900.606127349595	3167.15185027709	-16.5204989070416
4.919708	3146.52201379177	910.282666340859	3275.54809397097	-16.1350530095232
4.191257	3293.01419978795	923.106213856252	3419.95140346542	-15.6593834480056
3.564097	3431.53869257385	947.145430683625	3559.85143868341	-15.4301373045958
3.051758	3586.34805280982	984.592128918303	3719.04746087229	-15.3516879232865
2.604164	3720.03611092672	1021.67475423256	3857.78277901114	-15.3571310223402
2.214424	3874.9031532709	1075.32254954407	4021.34219294836	-15.5098414634765
1.892567	4011.98778060184	1117.14313822659	4164.61939953524	-15.5599294339268
1.607507	180876.366522833	12392.804067274	181300.417978426	-3.91951374915833
1.376413	934826.736437772	7354.15693154643	934855.663074825	-0.450728937878683
1.17375	1313360.27649894	130291.306776932	1319807.19823276	-5.66546454699089
1.001604	1582884.05581823	280191.577220071	1607491.60312229	-10.0381346270228
