EC-Lab ASCII FILE
freq/Hz	Re(Z)/Ohm	-Im(Z)/Ohm	|Z|/Ohm	Phase(Z)/deg
6999984	15.4662913265011	102.72039429018	103.878224717822	-81.4374708024786
5969734	16.9778640170727	94.5990303316867	96.1104802104203	-79.825339454319
5091109	13.5592117670037	99.9886413463154	100.903818669189	-82.2773696343609
4341796	12.0448526788377	110.008974891102	110.666404263651	-83.7515900412325
3702781	14.9353189187496	121.615006189651	122.528663918749	-82.9986662026511
3157797	13.5069514495434	135.263952244845	135.936656257082	-84.2975615242126
2693047	13.314304889766	154.141443585434	154.715401125095	-85.063205025846
2296687	13.7693960800463	177.981676614788	178.513510634406	-85.5761741398266
1958656	15.2822682906878	204.888584490862	205.457732341174	-85.7343104912827
1670375	16.4209043364682	236.974688777286	237.542941844878	-86.0360873619781
1424531	18.4559050738338	274.932377554518	275.551143455937	-86.1595597668288
1214875	21.1764825052153	319.248149809086	319.949721937398	-86.2049953199827
1036062	23.0978575395178	370.915048371698	371.633534724054	-86.436642156554
883578.1	26.3927172494298	431.575168770079	432.381430941166	-86.5004696549316
753531.2	30.1573850183488	503.0591919122	503.962318470837	-86.5693391819063
642624.9	85.6236111985825	664.955092286289	670.445133886549	-82.6626264558068
548046.8	102.798695210865	764.483794505605	771.364404026232	-82.341483611636
467390.6	122.960196559683	875.975126924394	884.562961539881	-82.0096264566962
398593.7	145.1122752833	1005.98804470495	1016.40027475753	-81.7917879029875
339937.5	167.20764071045	1155.68766763876	1167.72101986916	-81.7674371966944
289906.2	189.098820912758	1329.21443807687	1342.59799883011	-81.9032281941404
247234.4	216.247638544941	1531.14883143621	1546.34400609461	-81.9611542272282
210843.7	242.213609478923	1767.19511984494	1783.71691257906	-82.1956085569957
179812.5	272.274320390598	2042.38800061094	2060.45675775633	-82.4065716171629
153343.8	305.901450264643	2367.37683787557	2387.05860627337	-82.637301721262
130781.2	344.814208328051	2742.10695162749	2763.70175171431	-82.8327949209607
111531.3	389.732469439375	3180.89328037673	3204.67993080138	-83.0147663166942
95109.37	435.19634666809	3697.90756356347	3723.42801848152	-83.2878952976331
81109.37	515.418314795994	4290.09708301319	4320.94769939482	-83.1492395112114
69171.88	594.738568071959	4980.25938889813	5015.64527703667	-83.1900341062247
59000	1350.53023053474	6251.9232184765	6396.12975425873	-77.8103614804029
50312.5	1449.48918420779	7161.9077262985	7307.11579045724	-78.5585297692847
42906.25	1883.59985230238	8346.02942249643	8555.94270228417	-77.2820943932923
36593.75	2099.67123490409	9451.53850438972	9681.95225120663	-77.4750665786923
31203.13	2335.77247058252	10902.4004170789	11149.8057332248	-77.9075351224571
26609.38	2678.37950311342	12488.7416800176	12772.720364625	-77.8955030087593
22703.13	3084.25015405861	14387.0583615216	14713.9405772431	-77.9002585584589
19359.37	3595.31652278005	16612.2553506284	16996.8623202477	-77.7880734221723
16500	4214.96983376971	19191.2328857653	19648.6485635849	-77.6128056326418
14112.02	4999.57898049693	22107.7105386296	22665.9801297464	-77.2571134334246
12011.13	6050.379873253	25539.854701635	26246.7383648195	-76.6723527077141
10236.38	7391.88020748299	29471.1002089076	30383.9701244793	-75.9196580522507
8750.684	9075.88256784046	33802.5612146598	34999.7827001262	-74.970725351955
7449.463	11223.3531899089	38922.8827618435	40508.6960950072	-73.9151652059855
6363.206	20516.5481930165	48332.3999411023	52506.6627564829	-66.9993354356384
5414.761	24551.0514371557	52975.5355287832	58388.0252383246	-65.1350453618418
4620.567	29600.5753496292	58832.4387938479	65859.319123879	-63.2914963602288
3941.215	35389.3813179943	66324.0989534304	75175.0916996769	-61.9163976519148
3361.769	43790.3290562476	72130.4065756524	84382.394322651	-58.7380861707651
2867.244	51545.6569051535	79523.8671776435	94768.1391432336	-57.0495623597808
2442.658	61084.3416704412	85631.0853969686	105185.453288818	-54.4981010839719
2083.003	73673.7870493701	91493.6630071824	117468.792743723	-51.1578087045607
1777.843	86017.399061328	95788.0391382838	128741.374014856	-48.0762468766968
1513.548	99838.8733120611	99046.5368145982	140634.338193726	-44.7717414411696
1292.065	113289.69451061	100886.743741572	151699.340621787	-41.6857048129257
1101.762	127980.771771287	99737.7541280902	162255.03857104	-37.9299378179534
939.101	141315.647959127	97344.7674661261	171598.706612673	-34.5608714980708
801.2801	153672.589560377	94711.8817878461	180514.834110627	-31.6464643773583
684.3433	164532.626240507	89124.7858874643	187120.850139915	-28.4437219758242
582.9476	175222.215208611	85839.1228305173	195118.373586204	-26.099642773963
497.0677	183914.82049733	80386.1331708343	200715.200233376	-23.6093447427843
423.5089	191027.96756435	76566.0177047572	205800.970500461	-21.8414318997066
361.5036	197661.523975085	71897.4847843516	210331.46787504	-19.9883717986945
308.1262	203074.82482025	68257.4526616061	214239.268855237	-18.5785117409499
262.7298	207548.017435361	65719.6066452867	217704.492923229	-17.5702721792803
224.2111	212639.778652183	62829.2610115462	221727.741846857	-16.4609743217054
191.2854	215540.297343378	62016.4412065851	224284.771571325	-16.0518767264041
163.1722	219069.70033497	61580.3884825295	227560.273005885	-15.7006478684109
139.1537	222334.514359906	62583.0361696254	230974.614821335	-15.7209248447806
118.6706	229820.800811086	56089.9407543068	236566.442969561	-13.7154522406857
101.1982	231837.705627254	59079.8064558838	239247.038187256	-14.2965460365074
86.24196	234644.221701624	63493.0437037131	243082.861133241	-15.141229065979
73.61024	237750.690278232	68633.2272558012	247458.906914506	-16.1022282574402
62.69291	241059.117937006	75488.4490521082	252602.462935063	-17.3881174370523
53.57697	245249.990955154	83124.1190628848	258954.006019378	-18.7233841194488
45.65746	249359.409970082	91235.7114110229	265526.025800303	-20.0965806078829
38.96512	254081.835916715	101499.574457459	273605.085767523	-21.7755188349547
33.18414	259441.524124634	112563.81249829	282808.267779185	-23.4545601944297
28.30617	265320.132492636	125150.27681812	293355.35531768	-25.2530346062997
24.17237	271496.735489862	140088.319310768	305508.125242141	-27.2930680245969
20.61345	279750.326531299	156281.007509567	320443.440411212	-29.1896729180389
17.55618	287628.673324711	175566.850179784	336977.703417576	-31.3996456183719
14.98558	296811.819080529	196896.089794594	356181.591498345	-33.5591063594861
12.76553	307737.125693691	221201.587089368	378988.496739768	-35.708597634965
10.8809	319786.617971288	249177.932071838	405404.887569343	-37.925743766893
9.278505	333096.629280088	280414.153565686	435414.126961582	-40.0920227057693
7.923394	348211.589722572	313687.093998678	468669.290820784	-42.0141700577183
6.75822	365924.69546324	351987.223904618	507736.042193131	-43.8878050731535
5.761429	387710.232860793	395269.30248891	553675.93965698	-45.5531298230131
4.919708	408113.075204976	445071.138721491	603858.096473093	-47.4803764993387
4.191257	435796.987774891	501220.246196595	664184.273941384	-48.9939533771579
3.564097	464732.883238578	562477.134598293	729628.110553005	-50.4356183221101
3.051758	497626.658467136	631430.562275656	803950.7734886	-51.7585664119113
2.604164	534553.673899979	706199.836035348	885700.761372777	-52.8763211265423
2.214424	579118.046777404	796394.89527144	984694.135921243	-53.9763084199462
1.892567	625863.39567769	887499.894770627	1085983.91022477	-54.8085754539974
1.607507	684764.989145244	996316.11565569	1208945.36380861	-55.4993792084307
1.376413	744319.230547231	1113390.04059724	1339271.63020186	-56.2366326513153
1.17375	817234.895898667	1243415.27016508	1487936.29203478	-56.6850752584083
1.001604	901829.422779472	1387786.39270818	1655067.18279855	-56.9828586132716
