EC-Lab ASCII FILE
freq/Hz	Re(Z)/Ohm	-Im(Z)/Ohm	|Z|/Ohm	Phase(Z)/deg
6999984	9.33448238312872	-30.559655858475	31.9534838092713	73.0146474393784
5969734	17.5685084092925	-20.7563880584639	27.1933839924516	49.7549387319168
5091109	-3.01867892265931	-15.82059139669	16.1060092691867	100.802584841208
4341796	-17.9548507082371	-13.49116657605	22.4585894378478	143.079020600069
3702781	17.3133129362037	-33.6797150113143	37.8691696247788	62.7942262898348
3157797	-34.8374264885361	-22.3026547791409	41.3648968878406	147.372938204118
2693047	-34.3008314644349	-23.8456040408267	41.7751106668009	145.193349455661
2296687	-34.0688772075872	-23.790222971617	41.5531359012158	145.07348668492
1958656	-34.8837979674919	-21.8423346722041	41.1578296873069	147.947442985296
1670375	-32.8561702744306	-18.8730826387778	37.890911488014	150.126286888619
1424531	-34.5614897163558	-15.6258213911982	37.9297095370291	155.671487021454
1214875	19.2854237800709	1.04714983552896	19.3138316538944	-3.10796429602134
1036062	3.66458197579644	7.48973577193173	8.33818343469882	-63.9283962452962
883578.1	3.42179469234902	1.92761790006518	3.92738967830283	-29.3940985297636
753531.2	4.4203786812398	-4.91919041950178	6.6134848657026	48.0571731116969
642624.9	5.66953892447128	7.48262946232087	9.38793988511256	-52.8490311467602
548046.8	7.79650822456203	-2.82686858625857	8.29317348785366	19.9297009204731
467390.6	22.0660266782135	20.1358635465758	29.8724376998254	-42.3813214128381
398593.7	24.6984957773723	13.6503045542403	28.2196121179649	-28.9284442705049
339937.5	9.079521023906	-15.3743235151672	17.8551820369486	59.4354331032189
289906.2	32.8879611331808	-11.2203087592412	34.7492923115035	18.8379814080529
247234.4	33.197822484198	-18.929518465801	38.2154692112949	29.6919449099845
210843.7	-8.79518534520701	-46.0254255107036	46.8582445114824	100.818455772133
179812.5	-46.1488513969242	-11.2676531246685	47.5044891793738	166.279170344727
153343.8	-44.8328145278888	-8.69091032327967	45.6674192476361	169.029195874016
130781.2	-45.8282765098849	-11.5074297894262	47.2509456860393	165.904513242491
111531.3	-47.5341199312744	-13.1996624719502	49.3327847076788	164.480655825811
95109.37	-47.1149685347757	-13.5894747377676	49.0356409531	163.910734706995
81109.37	-43.3758741267574	-13.4009387549557	45.3988063254352	162.831511404086
69171.88	-43.8185194689234	-14.8803167539427	46.2761977170347	161.243043212866
59000	-43.7645625567105	-16.2831928941447	46.6956026474458	159.59160695996
50312.5	-44.7743778880032	-18.8636093087091	48.5858073042872	157.154129907914
42906.25	-50.0245666112205	-22.6455592500734	54.9115526860152	155.644271526186
36593.75	-50.0740932926361	-25.1487517786808	56.0345833847752	153.332787893289
31203.13	-50.3113205394666	-29.4803979188385	58.3122871775581	149.631423240965
26609.38	-52.8324512320373	-33.7133926886531	62.6726475407329	147.457277591561
22703.13	-53.1792312908189	-39.1552410934992	66.0391061854448	143.636222055834
19359.37	-50.2211634882439	-40.4045661460736	64.456917608317	141.182186523509
16500	-51.719107898735	-46.037603631788	69.2410793532178	138.3262210979
14112.02	-53.5123221594402	-52.3740517016576	74.8772990601532	135.615901543813
12011.13	-55.3912919435732	-60.0884175138143	81.7240059131503	132.670783885282
10236.38	-58.0202786658143	-68.722757398378	89.9398138807006	130.173260856306
8750.684	-60.5749992475879	-78.2927323086738	98.9903150121411	127.729080198058
7449.463	-63.9149366694321	-89.8173316040389	110.237344788086	125.436045806165
6363.206	-67.3978022954966	-101.91876174212	122.187960737995	123.47624366792
5414.761	-72.3301399667698	-116.747278181769	137.337453414806	121.780059411214
4620.567	-77.1516865901379	-133.09960434205	153.84371101775	120.098886648742
3941.215	-82.5078425755987	-151.790066408917	172.765066917196	118.5269769378
3361.769	-90.2496854633601	-173.274894511591	195.369380390681	117.512612457301
2867.244	-99.1677279742976	-196.639920650311	220.230553431954	116.762324224577
2442.658	-108.260059687894	-223.184266998311	248.055351805196	115.876646064864
2083.003	-120.747489781968	-254.883399635415	282.038124547646	115.348608160871
1777.843	-133.056222186567	-288.162829038519	317.398447226895	114.784645803124
1513.548	-149.07163601686	-326.971797546634	359.350676993407	114.508995807886
1292.065	-166.312743526845	-369.471565118688	405.177943736674	114.234262545121
1101.762	-188.20680156882	-418.482498411424	458.856624266701	114.215183050543
939.101	-210.624068650094	-470.004195863061	515.04023379111	114.138693184893
801.2801	-238.910989506921	-531.693497565982	582.903453636297	114.196275443304
684.3433	-268.425295729975	-597.656964756386	655.168670579982	114.186248681889
582.9476	-306.849585320441	-671.356602331464	738.157405642844	114.563197615306
497.0677	-339.763576486003	-741.080474250557	815.25428991327	114.630061789997
423.5089	-394.205917797222	-842.572312764342	930.229223290368	115.073015461413
361.5036	-438.760191929765	-950.55739941008	1046.93355834814	114.777197351787
308.1262	-503.8702815647	-1063.69466816344	1177.00110778343	115.346831991706
262.7298	-566.238135171826	-1187.09187627925	1315.22345951213	115.500957638596
224.2111	-635.788129761308	-1345.83737830139	1488.45718607508	115.286556831658
191.2854	-703.765212819297	-1491.1751290991	1648.90531578326	115.26512821012
163.1722	-798.504716490722	-1655.64766494558	1838.1455254407	115.7476159694
139.1537	-886.542597612588	-1841.8587973366	2044.11389279264	115.70292526138
118.6706	-1003.45999297479	-2128.26273129167	2352.96285795293	115.243527701244
101.1982	-1138.04937554337	-2320.76971133204	2584.78788959769	116.122215775857
86.24196	-1255.7880623274	-2584.69087509211	2873.60932927015	115.913086180634
73.61024	-1421.05526076782	-2919.69077512288	3247.15140954246	115.952849451616
62.69291	-1060.95983372032	-3445.7932675492	3605.43021170224	107.113600363015
53.57697	-1792.52814899703	-3526.61973905189	3956.03386598461	116.943550775177
45.65746	-2043.37892523217	-4242.89513873289	4709.30531929776	115.715473037093
38.96512	-2228.65597299073	-4595.37864616019	5107.29011781515	115.8723488814
33.18414	-2473.30101625901	-5163.41785886887	5725.21631925938	115.5946362381
28.30617	-2578.759910908	-5902.21085416833	6440.97008572223	113.601201477281
24.17237	-3077.88592262382	-6546.21421682307	7233.69216411801	115.181877442488
20.61345	-3456.26572719294	-7054.63867019943	7855.80674049723	116.101531999452
17.55618	-3963.0328396871	-7828.14358050136	8774.13592357578	116.851018091263
14.98558	-4214.36356020134	-9064.2379710968	9996.06273560876	114.935792069479
12.76553	-5426.91712859246	-9166.1008574613	10652.1751041636	120.628242355663
10.8809	-5168.70729014339	-10074.2314901626	11322.7944946716	117.160644483752
9.278505	-5538.89145965617	-12577.6473497638	13743.2358437477	113.767531125207
7.923394	-6697.24466479224	-14821.0673930724	16263.982438815	114.316940354958
6.75822	-7003.66504453551	-17017.7152265058	18402.552963828	112.369685992427
5.761429	-9420.99670324191	-18325.4115579147	20605.2393252165	117.207455135614
4.919708	-9622.20231844198	-19783.9399348595	21999.7967445874	115.936634746014
4.191257	-10191.55232244	-22103.483557787	24339.920380527	114.753648786407
3.564097	-10068.7695906286	-24066.7929079513	26088.1322049583	112.702860950295
3.051758	-10782.3540875599	-30561.292758683	32407.5882279359	109.43339188394
2.604164	-14974.6450028801	-32946.2147526594	36189.6816715847	114.44264729521
2.214424	-17162.0152726428	-35180.910661603	39143.7254639631	116.00412917428
1.892567	-20676.5958387898	-47010.1414452889	51356.3532017873	113.741461545529
1.607507	-24861.8607894828	-50468.4508762516	56259.9027351118	116.225863840996
1.376413	-25069.1444148352	-56283.7016755812	61614.2603298756	114.00851717384
1.17375	-31286.0035611132	-66045.5921453245	73081.0116285519	115.347061174824
1.001604	-34482.6907629263	-69244.8941898631	77355.7453174419	116.47246487602
