EC-Lab ASCII FILE
freq/Hz	Re(Z)/Ohm	-Im(Z)/Ohm	|Z|/Ohm	Phase(Z)/deg
6999984	16.9106266751132	103.095269365316	104.472981483502	-80.6847761470152
5969734	22.5214874496944	90.351372509423	93.1159917054168	-76.0033671861193
5091109	20.108032761887	95.2753571746785	97.3741581032447	-78.08251643309
4341796	20.4570997129028	103.572751647739	105.573707960589	-78.8270750878626
3702781	24.8607351370749	113.796993653846	116.480950872704	-77.6764612436808
3157797	25.5945987840507	126.211347198581	128.780385341081	-78.5363563026132
2693047	28.8411268511505	142.476528807677	145.366336746611	-78.5564098254428
2296687	33.0412317385525	163.232800092661	166.543297736328	-78.5569254874584
1958656	39.6985844314761	186.494032806	190.672499008401	-77.9829363682963
1670375	48.1575790651844	213.988835338653	219.340771565645	-77.3170448187953
1424531	59.2329804234905	245.094422442293	252.150395363899	-76.413604967433
1214875	73.4587493746364	280.793959960465	290.243752404707	-75.3393663973422
1036062	91.9110991105775	320.890976026066	333.794350813005	-74.0169798061803
883578.1	115.047029608898	366.673394902506	384.298318433948	-72.5802881348897
753531.2	144.718566253066	416.377861745163	440.810602379091	-70.8343138457876
642624.9	183.380259090225	471.176725660537	505.604416741174	-68.7341943435151
548046.8	303.790385233228	573.040176290548	648.585878510515	-62.0702368199075
467390.6	371.61282170936	623.182375703083	725.570370567687	-59.1917541529497
398593.7	449.865896016654	670.00990740702	807.027013440337	-56.1213363542011
339937.5	537.526064934876	711.400150267946	891.64143257569	-52.9257100884826
289906.2	631.57730262262	746.006424443712	977.453566415999	-49.7483783651625
247234.4	734.177004112232	770.45952166524	1064.24797293293	-46.3813517750306
210843.7	839.615029050975	785.903222442002	1150.04229141932	-43.1074709336531
179812.5	946.631434038734	789.011318275823	1232.33515420018	-39.8109926368356
153343.8	1049.85929654395	780.242741544938	1308.04559487554	-36.6192854024357
130781.2	1147.15250247321	763.301095092673	1377.89238538436	-33.6393032620705
111531.3	1237.09096106377	738.665806394489	1440.84045594303	-30.8413841906862
95109.37	1317.95543499044	712.881393913383	1498.40128483952	-28.4089319785039
81109.37	1389.25181800621	681.102191710231	1547.23004410657	-26.1171179867145
69171.88	1451.69791392886	652.992059841275	1591.79944199047	-24.2188171381988
59000	1507.02309946772	628.972676437042	1633.01109917651	-22.6537542729092
50312.5	1554.35256245369	611.881870365827	1670.45242724501	-21.487429925985
42906.25	1602.15589176836	588.952563052579	1706.97645650263	-20.1834295504688
36593.75	1635.85905181763	582.096180781307	1736.33833140142	-19.5873471787265
31203.13	1671.08045229951	589.676938982779	1772.06906480126	-19.4364931208465
26609.38	1702.44658085592	592.428941419011	1802.58048677413	-19.1872221024969
22703.13	1733.26476526092	608.339702693873	1836.9224100023	-19.3400070281465
19359.37	1763.83481553654	635.435879504598	1874.80452673355	-19.8119695527296
16500	1796.00892303323	671.515989883922	1917.4414661952	-20.5004413689368
14112.02	1828.45886613702	715.749533556885	1963.55779643533	-21.3778402885103
12011.13	1864.22876276202	771.363205541508	2017.51086112875	-22.478337514352
10236.38	1899.69858638693	841.269251721708	2077.6401692817	-23.8858484451365
8750.684	1940.2006627344	918.599128670383	2146.67253461467	-25.335483233019
7449.463	1984.20253773314	1013.86034934081	2228.22182888332	-27.0654949179489
6363.206	2029.32941339147	1121.22603493369	2318.47486280721	-28.9211161403052
5414.761	2083.51949667473	1252.12752101977	2430.81813838856	-31.0044995453819
4620.567	2136.52758319234	1400.06946664703	2554.39711579445	-33.2368806250825
3941.215	2204.6934889417	1564.11671460158	2703.17118900708	-35.3537419541287
3361.769	2273.79728305688	1760.07359540324	2875.41529968673	-37.7423055992039
2867.244	2356.02416103386	1984.7381476731	3080.59009967313	-40.111119389081
2442.658	2450.00802318929	2233.83556749214	3315.50307740542	-42.3575150164504
2083.003	2571.08252694293	2515.73242142915	3597.13427280398	-44.3765839090237
1777.843	2687.49824716019	2845.44147019976	3913.97291620952	-46.635120512072
1513.548	2817.63396455937	3222.586096476	4280.66844166176	-48.8355190876483
1292.065	2964.72077840864	3649.66653785795	4702.08837980401	-50.9121301315866
1101.762	3141.7565363962	4134.93485900209	5193.10315920827	-52.7721402106536
939.101	3334.46250861321	4693.39650938711	5757.30935556483	-54.6077938538497
801.2801	3563.48135132856	5316.08232204604	6399.93207745494	-56.1652249213081
684.3433	3818.97389310174	6025.34656306519	7133.678069638	-57.6327359923988
582.9476	4130.47871525988	6836.70490284191	7987.57712612263	-58.8612148009388
497.0677	4481.29529828394	7735.60953220715	8939.89163162484	-59.9159728059951
423.5089	4885.10530141234	8735.24183367509	10008.4316303142	-60.7842903445159
361.5036	5339.71303018465	9915.73199203326	11262.0724639187	-61.6971267037183
308.1262	5879.72955593395	11223.4355297021	12670.3087863044	-62.3508715479625
262.7298	6502.08982321099	12693.9216971876	14262.2866372625	-62.8775343532468
224.2111	7222.20536425276	14317.8063660133	16036.203710919	-63.2326535946689
191.2854	8038.84097922154	16163.0653923043	18051.8045404086	-63.5561455657998
163.1722	9021.74900505141	18166.4220577789	20283.2651585365	-63.59023655461
139.1537	10056.4248908364	20523.5408230126	22854.9209033612	-63.8953938762967
118.6706	11388.699760813	23025.6731567748	25688.209485376	-63.6825973511851
101.1982	12792.349289163	25841.6536254112	28834.6191657126	-63.6632886734892
86.24196	14427.6129487085	29080.9277674445	32463.1541168301	-63.6130975706358
73.61024	16257.3944586102	32580.1088326895	36411.0747731064	-63.4809162072991
62.69291	18406.4601249419	36584.8295087547	40954.2125368774	-63.2922412053625
53.57697	20796.9053051311	40834.4515200077	45825.3608955833	-63.0103459701581
45.65746	23534.3654887573	45635.5717689056	51346.5847903572	-62.7197417764678
38.96512	26603.7121289856	50967.0758208581	57492.6109754204	-62.4364141467756
33.18414	30080.4559666526	56824.8097251809	64295.3562200626	-62.1053018369695
28.30617	33977.8375335548	63218.5729385362	71771.0346020013	-61.7434789893444
24.17237	38419.9461503897	70387.0650515366	80189.9693775231	-61.3726034085562
20.61345	43417.8608617106	78238.7786807449	89478.5847634028	-60.9723350928778
17.55618	49113.7072740194	86935.4843001636	99849.5602028475	-60.5359704361061
14.98558	55373.6880147692	96241.244960064	111034.330528085	-60.0854537217948
12.76553	62441.998097999	106620.450367883	123559.392856718	-59.6447345857802
10.8809	70919.0145292907	117656.632931703	137377.545088822	-58.9200002707192
9.278505	79581.2144030429	130173.209120319	152572.061854539	-58.5605265500541
7.923394	89152.0380964435	143838.378237345	169226.371912593	-58.2090742385209
6.75822	99987.6947995061	158160.34839478	187115.565669127	-57.6992563924134
5.761429	112350.952076749	174470.301840144	207515.355231228	-57.2203037827297
4.919708	125581.752460425	192531.802444354	229867.943618729	-56.8849974218633
4.191257	140385.178208267	210632.744986744	253128.725199685	-56.3168352834777
3.564097	156752.13892286	232356.267925594	280286.760838257	-55.9956179547935
3.051758	174817.59059101	253494.622002597	307929.721469503	-55.4086742598835
2.604164	193381.610646228	278899.903241185	339384.153083304	-55.2636128053123
2.214424	215244.249001524	304649.420562081	373016.562872269	-54.7576108581205
1.892567	239032.969995434	333709.601776425	410486.125298552	-54.3863399364537
1.607507	265586.518862553	366743.323597311	452809.965001579	-54.0888659787997
1.376413	291546.268867779	399367.909332311	494463.298835398	-53.8698356728771
1.17375	323224.998383492	439260.368247211	545365.997008141	-53.6529081220626
1.001604	355858.424809675	478219.161494312	596094.610719092	-53.3458657692299
