EC-Lab ASCII FILE
freq/Hz	Re(Z)/Ohm	-Im(Z)/Ohm	|Z|/Ohm	Phase(Z)/deg
6999984	13.5153255486751	47.5963662471017	49.4780567990994	-74.1477287750291
5969734	22.9656920609773	23.5125870803803	32.8673814450148	-45.6741499685006
5091109	21.7307449898928	-2.67729184692079	21.8950489711564	7.0236145907671
4341796	2.77917848969249	2.95604300976414	4.05734190735079	-46.7663450358908
3702781	4.79149813744362	-1.33232584591211	4.97328327775636	15.5391425251194
3157797	7.40041173984562	30.4683551972543	31.3542144271754	-76.3478867083315
2693047	6.19769433708812	-36.7256652445675	37.244944660343	80.4212155612551
2296687	5.02402601017023	-31.655564563692	32.0517644630829	80.9818547637906
1958656	13.2130712698636	-29.8041442027113	32.6017217956124	66.090853555679
1670375	26.6021724825459	-12.2835934291	29.3012328805897	24.7852031074195
1424531	0.306051096072601	-29.5767379716356	29.5783213911168	89.4071418454098
1214875	23.7545388170565	9.35013794023416	25.528478096284	-21.4853329004548
1036062	-4.6195630148151	-16.6838652234161	17.3116065470817	105.476774533885
883578.1	-10.1781291129181	-22.9873048821137	25.1398189727468	113.882409163131
753531.2	15.1259236188088	-19.0703999605171	24.3407830600441	51.5798723347659
642624.9	0.261487011252731	-2.44978075395727	2.46369665330643	83.9073772657285
548046.8	0.474341567222683	-1.0378217108029	1.14108449547311	65.4369941198757
467390.6	0.377560658630527	-0.884621418989057	0.961824883167269	66.8869784120133
398593.7	0.338481854063111	-0.764274113787515	0.835873726429832	66.1123967687759
339937.5	0.309309420392921	-0.667602488668279	0.735775373616081	65.1410614186906
289906.2	0.284117606456834	-0.591974877285079	0.656625517045633	64.3613804510766
247234.4	0.260139259331931	-0.520334820542575	0.58173942595877	63.4374287106486
210843.7	0.231759454352808	-0.462164299142879	0.517018649648288	63.3678143385402
179812.5	0.227592583308834	-0.411792414156869	0.470501196953133	61.0711130167583
153343.8	0.213634718098423	-0.372425771682777	0.429349214731441	60.1601101225003
130781.2	0.197781509311769	-0.337131095183432	0.390864299681132	59.6015335680273
111531.3	0.181264965084412	-0.307603101955254	0.35703873165183	59.4899213895358
95109.37	0.16372365266061	-0.282084839826603	0.326155317756023	59.8688756752353
81109.37	0.145835266157632	-0.258992987396366	0.297229359881829	60.6167574852196
69171.88	0.128491101935608	-0.236420813315315	0.269081333884946	61.4765952483724
59000	0.111889588455682	-0.213008980667701	0.240607784267	62.2879034862777
50312.5	0.101297318325727	-0.189128695066416	0.214547920049366	61.8265005738588
42906.25	0.0875933090700923	-0.191929390769125	0.210972696894305	65.468850573285
36593.75	0.0682988538999579	-0.16979117138815	0.183013046872096	68.0874395843714
31203.13	0.0547662509817208	-0.15217634395884	0.161731202639664	70.2068677643398
26609.38	0.0440918028616341	-0.134165030657734	0.141224440274975	71.8074826608173
22703.13	0.0349874957399506	-0.117719294036891	0.122808619594461	73.4474597578202
19359.37	0.0279300909930724	-0.103311966173771	0.107020803293433	74.871890132295
16500	0.0219633076381908	-0.0903793843963553	0.0930097844652591	76.3411831021285
14112.02	0.0179066035711877	-0.0788752858947796	0.080882366288573	77.2092714575312
12011.13	0.0141439549832631	-0.0689893862304239	0.0704243343952868	78.4139725175732
10236.38	0.0114539539439792	-0.06007219877756	0.061154412162341	79.2049980495308
8750.684	0.00954138174194469	-0.0520108958643198	0.0528788355975681	79.6046934074141
7449.463	0.00790773772548216	-0.0446942574329009	0.0453884232311878	79.9665162550392
6363.206	0.00682169619743086	-0.0382961023334867	0.0388989330566653	79.899823967686
5414.761	0.00592369323688762	-0.032832120702088	0.0333622285131138	79.7725127456079
4620.567	0.00524944550982004	-0.0281345805177399	0.028620120528568	79.4310871954895
3941.215	0.00468925652489831	-0.0241744512632505	0.024625052703204	79.0223391044431
3361.769	0.00432847329762285	-0.0207511105971862	0.0211977421463911	78.2176198811819
2867.244	0.0039615768907421	-0.0179378276102662	0.0183700775947433	77.5461133452886
2442.658	0.00365027099302476	-0.0153166484689652	0.0157456088686456	76.595289884269
2083.003	0.00347190531890593	-0.0131635720927002	0.0136137341234197	75.224660246757
1777.843	0.00328168563587843	-0.0113963385319338	0.0118594263161069	73.9357343908307
1513.548	0.00333849765764686	-0.0097543244228675	0.0103098211214678	71.1060677280181
1292.065	0.00279912643046035	-0.00874743938530634	0.00918437828997207	72.2556502481686
1101.762	0.00290249323246972	-0.00730299779488983	0.00785864134292298	68.3252170693507
939.101	0.00308728618690949	-0.00659446631737951	0.00728136814142335	64.912737737331
801.2801	0.00273867996941197	-0.00550633796932982	0.00614980697317742	63.5556871995636
684.3433	0.00251657684904541	-0.00463672157260173	0.00527563702115504	61.5091392511359
582.9476	0.00251473167554421	-0.00402948543863277	0.00474980297487579	58.032431350282
497.0677	0.00246857174814843	-0.00366707318067736	0.00442055111815255	56.0526559032988
423.5089	0.00235472949149788	-0.00324373964178048	0.00400831608556362	54.0229586436258
361.5036	0.00228099090089679	-0.00277736484811803	0.00359397760003253	50.6044632547572
308.1262	0.00220216421591274	-0.0024339780247754	0.00328234310499926	47.8624877824894
262.7298	0.00219844997914178	-0.00211694126197855	0.00305198666731292	43.9179311940215
224.2111	0.00225691599113292	-0.00218160323441998	0.00313895881837644	44.027898983641
191.2854	0.00204373814131779	-0.00169847857015951	0.00265738500100535	39.7287731932343
163.1722	0.0019539246031932	-0.00130301296740607	0.00234854511308428	33.6981173797407
139.1537	0.00187869747511133	-0.00135351800008148	0.00231549458637551	35.7710729529461
118.6706	0.00203163545136519	-0.00114301623548395	0.00233110032427258	29.3624941777842
101.1982	0.00181651680061385	-0.000862184706213544	0.00201074507447884	25.3907106348917
86.24196	0.00184602262546749	-0.000937799216273568	0.00207057163695951	26.9310561008994
73.61024	0.00172464079823962	-0.000810630263289276	0.00190565141269672	25.1748602447321
62.69291	0.00172837919509542	-0.00080655199552995	0.00190730720219163	25.0162139608383
53.57697	0.00180748049606993	-0.000621576536415503	0.0019113720554344	18.977639870616
45.65746	0.00144469505706864	-0.00069522086930274	0.00160327036554432	25.6979420637968
38.96512	0.0016551380650742	-0.000663958513518515	0.00178334599058379	21.8581851856362
33.18414	0.00161293986837578	-0.000517205078418823	0.001693834735781	17.7789605970008
28.30617	0.00154112566870822	-0.000431546094537818	0.00160040631042938	15.6433119818522
24.17237	0.00141557369385561	-0.000556198280642139	0.00152092255231004	21.4505429031345
20.61345	0.00148456788964277	-0.000480368405568596	0.00156035112203212	17.930261561961
17.55618	0.00147876685232595	-0.000337992230941088	0.00151690149703747	12.8745736509738
14.98558	0.00149194943580217	-0.000443890618248097	0.00155658343816163	16.5689997843994
12.76553	0.00113669935013563	-0.000464698628641877	0.00122801882235592	22.2354320571063
10.8809	0.00133761467760148	-0.000497310150144744	0.0014270705697939	20.3945702275525
9.278505	0.00177034673875898	-0.000627465782002546	0.00187825474390952	19.5159050712517
7.923394	0.00100582068745425	-8.73545787863999E-05	0.00100960689267947	4.9636296361279
6.75822	0.00130163084575709	-0.000242391264314969	0.00132400769772782	10.5488577464465
5.761429	0.00121219815919781	-0.000206385935646536	0.00122964203392502	9.66238890497596
4.919708	0.00115200845511378	-0.000632929430023183	0.00131442882806301	28.7850042864939
4.191257	0.0012283346258908	-0.000165930826666223	0.00123949142489992	7.69328766171601
3.564097	0.00136284361859075	-0.000787217635821647	0.00157386604731221	30.0119647568768
3.051758	0.00116870536617879	-0.000163052723740143	0.00118002475552599	7.94239252230503
2.604164	0.00108920449643825	-0.000332352723031572	0.00113878214227648	16.9687008718606
2.214424	0.000732861869097457	0.000783635628719802	0.00107292652021287	-46.9176001642274
1.892567	0.0011623848860495	-0.000426323449754891	0.00123809947384175	20.1413286116826
1.607507	0.00179581865855391	-8.79388601626409E-05	0.00179797049406742	2.80345900030552
1.376413	0.00121130415679739	0.00077975479173711	0.00144058158238665	-32.7706648671845
1.17375	0.000394412192800255	0.000786118828699999	0.000879513382880649	-63.3561259995196
1.001604	0.00140068739439998	-0.000409358150743858	0.00145928039540434	16.2912756819436
