EC-Lab ASCII FILE
freq/Hz	Re(Z)/Ohm	-Im(Z)/Ohm	|Z|/Ohm	Phase(Z)/deg
6999984	2.28926922527095	1.87040212825883	2.95620664148631	-39.2498606905963
5969734	5.18003942391087	1.42660710137172	5.37289644930507	-15.3978052962166
5091109	8.15859202161686	-3.574043473129	8.90709888364367	23.6568372144227
4341796	4.06108134758638	-5.22356880889283	6.61649853116829	52.1365982355607
3702781	1.1519531804145	-6.70651511820857	6.80472932309781	80.2536254061793
3157797	2.6949383250923	-6.33505267542228	6.88444514659143	66.9550457980748
2693047	1.91941704066981	-9.15997536786051	9.35891609727456	78.1652515387069
2296687	-0.102379036511151	-9.11401309234449	9.11458809352039	90.6435847673021
1958656	0.394966513201158	-9.10427946395299	9.11284275647871	87.515922755242
1670375	1.64915749761292	-10.4264944952807	10.5561123484004	81.0119923438144
1424531	3.53311954429112	-15.77730037462	16.1680592782571	77.3776064577406
1214875	11.2195613286184	-15.9534601347785	19.5036265006946	54.8824984687252
1036062	-7.89505293149831	-15.1550374964726	17.0882129642233	117.517368007
883578.1	12.0470862506493	-5.87128177770271	13.4016505268481	25.9828052203799
753531.2	5.83994120286774	-5.41476518782881	7.9639560076808	42.8365306514916
642624.9	12.5715260091975	4.12390472405125	13.2306408149032	-18.1613182520034
548046.8	-0.513784280278457	-8.26077052809113	8.27673268895645	93.5589659162663
467390.6	13.7464674060558	-10.1354987621871	17.0790427513972	36.4019682403205
398593.7	3.59967584209809	5.82839855782272	6.85039385123327	-58.3001172321671
339937.5	8.74878803508319	1.27143625132808	8.84069240636761	-8.2687435528336
289906.2	2.4288802227838	-5.0098049278771	5.5675492410945	64.1347183473229
247234.4	3.78836079140217	0.101864807213235	3.78973005961927	-1.54024863614028
210843.7	-0.491219585315643	3.11065764731253	3.14920429311621	-98.9737608549296
179812.5	2.00129053254012	1.96276754143723	2.80314470146553	-44.4432131710195
153343.8	3.84398995901965	-0.448673844421091	3.87008617781458	6.65748883010055
130781.2	4.02331801852684	-0.748978193684568	4.09243890764636	10.5454314588316
111531.3	2.81067220481651	-1.39347116651483	3.13713884532328	26.3712304984329
95109.37	2.12069373773412	-2.48735441822998	3.26868076311421	49.5494187708033
81109.37	4.87935154926348	1.90587271210105	5.23836065348992	-21.3355961102753
69171.88	5.1320188915466	-1.06138076561595	5.24062467963607	11.6849127330539
59000	5.48026512842711	-6.15429374703251	8.2406697180883	48.3156286435025
50312.5	5.90642917975906	-16.6815145498206	17.6962943389678	70.5024566908478
42906.25	16.9186941400827	4.18758792672346	17.4292313097769	-13.9020244875142
36593.75	64.0777630662653	-39.8598254541989	75.4636694364622	31.883840791881
31203.13	186.246689464966	134.935647034506	229.990126260412	-35.9233135686903
26609.38	613.518232502935	-72.2432776813774	617.75700140401	6.71579301533306
22703.13	6.59157173676082	13.1642237506007	14.7222825987258	-63.4020199189096
19359.37	9.71158311788187	0.631958510634857	9.7321230065537	-3.72313934037078
16500	28.2621877082403	-15.0954693360771	32.0409807673276	28.1076764994021
14112.02	9.36545706059443	0.861773471623836	9.40502203454265	-5.25733353148991
12011.13	17.2702828880342	-11.6206720055378	20.815923926	33.9354651463737
10236.38	34.2102449197043	1.02139772289692	34.2254891970077	-1.71014265451027
8750.684	-654.625006173799	-2933.87152879576	3006.01664103618	102.578181048318
7449.463	20.084564028935	-20.4889917674348	28.6912616641095	45.5710920498904
6363.206	2.27761189813325	0.625159142057944	2.36185095029656	-15.3485538441471
5414.761	3.6359545063542	-3.52128737554371	5.06158373964522	44.0821351685281
4620.567	3.49793531570576	0.348690298592892	3.51527188097797	-5.69270066874023
3941.215	1.96605022228956	-1.41763149118262	2.4238466373427	35.7936990562758
3361.769	3.16938138251896	-1.09012279631919	3.35161842382342	18.9808828117364
2867.244	1.58537569611992	-4.92730621884888	5.17607599172912	72.1642634798452
2442.658	12.6392709979048	-16.9585430604173	21.1504929987578	53.3026876697889
2083.003	5.01938904772112	-0.562236708489491	5.05077979412643	6.39122961312531
1777.843	4.45121265090279	0.700480206864803	4.50599229734877	-8.94320082137185
1513.548	3.63343503684789	-7.33367338861447	8.18441296232454	63.6440945873523
1292.065	10.1809229396297	-3.47885934117314	10.7588872202633	18.8654891117971
1101.762	8.91601088788782	2.86892345415966	9.36621438676061	-17.8367262019059
939.101	12.658717280521	3.08732035008191	13.0297609391804	-13.7062276201841
801.2801	4.79981137522186	-6.86378367074531	8.37554269981946	55.0350885887244
684.3433	38.8404592366869	-1.4287310565992	38.866728009299	2.1066529400104
582.9476	114.753350960361	44.9249466340861	123.233852437986	-21.3799143957287
497.0677	62.8526359391713	131.674543007695	145.906268271062	-64.4833058698804
423.5089	2920.1285439768	-50672.9314667695	50757.0008387933	86.7018643199201
361.5036	-4592.06371765209	-63129.340533225	63296.134837341	94.1603997138151
308.1262	163.472514117227	111.7616493281	198.025071979142	-34.3593393232115
262.7298	409444.473961127	254328.940551093	482004.136143192	-31.8467360450684
224.2111	127721.504041973	560641.733272772	575006.03099606	-77.1662996228963
191.2854	419444.704713619	14199.9248713497	419684.998753407	-1.93895678774253
163.1722	252576.70764151	-227820.765781968	340143.050148768	42.0500314861155
139.1537	-457841.430613124	-730877.779043538	862439.043344796	122.06413188604
118.6706	367076.468687691	-268289.417129345	454669.490078045	36.1623802087086
101.1982	919336.660749399	708081.49907987	1160413.41992285	-37.6037930522311
86.24196	16525.6577454135	-415999.320446157	416327.433609152	87.7251096462442
73.61024	-8657.70219476342	-237289.307495921	237447.196781067	92.0895583548738
62.69291	-95230.7280519063	-140614.183113725	169827.08870506	124.107757749713
53.57697	-57095.4250232722	-199603.486017307	207608.86105571	105.962871927274
45.65746	87138.9176927588	-382006.189495888	391818.733331924	77.1501995088532
38.96512	366674.252238345	-158689.161428077	399540.057077254	23.4019798575706
33.18414	212395.188497038	629764.945524855	664616.884158547	-71.3627528202367
28.30617	1383398.83817996	24035.1960899941	1383607.61638867	-0.995357751561735
24.17237	1039962.51967101	-281753.98567303	1077454.10610527	15.1590709717194
20.61345	1015117.94536523	1020668.60566615	1439523.82599073	-45.1562190400142
17.55618	-404705.387272029	-1859360.64428329	1902894.75694179	102.279383558157
14.98558	5166368.28284411	-1440430.82112906	5363413.29606773	15.5789573623031
12.76553	8724611.46399163	80825.5946429331	8724985.84379158	-0.530778131943559
10.8809	6592254.45852205	-5112873.23706997	8342618.98831837	37.7967251305855
9.278505	6069417.75547288	1256067.69237787	6198026.93913837	-11.692321077345
7.923394	4942903.22907854	1424540.10549614	5144084.64590174	-16.0769321707851
6.75822	2698899.00421141	1529921.65154792	3102372.65569571	-29.5475480864556
5.761429	8708748.96062534	-5860304.65272499	10496927.1256851	33.9374590395007
4.919708	11199474.0126979	-6562248.19992482	12980420.6248685	30.3678517617444
4.191257	5924535.64584414	-2643734.86771697	6487638.75918352	24.0480986335616
3.564097	8638827.28819734	-7183146.41801564	11235075.8510103	39.7433721578542
3.051758	3565158.60018995	5232348.23769847	6331494.60436117	-55.7307051886368
2.604164	23194319.3195902	-9681063.52080289	25133631.6435356	22.6551408307734
2.214424	8631559.17667855	-1575289.69161662	8774129.66812192	10.3428507712072
1.892567	5299156.29807624	-1590946.1103096	5532826.31187265	16.7111391542154
1.607507	4332503.49962909	-1332957.86118102	4532919.9456843	17.1012775760759
1.376413	2957716.85144651	3243023.22955658	4389224.15020858	-47.6344162025596
1.17375	5094426.02837838	2731858.16638942	5780676.91536966	-28.2021916172868
1.001604	5378890.53840636	1497390.92670213	5583425.74156112	-15.5562911519277
