EC-Lab ASCII FILE
freq/Hz	Re(Z)/Ohm	-Im(Z)/Ohm	|Z|/Ohm	Phase(Z)/deg
6999984	51.9586874294059	71.1478089685748	88.1006011353811	-53.8596370241237
5969734	51.4602995092006	62.4474436799849	80.9187595538977	-50.5095069593702
5091109	51.9547719312126	58.9130290674977	78.5496232984738	-48.591272909162
4341796	56.0600651663074	57.2366069054476	80.1171646808558	-45.5949729307915
3702781	62.9942542503897	53.0472149189525	82.3546178378619	-40.1005998839624
3157797	65.697787867176	50.377346065009	82.7893491168649	-37.4811457066054
2693047	70.4275167898949	48.3964308348456	85.4532014540294	-34.4960986193312
2296687	75.7122294422261	46.666340531232	88.9386812679904	-31.6482118986335
1958656	80.5660267887944	43.0406058941701	91.3420955981962	-28.1123690237442
1670375	84.571506717565	39.8255705098382	93.4794940878118	-25.2162163383846
1424531	88.6675602437748	36.4390069608846	95.8631183922098	-22.3408047252088
1214875	91.9577646727312	32.6567077672001	97.584276632036	-19.5513367813025
1036062	93.8983133722964	29.5634650534717	98.4423268727929	-17.4763758558142
883578.1	95.887384360693	26.8111108690302	99.5651854091916	-15.6215453152152
753531.2	97.4749503676484	24.2756658029502	100.452346410385	-13.9847424043972
642624.9	98.7301202849136	22.1427423307051	101.182694614235	-12.6408641663399
548046.8	99.7861391141711	20.4001199968199	101.850078326908	-11.5542439782964
467390.6	100.622670369009	18.9601303963966	102.393399869516	-10.6710123483684
398593.7	101.399236694714	17.9152402505279	102.969709310577	-10.01962809024
339937.5	102.0583503031	17.1135155132614	103.483231877502	-9.51900621674447
289906.2	102.659780355778	16.7587114142761	104.018675779706	-9.27147699009205
247234.4	103.187458078117	16.6762966826784	104.526314273832	-9.18029075699698
210843.7	103.688267059791	16.9366666998418	105.062397672831	-9.27689144125604
179812.5	104.309762592476	17.5247379579507	105.771655052729	-9.53700855066748
153343.8	104.821570223413	18.32127622345	106.410670266463	-9.91431271791703
130781.2	105.458480277155	19.5787287238952	107.26051314818	-10.5174138226497
111531.3	106.102512033184	21.1865552721587	108.197103399547	-11.2923048630964
95109.37	106.736746353651	23.0934945434297	109.20642157122	-12.208303949328
81109.37	107.536316402621	25.4826378509338	110.514361859835	-13.331347064408
69171.88	108.359393478368	28.3565470024794	112.008267163204	-14.6648662255293
59000	109.094655758728	31.7707691125642	113.626694421334	-16.2367243702692
50312.5	109.478783399124	36.2748965696039	115.332008287759	-18.3321914552452
42906.25	113.824266617364	41.1479165245091	121.033527195108	-19.8751209609089
36593.75	114.284227395498	45.4541664784802	122.99173094822	-21.6891569064947
31203.13	115.650515544963	51.4255578402174	126.568676002371	-23.9729666778861
26609.38	117.458475923056	58.3562070425452	131.156168236799	-26.4192959278665
22703.13	119.550679969957	66.4048881750755	136.75516171181	-29.0501519653466
19359.37	121.959029533447	75.7054599732312	143.545538260507	-31.8297363872868
16500	124.846006862066	86.2072132151208	151.71753042981	-34.6254037345364
14112.02	128.049703429765	98.0963512292594	161.305984616024	-37.4550131015694
12011.13	131.851448873161	111.997451099241	172.997785022464	-40.345287239951
10236.38	136.236466236356	127.876465701907	186.849579108386	-43.1870146643511
8750.684	141.310284488664	145.792972681242	203.037403907508	-45.8945152660859
7449.463	147.346896273848	166.575848895674	222.392943406149	-48.5052031891774
6363.206	153.951639449924	189.806982804199	244.392712678903	-50.9546378704074
5414.761	162.235341067678	216.490483506693	270.533612219088	-53.1525555387308
4620.567	171.389972487662	247.621139867726	301.149052096655	-55.3111110065287
3941.215	182.175198319937	281.583494659124	335.376008902475	-57.0984700371731
3361.769	194.779123953912	320.674394705592	375.194582247734	-58.7253092119337
2867.244	387.383336957461	360.669305294023	529.290277195388	-42.9547547629389
2442.658	403.508208052708	411.341219258784	576.212176743264	-45.5507577777412
2083.003	422.956083290081	467.897101786043	630.729376398361	-47.8879614860609
1777.843	444.745525090862	531.890921077344	693.330032533462	-50.0990056174708
1513.548	471.229667932919	605.780637252589	767.481322515618	-52.1210710793126
1292.065	499.956622154247	687.876201694657	850.370679700184	-53.9898989788467
1101.762	535.03572155809	779.814313305227	945.713268691356	-55.5457257644788
939.101	575.880228412746	886.685240364091	1057.28366721341	-56.9972685018192
801.2801	622.13964578984	1002.63012089546	1179.96817677018	-58.1800825740872
684.3433	672.840649342815	1132.67865087983	1317.45036550414	-59.2885840203268
582.9476	735.260048308101	1283.0353651144	1478.77891747627	-60.1845754203524
497.0677	805.648959308953	1449.85451770685	1658.65860506331	-60.9401348647914
423.5089	885.660119787301	1639.50712977895	1863.4316398456	-61.6221265283357
361.5036	975.936490539369	1844.87597641569	2087.10790375631	-62.1212300636741
308.1262	1077.20747209569	2078.86577223981	2341.37968662262	-62.6081295979763
262.7298	2259.9794143766	2316.55854167224	3236.34831722431	-45.7083039826684
224.2111	2383.47642533176	2614.7536169142	3538.0639263979	-47.6492901869212
191.2854	2537.26551180796	2814.02219506547	3788.98894056597	-47.9605724274379
163.1722	2684.78644617696	3148.29635313429	4137.61382788851	-49.5433053111293
139.1537	2844.9963356611	3660.11045412616	4635.77530585	-52.1421501965955
118.6706	3111.31600552325	3960.98024386041	5036.82953637282	-51.8506693774786
101.1982	3311.72426774336	4587.54123075835	5658.00779157011	-54.1746606790426
86.24196	3622.46521487053	4787.8060475705	6003.77722622181	-52.8887657698525
73.61024	3727.79325090431	5599.34525132244	6726.74585256459	-56.346101967653
62.69291	4592.84729058661	5967.91258490218	7530.61928766038	-52.4184705524532
53.57697	4207.48871365178	7184.88044819704	8326.19170631996	-59.6466253465041
45.65746	5050.89131940834	8264.65049484104	9685.86345775898	-58.5690636212016
38.96512	5474.46757622105	8807.12349543927	10369.9189730207	-58.1351053871695
33.18414	6117.85343990686	10274.309669665	11957.8246307743	-59.2282515644996
28.30617	6253.21061489951	11804.4226241436	13358.4069590534	-62.0882849904541
24.17237	6660.36457626466	12761.4961346321	14395.0074638047	-62.4394508230898
20.61345	18379.2812984291	14914.1159524622	23669.1536749896	-39.0580687982542
17.55618	19592.0775380613	16610.551822795	25685.7924564371	-40.2919391396463
14.98558	19951.8761222487	19039.9574955806	27578.9293162566	-43.6602434256614
12.76553	21268.3948587427	21538.0463265156	30269.3253877672	-45.3609196714805
10.8809	22455.1845834876	24182.769369927	33000.6310405965	-47.1214069815334
9.278505	23837.1482384155	27396.2871184299	36314.8204458682	-48.9738998543283
7.923394	23916.9009989325	28495.7413442922	37202.4922304076	-49.9927620535197
6.75822	28130.0119978483	29440.3105464741	40718.9078939002	-46.3038248557714
5.761429	27330.656538645	37780.2881289646	46629.550265266	-54.1176284601153
4.919708	33248.4452398164	48673.6421102546	58945.5897174862	-55.6634342139105
4.191257	31120.3620063726	42367.7424795531	52569.026376959	-53.7016152642267
3.564097	50131.5190163495	76246.610686233	91250.8347360427	-56.6754094604044
3.051758	36621.7405756669	67076.7208321668	76422.7607482738	-61.3668738306049
2.604164	41613.1843024838	73514.9947726387	84475.5086650182	-60.4879565728742
2.214424	48470.5924770491	59372.5412680699	76645.2672492231	-50.7724659394455
1.892567	51121.6096683761	84364.2808973441	98644.5683573697	-58.7856989635405
1.607507	108251.426876859	121450.991917985	162692.086035979	-48.2888142186904
1.376413	133576.214807491	110003.56316346	173041.581913002	-39.4723631207574
1.17375	223484.139730796	71562.7122761819	234662.273277017	-17.7557844541877
1.001604	155056.967505198	131216.01055311	203126.326696915	-40.2393645323651
