EC-Lab ASCII FILE
freq/Hz	Re(Z)/Ohm	-Im(Z)/Ohm	|Z|/Ohm	Phase(Z)/deg
6999984	26.6299115890009	-0.874339632095516	26.6442613151549	1.88051623855478
5969734	8.139595872192	7.03691586065851	10.7597028673004	-40.8443621273997
5091109	2.96118808821527	-2.2001630458838	3.68908556721861	36.6123526131146
4341796	2.11467824677579	-1.88461379512396	2.83260185062396	41.7076147190115
3702781	4.62069164188331	-3.40472988608003	5.73959727215567	36.3844300022116
3157797	32.6966431810845	-1.59418763468074	32.7354839512986	2.79135526688338
2693047	0.188015093895001	-0.848100667109001	0.868691209281571	77.5002767216781
2296687	12.3934769366055	-7.43358844941778	14.4518686616469	30.9552652820464
1958656	13.5167684559054	-23.6862143513933	27.2715929089357	60.2883380770506
1670375	29.4935686230666	0.889059305975147	29.5069655602381	-1.72661118041571
1424531	24.3586778711493	6.4196673073133	25.1904211153169	-14.7644348311672
1214875	13.4830394518315	-22.4995776218602	26.2301991228003	59.0675369029654
1036062	20.3693220881421	-7.8407449772563	21.8262815002657	21.0531680243215
883578.1	-1.33963852859621	-27.9374374131114	27.9695377258692	92.745308551401
753531.2	8.06860853857972	-33.4666228313673	34.4255324938604	76.4450030546062
642624.9	-0.0771710448556833	-1.25602256143421	1.2583910540829	93.5158794900725
548046.8	-0.0772093435696804	-0.883542659226602	0.886909754939969	94.9941678972895
467390.6	-0.106328496465902	-0.714511750257585	0.722379948792086	98.4642294877198
398593.7	-0.103351053751191	-0.570065784134322	0.57935864415072	100.275922035923
339937.5	-0.10591173652174	-0.467903421435456	0.479740458710808	102.754193682982
289906.2	-0.0953303236320015	-0.37755624426528	0.389405429067811	104.170602648325
247234.4	-0.0831040937344571	-0.303083892000681	0.314270800402624	105.333363197764
210843.7	-0.0690392617093209	-0.246923509283914	0.256393523893353	105.62087341936
179812.5	-0.0544254844439698	-0.19621946706169	0.203627632238197	105.502443043107
153343.8	-0.0417264434429933	-0.161994304042373	0.167281949488204	104.44424729128
130781.2	-0.0301923176400048	-0.133715201193134	0.137081476044706	102.723769624061
111531.3	-0.0219394028020904	-0.111227702377778	0.113370803876271	101.158219744645
95109.37	-0.0151834446080508	-0.0936034386714425	0.0948268987222731	99.2137155795304
81109.37	-0.0120836428766607	-0.0769247656375299	0.077868055026176	98.9272939777445
69171.88	-0.0082457563591872	-0.0646968858613795	0.0652202387154129	97.2633099491256
59000	-0.00367341810884154	-0.0536206336504037	0.0537463147915573	93.919069890506
50312.5	-0.000892663525165213	-0.0448816066955116	0.0448904830419517	91.1394224432083
42906.25	-0.00101883303009174	-0.0416418696803807	0.0416543314821042	91.4015506344807
36593.75	-0.000351974255663726	-0.0348040770320291	0.0348058567475082	90.5794134942475
31203.13	0.000517552159973555	-0.0298816636784069	0.0298861453591412	89.0077329664241
26609.38	0.000916272721031902	-0.0251921543276702	0.0252088118595157	87.9169932118335
22703.13	0.00130577481776512	-0.0212419269072867	0.0212820230854404	86.4823641886055
19359.37	0.00169484395633643	-0.0182132516322966	0.0182919389638628	84.6836204865718
16500	0.0019268833069481	-0.0157411862919404	0.0158586829578047	83.0211261482202
14112.02	0.00213581526194371	-0.0134995367469365	0.0136674503553165	81.0095286252954
12011.13	0.00219717124888732	-0.0117729405568213	0.0119762135439956	79.4285661811909
10236.38	0.0022983804992251	-0.0101145719265478	0.0103724210373725	77.1978123016285
8750.684	0.00238304136294559	-0.00868724183041772	0.00900816611512405	74.6602395227736
7449.463	0.00242258638502335	-0.00736319105335061	0.00775148419859338	71.7881166873419
6363.206	0.00233721036428129	-0.00648818419007866	0.00689630961973798	70.1896790304859
5414.761	0.00231234930179117	-0.00540961688089019	0.0058831041204033	66.8556376206196
4620.567	0.00213661719824432	-0.00460915768082008	0.00508030191804544	65.129487671229
3941.215	0.00205414863112963	-0.00405646788622176	0.00454691745149615	63.1428711081719
3361.769	0.00226059749367491	-0.00357537349583904	0.00423008234708943	57.6961051245402
2867.244	0.00223683876097864	-0.00313368241243658	0.00385011858319076	54.480557116285
2442.658	0.00214660691888329	-0.00268086943558789	0.00343438236002734	51.3152918841304
2083.003	0.00207651975018525	-0.00239886663440725	0.00317277408628188	49.1197061540332
1777.843	0.00208658664564245	-0.00206865515595526	0.00293822701369953	44.752747890261
1513.548	0.00196586712625592	-0.00188574525690922	0.00272409044123894	43.8082957199232
1292.065	0.00194402107171936	-0.0015570756693469	0.00249072330204721	38.693197815159
1101.762	0.00199104577709827	-0.00145291485692453	0.00246479712511453	36.1191448134881
939.101	0.00201833551746493	-0.00110203108535537	0.00229959795924199	28.6349752878389
801.2801	0.00183633234657156	-0.0011072326257006	0.00214431354388318	31.0882430567183
684.3433	0.00200775462348091	-0.000944298539259991	0.00221873350345587	25.1888060374656
582.9476	0.00178645732183335	-0.000975348633102287	0.00203537090448559	28.6331303637386
497.0677	0.0017468625158435	-0.000854494264435663	0.00194465654993691	26.0660044218108
423.5089	0.00168301723400275	-0.000653336526031487	0.00180537963492368	21.2158937677166
361.5036	0.00164859136696589	-0.000650503946919739	0.00177228916381967	21.5332837383293
308.1262	0.00168958841095732	-0.000627042559920208	0.00180219071421217	20.360971982446
262.7298	0.00160596021979053	-0.000508950048647168	0.00168467752984588	17.5840976508768
224.2111	0.00180778171690096	-0.000467747602613805	0.0018673142627079	14.506638200826
191.2854	0.00149091489768254	-0.000535232171335946	0.00158407724223433	19.7479243303899
163.1722	0.00166073884287648	-0.000493387753154177	0.00173247943110481	16.5461215796398
139.1537	0.00153135586902772	-0.000431126241762637	0.00159088674453653	15.7236292055736
118.6706	0.00166285784914555	-0.000845760655510557	0.00186558497873311	26.9587414215601
101.1982	0.001493592064604	-0.000346492941620914	0.00153325621278414	13.0608078527031
86.24196	0.00136391593980846	-0.00038085986301664	0.00141609354426911	15.6018584853745
73.61024	0.00130991145942306	-0.000367730873819869	0.00136054916378945	15.6810011456159
62.69291	0.00150843304449844	-0.000374826070850557	0.00155430525738161	13.9546277426852
53.57697	0.00130524450637794	-0.000324313762228572	0.00134493220565225	13.9536938214791
45.65746	0.00125693144885488	-0.000351715803122497	0.00130521288427848	15.6327351809541
38.96512	0.0011989809089718	-0.000318923809806578	0.00124067224380188	14.8955218451151
33.18414	0.00110691664278885	-0.000366591228240198	0.00116604184432017	18.3239580517292
28.30617	0.000703528219819068	0.000573235018234711	0.000907496745014733	-39.1731588305621
24.17237	0.00108837086318982	-0.00021751971717081	0.00110989457301071	11.3021139005491
20.61345	0.00114553817338407	-0.000269296773857338	0.00117676610211634	13.2290683683992
17.55618	0.00109565172820598	-2.11756454795403E-05	0.00109585633980108	1.10721687486292
14.98558	0.000972029780089969	-8.97398454511286E-05	0.000976163476700161	5.2747153521208
12.76553	0.000904249064793418	-4.59429340823256E-05	0.000905415442971824	2.90857326444242
10.8809	0.000916451355107311	-9.38846525623415E-06	0.000916499443293826	0.58693853828981
9.278505	0.0015864416069413	0.000724727371584135	0.00174414068680189	-24.5521410650941
7.923394	0.00127152861779662	0.000178339502899833	0.00128397430043219	-7.98399498780948
6.75822	0.00118029228263138	4.33577306272955E-05	0.00118108838163972	-2.10379961019064
5.761429	0.00113477479152242	0.000305749446287173	0.00117524318818688	-15.0794642156639
4.919708	0.00134010465545686	0.00015297614953331	0.00134880769196471	-6.51226121776874
4.191257	0.00124780631373197	5.08831083275955E-05	0.00124884333977583	-2.33511642307204
3.564097	0.00110117852348577	0.000127579063415177	0.00110854434192241	-6.60864417806565
3.051758	0.00129553046260532	0.000251046683691248	0.00131963010610198	-10.9668018101046
2.604164	0.00126697933456285	0.000141827171504917	0.00127489277227005	-6.38716734235783
2.214424	0.0014284231429645	-0.000184149543097521	0.00144024432982033	7.34594345757385
1.892567	0.00135558731147213	0.000453687562909546	0.00142949269454693	-18.5043480839482
1.607507	0.00117602607290122	0.000144676299332622	0.00118489179072692	-7.01336437581221
1.376413	0.0013395094114031	-0.000356428864822686	0.00138611940283522	14.9005180370887
1.17375	0.00141160732652956	-0.000185226028761164	0.001423707809223	7.47543764885136
1.001604	0.00179005861298302	-0.000157002751571844	0.0017969306335849	5.01248059069855
