EC-Lab ASCII FILE
freq/Hz	Re(Z)/Ohm	-Im(Z)/Ohm	|Z|/Ohm	Phase(Z)/deg
6999984	26.3802531762092	97.1567906074287	100.674523682889	-74.8091512537281
5969734	16.8224001469544	95.0790638729892	96.5557949253601	-79.9664589592597
5091109	13.3188758777444	100.549422645082	101.427702571369	-82.4544708888358
4341796	11.8678180673025	110.588134979481	111.223112274017	-83.8747186714061
3702781	14.6424500114479	122.328147366748	123.20136760815	-83.1742777668587
3157797	13.1154518804157	136.087617443179	136.718157899339	-84.4951173719737
2693047	12.8579366451071	155.15556049835	155.687425594769	-85.262651634331
2296687	13.0242901381281	179.158597399713	179.63138688947	-85.8420838525468
1958656	14.1855981587637	206.274664304451	206.761863816894	-86.0659384631044
1670375	15.1942204531713	238.963678343104	239.446244285531	-86.36181386851
1424531	16.8424549848225	277.288348086066	277.799381342391	-86.5241328118705
1214875	18.7949850025911	322.365962847351	322.913402421992	-86.6632469645283
1036062	20.9616262726032	374.48409904796	375.070300364818	-86.7962304687781
883578.1	23.5176524326308	436.381524138971	437.01477616414	-86.9151765070473
753531.2	25.9986589644904	508.194368160721	508.858964840187	-87.071364802
642624.9	78.4782466355564	672.403709349961	676.967933910151	-83.3429565417452
548046.8	96.6289438979791	773.890884668881	779.900156540837	-82.8828141364756
467390.6	113.987339286968	889.406086522489	896.680712551001	-82.6967174446171
398593.7	133.206392889212	1021.02777644436	1029.68036952128	-82.5669997997995
339937.5	153.061099134221	1175.19297452143	1185.11865542346	-82.5793756881743
289906.2	172.878832926745	1353.24214258768	1364.24022347584	-82.7198076437609
247234.4	194.114151907898	1561.34444031397	1573.36479090841	-82.9130663080585
210843.7	214.001146167808	1805.03070865248	1817.67223385835	-83.2386782230314
179812.5	235.47884833851	2089.62101575192	2102.84718357919	-83.5704780821916
153343.8	258.361985963889	2421.71965055273	2435.46237533336	-83.9104139420427
130781.2	286.372655702966	2812.09130686309	2826.63524637851	-84.185261796367
111531.3	314.444598645069	3269.53130815596	3284.61723502588	-84.5065192320968
95109.37	345.549000616525	3806.88921148478	3822.53967675239	-84.8135100187279
81109.37	391.53244276972	4422.77084344097	4440.06752058263	-84.9409931281445
69171.88	1024.98673760969	5690.86550444942	5782.4344355996	-79.7898733668004
59000	1134.1061312145	6511.10010510789	6609.13165972613	-80.1193240990006
50312.5	1191.35469170822	7464.23970279279	7558.71684495479	-80.9316063651576
42906.25	1554.10756281294	8744.30575467683	8881.3362422592	-79.9221693216961
36593.75	1681.39000825694	9926.98505295006	10068.371496988	-80.3867235019882
31203.13	1835.37035467213	11426.8881654546	11573.3468575264	-80.8751700223372
26609.38	2000.43126127296	13190.1204404516	13340.9520823927	-81.3761643183996
22703.13	2176.4833016879	15257.1487546214	15411.6082120969	-81.8813412063664
19359.37	2409.50601963554	17674.5147426873	17837.9985045444	-82.2369188140246
16500	2653.55397182278	20549.3218872793	20719.9415710661	-82.6420572709616
14112.02	2942.49782258924	23770.4875706258	23951.9179353391	-82.9433757754209
12011.13	3330.20039105266	27679.5063762545	27879.1195678357	-83.1395565244737
10236.38	3759.02639885035	32145.1813027175	32364.2234643724	-83.3301795829137
8750.684	4386.38464549333	37221.5326895108	37479.0990555341	-83.2789571560291
7449.463	11158.7021884724	47965.0946611869	49245.9840026336	-76.9035411780494
6363.206	12079.3524125532	55804.0607226315	57096.444266187	-77.7861826614484
5414.761	14480.6012780343	63149.9237299117	64788.8931875447	-77.0850542075468
4620.567	14956.1725101105	71584.9105016187	73130.6126576069	-78.1989987528401
3941.215	16587.4868909989	82436.7294698515	84088.9950412332	-78.6231594085755
3361.769	18865.4790657738	95551.1887316998	97395.7697665667	-78.831257679767
2867.244	21309.1695290235	109907.154550569	111953.844629916	-79.0274384288198
2442.658	24101.4811837405	126002.233873687	128286.571146046	-79.1713654269567
2083.003	28775.8385978894	146671.069633371	149467.225686466	-78.8999553194032
1777.843	32808.6230255419	167096.237035455	170286.69406692	-78.8915328398148
1513.548	39001.0465989064	193775.853294413	197661.738724994	-78.6201800280408
1292.065	46382.4753080649	226144.783393043	230852.327412114	-78.4093315594327
1101.762	53423.5411411132	259667.050811169	265105.737442679	-78.3742665423707
939.101	64873.7309730873	302258.676062498	309142.213593392	-77.8863929798168
801.2801	141220.1222812	384859.35279735	409951.026797972	-69.8499150579733
684.3433	156050.77195574	442683.001555675	469382.661902124	-70.5818686412529
582.9476	194290.33539006	484911.505650543	522386.73675569	-68.1654191402887
497.0677	222396.227850564	559197.40665132	601798.82167359	-68.3119817442831
423.5089	272150.984948233	629376.408715686	685697.325688344	-66.6156828960188
361.5036	331140.358832791	701820.237475622	776019.060963227	-64.7406212156737
308.1262	382279.026700844	781189.727013657	869709.516934831	-63.9249584985255
262.7298	478287.534377163	862184.779971678	985962.250978908	-60.9811586429228
224.2111	573386.005345796	952001.859480288	1111341.10496298	-58.9396527230922
191.2854	685696.876081075	1032260.5534654	1239250.60262566	-56.4052140233766
163.1722	810714.467365678	1126952.96529762	1388265.44060893	-54.2692789293305
139.1537	976840.844168855	1187671.07599066	1537784.32154231	-50.5632389413976
118.6706	1131927.21487892	1247886.85562436	1684779.16185582	-47.7896075509488
101.1982	1313659.37312634	1285119.82723158	1837725.20223956	-44.3708084944488
86.24196	1484137.38469337	1295634.85179268	1970110.00855899	-41.1205850804322
73.61024	1687740.77207293	1273376.59323996	2114227.2493582	-37.034038091175
62.69291	1829252.63624124	1245596.68161739	2213069.42965009	-34.2522019450999
53.57697	1985833.35038304	1196782.3606635	2318581.91882211	-31.075689551427
45.65746	2141899.37003731	1157426.22785003	2434618.73489082	-28.385624055398
38.96512	2253349.45772291	1112783.79109841	2513139.77811651	-26.281791786613
33.18414	2376689.90924764	1048603.84575874	2597734.58037183	-23.8072386356445
28.30617	2428040.04766663	1024339.77878993	2635270.47103032	-22.8738731986426
24.17237	2527059.19436418	969688.662714446	2706718.35890206	-20.9929157825856
20.61345	2623156.991775	918454.415960058	2779300.47272593	-19.2968461174393
17.55618	2678884.82145602	888378.734649752	2822346.65886481	-18.346687287462
14.98558	2713459.8213143	887337.807896278	2854861.22030638	-18.1084399770907
12.76553	2772715.61163536	891831.550641363	2912613.15277636	-17.8301543759957
10.8809	2817668.38627069	902987.729854947	2958824.42454057	-17.7692718806851
9.278505	2879539.00733309	926110.746198566	3024801.81317344	-17.828710522352
7.923394	2930623.91181963	973071.013281236	3087948.13904268	-18.367995587863
6.75822	2976031.32933464	1007209.72847915	3141851.98733555	-18.6979046862993
5.761429	3010849.88120978	1076420.44081666	3197483.06838189	-19.6726720535774
4.919708	3096669.77189041	1152852.61140405	3304305.19470598	-20.419688697291
4.191257	3160639.14158297	1242796.16182003	3396201.12524876	-21.4652679184694
3.564097	3237583.02008987	1370809.62979555	3515830.32200282	-22.9480540443782
3.051758	3323956.18665448	1472260.90866609	3635414.26992645	-23.8897159102536
2.604164	3404831.98483937	1650471.49590231	3783772.85308873	-25.8615043255727
2.214424	3512559.04198652	1813800.66687027	3953219.43263719	-27.3107380429987
1.892567	3616796.8389023	2027963.89802754	4146547.59355259	-29.2796616693422
1.607507	3758944.95242848	2246013.28662277	4378840.35322979	-30.8588078372361
1.376413	3916289.33902578	2516920.68424505	4655342.29866586	-32.7280425368047
1.17375	4100332.60388273	2802191.18623064	4966387.30936808	-34.3489286800739
1.001604	4315187.81354106	3143526.99673656	5338783.36752343	-36.0725805334778
