EC-Lab ASCII FILE
freq/Hz	Re(Z)/Ohm	-Im(Z)/Ohm	|Z|/Ohm	Phase(Z)/deg
6999984	19.5454519562807	85.1255917068651	87.3406609524978	-77.0686103188266
5969734	20.2022410196692	90.0994840235958	92.3365992634285	-77.3620793014926
5091109	17.7814383635139	94.9274233371925	96.5784409260887	-79.3905217835942
4341796	17.8321792305472	103.863839007523	105.383507578231	-80.2579798854223
3702781	22.2271613186743	113.983592450241	116.130556048566	-78.9656162827252
3157797	22.9113590976417	126.37805653031	128.438092278261	-79.7243269950374
2693047	25.860379353946	143.337937434451	145.652063247633	-79.772971111844
2296687	30.508337839539	164.424952092875	167.231347385816	-79.4885548623411
1958656	37.1686475951519	187.934889901466	191.575132014385	-78.8127511429843
1670375	45.4370634667045	215.911625362777	220.640786581433	-78.1159198725462
1424531	57.3290892883206	247.954683173344	254.495873023948	-76.9815207339667
1214875	72.3213454004838	284.262038560889	293.31771778624	-75.7257691343784
1036062	91.7676225545996	325.184317999123	337.884798743416	-74.2408344167379
883578.1	117.033375342882	371.561102217536	389.556752765573	-72.5167471154097
753531.2	149.686259413714	421.811811219266	447.583713221725	-70.4620058705116
642624.9	191.204491700951	476.352794226767	513.294401113306	-68.1298384612111
548046.8	317.092437393041	576.446905153171	657.90474106251	-61.185647280005
467390.6	390.360603691888	623.240743006523	735.398140232907	-57.9394403001323
398593.7	473.241797659948	664.975745412723	816.180458623965	-54.5617681541668
339937.5	565.920035477468	698.382231923089	898.889997953417	-50.9811142501203
289906.2	665.312554423209	723.710241143777	983.055089102091	-47.4074275128627
247234.4	768.547454667343	737.108164823094	1064.8913732041	-43.8037922716535
210843.7	874.321008282471	736.124233772916	1142.94186775699	-40.0953057539354
179812.5	977.749303961728	723.250912872411	1216.17662548185	-36.4907022140525
153343.8	1073.76449479807	702.049241672873	1282.90425520474	-33.1774820904612
130781.2	1162.04656098498	669.588960749725	1341.15680897311	-29.9512025827032
111531.3	1240.53967302739	631.699060779331	1392.11435727974	-26.9857907590682
95109.37	1307.24206283675	593.203414083806	1435.53895848575	-24.4077098640976
81109.37	1365.91460340294	551.680010730795	1473.11694648774	-21.9933172816178
69171.88	1415.10152242125	513.606187928751	1505.42473575986	-19.948190268522
59000	1456.41655327617	479.488564576423	1533.3161644672	-18.2228310008886
50312.5	1492.61204761827	452.231773961974	1559.61671640054	-16.8557651608624
42906.25	1525.40704606471	416.992848082084	1581.37588559314	-15.2891209320582
36593.75	1546.38480554017	399.673947361211	1597.19918325949	-14.4913746051637
31203.13	1564.8430836456	385.559461996306	1611.64201210081	-13.841331068276
26609.38	1589.39907611854	380.983832138109	1634.42286557583	-13.4796457305217
22703.13	1607.40975326847	380.79373953522	1651.89890337509	-13.3276171091617
19359.37	1627.45000774085	387.871301499931	1673.032478532	-13.4052643495578
16500	1646.43080928276	398.870784389459	1694.05794245502	-13.6183187056772
14112.02	1664.84811427179	414.634762140935	1715.70429549209	-13.9851434748538
12011.13	1683.88724133526	437.344820126185	1739.75479111939	-14.5593675067119
10236.38	1705.52441350217	468.781083495888	1768.77619536659	-15.368813631783
8750.684	1731.09644926652	506.409535281204	1803.64784092874	-16.3061439367272
7449.463	1755.89028185321	548.060732567637	1839.43503513691	-17.3345516127855
6363.206	1778.37339798303	598.501756492093	1876.38383471448	-18.6003758104121
5414.761	1815.86784581513	663.828965303213	1933.40242283929	-20.0809560488097
4620.567	1848.71869115722	730.623011335514	1987.85582568934	-21.5641833522207
3941.215	1885.07104938895	811.801605130039	2052.44115806911	-23.2990193417856
3361.769	1930.76682983946	902.893607819771	2131.4496049051	-25.0624230070156
2867.244	1976.47552652868	1007.74459050745	2218.55914202526	-27.0156475897725
2442.658	2030.66561259048	1127.10793063258	2322.49329761192	-29.0321840088913
2083.003	2092.09280311873	1260.67723606932	2442.57228969882	-31.0728075737174
1777.843	2156.93668991737	1408.25447672618	2575.95740561273	-33.1403429661809
1513.548	2234.80116934729	1579.86661002125	2736.84394366505	-35.2579548699387
1292.065	2313.80708594916	1764.85161319456	2910.05231011127	-37.3345028885196
1101.762	2413.79291650902	1986.87045908974	3126.34778375545	-39.4588928829938
939.101	2533.0555839628	2224.41896680198	3371.1141083199	-41.2881924242419
801.2801	2649.89057232846	2496.95311815301	3640.97444643179	-43.2979679413782
684.3433	2787.25048858743	2807.09840764521	3955.82693710621	-45.2032760637282
582.9476	2944.95570185208	3156.36837593857	4316.8768120594	-46.9845216346987
497.0677	3119.133393833	3545.60865148355	4722.32292817837	-48.6613513770844
423.5089	3320.77170638047	3980.3701438178	5183.71210694548	-50.1621914031178
361.5036	3546.793201958	4477.2686480556	5711.88905392227	-51.6145133630595
308.1262	3803.86411884274	5031.44743459619	6307.52293073309	-52.9100683406755
262.7298	4096.53937995389	5651.79486897778	6980.28796916836	-54.0646126753318
224.2111	4447.0052802641	6323.92643480494	7730.97028292836	-54.884990835134
191.2854	4796.25873183833	7110.37817246959	8576.80450857238	-55.9986259832179
163.1722	5240.55885887188	7968.81105956269	9537.57866842047	-56.6697314486547
139.1537	5709.46762753685	8935.40035372682	10603.7446249555	-57.4225750731448
118.6706	6266.00215067704	9990.51360786559	11792.9277578232	-57.9042606915113
101.1982	6896.25998870939	11150.3538497665	13110.6366285881	-58.2640781868534
86.24196	7627.51706037759	12527.5785706002	14666.9438312456	-58.6645183898704
73.61024	8420.42558622774	13986.3880418259	16325.5204361064	-58.9501951465226
62.69291	9320.46191091473	15654.8287691058	18219.3488912978	-59.2315747197113
53.57697	10382.1207266178	17437.8528422515	20294.5101574314	-59.2313455365933
45.65746	11552.1146719075	19433.8263972203	22608.0729349097	-59.2713379906934
38.96512	12842.4612926293	21669.0222567871	25188.7938897006	-59.3462808702965
33.18414	14313.7788923752	24130.053195195	28056.0819321363	-59.3238782205069
28.30617	15881.7555030108	26870.4278147591	31212.9788518429	-59.4148066225942
24.17237	17823.155739495	29870.0966335843	34783.4379182673	-59.1759405178041
20.61345	19885.0353239643	33157.8202633361	38663.3634653144	-59.048514704167
17.55618	22228.1075899346	36798.4393161934	42990.8583670678	-58.8659130548588
14.98558	24837.8739526232	40808.3416767544	47772.8032764787	-58.6733419399154
12.76553	27730.8341849549	45270.2256180215	53088.5344693187	-58.509934376744
10.8809	30988.3467028983	50104.0069749637	58912.5550823103	-58.2640208910739
9.278505	34627.3641550941	55503.7622974417	65419.5840517227	-58.041025717209
7.923394	38643.6484828246	61247.6101907027	72419.6197320614	-57.7504788192981
6.75822	42797.134863486	67755.8171585312	80140.161662825	-57.7219455211006
5.761429	47910.6695804538	74860.5637264532	88879.3353996855	-57.3808064498797
4.919708	53414.4378245959	82331.3384029172	98140.4679596204	-57.0255382394309
4.191257	59618.9400068523	90840.8239427429	108657.596614949	-56.7230623602255
3.564097	66127.0461131459	100342.475570895	120172.370498987	-56.6145785312954
3.051758	73381.704378931	110341.54579841	132514.645480186	-56.3744461897781
2.604164	81070.5741722551	121478.055298843	146045.732275229	-56.2821197706707
2.214424	90218.3454128404	134251.025617345	161748.841505402	-56.0984123128179
1.892567	99572.9261215067	147464.318196184	177933.956167631	-55.971439135839
1.607507	110191.672301161	162365.471615322	196226.275043361	-55.8366565441124
1.376413	121544.41945821	178358.697874293	215835.286755541	-55.7271127432614
1.17375	133814.870725255	196585.916165036	237807.573600303	-55.7571128134144
1.001604	147257.241507078	216218.981058485	261601.496452608	-55.7429435671408
