EC-Lab ASCII FILE
freq/Hz	Re(Z)/Ohm	-Im(Z)/Ohm	|Z|/Ohm	Phase(Z)/deg
6999984	35.8995406019342	-21.9714743116656	42.0894606624759	31.4677416523232
5969734	20.6039106933249	-26.0677856252613	33.2272566316133	51.6772465120484
5091109	6.66374728397458	-28.0063640270508	28.7882259592418	76.6160882522322
4341796	-4.25507539642094	-32.4270007388322	32.7049849953406	97.4756481080011
3702781	5.905423979826	-9.77006338857301	11.4161364304321	58.8495264619181
3157797	-0.679984756717209	-8.26340788918076	8.29133820395373	94.7041939571738
2693047	3.23012953545105	-13.6210508098464	13.998812877534	76.6591746784261
2296687	2.48159477347094	-12.4805296026286	12.7248548825441	78.7541375605424
1958656	3.33245248901308	-14.2533122611262	14.6376961986748	76.840515820585
1670375	11.9239108463552	-10.1216414491547	15.6405650632282	40.326345255244
1424531	-5.78044603857755	-7.32394229710278	9.3302565439648	128.282385540816
1214875	30.240056425633	1.79547167259709	30.2933116570732	-3.39788781585107
1036062	-8.15451663238236	13.3638915972226	15.6553422233472	-121.39113565988
883578.1	6.80288703153978	13.4395614996656	15.0632362149435	-63.1522103202325
753531.2	20.0086545439222	11.3190676382099	22.9884220610374	-29.4972137441533
642624.9	71.0530163932677	12.3327069851819	72.1153714554971	-9.84675526429316
548046.8	-74.1614714308741	-229.272204071055	240.968187536014	107.924564826243
467390.6	-88.7883492697735	-283.593882720176	297.168069082727	107.384437512773
398593.7	-116.578430147648	-317.049327520276	337.802910669445	110.188378370584
339937.5	-146.862449556562	-357.721549341177	386.695339967792	112.320583509384
289906.2	-183.73374360904	-399.914109423684	440.101560388884	114.67561193471
247234.4	-229.911276271801	-444.088813389201	500.074063648933	117.371263769242
210843.7	-297.510544459384	-486.902984286737	570.602348550941	121.426028789603
179812.5	-358.214776230864	-524.096138992934	634.818547946914	124.352238840895
153343.8	-434.346064193564	-559.869768887032	708.597672585832	127.804252260779
130781.2	-505.819727604685	-588.631840360632	776.106333127377	130.67293734944
111531.3	-588.168476891803	-611.130041314094	848.187529150123	133.903158806829
95109.37	-680.751542764027	-615.896875406895	918.015045689111	137.863385790993
81109.37	-767.922136906176	-615.030316446177	983.852986222247	141.308695604674
69171.88	-856.505010410709	-603.01817242483	1047.48830501024	144.852726046456
59000	-934.928933479859	-582.242501511441	1101.40748191761	148.086729025292
50312.5	-1006.54425868393	-559.590632060316	1151.63927519829	150.928026731346
42906.25	-1080.84933456054	-522.298591473577	1200.42954923446	154.208783066265
36593.75	-1133.53859093531	-488.303736016105	1234.24076895348	156.694675051999
31203.13	-1184.79784678875	-452.529190707278	1268.27781112713	159.095826579833
26609.38	-1221.54252269475	-420.712066143866	1291.9616005712	160.995754628487
22703.13	-1252.41187199277	-386.751844758535	1310.76789956596	162.839017151202
19359.37	-1282.01446961344	-364.669365732936	1332.87090395218	164.121583175603
16500	-1301.39406831139	-341.993398853565	1345.5801744584	165.276150428571
14112.02	-1323.08414267514	-314.446136396146	1359.93677106433	166.631023726717
12011.13	-1342.47423937438	-298.273664215933	1375.21062464941	167.473386277118
10236.38	-1353.94503894259	-297.519231162024	1386.24848472	167.606656260266
8750.684	-1367.642163905	-295.158599697615	1399.12961782182	167.82145813766
7449.463	-1385.85406136237	-283.873448910376	1414.62914376555	168.423865963461
6363.206	-1394.59782915109	-302.076736863102	1426.93849202648	167.778257119907
5414.761	-1403.49657185526	-309.944163168711	1437.31277441336	167.546839466454
4620.567	-1413.6864629634	-328.575072409384	1451.36866225463	166.91538268044
3941.215	-1434.98585332068	-350.466454974289	1477.16320536789	166.2753315275
3361.769	-1444.40697680418	-373.226853268513	1491.84777998337	165.511979857047
2867.244	-1460.07415270704	-410.679261587884	1516.73134974575	164.29014735893
2442.658	-1471.41861108329	-457.765976115355	1540.98099207327	162.718810605784
2083.003	-1486.99910208204	-509.446576709695	1571.84673047788	161.088516495519
1777.843	-1512.57519768769	-567.890354209491	1615.66802996907	159.421553086365
1513.548	-1530.61062240516	-636.171592659724	1657.55336949575	157.430639339845
1292.065	-1559.6423466107	-711.318130166679	1714.19302636697	155.483327681533
1101.762	-1579.96278855188	-809.577571798291	1775.30230044561	152.869265037029
939.101	-1614.95114657875	-914.105883068702	1855.70923673318	150.488969172937
801.2801	-1655.55155234254	-1030.37437069185	1950.00571441276	148.102886435115
684.3433	-1689.98121239237	-1196.1279898193	2070.44890452973	144.710059555468
582.9476	-1733.36099160329	-1343.59501202745	2193.12286102648	142.219354724255
497.0677	-1774.2733389736	-1573.22725695135	2371.30552299934	138.436973839699
423.5089	-1847.1041838528	-1747.19116113525	2542.53236352178	136.592278922496
361.5036	-1922.52875559952	-1987.47794629945	2765.17366599889	134.048346312115
308.1262	-1999.09783662788	-2283.237673239	3034.72674765095	131.203897338188
262.7298	-2087.730000907	-2597.44781879333	3332.46931389343	128.791000175553
224.2111	-2189.15602417203	-2999.39861488755	3713.32683037166	126.124397301235
191.2854	-2301.31737524558	-3415.91114292056	4118.79965498882	123.968357118158
163.1722	-2436.21015733157	-3866.86367045323	4570.31230623866	122.211840405625
139.1537	-2614.57036546212	-4412.29272797495	5128.77230078441	120.649499089862
118.6706	-2817.98235092908	-5072.96368032437	5803.10132877567	119.051748982361
101.1982	-3059.55803175478	-5778.76770238201	6538.73470235401	117.898900602778
86.24196	-3343.76259895185	-6575.66914522503	7377.00298397755	116.953577536591
73.61024	-3517.1222753904	-7422.37952690625	8213.51733068631	115.354108555704
62.69291	-3967.47547271261	-9081.02003187619	9909.88327105384	113.600399336368
53.57697	-4091.58277325184	-9887.86494803246	10700.977657247	112.479693889092
45.65746	-4664.27924916289	-10916.5921751173	11871.2882886401	113.13532949406
38.96512	-5441.41152817311	-12485.1085280049	13619.3573407483	113.549119613704
33.18414	-6012.20602425185	-14046.6377515363	15279.2229318423	113.17176960983
28.30617	-7378.09762292797	-18432.5583281679	19854.3579864666	111.815005550961
24.17237	-8835.94965883363	-20348.3700954758	22184.0071203536	113.472114086038
20.61345	-11149.3326947617	-22697.8193418331	25288.309995193	116.16060394813
17.55618	-12262.6530616115	-24467.5926154395	27368.5174699793	116.619084775794
14.98558	-12824.0387526005	-28231.8300805584	31007.9376874006	114.429469265922
12.76553	-15436.4568245596	-31379.1485378629	34970.4898772916	116.194121979146
10.8809	-15919.998983359	-34686.1429359098	38165.1002802366	114.653839538495
9.278505	-18034.9690309484	-39008.808924261	42976.1245534864	114.812548847747
7.923394	-21200.1196493031	-42874.9870159727	47830.0071583164	116.310718890455
6.75822	-24091.486638988	-46907.2901945192	52732.2823502774	117.184937894265
5.761429	-25331.4667088611	-47403.0348876586	53746.9154666825	118.119374762344
4.919708	-28772.0208538953	-56895.7913812481	63757.0408732674	116.825578765159
4.191257	-30682.094635707	-65309.2486311641	72157.3896978105	115.16400115928
3.564097	-53814.1768791609	-96708.4640819588	110672.908420594	119.094090563421
3.051758	-35490.9431419469	-111889.111331521	117383.049371119	107.598895615491
2.604164	-61457.173527796	-112212.748305283	127940.162029952	118.708833741975
2.214424	-63624.5934122234	-121343.660844321	137012.309352015	117.669545597387
1.892567	-89215.1329351417	-130260.089388876	157882.965617678	124.407242789228
1.607507	-85272.9932767274	-152909.103884042	175079.060521222	119.14714645525
1.376413	-96932.143187708	-150752.1148266	179226.227175753	122.740623154751
1.17375	-99731.5369304623	-180225.003560814	205979.20129714	118.958929819549
1.001604	-104065.721967066	-195860.657241266	221790.602919753	117.982838919764
