EC-Lab ASCII FILE
freq/Hz	Re(Z)/Ohm	-Im(Z)/Ohm	|Z|/Ohm	Phase(Z)/deg
6999984	1.72566120788178	2.50973127445552	3.04576060687116	-55.488051832821
5969734	3.09658718870236	3.99494320813479	5.05454483148165	-52.2197802482578
5091109	7.31541833647868	-2.35249204214235	7.68437142816715	17.8267510066926
4341796	3.97136030834498	-4.76864372239875	6.20577679665253	50.2122278073666
3702781	3.25089216332202	-6.0536478447101	6.8713137088414	61.7635898079535
3157797	2.55856795343527	-8.7817320783171	9.14686220885007	73.7564558967343
2693047	0.38771490337277	-6.44325143753028	6.45490603599567	86.5564476315159
2296687	-0.453928020047401	-9.46879854838128	9.47967281066238	92.7446210020469
1958656	-2.32238237035295	-10.0394684270479	10.3045808343579	103.024858945402
1670375	7.78431865798704	-10.4445219980289	13.0262679511975	53.3027793430361
1424531	23.0528351627113	-5.98205420259296	23.8163427402676	14.5470145366489
1214875	2.99605536259006	-18.7261785036255	18.96433782354	80.9101204478402
1036062	13.8046720098265	0.550468124234343	13.8156427448992	-2.2834877691106
883578.1	14.4195493313976	-8.59700180747602	16.7878480752702	30.8035918945193
753531.2	19.1543620284016	-21.2938621353673	28.6411967165324	48.0278262134303
642624.9	11.9451137029541	-62.0566855462751	63.1958698204698	79.1045585480444
548046.8	-9.87710147294654	-64.2621562401263	65.0167813578716	98.7379887222333
467390.6	12.4656132490674	-72.0333164479313	73.1039683749325	80.1820056817879
398593.7	-15.5448934372576	-82.4061304456834	83.8594899042839	100.682607478907
339937.5	-10.6693272451659	-124.100095507101	124.557891154018	94.9138392144121
289906.2	-14.1946997179179	-126.952448623629	127.743546653509	96.3798090290339
247234.4	-13.2480450120927	-144.915535640791	145.519837708471	95.2234083111213
210843.7	-15.7395696318302	-173.214442092607	173.928079968843	95.1920675197277
179812.5	-17.6909711210452	-201.329375103968	202.105140308107	95.0217271672353
153343.8	-19.7770002863242	-235.753049755605	236.581128176771	94.7952369508201
130781.2	-23.4917118797252	-274.805083874754	275.807350609897	94.8860507613483
111531.3	-26.8012253617363	-320.023625815979	321.143934648152	94.7872155416882
95109.37	-30.7915709796321	-373.663983398858	374.930518006864	94.7107829718178
81109.37	-36.5887432345049	-433.16327063455	434.705825999952	94.8282393198196
69171.88	-43.4368894446903	-504.644109456766	506.510059696787	94.9195687923634
59000	8.33858351036862	-19.5353365592057	21.2405590661081	66.8849730597303
50312.5	109.062967240138	-0.506111204906102	109.064141548793	0.265881523196695
42906.25	100.043061253925	-220.681545896675	242.299316557854	65.613465120776
36593.75	256.334043773142	-455.334204654471	522.528831669039	60.6223151758324
31203.13	-86.4605011146774	-830.179253648932	834.669402483461	95.9457362034427
26609.38	-283.682099576386	-891.094584404639	935.16046322294	107.6589988882
22703.13	-314.376964741591	-1374.28882113155	1409.78815424421	102.88505724339
19359.37	-181.630540741179	-1313.68159753303	1326.1783413353	97.871848423334
16500	79.5208873356906	-1739.86854687482	1741.68485436572	87.3831111383306
14112.02	15.8186001287289	-1928.03694937648	1928.10184022292	89.5299267009063
12011.13	-180.195232908345	-2624.5624052024	2630.74098701577	93.9276069616535
10236.38	15.7312408396896	1.0239516713297	15.7645302937175	-3.72414774609021
8750.684	3.25801944558156	0.161229667172723	3.26200639382638	-2.83308607493394
7449.463	1.19561115288025	-2.00916801771608	2.33799960485557	59.2440651996452
6363.206	1.99195064446651	-2.16697075425152	2.94340442681123	47.4097594510889
5414.761	1.48365869267339	-0.366267015085791	1.52819980456914	13.8671943831482
4620.567	4.67210594579719	1.27033713926571	4.84172804029214	-15.210895004289
3941.215	-1.33869422653146	4.71869179500619	4.9049112620319	-105.83865467729
3361.769	5.16847376814114	3.61249921075542	6.3058125281102	-34.9515828777264
2867.244	4.48638784761884	-2.11472879959503	4.95981388915941	25.2375762049871
2442.658	3.88177891270057	-4.1645568780135	5.69313108204057	47.0127569948427
2083.003	8.21295801078439	1.48963572439697	8.34695716284127	-10.2803353461805
1777.843	-2.09829129538242	-3.03455962274544	3.6893601700396	124.662495486959
1513.548	6.74957886115009	6.03344859739171	9.05313850442222	-41.7935297403913
1292.065	4.61212501619599	-10.6862059662618	11.6390160717472	66.6551596881033
1101.762	3.15127026400259	4.29910671329937	5.33036798064849	-53.7583667338344
939.101	-0.776841945440938	-11.7295893774057	11.755286060779	93.7891230625703
801.2801	13.6598330849002	-4.99591168227583	14.5447644685101	20.0893556100863
684.3433	-0.447308069044548	14.6725191021985	14.6793358607606	-91.7461847482519
582.9476	97.5186780941681	171.057646962981	196.90254229376	-60.3128606706822
497.0677	164.735220039272	-43.1786540610971	170.299996734924	14.6873662781441
423.5089	15119.485015406	-40179.16550198	42929.7585314265	69.3785999756987
361.5036	480.932050975608	-67981.5962659992	67983.2974083412	89.5946709317561
308.1262	8749.27936620474	-36562.8861763039	37595.1397785572	76.5425204713374
262.7298	-3890.67045774483	-5033.40310859327	6361.79718824522	127.7029533226
224.2111	1142.35292958423	-6441.81875387511	6542.32367538528	79.9440563094701
191.2854	-931.011060633237	-490864.710763614	490865.593675745	90.108671369768
163.1722	1117.24767415202	-628.06497751167	1281.68170049152	29.3426812972286
139.1537	762819.097160809	-464858.807826252	893301.005376618	31.3579572091982
118.6706	484246.410224325	292890.854072725	565932.538572042	-31.1671622634196
101.1982	77201.9367423069	-931339.856666298	934534.144722365	85.2613911271817
86.24196	515412.180403588	36406.3013504986	516696.365853684	-4.04039466590165
73.61024	274679.893091518	-6013.74739327364	274745.716666298	1.25421378086609
62.69291	-27849.0479280682	-151739.724470724	154274.150307014	100.39985280701
53.57697	60453.5286435368	-132049.169602132	145229.516001629	65.40118425768
45.65746	241182.228674279	-410563.637913395	476163.173927776	59.5682447201302
38.96512	277728.091483501	-341375.425597546	440079.622342337	50.8697083364351
33.18414	-345612.51924399	588319.660035768	682325.461816265	-120.432405381287
28.30617	1328808.09190035	-147061.655188947	1336921.11791488	6.31532989400433
24.17237	839863.406506616	985672.895942065	1294960.07636672	-49.566641882125
20.61345	-463921.242721971	-1494744.13372063	1565082.40829067	107.242687754258
17.55618	-565942.38155922	-2205946.74723857	2277387.06216079	104.389071455609
14.98558	1189499.74138807	-15354376.7317196	15400382.9320681	85.5701580829777
12.76553	6277708.91984576	1236410.7173313	6398307.64688935	-11.1419435489202
10.8809	11222285.4600598	-5708027.07630185	12590522.7870357	26.9594003230245
9.278505	3952528.29166582	3496483.53447829	5277108.77311587	-41.4966000926428
7.923394	3161640.03238626	-534819.326538943	3206555.69208254	9.60119701245599
6.75822	1741092.7263691	1861587.23738727	2548903.86719832	-46.9155890823665
5.761429	1037211.6592351	302644.985539181	1080463.79547176	-16.2665640122396
4.919708	1781295.36131711	846787.741141489	1972324.17284719	-25.4253631223412
4.191257	1809039.31053608	1142875.4435307	2139810.15664716	-32.282986110281
3.564097	3268885.51739964	-1306760.71398303	3520402.83056848	21.7894187910646
3.051758	1894960.50937678	-301562.040793582	1918805.61718614	9.04216782132479
2.604164	12678866.4472019	-5985414.71630138	14020657.7489111	25.2709681852873
2.214424	-2460419.99279541	2684130.07408734	3641183.98265832	-132.510069223747
1.892567	1616689.1566027	-959678.209532839	1880070.76859594	30.6936699415235
1.607507	1830972.10966502	695292.51711403	1958542.96627006	-20.7937499234201
1.376413	749614.531932891	-2036174.72821718	2169776.36412495	69.7888950527919
1.17375	3545005.98515948	-1792603.56052786	3972467.11251757	26.8243599002901
1.001604	2818868.7738947	-4511685.52057448	5319899.19086819	58.0031532069508
