EC-Lab ASCII FILE
freq/Hz	Re(Z)/Ohm	-Im(Z)/Ohm	|Z|/Ohm	Phase(Z)/deg
6999984	24.4216634247289	85.3963953659086	88.8198287879532	-74.0405283715601
5969734	23.6941801665374	81.0588718008601	84.4509021348654	-73.7059210192037
5091109	20.9519886243014	82.5457370604455	85.1632816075394	-75.7577974751262
4341796	20.2919022481422	88.2814558368102	90.5835346048873	-77.055145810641
3702781	24.0031834322573	96.1452524321855	99.0962278804358	-75.982339635038
3157797	23.1414195889944	103.890876050073	106.437020942178	-77.4425225759289
2693047	23.2709478962612	116.586450393616	118.88623735056	-78.7119678668208
2296687	23.363367966408	133.365416231025	135.396385510132	-80.0635753055344
1958656	25.4312409104156	152.064471741982	154.176365180957	-80.5057268360368
1670375	26.884737445044	174.451304144567	176.510754984588	-81.2390555180248
1424531	29.7232786514489	201.230410929027	203.413744807122	-81.5977270977767
1214875	32.8732181379148	232.112876402785	234.429170247044	-81.9390380563361
1036062	36.1456514631651	268.098215716038	270.523864732522	-82.3215446803654
883578.1	40.286368942765	310.204951800416	312.810012058583	-82.6004032392556
753531.2	45.2402638483809	359.804398006693	362.63740333566	-82.8334824703148
642624.9	51.3718329618459	417.515744216907	420.66431021761	-82.985488173363
548046.8	59.7887906203039	485.198549786428	488.868420128251	-82.9751176372712
467390.6	176.466071571136	677.313029494413	699.923720371476	-75.3968913599734
398593.7	206.016275362971	764.513182091762	791.784763244724	-74.9185288968186
339937.5	237.790099818385	864.322375189646	896.43588718051	-74.6174968712569
289906.2	270.253994892086	979.117530009985	1015.73045604037	-74.5695403038044
247234.4	308.801843934541	1112.57328023679	1154.6332243246	-74.4876646348802
210843.7	343.487451811261	1263.19395871779	1309.06172768625	-74.7879518153083
179812.5	385.221880201518	1441.35144480654	1491.94164913776	-75.0366154983951
153343.8	432.827054613039	1646.61859823259	1702.55457100513	-75.2725022226504
130781.2	489.142079413472	1885.68772359813	1948.09603582103	-75.4581405482728
111531.3	554.833551257981	2160.80918754129	2230.90488693812	-75.599202757434
95109.37	629.968178485941	2481.53629208684	2560.25043205719	-75.7556775312843
81109.37	727.946469681857	2847.50356965766	2939.07853619726	-75.6598216921589
69171.88	841.090955528139	3270.00964350379	3376.44740283024	-75.5754250089361
59000	976.438550874339	3743.91978308356	3869.15592678791	-75.3825101193156
50312.5	1099.85996916532	4285.04303020852	4423.94458854436	-75.6044166733697
42906.25	2591.5512347032	5692.8898570719	6255.00861125257	-65.5237399300585
36593.75	2891.69352789958	6204.22055295336	6845.0160064813	-65.0104843371803
31203.13	3196.39412943153	6913.29685623247	7616.46957934305	-65.186325084506
26609.38	3677.28053775817	7763.30625052975	8590.18719777918	-64.6542764759475
22703.13	4168.43471385546	8706.82881170833	9653.22308454899	-64.4170146529838
19359.37	4782.52124329581	9789.22535340684	10895.0191584209	-63.962200755209
16500	5527.34263984156	10991.5564370851	12303.0821166014	-63.3034711781471
14112.02	6392.67003993114	12296.238642095	13858.7053862467	-62.5306084082951
12011.13	7479.8483740516	13729.6548954427	15634.9466019797	-61.4186692152847
10236.38	8782.16683358837	15310.1213683568	17650.1068157333	-60.160625784516
8750.684	10259.1188332101	16865.2204579244	19740.4452920475	-58.6878377721322
7449.463	12140.8321991348	18593.3860480064	22206.1660630049	-56.8568651941224
6363.206	14221.4419078483	20279.348981172	24768.9605159051	-54.9589023907058
5414.761	16705.0102013736	21971.3644998663	27600.6924517118	-52.75397171897
4620.567	19558.6735608243	23516.9904557691	30587.4247290553	-50.2502893936971
3941.215	22439.1871413627	24847.523161856	33480.0914999358	-47.9155837813642
3361.769	25800.7605857439	25937.8597966857	36584.8577643183	-45.1518244537255
2867.244	40852.3736376713	30084.9329710493	50734.7969711561	-36.3690632741462
2442.658	44692.4826455773	30022.0596007192	53839.9671962601	-33.8911296721865
2083.003	48516.5097829141	29690.354286472	56880.3029103382	-31.4651289647774
1777.843	52155.3080956256	29193.9758356223	59770.0960986389	-29.2379560714346
1513.548	55543.4574221243	28493.4611229476	62425.5796061859	-27.1575520468925
1292.065	58705.3944112679	27988.3219750009	65035.9093113861	-25.4898896292288
1101.762	62031.7407732877	26606.4462689445	67496.961757005	-23.215298748761
939.101	65260.6431895391	25136.6301669135	69934.267177547	-21.0653319183121
801.2801	66661.5397475023	24364.4902913325	70974.5677596156	-20.0771286907382
684.3433	69229.0493832162	24944.3969307729	73585.8968603614	-19.8149489332643
582.9476	70363.9263531722	23157.2338852308	74076.5793827572	-18.2167175412146
497.0677	72078.9155075418	22234.6639044908	75430.4337763546	-17.1437738557408
423.5089	75573.2626907017	22200.4313759882	78766.5994378186	-16.3706990915046
361.5036	76005.3313538838	23148.913566528	79452.3919937232	-16.9391419792098
308.1262	78658.5954697226	21863.0609764279	81640.4806240659	-15.5332066823619
262.7298	82371.3027236828	20522.4598500196	84889.3566396416	-13.9901683147171
224.2111	83419.0356575148	22477.6050508263	86394.3183250534	-15.0804210551818
191.2854	84440.7522592801	25282.9372519811	88144.5832606901	-16.6685569308813
163.1722	84778.585828223	26330.5488024452	88773.3429317119	-17.2537588340941
139.1537	89972.4815243637	26530.0435461999	93802.4021132468	-16.4291235978741
118.6706	90408.2668541085	30058.543183122	95274.1871330074	-18.3907076348619
101.1982	91710.6082164243	31251.1434203388	96888.9551213401	-18.8169653161275
86.24196	93269.0894672447	34245.9815576865	99357.4874023005	-20.1619207148396
73.61024	95080.4542702008	34682.0146976945	101208.373802363	-20.0401958312641
62.69291	98373.8472326494	44858.4491675449	108118.889566393	-24.512973670219
53.57697	98788.5331925257	47306.4920798057	109531.175850657	-25.5881862685615
45.65746	101170.091405086	50764.4072513128	113191.927444013	-26.6462559696737
38.96512	104566.948154673	54565.5713416964	117947.650346363	-27.5566457990909
33.18414	107175.590683677	63843.7825242575	124750.293808872	-30.781974196909
28.30617	111933.278619396	73419.9714613392	133863.927448253	-33.2619188807297
24.17237	111860.9507892	82046.1695137622	138724.353461621	-36.2587688985835
20.61345	117524.051028207	91974.1195527496	149235.18766559	-38.0466722391333
17.55618	235611.043744381	107752.50843115	259081.390700918	-24.5761422671322
14.98558	242622.923609011	106343.877739454	264905.461237114	-23.6682849111694
12.76553	238099.073170893	133269.613170783	272858.861757371	-29.2367585896428
10.8809	268308.815513848	117671.945453401	292978.339180958	-23.6807696615253
9.278505	240909.528141235	173915.174412786	297126.048404145	-35.825922202674
7.923394	292950.550830901	174295.257318099	340879.54170896	-30.751154797109
6.75822	301857.856821705	180030.138725787	351466.94947693	-30.8121461544006
5.761429	358794.281518811	260528.017694188	443405.214735081	-35.984184604845
4.919708	278611.739354065	269379.696406499	387543.445489605	-44.0348260433841
4.191257	350248.431904297	298561.597188263	460231.454126101	-40.4452053498438
3.564097	354379.381147552	433024.658339448	559549.015290454	-50.7037396519196
3.051758	352625.94420002	382178.301056347	520005.106053076	-47.3030804392134
2.604164	351090.905179187	464414.199697587	582190.15156587	-52.9112085266878
2.214424	435305.867796908	403966.105118155	593868.514591194	-42.8614772338916
1.892567	259392.925983039	434160.898543879	505747.343912423	-59.1434538108202
1.607507	481500.808983033	599505.71598532	768927.911153176	-51.2298581472984
1.376413	383569.488698237	742581.088391708	835794.36795018	-62.6820411535482
1.17375	231735.877428976	762557.989976746	796991.972961555	-73.0963512209641
1.001604	535715.903445039	499628.890280319	732543.894389052	-43.0037598431564
