EC-Lab ASCII FILE
freq/Hz	Re(Z)/Ohm	-Im(Z)/Ohm	|Z|/Ohm	Phase(Z)/deg
6999984	-15.629490201478	45.3322576125256	47.9509597839968	-109.022982215288
5969734	-9.72621369352058	50.1453289234822	51.0798712376632	-100.976821306707
5091109	-2.68439051180858	54.2190839438723	54.2854954489002	-92.8344034885438
4341796	6.78352690953888	57.0105878369946	57.4127456480886	-83.2144421082973
3702781	16.8762793360847	57.6906029908603	60.1083561385489	-73.6941753844036
3157797	25.1441317871805	57.7078912589029	62.9478202710822	-66.456572516311
2693047	33.4667835526912	57.190689867335	66.2631165043147	-59.6647308128302
2296687	42.1264446471219	55.9166390073697	70.009341208781	-53.006382546037
1958656	49.1894982719602	53.4278619186729	72.6232963273353	-47.3651203092702
1670375	56.0542933904501	50.3199159628932	75.3271382040716	-41.9143092436049
1424531	61.959349699022	47.0835100524359	77.8191360398169	-37.2315538318905
1214875	66.6187286297834	43.6707633332206	79.6567045160348	-33.2461568117856
1036062	70.6845471064877	40.0969263431508	81.265421316925	-29.5647597386213
883578.1	73.8197910280993	36.9097101342113	82.5329525076121	-26.5649360698108
753531.2	76.6661946900186	34.0909213224725	83.9040900365581	-23.9731328356467
642624.9	78.8232643028969	31.8501011676419	85.0149159839222	-22.0021465612408
548046.8	80.8372860137151	29.9291413475844	86.1998857996162	-20.3165333758557
467390.6	82.495892527255	28.4689160071741	87.2699917640189	-19.03929585895
398593.7	83.9716459642536	27.4499292491127	88.344416584905	-18.1023207878387
339937.5	85.2902865797588	26.8800984351111	89.4257942471782	-17.4927739079109
289906.2	86.5431907010756	26.7270486206625	90.5762606022902	-17.1622059080101
247234.4	87.7870165564963	27.040958894741	91.8573553605678	-17.1203570706538
210843.7	88.9834825395713	27.8895941746522	93.2517540215571	-17.4022637650141
179812.5	90.2905485198776	28.978775158198	94.8269611539343	-17.7940465757466
153343.8	91.6312411232118	30.6651095264748	96.6262557074984	-18.5032193570918
130781.2	93.0594245889873	32.8141240352738	98.6753426192975	-19.4234010352278
111531.3	94.6145920028272	35.4871232209495	101.050764145356	-20.5595763429722
95109.37	96.2413597583386	38.6811313602529	103.723812364582	-21.8960806142062
81109.37	98.1166730431875	42.4428891207823	106.903135435696	-23.3921364426502
69171.88	100.170243879563	46.8942804318254	110.603577230168	-25.0864471273654
59000	102.398814324182	52.0261717669883	114.857475698043	-26.9339380786089
50312.5	104.883968525872	57.9291499683721	119.818334447589	-28.9125962578916
42906.25	107.688349585685	64.6980131740824	125.628872259375	-30.9969995278437
36593.75	110.71850987268	72.4489508452072	132.315678991561	-33.1988362274858
31203.13	113.926491305444	81.2584757143928	139.936361595534	-35.4984997410685
26609.38	117.968950458151	91.4726855064142	149.278014007264	-37.7898668257777
22703.13	122.162625591533	103.000556794541	159.789930193997	-40.1356763601803
19359.37	126.970352223426	116.186187486114	172.106654450952	-42.4605557463268
16500	132.233934811483	131.189517676505	186.269973597254	-44.7728357905583
14112.02	138.145072989864	147.92537761667	202.400539857011	-46.9580910916093
12011.13	144.791090394895	167.600377078914	221.482157869966	-49.1760450940284
10236.38	152.357865300051	189.731744959693	243.333216319183	-51.2349345533633
8750.684	160.576327127255	214.566919136978	267.999476905485	-53.1897691475245
7449.463	170.296384466398	243.214711413996	296.907821403412	-55.0006939322827
6363.206	180.526411074987	275.818298984113	329.644534536984	-56.7947680282861
5414.761	193.252116181	313.284348470058	368.094367526513	-58.3312861362223
4620.567	207.697867530356	354.740922604436	411.071193769283	-59.6513808962037
3941.215	223.52640076435	402.415936722392	460.328836775217	-60.9495313726316
3361.769	241.726257708594	457.179740043132	517.150750141299	-62.1330902900333
2867.244	262.523653771328	519.06591783411	581.676968640169	-63.1714617021489
2442.658	286.448349662433	590.052162272172	655.907166622226	-64.1051537250941
2083.003	313.872659560376	669.985884735788	739.862914440709	-64.8980127219961
1777.843	345.245877843254	760.306058315446	835.02096888577	-65.5777698501393
1513.548	382.257325539666	864.482326321597	945.225029001634	-66.1459147997911
1292.065	423.639024289523	980.388465331493	1068.00354206155	-66.6301787282356
1101.762	472.123201500594	1112.33730275797	1208.38511762685	-67.0015699710394
939.101	528.086372366684	1260.75012018524	1366.88188305592	-67.2728081912544
801.2801	592.863319043702	1428.44038805665	1546.58619459083	-67.459477840908
684.3433	667.545461478974	1617.88470352617	1750.19080589664	-67.5787676538542
582.9476	753.208411022917	1831.06498330125	1979.92976731693	-67.6401887294923
497.0677	854.322337435901	2069.99952314485	2239.36702709981	-67.573267259021
423.5089	969.579262343558	2338.89740517672	2531.9014629146	-67.4837712514215
361.5036	1105.21859745961	2643.44217076668	2865.18667077003	-67.3102796310559
308.1262	1258.22233198885	2982.27342132861	3236.8315056979	-67.1250996716696
262.7298	1432.6314436079	3360.57993937758	3653.20823142633	-66.9112145267473
224.2111	1631.8018452899	3776.49346426751	4113.96161235697	-66.6310954607079
191.2854	1860.14511950032	4247.46963296827	4636.93197584227	-66.349372112842
163.1722	2119.93402325496	4768.75936847752	5218.73415469652	-66.0326410436937
139.1537	2417.41371392588	5348.667367633	5869.593825288	-65.6786677178619
118.6706	2756.70701617041	5993.51088903383	6597.09074895671	-65.2999999110599
101.1982	3127.39798772714	6706.74389635097	7400.06972027161	-65.0000565053089
86.24196	3561.30298292252	7506.48461031842	8308.44089713107	-64.6189249799879
73.61024	4050.06880859026	8382.15392146349	9309.32659849366	-64.2112082129728
62.69291	4597.04316285486	9364.7766615137	10432.2503689847	-63.8541982108268
53.57697	5211.79197920892	10426.6409277884	11656.6554667957	-63.4416685983326
45.65746	5916.97099680905	11619.8202181974	13039.5846437036	-63.0141847873855
38.96512	6687.73528469931	12931.7464821556	14558.7042801534	-62.6539662215868
33.18414	7564.3402469358	14393.3891237543	16260.0397859052	-62.2761578514775
28.30617	8557.22617566659	15985.6549567192	18131.9409941902	-61.8395640115878
24.17237	9661.22947703456	17748.2248086227	20207.3956477655	-61.4383789634372
20.61345	10885.7654957606	19709.5985249913	22515.953553981	-61.0877860885967
17.55618	12270.9899756221	21880.5462536793	25086.5601336895	-60.7155354091001
14.98558	13791.1315417349	24245.899318625	27893.7079458852	-60.3686667599279
12.76553	15511.1125350231	26869.7858980731	31025.4735061762	-60.0034634613116
10.8809	17420.7583614718	29761.5047175318	34485.2140045623	-59.6576261361706
9.278505	19577.7949747568	32854.2374741347	38245.1431698255	-59.2093439572603
7.923394	21910.14397326	36424.719217637	42506.6415870823	-58.9723113174146
6.75822	24486.7650527131	40213.7245252381	47082.3247401666	-58.6621119671308
5.761429	27454.0244081122	44431.3830152485	52229.0269184573	-58.2881997100284
4.919708	30765.3745730821	49031.1776407181	57884.0621713585	-57.8931453102857
4.191257	34328.7331812449	54011.4164450036	63997.6173636543	-57.5606579017713
3.564097	38399.4072506151	59749.5848021116	71024.836228064	-57.2722653251702
3.051758	42728.1950170771	65553.5956486924	78249.4252495802	-56.9034695811783
2.604164	47628.4953658909	72285.3592603579	86565.8520100028	-56.6192939739493
2.214424	53127.0198798631	79571.2704049176	95676.8901834079	-56.270316840091
1.892567	58961.2446780456	87547.0934910482	105550.565856914	-56.040509198042
1.607507	65715.4292035837	96404.9282727422	116672.30961408	-55.7192918693578
1.376413	72900.0371546326	105877.65738136	128547.632221335	-55.4513882635105
1.17375	80835.1823124718	116590.683638272	141872.175604416	-55.2654806477244
1.001604	89432.9616374332	127967.990299484	156121.943264012	-55.0514637225092
