EC-Lab ASCII FILE
freq/Hz	Re(Z)/Ohm	-Im(Z)/Ohm	|Z|/Ohm	Phase(Z)/deg
6999984	1.26862732893541	2.54900290605205	2.84724974576934	-63.5406757053312
5969734	5.63308743776802	1.92466895937868	5.95281653377086	-18.8638676412369
5091109	6.99749003561309	-1.73294639184538	7.20888132760656	13.9095875304099
4341796	4.60911308363386	-4.74499704514475	6.61505256034729	45.832257672067
3702781	2.94086748653862	-5.27926604464693	6.04312431971593	60.8795732258461
3157797	4.25994036564509	-7.34397117860761	8.49005327374756	59.8837152821292
2693047	1.13576110476187	-8.35283424983342	8.42969710560707	82.2568004495157
2296687	-0.330680170890684	-8.91738074330634	8.92350988661474	92.1237066394636
1958656	6.04821973229351	-4.73357404533755	7.68034407906298	38.048127551933
1670375	0.0807986630724259	-13.2339614013241	13.2342080532116	89.6501905421043
1424531	16.2802897535943	3.14080208481177	16.5804846791928	-10.9193838229796
1214875	9.06956642374292	-19.8009489825708	21.7792244059575	65.3904699469111
1036062	22.8160937099023	-0.362898208097883	22.8189795409103	0.911233223291652
883578.1	11.2184532544855	-17.2471797261102	20.5747151117051	56.9579521379173
753531.2	18.4823740520117	-25.0663800471346	31.1435636892419	53.5972681905774
642624.9	17.5597398440575	-10.1490134031406	20.2816896842474	30.026649665166
548046.8	10.5567305714771	-11.1936245000714	15.3864157557034	46.6772558283259
467390.6	-0.243914171424779	9.42866003330875	9.43181446736181	-91.481879317358
398593.7	5.79071449431722	2.05239574836964	6.14367175739568	-19.5157904796926
339937.5	5.4358418249622	11.7077183656684	12.9081000025494	-65.0947664288441
289906.2	9.44445510598996	-2.3425825111376	9.7306436102936	13.9303858983732
247234.4	26.2900739538596	16.1782720832291	30.8691508807481	-31.6071308247226
210843.7	0.113711200542536	21.1226452367989	21.1229513098145	-89.6915580949127
179812.5	5.84544957304807	10.6489335273704	12.147800870174	-61.2365832279921
153343.8	5.66005546049833	2.35673432773439	6.13110304165887	-22.6058721899701
130781.2	3.10535812954971	3.91576948945633	4.99764942821298	-51.5842096252751
111531.3	1.85373349444342	1.84103539795809	2.61261156794425	-44.8030879621412
95109.37	4.19015862274668	3.20268183188464	5.27395489173564	-37.3919189891696
81109.37	1.28305485863868	9.18941281262327	9.27855256012925	-82.0515669672998
69171.88	7.42045831609073	-0.0909344767801994	7.42101547632852	0.702099617364335
59000	8.37037465054062	3.75614992466343	9.1745209164818	-24.167841083166
50312.5	6.25896308924889	-9.34905945286017	11.2507569347886	56.1986741973879
42906.25	0.473913376078728	-15.5092444272855	15.5164833835928	88.2497670992455
36593.75	21.8497942172721	-15.4377715054343	26.7532857120605	35.2427657587898
31203.13	112.472454686883	103.269546342457	152.69136277167	-42.5574142615936
26609.38	275.891881789391	-258.195494329581	377.864054561145	43.1022627472953
22703.13	28.231998266158	-483.336736692389	484.160558867147	86.6571163161204
19359.37	1385.08842384525	-661.146145300017	1534.79124551686	25.5166066512158
16500	-126.29186297928	-1710.03197733945	1714.6891841317	94.2238261417361
14112.02	-91.9541054631486	-1736.91501524871	1739.34738557539	93.0304696460376
12011.13	7.26234510836722	-2316.28847213782	2316.29985705975	89.8203590072581
10236.38	-289.222063229145	-3210.93499434	3223.93438824919	95.1469757412509
8750.684	3.84862514120181	4.26465730519918	5.74449453026804	-47.9354367689655
7449.463	0.100288921301211	-3.78913398752475	3.79046095391457	88.483877654336
6363.206	1.85088581140818	-1.25949615923776	2.23877396402736	34.2346178703674
5414.761	2.463139098636	-0.768761622746466	2.58031948638868	17.3334801817086
4620.567	1.85175487013572	-0.237066891809495	1.86686818234807	7.29548306455667
3941.215	1.64463693928075	-1.53554490521851	2.25005084786751	43.0353126289343
3361.769	3.16685141923027	1.21503127412373	3.39193881262317	-20.990394768287
2867.244	2.89989401078185	-1.54331630588461	3.28499779205066	28.0217958554899
2442.658	6.27256239023186	5.62881880747523	8.4278490794946	-41.9038986004674
2083.003	5.89839664069132	1.14469333481408	6.00844453762256	-10.9827873325888
1777.843	4.42126514369649	3.98039678445633	5.94904564048519	-41.9962192899968
1513.548	6.72936194532347	-5.74553123724793	8.8484711328771	40.4907096579331
1292.065	5.75749582012633	5.58984187493826	8.02465515181714	-44.1535314393793
1101.762	6.17016724811199	-6.98594381807673	9.32064240806385	48.5482208604358
939.101	-0.164821175391253	24.9624319002183	24.9629760323743	-90.3783053081565
801.2801	9.60753642352528	7.81346221731027	12.3836564854933	-39.1202118007141
684.3433	33.3204772711308	-19.7394277882591	38.7285323112539	30.6429803653883
582.9476	-13.8238729706456	-12.6372621870679	18.7296518785919	137.567624977147
497.0677	-2192.8644274695	-49110.8619939258	49159.7947532706	92.5566335494644
423.5089	41977.4059050039	-12851.0062244417	43900.4665976809	17.0214989326819
361.5036	-14391.4722349593	-58008.218633827	59766.7792520183	103.933398121141
308.1262	188.798859230469	11.6212101908714	189.156183544252	-3.52230560106373
262.7298	403816.052800749	-125657.683461408	422915.189976033	17.2848647127917
224.2111	2259.52114845234	10367.989776284	10611.3452408935	-77.705624795453
191.2854	244622.588430592	-149668.866849161	286776.882740563	31.4597889981268
163.1722	368685.77739093	-234728.403920777	437065.928731067	32.483378099128
139.1537	541273.325081857	-417956.073342761	683859.701758533	37.6743126976558
118.6706	740870.750945851	-260138.413207777	785214.278801226	19.3474612090611
101.1982	563913.609316394	350887.152802738	664168.91885593	-31.8913465389972
86.24196	213149.721614703	-347230.944352167	407433.592797799	58.4560763440018
73.61024	-104377.074902205	-210030.074416108	234536.150570389	116.425654224158
62.69291	-22269.5864251931	-153995.117832821	155597.014096973	98.228629242362
53.57697	-57110.7536206978	-135451.201613455	146998.864613482	112.861914034224
45.65746	397064.977742303	-173984.439556898	433510.30178927	23.6618907021758
38.96512	175120.522089929	-410718.784615193	446494.252250609	66.9077767799765
33.18414	180798.574220111	-740156.060044429	761918.051801187	76.2731157160669
28.30617	808198.786252764	234651.543802625	841573.897592717	-16.1900684170117
24.17237	1081352.51341971	-691079.36769654	1283321.45261231	32.5821560230085
20.61345	-495476.849251577	1475361.35387843	1556338.14855971	-108.56381383827
17.55618	-692618.044084698	-1870551.01819613	1994663.09603058	110.31832519852
14.98558	8020121.6078065	2319840.46739442	8348892.76480214	-16.1326465867837
12.76553	3062512.45174595	-10637814.1856327	11069872.3192794	73.9394586164991
10.8809	10030602.3538525	-6790604.09136724	12113021.4028872	34.0975549066162
9.278505	8113381.48979583	2174359.35694529	8399690.34025047	-15.0025389020897
7.923394	4162895.69382413	-298225.885213647	4173564.33235082	4.09761481498577
6.75822	2021703.29962672	-1987557.74912295	2835078.48882887	44.5120425909486
5.761429	2827283.26415463	5362500.52649414	6062173.08829258	-62.2003555351817
4.919708	7618401.22788015	2182247.21404975	7924786.4433178	-15.9840557121944
4.191257	4462703.32405738	-2103733.26928476	4933701.91913215	25.239346644574
3.564097	4393156.39282132	-6895686.75329799	8176204.43062648	57.4992941219128
3.051758	-1455406.13143699	5047550.65157805	5253187.08858445	-106.084338979842
2.604164	29354847.894875	-995334.68541894	29371717.4517808	1.94198372377421
2.214424	13566372.1257227	-12600525.4422393	18515390.7351183	42.8861144190822
1.892567	4292611.42430636	1942670.51759198	4711738.70031081	-24.3496749690288
1.607507	4313139.80368681	-2274685.57883409	4876204.4100615	27.8064955048136
1.376413	1643972.12968549	-3766808.42295582	4109925.79719312	66.4217939781466
1.17375	3861255.73060132	619961.492109473	3910709.40735822	-9.12153393510632
1.001604	1785090.91173174	5562014.50852077	5841451.44259052	-72.2063185820078
