EC-Lab ASCII FILE
freq/Hz	Re(Z)/Ohm	-Im(Z)/Ohm	|Z|/Ohm	Phase(Z)/deg
6999984	20.1924441655218	95.3449456672481	97.4597017524074	-78.0424093874309
5969734	17.608150129347	94.8009700277529	96.422356687547	-79.4778978473517
5091109	14.1404749986593	99.9647350213391	100.959899371356	-81.9486637472943
4341796	12.9838260991468	109.594066095013	110.360495936775	-83.24354836429
3702781	13.9350992950831	121.770938598444	122.565690466418	-83.4716428625316
3157797	13.2143714588567	137.010710155506	137.646483102071	-84.4909920758488
2693047	13.326632759766	156.559153243492	157.125324518465	-85.1345955671192
2296687	13.49876378261	180.594979295634	181.0987663416	-85.7253150538991
1958656	15.0419786825328	208.336519173026	208.878831727436	-85.8703879676263
1670375	16.4424561084161	241.377002076619	241.936379022199	-86.1030661282289
1424531	18.544670072529	280.131906523028	280.745062005239	-86.2125583628784
1214875	20.9086077609285	325.037102631152	325.70890065418	-86.3194149916703
1036062	23.3332000614107	378.009175257048	378.728629500886	-86.4678110606092
883578.1	26.568134857928	439.828737433607	440.630439327868	-86.5432123064484
753531.2	30.2861174648393	512.795105790273	513.688689220963	-86.6199886509959
642624.9	74.9817552809534	671.171949112822	675.347354256251	-83.6254820305242
548046.8	94.0494525326471	773.243193734024	778.941805385796	-83.0651866026657
467390.6	112.931781834852	888.440506381324	895.58925893933	-82.7558466890746
398593.7	133.923149699893	1020.7046925951	1029.45300014678	-82.5251165849754
339937.5	156.702959828781	1174.25219098532	1184.66198793281	-82.3988366869286
289906.2	178.141160767156	1351.48063449175	1363.17063442758	-82.4910255961651
247234.4	204.534138118532	1558.82295990074	1572.18422392848	-82.5248874018574
210843.7	230.389497779726	1800.93920320489	1815.61596554102	-82.7098954739051
179812.5	258.375938251913	2080.66004707807	2096.64120845091	-82.9212596045289
153343.8	291.078907211196	2411.76439876471	2429.26623600052	-83.1181851987153
130781.2	327.517487461637	2797.21403257964	2816.32278843417	-83.3218143991048
111531.3	373.425098261899	3247.79571496468	3269.19306712755	-83.4410469162716
95109.37	427.83131530877	3764.76975919397	3789.00131619142	-83.5166773452288
81109.37	491.911622423702	4378.56350308559	4406.1088723304	-83.5899586472261
69171.88	1095.25554795271	5558.64576451373	5665.52093374189	-78.8534311464386
59000	1250.1880474048	6353.63537821966	6475.46544066434	-78.8682707533325
50312.5	1347.50314492584	7280.88800706368	7404.53205118249	-79.5146817377991
42906.25	1775.15060913635	8532.8617303778	8715.55442842641	-78.2479866443238
36593.75	1985.66524337802	9670.84711097786	9872.59592521989	-78.3970129668374
31203.13	2251.72120688612	11098.4944334507	11324.6115643265	-78.531199682457
26609.38	2558.77357457685	12800.4729379991	13053.7132511175	-78.6957531612186
22703.13	2943.42343123136	14757.6493645189	15048.3207123455	-78.7203330506297
19359.37	3420.04472321486	17036.3623157261	17376.2581375129	-78.6487706220178
16500	4021.16733142704	19734.7200844898	20140.2324594455	-78.4830139318865
14112.02	4750.24582063864	22690.0252008639	23181.9343233548	-78.1756793705783
12011.13	5776.67632318483	26292.572373035	26919.6833438681	-77.6085657449578
10236.38	7025.05020654037	30354.1097027777	31156.4328229769	-76.9690875498123
8750.684	8606.62923652834	34924.2760235433	35969.1412544657	-76.1560604385217
7449.463	15998.5084435931	44046.8652894814	46862.3368415345	-70.0381889894533
6363.206	19297.291216405	49527.8880374649	53154.4649276277	-68.7128803135362
5414.761	23350.3585672505	55079.4174286636	59824.5891711773	-67.025977973112
4620.567	27823.3095572374	61807.2123048374	67781.030145706	-65.7644967955725
3941.215	34166.9106353035	69188.1382642226	77164.6049612774	-63.7186363964989
3361.769	41614.9987147724	76497.009568801	87083.8710152445	-61.4534477534491
2867.244	49643.8448040034	84718.2939927241	98192.1619273229	-59.6302387535633
2442.658	59770.028851489	92780.2515964667	110365.897972206	-57.2099332466379
2083.003	71913.4056327176	99718.0138991344	122943.971815147	-54.2020767095396
1777.843	85422.4361229513	107084.050485667	136981.701192519	-51.4201488902173
1513.548	99984.9265247147	112235.979942878	150312.676530926	-48.3038944678582
1292.065	116676.715909876	115661.49291551	164289.491383224	-44.7496424590114
1101.762	132540.22372342	117213.221970143	176934.59330859	-41.4882463679897
939.101	149124.982752781	116381.302066081	189163.601022008	-37.9694719058174
801.2801	164528.462428227	114233.523739492	200297.061623324	-34.7725794033716
684.3433	179691.30972689	110791.994798333	211101.475368504	-31.6566744852676
582.9476	193189.892769233	104673.348975107	219724.474407955	-28.4495374974448
497.0677	207541.940550115	99664.0377475297	230231.573654545	-25.6508563921929
423.5089	215516.009288894	91420.684464772	234104.446364904	-22.9863849208724
361.5036	222599.648832982	86191.114324672	238703.816159473	-21.1665219945102
308.1262	229828.688002551	83765.3276816358	244617.775213875	-20.0252072553434
262.7298	236496.051213354	78645.9768234755	249229.957890355	-18.3943745647508
224.2111	243337.70334671	74598.7179477792	254515.631326454	-17.0436838585094
191.2854	256598.813972762	57913.7556795446	263053.139934002	-12.7184254630668
163.1722	258589.089902897	57469.8469077408	264898.283724919	-12.5299911034042
139.1537	262218.74285653	57339.4407140422	268414.754748427	-12.3347270868236
118.6706	264884.723574031	58762.5881682832	271324.452549205	-12.5080525494286
101.1982	267844.956132751	59846.7098526038	274449.538542037	-12.5951650526003
86.24196	271065.725416826	62035.0764501276	278073.692042097	-12.8905076072564
73.61024	274270.999472439	65504.9229655694	281984.886269346	-13.4324855744045
62.69291	278482.475400589	69591.8701810422	287046.194018549	-14.0306764308329
53.57697	282731.643585436	74328.3028311034	292338.637347638	-14.729392732417
45.65746	285680.350670141	80731.0610022452	296868.265346034	-15.7798822018996
38.96512	291086.568010294	86593.3614398705	303693.59611534	-16.5668569222456
33.18414	295562.336176246	94769.7632266708	310384.282121372	-17.7780438645286
28.30617	301613.145765865	103179.331785653	318773.374368868	-18.885387936022
24.17237	307253.228535354	114118.122875302	327761.334531669	-20.3756969977809
20.61345	312743.480314497	125729.808747984	337070.421851323	-21.9012200456285
17.55618	320496.529958799	139539.781798722	349555.970368218	-23.5276466907766
14.98558	329110.988083492	154443.600157701	363547.614635228	-25.1394972896166
12.76553	338123.089617325	171924.84022598	379322.256688286	-26.9518888463303
10.8809	347831.22700326	191987.896715488	397298.269520306	-28.8968112706357
9.278505	358574.564193978	214103.890244571	417631.648590909	-30.8413097061728
7.923394	371018.677637424	238294.314079112	440952.422919136	-32.7114324903239
6.75822	384795.523571466	266446.504066696	468039.885576008	-34.7001460789112
5.761429	400760.969298477	297670.160628999	499216.264801087	-36.6035748996932
4.919708	417420.800813146	331884.54227827	533279.921199687	-38.4876434765778
4.191257	437101.793919955	373482.495851192	574932.302932509	-40.5122987076537
3.564097	460709.262875323	417892.296236462	622002.408478381	-42.210007032094
3.051758	482882.610489496	467097.650739926	671830.209829766	-44.0480556388737
2.604164	513653.693580815	522650.319922201	732805.208663253	-45.4973982182807
2.214424	546002.643298778	588014.663565704	802421.417372157	-47.1216705421191
1.892567	582526.503892878	657803.083868432	878659.219996284	-48.4730659864485
1.607507	626100.656081757	737480.518154565	967408.675898419	-49.6696596936895
1.376413	674981.626412904	823961.560907751	1065135.13220086	-50.6759855763234
1.17375	727036.939438482	918452.126832706	1171382.52530572	-51.6352372465094
1.001604	790636.264158055	1023556.6161018	1293357.58727723	-52.3160600761516
