EC-Lab ASCII FILE
freq/Hz	Re(Z)/Ohm	-Im(Z)/Ohm	|Z|/Ohm	Phase(Z)/deg
6999984	26.7000681280356	85.8185372280913	89.8761090057365	-72.7179125972801
5969734	18.7238762312794	92.3552938146776	94.2341967478882	-78.5393356831479
5091109	15.500660548791	98.0674354972345	99.284905108748	-81.0180656964428
4341796	14.65655677474	107.628847689225	108.622205425049	-82.245341293613
3702781	16.6265339220616	119.364737861127	120.517145149215	-82.0701880956416
3157797	16.0371685459596	133.11596252044	134.078522712307	-83.1303891997516
2693047	16.3958248656683	151.258721488858	152.144746539174	-83.8135267788861
2296687	16.6266310245268	174.295929659759	175.087166734702	-84.55086616544
1958656	18.3031735168301	200.497790231764	201.33149293791	-84.7840026922787
1670375	20.2089003659376	231.926722313518	232.805507188064	-85.0201185996521
1424531	22.3587505613502	268.580551390754	269.509603376254	-85.2412230127931
1214875	25.0260065998478	311.125032773673	312.129920105002	-85.4011928291936
1036062	27.4506966592579	361.805543141509	362.845410326493	-85.661201076624
883578.1	30.7382032173506	419.963208373902	421.086610479047	-85.8138370332468
753531.2	36.4396702637562	488.749045167172	490.105579156934	-85.7360866604476
642624.9	80.9204207346602	642.386954725304	647.46360059321	-82.8203617368063
548046.8	100.557780204104	745.166956864296	751.921312879195	-82.3145545952649
467390.6	130.896283216934	848.555952813737	858.59247726476	-81.2308049257749
398593.7	146.183763261448	984.275809549334	995.072139045847	-81.5522342488433
339937.5	170.609541756021	1128.04190325502	1140.87078638968	-81.3995409964409
289906.2	192.782677149526	1293.06709580515	1307.35904588713	-81.520263203875
247234.4	234.230328860588	1482.2613076219	1500.65400110456	-81.0202429360643
210843.7	247.530545157125	1708.2149553869	1726.05611281709	-81.7548894209811
179812.5	283.579511594767	1968.15185357286	1988.47656715351	-81.8010125234891
153343.8	322.007134324655	2289.10719469313	2311.64451059237	-81.9927814975194
130781.2	378.905638973577	2641.95441223515	2668.98718610164	-81.8383693717316
111531.3	417.496754207579	3066.57646383985	3094.86586920183	-82.2471747585575
95109.37	485.214724202028	3545.40640657244	3578.45496217954	-82.2070677128983
81109.37	558.738678045651	4113.31267678078	4151.08781975396	-82.2644780839704
69171.88	654.494612371658	4768.32899248552	4813.03693921015	-82.1844931757702
59000	1369.4068346271	5938.77231462015	6094.61169260373	-77.0152679480999
50312.5	1396.48853718136	6696.64024096693	6840.69958055582	-78.2205992617166
42906.25	2081.80525511629	8046.17245108533	8311.1253289091	-75.4938358189095
36593.75	2348.24487307715	9012.38124825142	9313.2845842789	-75.3958600359421
31203.13	2470.27564544871	10200.1147711576	10494.9799003754	-76.3861602890462
26609.38	2918.52932145652	11840.4622957043	12194.8497643963	-76.1533102411051
22703.13	3188.96819485765	13636.8439593115	14004.7503126055	-76.8379375105069
19359.37	3865.77180575246	15688.5525087961	16157.8114692369	-76.1576647203481
16500	4364.92434165817	18023.7790346472	18544.7883567915	-76.3864467679438
14112.02	5185.74646980605	20546.4291416182	21190.7460208612	-75.8348602985713
12011.13	6286.62620759199	23867.8806296372	24681.924455451	-75.2438543328939
10236.38	8137.69752309228	27308.5675723435	28495.2624804649	-73.4064359796889
8750.684	9449.23744088154	30985.8020734283	32394.5677289855	-73.0407170190569
7449.463	11902.3134928223	35393.5742406299	37341.2662346686	-71.4130012188697
6363.206	22909.8641523384	42924.1502937211	48655.365109272	-61.9098659330503
5414.761	24048.2648036921	47118.4408208965	52900.5340753836	-62.9611861913359
4620.567	31510.5314661405	51988.6926237946	60792.5797611026	-58.7797974982507
3941.215	36771.89545931	59533.3190483901	69974.1979059984	-58.2976535136481
3361.769	41217.9143537076	61706.2414176997	74206.311682828	-56.2582675376594
2867.244	49560.8134009951	68894.8610317428	84869.170501139	-54.2699378307949
2442.658	58841.6849432687	70563.9882949516	91878.2908583576	-50.176051252182
2083.003	71164.9239213521	73599.7532084792	102378.562546467	-45.963579598711
1777.843	79077.266833561	76359.464153345	109927.166322307	-43.9982885247886
1513.548	89944.0659626083	77977.5313634442	119039.616932444	-40.9238428327402
1292.065	103137.05954405	78800.5577934149	129795.149986224	-37.3811760305109
1101.762	113621.054453655	74581.5441395769	135912.29061937	-33.2811358851784
939.101	120893.791230256	72683.2259118601	141060.838247117	-31.0149388364092
801.2801	131222.097881751	69408.7048810463	148447.995223082	-27.8761843614354
684.3433	136047.981326797	64392.1464475045	150517.114466141	-25.3284129338271
582.9476	144602.221700953	59905.7425987466	156519.968429459	-22.5032268009725
497.0677	149406.557732763	57065.1404356325	159933.579171142	-20.9041245130741
423.5089	152263.220875293	51342.7836087391	160686.557807466	-18.6339797850965
361.5036	156043.709633308	49084.356121403	163581.518919397	-17.4612383108669
308.1262	158666.694514605	47212.4364300452	165541.940612801	-16.5707587648304
262.7298	161451.044857935	45185.1559320465	167654.818607525	-15.6352905727204
224.2111	163318.012248739	43705.3074680161	169064.860410888	-14.981792100328
191.2854	169289.05178437	40889.0925027612	174157.115673608	-13.5788189952809
163.1722	165491.993112393	37809.7861088751	169756.236144394	-12.8694227603956
139.1537	167492.578964049	50424.5873935234	174918.275265438	-16.7547183241131
118.6706	168086.824731963	33179.3412525846	171330.23473523	-11.1662942552133
101.1982	163587.945690106	42354.6237631559	168982.040848214	-14.5157253114568
86.24196	165734.892593916	46324.0472862933	172087.105792676	-15.6160449203819
73.61024	174108.647122274	44249.3205638622	179643.60098014	-14.2596933911246
62.69291	184316.571631419	57702.1125339076	193137.59957304	-17.3832415662157
53.57697	174031.974758667	64851.4087511585	185722.463518582	-20.4374446593621
45.65746	187747.496814293	70261.9377428645	200464.117625612	-20.5176759394143
38.96512	184538.959762151	67592.8445576985	196528.421113838	-20.1167487222715
33.18414	195394.475161637	80791.9170113297	211438.725823954	-22.4641682680784
28.30617	192436.502833672	87313.8979930659	211318.53777082	-24.4051430131754
24.17237	195240.866436407	102585.350757436	220551.014771788	-27.7187699368011
20.61345	201957.04694953	114167.966041876	231993.476810693	-29.4798302046491
17.55618	206932.583423138	124877.531221469	241692.970286979	-31.1097060557239
14.98558	219126.151359008	137805.043747772	258856.138215295	-32.1651516101344
12.76553	226729.856479354	162969.398356862	279222.944293527	-35.7079100856109
10.8809	235335.853240364	179866.571012058	296200.856156775	-37.390583997507
9.278505	242436.04701046	202091.306014696	315620.235182701	-39.814115256819
7.923394	253358.037853949	223436.75674906	337808.051431196	-41.4091094373263
6.75822	267746.405003704	256317.350184297	370657.148046422	-43.750661895311
5.761429	275136.612556599	286765.221769696	397409.672738024	-46.1855720964344
4.919708	298757.295567399	325971.126991475	442168.629921706	-47.4942879146045
4.191257	312005.381692874	355281.421821389	472834.270010903	-48.7106486657775
3.564097	326719.12128979	415035.571636528	528204.420598723	-51.7899129328829
3.051758	363679.245132927	467893.338190091	592610.132602475	-52.1431643318929
2.604164	383765.026577534	514548.484043092	641900.099746915	-53.2833675329371
2.214424	402322.005531859	580689.753005988	706444.325747849	-55.2844398211653
1.892567	432487.259055924	660089.880627894	789153.901183447	-56.7674035639906
1.607507	477447.585292552	764826.242796216	901618.199889213	-58.0252693778429
1.376413	534740.811544498	860513.294547973	1013129.24428479	-58.1423246553881
1.17375	598154.516913684	978796.267011931	1147096.7519877	-58.5703814241304
1.001604	643461.724881256	1074869.10666854	1252751.60660746	-59.0934918910848
