EC-Lab ASCII FILE
freq/Hz	Re(Z)/Ohm	-Im(Z)/Ohm	|Z|/Ohm	Phase(Z)/deg
6999984	28.0063720233265	86.0538698404301	90.4965490415112	-71.9724372100354
5969734	26.3392477422035	85.1837346755642	89.162910590122	-72.8181229156485
5091109	24.5232772363081	89.5617865170905	92.8585199674307	-74.6869393560267
4341796	25.5000557300933	97.2119455310606	100.500821868141	-75.3016657744226
3702781	29.0217395066583	106.922423656264	110.791091900576	-74.8141932823253
3157797	31.9900563141903	119.143075951199	123.363026268401	-74.970496168837
2693047	37.0573662774129	134.494616747986	139.506452645051	-74.5954952919239
2296687	43.6873529380149	153.284788305213	159.388867655507	-74.0920372773424
1958656	53.5914631448382	173.576533459807	181.661382494817	-72.8420152557055
1670375	65.8677651851414	196.944117880828	207.666916138181	-71.5075392550663
1424531	82.1647325038833	222.77751841769	237.446553943785	-69.7550332470996
1214875	102.035759187827	250.375013647867	270.368163089159	-67.8275459285
1036062	127.023157518757	280.3354025497	307.770727114743	-65.6241794315449
883578.1	158.736404091613	311.050496139811	349.212910890703	-62.9637072056345
753531.2	196.397372592005	341.568515147058	394.006317843774	-60.101668427397
642624.9	241.081682582584	369.901148044361	441.528296943	-56.905853085606
548046.8	291.624203989189	394.179497852976	490.328617235373	-53.5050047968275
467390.6	410.965190690541	428.67750789406	593.84913381563	-46.2084789490837
398593.7	471.764210004558	429.693190426953	638.12044924177	-42.3279446646437
339937.5	531.889654601024	424.493792304608	680.515675335068	-38.5928843643875
289906.2	586.774888626018	412.21089563892	717.09315462185	-35.0881416386179
247234.4	638.084322513754	396.453892046107	751.217206376653	-31.8534682991611
210843.7	683.205182806703	376.752363836365	780.199759978321	-28.8744659166256
179812.5	722.38754311073	357.162082314934	805.85886821769	-26.3086635072046
153343.8	756.633197990182	337.306609232138	828.413872972038	-24.0272830768645
130781.2	786.217244893796	319.135182643198	848.51919304698	-22.0928343210541
111531.3	811.96105845683	302.833918054869	866.596297231184	-20.4538083339911
95109.37	835.03540246303	288.479308143452	883.461620328535	-19.0584727563531
81109.37	853.427719858469	279.464883580436	898.019762687577	-18.1316390382156
69171.88	870.75503619042	272.7967208382	912.486922619198	-17.3951247108867
59000	887.09127409826	270.227179995731	927.336862952034	-16.9418692583146
50312.5	902.916783116414	272.682498775879	943.193756537834	-16.8044109536848
42906.25	920.250304844225	271.643455705998	959.505492737684	-16.4457737514006
36593.75	932.826378915114	281.434739462535	974.35648803517	-16.788620236851
31203.13	948.078559192697	295.585909255147	993.088104928808	-17.3161023717823
26609.38	963.410616631125	310.917047246762	1012.33859281676	-17.8862068370934
22703.13	980.461052345672	331.506771351147	1034.98821955539	-18.6810711862783
19359.37	998.061666298489	357.002075234361	1059.98942044539	-19.681896674079
16500	1017.57892562147	387.348792000748	1088.80942158552	-20.8396896794337
14112.02	1038.86302257724	422.048427681803	1121.32120955015	-22.1099371112388
12011.13	1061.67209713489	463.213494926232	1158.32395456391	-23.5719134100284
10236.38	1086.9061556716	510.284168406871	1200.73099558707	-25.1492662200236
8750.684	1116.55947520419	564.989500612474	1251.36653202432	-26.8398354903366
7449.463	1182.77346786842	644.971120217201	1347.19739541306	-28.6038121133617
6363.206	1180.29499813713	695.284372238947	1369.86008077732	-30.5013509280099
5414.761	1217.02879599986	777.475315583727	1444.16998882919	-32.5716880840915
4620.567	1259.15262220913	865.975561912278	1528.19468649954	-34.5180429028847
3941.215	1306.11625153748	970.119388423987	1626.98226490839	-36.6031623700807
3361.769	1358.8342311173	1086.32651556188	1739.69415877301	-38.6407549881706
2867.244	1418.81144908063	1216.05648630635	1868.64103185444	-40.5997206080347
2442.658	1482.91320424423	1364.90185831632	2015.43758379098	-42.6270630111697
2083.003	1556.99632579016	1533.86922403407	2185.63317026507	-44.571297886121
1777.843	1640.66064850742	1720.69842362811	2377.51349704624	-46.3640198017279
1513.548	1737.15932120849	1938.98008808865	2603.33752887823	-48.1423948541447
1292.065	1839.63295542534	2174.3886034985	2848.19507929339	-49.7672401357782
1101.762	1965.16730640537	2444.91669754589	3136.79776206616	-51.2084868215401
939.101	2111.68600356732	2743.26868473804	3461.89844656462	-52.4120018589462
801.2801	2269.37529644738	3086.92856032005	3831.34339007159	-53.6782958819648
684.3433	2440.31780513088	3466.47804969682	4239.29487757913	-54.8553689171257
582.9476	2649.34046123431	3890.63890247596	4707.02410754317	-55.7469943787524
497.0677	2883.17626528004	4375.33477766797	5239.87211612507	-56.6166640976697
423.5089	3148.62324690434	4918.25984367451	5839.78666055941	-57.373014223866
361.5036	3440.92616459052	5503.92632763691	6491.00746342341	-57.9873395718052
308.1262	3784.57787765008	6172.00923466072	7239.93975836372	-58.4840366844041
262.7298	4176.96148289587	6913.89239728356	8077.68006984747	-58.862131533411
224.2111	4593.46449875063	7730.98740331762	8992.66825428016	-59.282797146596
191.2854	5101.51678711267	8635.60073179004	10029.9089491423	-59.4273543983075
163.1722	5626.34019658842	9656.95768014857	11176.4276781057	-59.7740511601412
139.1537	6276.13898559977	10774.8624664201	12469.4659764095	-59.7800672169901
118.6706	6988.80861551011	12000.9934657287	13887.6668317141	-59.7855103160438
101.1982	7779.77054890855	13394.8255796227	15490.1963222607	-59.8518015329404
86.24196	8678.97977746949	14927.3280056124	17267.015126097	-59.825617361703
73.61024	9673.72847585256	16570.6298641914	19187.6730407977	-59.7241465361853
62.69291	10846.1265471414	18421.033490631	21376.9253153852	-59.5108343490581
53.57697	12077.9501465917	20477.5482297719	23774.0796088133	-59.4672895566281
45.65746	13489.476387704	22746.6709462706	26445.7371300619	-59.3307537140485
38.96512	15045.3693681281	25229.6103512316	29375.0979215114	-59.190780124698
33.18414	16792.2471318916	27987.0895579987	32638.2711807161	-59.0362534073512
28.30617	18773.4803477892	30930.2798970188	36181.8432211068	-58.743873044496
24.17237	20873.9614219175	34349.2543257754	40194.4466087107	-58.7130479151179
20.61345	23277.4487118365	37991.9431527388	44555.8903294852	-58.5044339819108
17.55618	25928.4477711512	42054.9815495963	49405.52476149	-58.3446360528488
14.98558	28864.3163544783	46507.1921369379	54736.3469650055	-58.1745248834745
12.76553	32073.646958912	51508.9143222189	60678.555387374	-58.0902427918107
10.8809	35636.0480949217	56878.6227006054	67120.0837614302	-57.931705369898
9.278505	39580.0507364136	62823.3066685963	74251.9243997997	-57.7881794422178
7.923394	43954.2566153393	69531.8408110148	82259.671535786	-57.7011471531374
6.75822	48687.3721693082	76968.7693429706	91074.978248277	-57.6841876024015
5.761429	54257.5595383155	84793.8452570032	100667.169228714	-57.3857911826974
4.919708	60128.5711511582	93762.2092953091	111385.802329638	-57.3284381074048
4.191257	66634.4076310171	103440.623896674	123045.141929577	-57.2111651058974
3.564097	73732.4529479073	114689.746123244	136345.929471802	-57.2635964737298
3.051758	81692.9724381412	126245.469012137	150371.740004142	-57.0932446620815
2.604164	89922.784929076	139680.528791892	166122.717811211	-57.2275918058838
2.214424	100046.027805847	154405.088834041	183984.0730541	-57.0589760563548
1.892567	110265.863430703	170784.038294055	203287.35419141	-57.1518926219911
1.607507	121716.427158781	189471.116387756	225198.118521273	-57.2832718444146
1.376413	134840.327914433	208483.38423431	248288.613379395	-57.1065143646168
1.17375	148843.938763765	230471.877238686	274357.074457058	-57.1447134608181
1.001604	163956.390050853	254402.677194067	302658.916937889	-57.1991960175571
