EC-Lab ASCII FILE
freq/Hz	Re(Z)/Ohm	-Im(Z)/Ohm	|Z|/Ohm	Phase(Z)/deg
6999984	2.46625682025454	1.24575683752712	2.76302964184201	-26.7992758080193
5969734	4.84309896193206	2.13187017008999	5.29154778653533	-23.7584799272789
5091109	6.02203958339776	-1.59937907882326	6.23080846935508	14.8736806939648
4341796	4.4908814214276	-5.69098029977028	7.24950154932717	51.7222294285441
3702781	2.78711481407498	-5.87121540200922	6.49916758390076	64.6059188380384
3157797	2.12703857711888	-6.57347062784885	6.90903822566813	72.0694962605306
2693047	-2.23945582065223	-8.31943887039121	8.61558039198923	105.065963794776
2296687	2.97496492407409	-13.2515859011993	13.5814191157012	77.3469532157011
1958656	-0.561769059444863	-10.2620733246691	10.2774380755631	93.1333728660431
1670375	-1.93798989376774	-11.4598917653774	11.62260401556	99.5985140347403
1424531	-2.22870192334595	-11.9168211763701	12.1234375988294	100.593168767087
1214875	9.78783583745473	12.3664918826921	15.7712349505565	-51.6390760637368
1036062	10.4310958496686	-2.37157132375257	10.6972945723963	12.8087980960928
883578.1	7.6578254155291	-8.91993364395167	11.7561688618029	49.3536791992528
753531.2	9.61976032395678	3.42945877393392	10.2127849371504	-19.6212261731526
642624.9	10.9447438488662	1.62780321695382	11.0651326801995	-8.45954422819012
548046.8	7.04296496728803	-7.44224119464887	10.2464779085194	46.5789248115255
467390.6	9.60323314631877	0.925067873382222	9.64768559981716	-5.50225637313228
398593.7	1.49470018633708	-8.17819521051067	8.3136637860967	79.6425659176723
339937.5	5.61848425365817	6.04974010189388	8.25631398440417	-47.1166800797235
289906.2	17.9895503406401	-17.9246151817495	25.395191491151	44.8964055982341
247234.4	20.5322416844793	-7.2283795763972	21.7674624127468	19.3946270947563
210843.7	1.86766767571141	-22.9839984002099	23.0597563952386	85.3543821773314
179812.5	16.6394210205324	0.720197703705898	16.6549997487529	-2.47836446622167
153343.8	6.21364396171516	3.87300302563685	7.32185247867993	-31.9355445033136
130781.2	2.08618216400206	3.2202652528285	3.83696029689843	-57.063651391963
111531.3	2.4662119010561	-1.1138345562808	2.70607253407517	24.3057348357202
95109.37	13.3650690409391	-3.80524795057762	13.8962218762671	15.8924970565325
81109.37	1.24701072414313	-2.90826551320155	3.16433943207828	66.7912371644469
69171.88	3.53658951925954	-1.82111731656778	3.97793083253586	27.2455698233805
59000	1.74418589758592	-2.28826217596153	2.87720840942637	52.684202648257
50312.5	1.81011379918913	0.818582426943308	1.9866024151086	-24.3337696606359
42906.25	1.41446116047845	-0.30115655399949	1.44616584267465	12.0195143558324
36593.75	2.05122943087661	3.12916856461173	3.74155557006021	-56.7543974220412
31203.13	2.76671429704966	2.56990217746075	3.77612303867558	-42.8879135065589
26609.38	2.37871314974891	-1.3088542814642	2.7150277676104	28.8211865712564
22703.13	2.80258917115599	-3.79604399886289	4.71852266112856	53.5618422101045
19359.37	2.66418034269702	0.296668374277192	2.68064712759988	-6.35396443813
16500	2.17977868383738	2.60216005354452	3.39450615771642	-50.0477488131184
14112.02	3.09027791175769	-0.450559808873395	3.1229508022493	8.29522566212455
12011.13	5.08674565791763	0.729550349189106	5.13879607499128	-8.16180670995038
10236.38	7.45032428599732	-0.295303267190202	7.4561743532548	2.26980439104728
8750.684	7.8260929926399	4.61514886959816	9.08555615347792	-30.5284059950959
7449.463	6.96396554288132	4.15657123959316	8.11011100739388	-30.8316439081689
6363.206	7.29955101466414	5.95095170400665	9.4179228707345	-39.1886057727188
5414.761	25.4561906653334	-7.97041731515452	26.6748045047667	17.3855104790844
4620.567	-216.823036964686	583.077568099574	622.086553286199	-110.398138219382
3941.215	5805.65069403301	-3924.38862708992	7007.59631239975	34.0571270045917
3361.769	19.0559224071437	-117.64659195357	119.179900893887	80.7993677060414
2867.244	5.56268724762396	0.0512008531525447	5.56292287761045	-0.527354823709212
2442.658	2.30559394755319	-2.56876707322483	3.45171373776534	48.0904734187499
2083.003	-33.7346467421923	41.5247305442334	53.5007442713808	-129.090370623509
1777.843	55.4331875693232	88.2677182913052	104.230649889795	-57.8706853647166
1513.548	1054.46723958813	-791.793909473328	1318.65035337032	36.9026932462192
1292.065	-2.28725546690008	-6.31060215406067	6.71231980150674	109.922869728321
1101.762	1797.59889579338	-4052.91604245415	4433.67683050307	66.0811705689413
939.101	7348.58360431386	-3496.11936926947	8137.8456383598	25.4429643858076
801.2801	11360.9007829847	550.377421097097	11374.2244529672	-2.77351851776316
684.3433	18755.165992344	-1805.32595113222	18841.8537620429	5.49821071814086
582.9476	-1.51142022450464	-10.7265008846163	10.8324610464435	98.020473675391
497.0677	13376.8811024014	-16346.5788152813	21122.3007030955	50.7055387393963
423.5089	21250.7689382331	-12542.8584426974	24676.2735918477	30.5504133040069
361.5036	171.903410859968	-25.2204057794445	173.743637388455	8.34647100732105
308.1262	32243.3522144847	18706.768235067	37277.0296540354	-30.1212106196744
262.7298	925.425348380535	-789.262578626504	1216.28429795233	40.4596897229047
224.2111	50149.1749514012	-101440.608255812	113159.78416211	63.6935981408516
191.2854	-94514.2976685543	-444005.985476347	453954.036883253	102.017026183767
163.1722	67239.8445464564	-7592.02226372817	67667.0931597078	6.44195929630619
139.1537	1529702.98951837	233811.091903977	1547468.53371523	-8.69025141397749
118.6706	497525.217877504	-93521.3352515915	506238.661671843	10.6458365828503
101.1982	355004.595868646	-583458.949331899	682973.358662946	58.6816498279448
86.24196	515708.034392094	-47283.0955208704	517871.091931759	5.23856228820584
73.61024	-58345.6653875223	-264769.246022069	271121.689115068	102.42732126086
62.69291	-86471.6228481845	-190094.150614297	208837.562846749	114.460237099521
53.57697	-53057.8667576666	-201588.802267457	208454.269384204	104.745737683078
45.65746	440528.272078096	-353154.822274881	564609.145335174	38.7178292707716
38.96512	442874.699867998	280534.227151832	524249.418108256	-32.3517754231644
33.18414	725501.606768116	378079.209349061	818105.41494671	-27.5252820893854
28.30617	956336.120638381	429016.088322275	1048157.23041775	-24.1611890431646
24.17237	915930.556715786	-460293.87149574	1025084.98811671	26.6814642261845
20.61345	221358.404151912	-1495500.28511038	1511793.8503162	81.5804237723637
17.55618	1170473.78515861	-1369205.09424889	1801313.81826173	49.4743097334396
14.98558	9188393.02902457	-10455462.3213931	13919168.7542719	48.690583683792
12.76553	3900608.4353061	-1867203.65055432	4324487.90473791	25.5802278847871
10.8809	9724105.03382101	-14418591.3694557	17391204.5525353	56.0037081188608
9.278505	4255445.31689033	166922.479246075	4258717.87738064	-2.24631082961574
7.923394	3125940.54325798	672693.195817091	3197502.2151177	-12.1446712566007
6.75822	2673237.26053941	-1317130.00024081	2980105.51636525	26.2299161878419
5.761429	1118107.53803775	-324107.76809959	1164135.00589895	16.1653796656195
4.919708	2398580.29220345	419384.051750791	2434968.25462052	-9.91772754637601
4.191257	1563216.99018879	463995.230596933	1630625.31945006	-16.531980981256
3.564097	3072737.24007832	839618.110068201	3185384.23385918	-15.2828642329354
3.051758	-446038.598077155	-2143601.64148523	2189515.56933327	101.7543250347
2.604164	9103800.66675743	2294074.22815495	9388395.13145553	-14.1435491164736
2.214424	23169062.4475088	3924625.80930872	23499109.3967337	-9.61411721073619
1.892567	31779810.4168769	-10961536.3690507	33617132.9786265	19.0304092835476
1.607507	19203521.4367646	-7524500.45492387	20625065.8827657	21.3966963295481
1.376413	889179.04880627	14940054.9489256	14966491.9489423	-86.593976367097
1.17375	34177353.317229	18511391.2940884	38868535.9566521	-28.4411895023698
1.001604	52913524.9666515	-10906889.3549985	54025932.2899534	11.6470631411076
