EC-Lab ASCII FILE
freq/Hz	Re(Z)/Ohm	-Im(Z)/Ohm	|Z|/Ohm	Phase(Z)/deg
6999984	2.80327122013288	1.33693776879925	3.10575789965464	-25.4974354833907
5969734	4.85878229837132	1.49872999757244	5.08467865539111	-17.1427940979111
5091109	7.58990926263878	-1.76957967023002	7.79346744552009	13.124005097506
4341796	3.59433067568642	-5.11235174519129	6.24942824366684	54.8901761031799
3702781	5.4486068678063	-5.82660598578601	7.97725855877214	46.9201097193701
3157797	3.6641908479237	-8.07193465310604	8.8646727866302	65.5847026394604
2693047	2.54611407589922	-6.73947783883534	7.20439160704392	69.3038862792136
2296687	3.04576297591011	-11.1079015492449	11.5179055792771	74.6664847627406
1958656	0.290328071273822	-25.9133674925171	25.914993829658	89.3580966581466
1670375	-4.69950101754194	-9.60851466448969	10.6962079201739	116.063143827179
1424531	5.63800187205862	-19.7410276598954	20.5303491976656	74.0607537817283
1214875	3.20692473377573	-13.8803612399984	14.2460097711939	76.9906307629092
1036062	11.9866257220939	7.27847099867255	14.0233853359337	-31.2667938944149
883578.1	8.67516254586395	-11.6555036204302	14.5295977178661	53.3397809574456
753531.2	7.3330859419246	-6.69654398272252	9.93065208051261	42.4021999948927
642624.9	-5.23236855489008	9.93829911049108	11.2315390710174	-117.766146281646
548046.8	13.2133139518556	5.26229342137036	14.2226368034517	-21.7152608636408
467390.6	3.31868867802168	5.36014620050076	6.30435261009186	-58.2366335084666
398593.7	28.7432320071023	15.971982970584	32.8827861688564	-29.0599667323772
339937.5	1.50692976649564	-23.2746386699113	23.3233711657659	86.2955226516133
289906.2	13.1719720629847	-3.65372631490298	13.6693293183047	15.5032925558781
247234.4	10.1659247807553	-6.45959363116456	12.0445994756055	32.432539553966
210843.7	4.21545416289978	0.383783992962887	4.23288836998611	-5.20198981918484
179812.5	0.19324551102987	-3.54167056918784	3.54693871503082	86.876845630553
153343.8	6.45545158271805	-6.79925414412888	9.37564462067919	46.4858134402388
130781.2	5.45774172451417	0.992691056893904	5.5472858467849	-10.3086509204158
111531.3	5.45983837650673	-1.95741094669892	5.80011143960463	19.7233043339331
95109.37	5.14666293163869	1.17692237866156	5.27951566124187	-12.8807386768494
81109.37	7.68784930897078	-7.70523945216894	10.8845643924184	45.0647291392877
69171.88	12.335183591356	-5.15220235110899	13.3679446176004	22.6694876939635
59000	15.3208830870962	-14.4059657146093	21.030009670444	43.2371370122691
50312.5	29.7806507317965	-12.4517938908135	32.2790075607747	22.6906298366038
42906.25	114.11417331472	-236.339689278775	262.44712473123	64.2269072565594
36593.75	370.509247310908	-104.227775614052	384.890285084398	15.7117976271042
31203.13	-226.391718297202	-840.967470626545	870.90728367925	105.067052414587
26609.38	-363.939595668898	-931.140705841487	999.737487228835	111.348216835268
22703.13	91.7315520601468	-1291.84244337636	1295.09519964826	85.9383407621288
19359.37	-102.735786597345	-1508.9211813829	1512.41455080072	93.8950056631105
16500	-67.9432699563163	-1866.38150438994	1867.61778955471	92.0848601009537
14112.02	-196.128987832568	-1993.76527945445	2003.38877141366	95.6181762319665
12011.13	6.01627099382117	16.225811236795	17.3052728081125	-69.656026140101
10236.38	18.1968340997169	22.8426620425904	29.2046568280577	-51.4586058174265
8750.684	7.9559640817018	-13.7130231181062	15.8538439347385	59.8787305493116
7449.463	-6.76189567667827	-8.01472843792259	10.4861387114574	130.153780291272
6363.206	5.93417109872726	1.03981713548728	6.0245834963276	-9.93877228619117
5414.761	27.8965264604482	2.1247678358596	27.9773270151884	-4.35558275970768
4620.567	3.30281058237882	-0.224486702537161	3.31043079110401	3.88832135383361
3941.215	6.11071823205307	0.77345322074433	6.15947296416062	-7.21375063508126
3361.769	35.523641447682	17.9506572863203	39.8014471937189	-26.8081910313115
2867.244	4225.53514796903	-414.454722555	4245.81205469223	5.60184503229295
2442.658	40.943019359365	16.6520622029552	44.1997964913011	-22.1322194398914
2083.003	1690.31008513047	1816.17625863452	2481.05711065293	-47.0557632069452
1777.843	-2596.40104026847	-7895.32885617546	8311.28847466288	108.203595272472
1513.548	10986.9771659323	-2448.88723955423	11256.5854483839	12.5652623852724
1292.065	40.8249452851054	13.3117640342131	42.9404147538705	-18.0595609475881
1101.762	6.11415396357595	-2.11228894728813	6.46874356325455	19.0587649648286
939.101	5.12230781186448	-4.2053229646829	6.62742623925587	39.3853823978786
801.2801	0.741128531668514	-12.3979361154276	12.4200680925137	86.579022168644
684.3433	-2.56053667720156	-8.55510890412435	8.93007482817038	106.662396099349
582.9476	-3920.54726654916	-35762.3747722117	35976.6332529515	96.2562220326242
497.0677	-1521.7679292948	-49597.5898882421	49620.9300633602	91.7574147210364
423.5089	72.0002922490895	75.8902269742141	104.610556991883	-46.5066920222934
361.5036	242.809363753588	164.941523177043	293.533802473216	-34.1884489312357
308.1262	3062.24715723181	-4156.52573186878	5162.7573845438	53.6197224065686
262.7298	580030.473598143	201995.645305292	614196.703853731	-19.2006751515266
224.2111	1270.05089125155	-350.605578340821	1317.5558955629	15.4325036202897
191.2854	84501.2328267074	-536018.375638494	542638.145886707	81.0412704871456
163.1722	570812.723665618	-16441.2052297485	571049.453837378	1.64984285727731
139.1537	655071.385735706	272921.871214503	709651.229969289	-22.6180360839608
118.6706	672191.191299187	-719481.202587326	984628.96490847	46.9462022173603
101.1982	-254413.965039648	-588701.389028607	641323.46834605	113.372132950788
86.24196	481667.897614266	-239132.446291371	537762.299219128	26.4029036053478
73.61024	-45029.546299712	-255577.378797037	259513.88516363	99.9922506315542
62.69291	-79069.4475004051	-186664.572331107	202720.596120805	112.957082323995
53.57697	-31208.8497470245	-202303.777767593	204696.875407447	98.7697305840835
45.65746	464953.930589715	174728.543319224	496701.340265238	-20.5960966728338
38.96512	486277.505107995	-474114.485861537	679154.148686295	44.2744083454181
33.18414	428850.913715155	470256.283671144	636438.589752789	-47.6367023041622
28.30617	1047239.80287746	690309.314919301	1254287.90753765	-33.3916823621709
24.17237	1064306.86362002	418215.750856103	1143526.78771108	-21.4521758328506
20.61345	-1032399.26690388	-1427034.2778103	1761327.64593906	125.884156097737
17.55618	1672208.43611242	1396012.02469213	2178332.07452183	-39.8561875477155
14.98558	3416842.0315273	-8672975.1734497	9321765.27422174	68.497333591008
12.76553	10591910.1864522	-4229329.06642699	11405077.1917595	21.7667296623774
10.8809	11495775.2789171	3189838.04100354	11930126.4029848	-15.5082257224942
9.278505	3477030.26532053	-2098071.12545561	4060990.26266076	31.1071563935355
7.923394	2780199.74995291	-525170.92430127	2829366.56327342	10.6969501477539
6.75822	2483376.15184039	-1135728.98995605	2730757.66961409	24.576165185444
5.761429	887674.15774821	1079387.92627438	1397513.40090924	-50.5665792853432
4.919708	2104107.05226151	715941.947209041	2222574.93892784	-18.7913483731072
4.191257	1778081.86263266	-475722.94614571	1840621.47974884	14.9785720775194
3.564097	3068135.32504009	-831273.810033333	3178752.9819107	15.1596439295145
3.051758	9816667.86237044	-13858893.1079268	16983400.3102158	54.6889189480623
2.604164	101781655.256033	131629588.111955	166390666.244176	-52.2872632173683
2.214424	11792089.0783697	19207542.5533538	22538479.4467396	-58.4529823719081
1.892567	7970943.07353892	-11791239.6284179	14232683.002736	55.9410895614309
1.607507	10022909.2804557	-3808047.03637548	10721936.9833763	20.8035016650933
1.376413	231368.404317417	5261405.3620423	5266490.07615545	-87.4820609495497
1.17375	20741835.8123349	6230668.23093545	21657446.2822801	-16.7198137352337
1.001604	5853910.79177652	-1960675.30693473	6173533.77064556	18.5174630878787
