EC-Lab ASCII FILE
freq/Hz	Re(Z)/Ohm	-Im(Z)/Ohm	|Z|/Ohm	Phase(Z)/deg
6999984	2.67401219029957	0.941811186420035	2.8350219584223	-19.4027229884015
5969734	4.35275493934675	1.43082205389527	4.58189123746086	-18.196543697248
5091109	7.30623246792448	-1.713472033112	7.50446662219313	13.1985927432762
4341796	3.15121566529018	-5.42363453574156	6.27263674593538	59.8427487997774
3702781	3.27633115708407	-5.58503364227982	6.47510205605111	59.6029659625151
3157797	2.81755953929822	-6.88048302990163	7.43503116888252	67.7308879484615
2693047	1.71239556731852	-7.64183200186941	7.83134055725886	77.3696996401678
2296687	3.43978783046828	-10.4606791598073	11.0117187034116	71.7975704909615
1958656	-1.30341257475212	-11.3339578361643	11.4086583160323	96.5602334387206
1670375	-4.96838269009191	-12.0066349816481	12.9940028527679	112.47992307221
1424531	-2.04111372927039	-13.5882759481542	13.7407200866258	98.5426101140937
1214875	-4.91937278355343	-11.0837163758565	12.1263760985711	113.933459702677
1036062	15.6243402685768	0.00261504429273581	15.6243404874167	-0.00958958888752664
883578.1	9.03447363644097	1.4102404902687	9.14387730276059	-8.8720165449048
753531.2	9.38205442731339	1.05263228733802	9.44092050646637	-6.40160587879513
642624.9	8.6916239043065	-7.47426726222723	11.4633763438663	40.6935252582535
548046.8	8.9191800212678	-2.61831627090456	9.29555551574333	16.3601394793404
467390.6	-2.72631466990377	7.1747572450733	7.67528065969345	-110.806141465294
398593.7	3.28364470818021	5.24169422538365	6.18527937299361	-57.9350285251098
339937.5	0.770396193123987	-6.21638131047003	6.26393701209878	82.9353543662891
289906.2	4.18446240340651	2.92062518771983	5.10291848775444	-34.9138478773391
247234.4	1.946838434766	-4.42623624332937	4.83546762711163	66.2581572318572
210843.7	1.40909615062269	-5.02305143219389	5.21695290875476	74.3298147623217
179812.5	1.52725960358236	-1.26351360357605	1.98216763245602	39.6012155993043
153343.8	2.70259100477192	3.40910968418601	4.35040538086797	-51.5941790909103
130781.2	1.01661128553062	-2.65241186626194	2.8405610738295	69.0292676080074
111531.3	4.96417467714979	-0.746925992425134	5.02005265544252	8.55672359982225
95109.37	1.92212190948687	1.62620328955662	2.51775490743126	-40.2327525994093
81109.37	1.79305026906605	-1.07057602954292	2.0883396041903	30.8401466018487
69171.88	1.74196580778738	1.85079704980539	2.5416322698354	-46.7350615402767
59000	2.07633179460398	-1.53040533240741	2.57939803108098	36.3928754001118
50312.5	2.64490385615197	0.60139044267337	2.71241347748208	-12.809949741261
42906.25	-0.447882686667666	4.04182753641154	4.06656719299106	-96.3232580946544
36593.75	4.19041578404805	4.22958791606053	5.95390614495092	-45.2665535226225
31203.13	2.07021095255877	-6.36978390754913	6.6977548788356	71.9955847049587
26609.38	4.01476620695388	6.4609129361629	7.60669071707112	-58.1434705709784
22703.13	2.71344273299304	19.66212393094	19.8484732143527	-82.1426099609461
19359.37	14.2930163746266	7.17921001252739	15.994729553491	-26.6698274533654
16500	9.53293073671319	9.86645724173346	13.7194659857418	-45.9849681132032
14112.02	18.8630944234877	-15.0771858271416	24.148247631983	38.635185838402
12011.13	101.676124890097	5.25305578870448	101.811732957385	-2.95753365395194
10236.38	895.868679924239	-242.494193698816	928.107820054781	15.1459101311653
8750.684	391.848905723508	-390.881166419136	553.474164869414	44.9291615953818
7449.463	785.512922509878	-1515.57084529259	1707.03999324296	62.602514611584
6363.206	2465.17313235088	-1335.78790474391	2803.82023299012	28.4516574412868
5414.761	2525.16096422112	-4731.05291014106	5362.76976326416	61.9092929752552
4620.567	2.7422113881114	-1.59134834744339	3.17050671975295	30.1272667835689
3941.215	4.05788666084392	-2.87098643964812	4.97081555571099	35.2797043478419
3361.769	2.96030395888649	1.07202383847649	3.14843368030214	-19.9069946030521
2867.244	2.5441671888251	-2.21790674270504	3.37518843978091	41.0806613812675
2442.658	4.38512423862002	1.49355797069213	4.63249716675044	-18.808663157676
2083.003	2.53500932505888	-0.24879149398929	2.54718854536072	5.60518594919635
1777.843	5.48573252932213	1.44508199983753	5.67287611089097	-14.7579031123027
1513.548	5.85447150784892	-9.64954709938944	11.2866556543358	58.7544154679264
1292.065	13.2568994295715	-1.82846254843447	13.3824010467779	7.85299391753077
1101.762	3.8687024209432	-5.89667501070961	7.05249137565861	56.7318400736469
939.101	-0.540687829403381	-10.3035728349175	10.3177495847358	93.0038844043435
801.2801	5233.52859329367	1380.83637800548	5412.62696291235	-14.780334409982
684.3433	11310.1503902792	-20475.8059969452	23391.8390272178	61.0852077785186
582.9476	124.658974782801	-12.9485105030958	125.329660967178	5.93013036833787
497.0677	89.8091229016139	5999.49591982606	6000.16807852629	-89.1423780482798
423.5089	13573.8546910626	6024.9206740815	14850.8989728924	-23.934624342236
361.5036	72.8632240205114	317.370545500502	325.627260170197	-77.0698708259758
308.1262	138.734428318051	761.931788721631	774.459354818108	-79.6804957237099
262.7298	789719.220686429	300005.905006372	844783.990473466	-20.8012499409584
224.2111	430618.83675646	-188891.990092142	470226.292853193	23.6847746365133
191.2854	328388.523345639	208795.123470898	389145.76427138	-32.4489089581729
163.1722	157648.650800782	-458354.442425913	484708.048201056	71.0196083967329
139.1537	962054.771761006	-50007.8670351431	963353.606228537	2.97557208421605
118.6706	142977.380087186	-615718.912987616	632101.503737531	76.9269178560907
101.1982	355627.535473323	-513798.976494271	624868.251900663	55.310835986787
86.24196	-174892.828337833	-337743.421080104	380339.479789962	117.376363093619
73.61024	-183925.884123346	-222619.820098622	288770.350194228	129.563118100272
62.69291	-94607.3401204111	-159186.181859833	185177.723551649	120.723811715891
53.57697	34450.3411845056	-165855.038955746	169395.159183315	78.2657483359729
45.65746	269947.780569404	-545456.452897628	608600.481631431	63.66907554722
38.96512	314857.272776096	-329204.799073649	455533.64524821	46.2761452646887
33.18414	-406836.238245734	-610440.737373476	733589.543678898	123.681992812151
28.30617	94906.1059848534	-859266.007771896	864491.319253964	83.6972163464746
24.17237	904254.076382752	-499448.874640033	1033017.23752995	28.9132952664017
20.61345	-208286.189736123	-1316933.45437451	1333302.98885346	98.9874545462333
17.55618	1533425.91379338	1545133.53665048	2176886.00509422	-45.217892217082
14.98558	7797000.8285069	-3256023.67844784	8449551.00075443	22.6653910457283
12.76553	4791924.17333717	5964602.89209773	7651079.9854291	-51.2218252790107
10.8809	6593768.55579168	-7975295.13521342	10348097.229013	50.4169341684109
9.278505	3372321.55444629	1504275.57340271	3692613.9342367	-24.0399912807605
7.923394	2785154.37181551	-921265.957155111	2933567.08439673	18.3030450922069
6.75822	6073594.83912488	-3096571.65110318	6817426.95305643	27.0143813530452
5.761429	6407372.69944937	-2868006.98923527	7019963.60389079	24.1137882447734
4.919708	9610680.45800683	2935992.51342634	10049140.8043081	-16.9875282650086
4.191257	4982048.30451059	1662064.27005934	5251977.05119555	-18.4492467327905
3.564097	8604995.68752889	1759522.46665049	8783044.46607431	-11.5563581925604
3.051758	3082268.03192893	-4424796.8055503	5392513.60601521	55.1393268003925
2.604164	48877979.9210567	-12628386.5393077	50482997.8086622	14.4864643568594
2.214424	7849783.65027299	3897896.16271963	8764285.35885485	-26.4072007888112
1.892567	-78593.6856908615	-4436680.18446228	4437376.25479638	91.0148614185469
1.607507	1960221.599647	-3587323.15976635	4087952.56483227	61.3464765330982
1.376413	299388.704889949	2713531.03607828	2729997.12094642	-83.7039199526776
1.17375	4462656.1234907	2104653.6076886	4934051.7310711	-25.2492473552739
1.001604	794996.053118971	2626081.56195049	2743778.98061981	-73.157313930366
