EC-Lab ASCII FILE
freq/Hz	Re(Z)/Ohm	-Im(Z)/Ohm	|Z|/Ohm	Phase(Z)/deg
6999984	1.36712525411554	3.27009556279248	3.54436968306574	-67.3117120255438
5969734	1.45563542704866	4.47797291451934	4.70862144577879	-71.9924334370855
5091109	2.68649816141779	7.42766235790944	7.89857205287171	-70.1155382917959
4341796	4.63952528643815	-5.50371059377135	7.19833488964566	49.8697365557492
3702781	2.28695472300581	-5.46611886602559	5.92525251466969	67.2961848692957
3157797	0.656957207763437	-7.34517181804522	7.37449264759537	84.8890258561262
2693047	2.04954228892518	-7.08932800498941	7.37964735989599	73.8752873434444
2296687	1.56874594298748	-7.84663616083374	8.00191620014502	78.6941488793922
1958656	-1.48118569819967	-9.87997761810058	9.99038882159847	98.5261662253734
1670375	2.42438461305902	-12.8522417345997	13.0789050901298	79.3175269604945
1424531	14.4001191184645	-12.9005765090691	19.3336055843785	41.8560795428858
1214875	5.41199756468062	-17.4975418218202	18.3153948209275	72.8131381828309
1036062	17.8187719455973	-8.49742187752551	19.7411958151945	25.4955561818227
883578.1	8.90366127420306	-2.89425203227149	9.3622582164802	18.0074332473871
753531.2	-1.74731801122541	-13.7474172118786	13.8580157392683	97.2435429051936
642624.9	20.335819311396	-11.0887316600653	23.1625887347395	28.6027865189085
548046.8	-24.7109385738444	-60.7361588620453	65.5706601958217	112.139299663005
467390.6	-22.6034808116442	-72.8142904673659	76.2419716499271	107.245724430572
398593.7	-36.853744789611	-102.550357536561	108.971438165669	109.767025208045
339937.5	-7.79389422622512	-126.570846548108	126.810583087983	93.5236717160862
289906.2	-12.7862177792241	-120.800989069381	121.475784933617	96.0419931130247
247234.4	-7.22069915028458	-147.712235068791	147.888616482935	92.7985936263482
210843.7	-14.0261700551953	-172.998936204057	173.566602127693	94.63520983864
179812.5	-17.2011139642387	-204.499570931286	205.221716279468	94.8080139096515
153343.8	-18.641406340928	-236.749965890004	237.482732802378	94.5021117428311
130781.2	-22.5901376922673	-273.639239734508	274.570114621812	94.7193200429652
111531.3	-26.0356270014734	-319.012635524196	320.073297070302	94.6657484891205
95109.37	-33.2298076691863	-373.307102690524	374.783154686713	95.0867578769826
81109.37	-36.2138143403566	-433.536683977409	435.046545444514	94.7748969490929
69171.88	-42.4786754604687	-503.144390310436	504.934367388214	94.82583289708
59000	19.4997977157181	19.8104073417214	27.7973802722281	-45.4527132398385
50312.5	-165.775426864274	-688.804150186425	708.472052706439	103.532098481431
42906.25	-178.094591885218	-798.090680589981	817.720256630189	102.579498851247
36593.75	-190.63678304295	-927.201296418821	946.596338007763	101.618362149915
31203.13	-202.579824256406	-1072.34417637054	1091.31142108546	100.697848156258
26609.38	-222.471106293506	-1241.82057404481	1261.59095243127	100.156746814536
22703.13	-240.583096591764	-1441.60500155395	1461.54206469436	99.474525967874
19359.37	-263.569851521213	-1673.86284445512	1694.48691015254	98.9484361203849
16500	-290.684805086399	-1944.60923999092	1966.2153371811	98.5017582233009
14112.02	-322.667816233843	-2250.9306796228	2273.94007047246	98.1576970673248
12011.13	-359.7794989185	-2612.92806118663	2637.58115340145	97.8398773783657
10236.38	1.5060207081855	0.184893699184611	1.51732793208381	-6.99916075207092
8750.684	0.436320157920801	1.76440018583255	1.81754870525496	-76.1099373360136
7449.463	2.32088867264841	-0.358848216187244	2.34846679199185	8.78928716886585
6363.206	2.59487775366021	-1.47523697591112	2.98491451997139	29.61904748971
5414.761	1.72463768245382	-1.14346148708772	2.069270235661	33.544994408992
4620.567	2.6367070294225	0.370818185843916	2.66265470648348	-8.00539496145762
3941.215	2.43798910459679	1.51354724776412	2.86960208832984	-31.8327501452892
3361.769	1.83971224308538	-1.60705510214584	2.44277858978075	41.138386879127
2867.244	-3.08268907445565	2.88617382645256	4.22291028631535	-136.885690609382
2442.658	3.19877564678764	-1.12204271181749	3.38985921324535	19.329470334294
2083.003	5.34723802213526	-4.19383715333829	6.79567690036023	38.107079179474
1777.843	3.66438420624691	-0.453946989706796	3.69239481643765	7.06187098274798
1513.548	3.60364099088627	-3.6849259975817	5.15411563693029	45.6389589007237
1292.065	8.93875315502205	-0.475803190275186	8.95140752297049	3.04693626943077
1101.762	4.1867459900718	-3.26997784716666	5.31240031495585	37.990934904823
939.101	499.31946554893	351.891376540378	610.857978223704	-35.1739592571726
801.2801	-3369.89180908476	-31081.0961354431	31263.2485161986	96.1879827592241
684.3433	3.22597795563811	6.00486214408627	6.81654627650568	-61.7540787085543
582.9476	6.24331344931023	-7.39472496671198	9.67785720909601	49.8258365294863
497.0677	13146.199977268	-4286.93669547764	13827.5232805212	18.060993342076
423.5089	15517.1539679746	-10835.8106699324	18926.0894043236	34.9270488249389
361.5036	7977.47580997975	-73255.8892615793	73688.9776819002	83.7850507764681
308.1262	943.120557742343	-1107.96847116469	1455.01564236652	49.5950376704517
262.7298	513373.236639797	-467402.846666414	694274.802344063	42.3164282129616
224.2111	82.9906587849597	21.024657988769	85.6124155079526	-14.2160855733372
191.2854	144175.790233872	-499508.147935829	519899.075151941	73.8999818244146
163.1722	332129.568563567	-462025.3620063	569014.486152395	54.2893152634262
139.1537	819041.633124218	-154973.614813085	833574.242691687	10.7144597379731
118.6706	25901.5383072235	-408418.277243067	409238.779776398	86.3712103763501
101.1982	908711.755146041	-353781.427458591	975150.425501234	21.2720550907953
86.24196	230624.83125717	-459655.026326621	514267.008488513	63.3554957459449
73.61024	-102447.441210724	-271483.343838752	290170.095276021	110.674590355532
62.69291	-109062.256199352	-175802.05816064	206883.87897758	121.814207695804
53.57697	-92263.0381781483	-157683.26142229	182692.307300096	120.332596133376
45.65746	280930.258236583	-417873.226223936	503527.400632453	56.0876177879577
38.96512	509447.273431904	256206.384769149	570244.014439151	-26.6983034557834
33.18414	178254.548910499	808271.67819038	827694.261168929	-77.5631874875835
28.30617	496805.852459571	-1104596.21282635	1211176.63799646	65.7835762901503
24.17237	949128.823532338	364506.373890092	1016715.50606174	-21.0089414121154
20.61345	-218658.932189166	-1395592.90502336	1412618.59154467	98.9046048490574
17.55618	491704.916036725	-2012539.01354295	2071735.26433449	76.2704228144298
14.98558	-1883906.6933249	-15073987.3709026	15191254.0524898	97.1237374302317
12.76553	4512314.131159	-3212560.7095494	5539090.64114298	35.4491222382841
10.8809	16114901.2364627	5239404.42695259	16945247.1392458	-18.0107907800666
9.278505	13669871.6963779	-2558682.72267347	13907273.2579303	10.6017646692488
7.923394	4510317.64164413	1473653.94492333	4744957.44742925	-18.0937436096456
6.75822	1508420.17078739	-7350534.86990274	7503712.03373999	78.4032009110248
5.761429	3807341.3921303	-1238635.45403496	4003756.51909817	18.0211670457364
4.919708	6314183.60368209	1892659.87575218	6591743.01579559	-16.6859633886974
4.191257	4931256.63131602	-2287879.29089086	5436146.02577833	24.889160569768
3.564097	8481348.31969285	1848641.30530747	8680480.63160363	-12.2961842159451
3.051758	4582794.2297856	1875582.40712054	4951748.41025433	-22.2576227125117
2.604164	47407171.9218425	-10435482.2892961	48542138.8098767	12.414224980898
2.214424	8611050.95941793	4843937.66201574	9879976.2499303	-29.358873084519
1.892567	1829869.37465084	3404900.70817561	3865458.67405407	-61.7454270458478
1.607507	3653255.12905192	2258154.63064096	4294826.5825094	-31.7210921301741
1.376413	2978188.34093099	-2333848.08232115	3783708.85050784	38.0839144958168
1.17375	2919079.52429718	452997.790302776	2954019.67955365	-8.82109205607357
1.001604	2476474.93108916	-6468326.04577847	6926194.4759593	69.0500659759707
