EC-Lab ASCII FILE
freq/Hz	Re(Z)/Ohm	-Im(Z)/Ohm	|Z|/Ohm	Phase(Z)/deg
6999984	-2.84006059152206	-0.626678552626495	2.90837930329569	167.55669434053
5969734	-2.44741610425519	-0.873455531595201	2.59860927286922	160.359083926538
5091109	-1.69081909806581	-0.89471186639824	1.9129502205384	152.114049367267
4341796	-0.975881676960443	-0.870635530023774	1.30780398897041	138.262164416404
3702781	-0.908051280357894	-1.06890716692535	1.4025404305274	130.348356758498
3157797	-1.00868898897523	-1.43596664186574	1.75483722123479	125.08596859334
2693047	-1.52190711847899	-1.84636910795201	2.39275576690905	129.497743615847
2296687	-2.08950668098768	-2.43466966519373	3.20837257009012	130.637184783024
1958656	-3.02839460582551	-3.08583020596642	4.323600576909	134.461792657081
1670375	-5.22024333473869	-3.50757786749062	6.28920050327494	146.102117814518
1424531	-6.54738947723208	-4.32743302202215	7.84824729010606	146.537680330376
1214875	-8.47119456008497	-5.24485977402685	9.96341765279455	148.236672080278
1036062	-10.8268366164763	-6.0688229523513	12.4117284512214	150.727835277727
883578.1	-14.0267273179001	-6.9807125583805	15.667783093771	153.541745601174
753531.2	-18.3709138159164	-7.60359736594402	19.8822827496044	157.515666276642
642624.9	-24.0379163782569	-8.12497632201246	25.3739367076009	161.324403219774
548046.8	-31.5734271048436	-8.29019549604407	32.6436615671021	165.28801065493
467390.6	-41.3946074542586	-7.71495068046734	42.1074101589519	169.442584923203
398593.7	-62.9010652155819	-7.06431165878796	63.2965125774507	173.5920598671
339937.5	-80.3264487199757	-3.92664078538837	80.4223654950559	177.201407497526
289906.2	-103.011125056368	1.77151823284499	103.026356638619	-179.014761623336
247234.4	-133.318052111601	9.29524165329551	133.641702085183	-176.011660635937
210843.7	-172.447003361461	23.2697970910097	174.009920478702	-172.314994237533
179812.5	-224.282680023433	44.125529443351	228.582114145332	-168.869741719631
153343.8	-291.003641498796	77.408767074843	301.123291336966	-165.103919315355
130781.2	-375.407704512818	123.825470916757	395.302026120965	-161.745240720298
111531.3	-596.376548965751	157.182223792803	616.742441893494	-165.234782875763
95109.37	-728.503663012851	262.460542222286	774.340444021077	-160.187253883778
81109.37	-892.981938803452	409.123879692336	982.241870398366	-155.38489353233
69171.88	-1081.88713618946	609.734451823524	1241.87595080699	-150.595080956595
59000	-1299.26227832464	877.95741431114	1568.08535775998	-145.951716393296
50312.5	-1551.64322762194	1228.2648557145	1978.94700828708	-141.635224252119
42906.25	-1814.30354830852	1748.89543243444	2519.98662674922	-136.05163594701
36593.75	-2051.83715600209	2348.93681922946	3118.90043051755	-131.13777800863
31203.13	-2336.0513032331	3026.82663869964	3823.4559226018	-127.660325262642
26609.38	-3208.84698509961	3748.42844411281	4934.30995929693	-130.565221283955
22703.13	-3428.05060952731	4845.67255325077	5935.66116576817	-125.277336496914
19359.37	-3603.1097959338	6174.33036844022	7148.75903218154	-120.266247620699
16500	-3724.09695425714	7638.18468306032	8497.69164992732	-115.992154356362
14112.02	-3874.66723582044	9316.60657085002	10090.2033767584	-112.581852263964
12011.13	-3470.19011373504	11255.5396242331	11778.3441815115	-107.135028984553
10236.38	-3862.8986619087	13442.9600342677	13986.9639505896	-106.032257116264
8750.684	-3913.5059158336	16017.0487108725	16488.2193689837	-103.730284582767
7449.463	-3708.32923880622	18989.9401849911	19348.6313204041	-101.049586946689
6363.206	-3708.05910700311	22553.8066032292	22856.5941171665	-99.3364431392475
5414.761	-3421.17110579252	26238.361413871	26460.4614740564	-97.4287801603594
4620.567	-2778.126788071	30776.8910826317	30902.0228005024	-95.1579192351379
3941.215	-2659.18598147454	35817.507095147	35916.0839262157	-94.2459996084077
3361.769	-9274.21907528386	39886.7289530968	40950.7299817008	-103.089488584693
2867.244	-8540.00789222694	47487.5933484172	48249.3860771714	-100.194905803692
2442.658	-8634.08029692084	56619.7164837922	57274.2493384128	-98.6703797024079
2083.003	-7876.02554103043	66350.952348195	66816.7692711598	-96.7694776255023
1777.843	-7392.23408328649	77984.5049622957	78334.0803160185	-95.4149481020336
1513.548	-5207.46363029289	92787.4730306549	92933.4860471474	-93.2122118586531
1292.065	-2067.06781474229	107597.935349055	107617.78877458	-91.1005759046985
1101.762	-1826.89249980947	127303.742619465	127316.850499566	-90.8221757120444
939.101	1287.1563985228	146725.425453329	146731.071167816	-89.4973826981429
801.2801	6005.28540457811	173121.702147166	173225.827194222	-88.013307417195
684.3433	6809.75709815375	200196.079266771	200311.864215586	-88.0518101810278
582.9476	18362.2668399648	231466.530796127	232193.728860829	-85.464218186658
497.0677	-29425.0026212992	240624.835979374	242417.28995549	-96.9718463187425
423.5089	-4671.45664400216	269319.43327763	269359.944401836	-90.9937192759066
361.5036	1624.42061202324	354108.021970369	354111.747851003	-89.7371655354052
308.1262	-2917.11236244551	435990.332304273	436000.091063437	-90.3833473367537
262.7298	-12972.0733527993	502084.790047071	502252.338056959	-91.4799885566341
224.2111	64346.8361839267	566477.636112323	570120.537730651	-83.519484838425
191.2854	103552.098493935	564086.840576392	573512.860199275	-79.597760618093
163.1722	182812.410345105	675320.974812556	699627.612661169	-74.8528106377171
139.1537	283610.496160848	691927.88144846	747796.166517559	-67.7120376370017
118.6706	667551.520232219	365721.102735436	761168.153005872	-28.7163295651695
101.1982	46159.1680360834	703385.421211152	704898.375346527	-86.2453888445394
86.24196	493642.080526821	86303.1329652913	501129.458749406	-9.91675924770224
73.61024	257907.961564293	-253648.357004098	361737.481675769	44.5229230594781
62.69291	41449.3433743147	3814.32743180456	41624.4778936488	-5.25776897941421
53.57697	112924.957293851	-38215.0260767169	119215.91419715	18.6963748889863
45.65746	56264.0931408813	227345.280790257	234204.024035811	-76.0995667999218
38.96512	318643.942003858	-118370.802635058	339920.003371714	20.3791748515973
33.18414	42439.927063409	357759.027529169	360267.496712879	-83.2347821100245
28.30617	429277.342884362	-373053.427310102	568724.798775006	40.9915091483452
24.17237	565337.459371319	-171664.506362594	590825.816728696	16.8908932032818
20.61345	-409091.6300888	426209.760855187	590771.294205251	-133.825981391824
17.55618	203722.808002026	860537.526014829	884323.366297619	-76.6810616662001
14.98558	3392163.4019119	-697542.532209859	3463139.92346718	11.6199565078199
12.76553	1750107.1846189	730229.637515149	1896341.34088782	-22.6482653372319
10.8809	2043856.63625517	1591541.8795036	2590435.38884454	-37.9077299738141
9.278505	1690325.76953484	-838922.730173173	1887059.23445841	26.3955869343039
7.923394	1105189.8566478	962370.409000999	1465469.69376986	-41.0484955306489
6.75822	-221392.928808097	1161806.14494919	1182712.28427202	-100.788891149904
5.761429	447586.079475499	-297712.223956546	537555.454658773	33.6298952950745
4.919708	1162945.56241611	147695.577549239	1172286.80994496	-7.23788934699012
4.191257	458203.29168949	715869.898808497	849952.921363984	-57.3781135482426
3.564097	1276957.11219055	-1300480.06677914	1822599.20730365	45.522894840164
3.051758	1241295.57862714	322612.471451149	1282534.02303998	-14.5688384990654
2.604164	3864324.91931345	1235624.0684683	4057064.69268177	-17.7317603338379
2.214424	2380933.00260299	4757990.96817855	5320462.38743896	-63.4162865680083
1.892567	1953837.74313789	246981.332990408	1969386.12398785	-7.20445153006629
1.607507	1147632.96423567	-2145364.57295356	2433033.20394206	61.8560651960876
1.376413	2257280.90576143	162483.407276483	2263121.28379265	-4.11715897833548
1.17375	5776909.4497956	883464.333025135	5844073.23866371	-8.69489237211805
1.001604	6209385.4465659	5278066.78669743	8149506.52670841	-40.3650141768373
