EC-Lab ASCII FILE
freq/Hz	Re(Z)/Ohm	-Im(Z)/Ohm	|Z|/Ohm	Phase(Z)/deg
6999984	21.7398207160566	93.4360453406888	95.9318214862698	-76.9019941920025
5969734	19.5262737981007	92.4680821718224	94.507256805884	-78.0761566015641
5091109	16.7225579121657	97.3045569637671	98.7310526077826	-80.2485260818026
4341796	16.2441841239877	106.389105509893	107.622094799577	-81.3187539473275
3702781	18.0939048040601	117.829899196681	119.211050392815	-81.2698806474028
3157797	18.5562610528967	132.509608034307	133.802582357998	-82.0283048808175
2693047	20.3574376439838	150.962526521102	152.328952208906	-82.3199403985391
2296687	22.7191646418734	173.707833915424	175.187248410417	-82.5486078545758
1958656	26.947147409049	199.464674380227	201.276687867957	-82.3060748198969
1670375	32.3975719688343	230.405369638427	232.671951527674	-81.9960473569516
1424531	39.2185909938794	266.290392390617	269.162907844105	-81.6218486209517
1214875	48.315981022006	307.22667856991	311.00267852097	-81.0625845171245
1036062	59.4637418692823	355.872420887168	360.806203584681	-80.5139201325072
883578.1	74.0811889501175	411.431454264797	418.047681628196	-79.7928527473351
753531.2	93.3799154820657	475.408318473092	484.492391982424	-78.8874075436898
642624.9	165.9074817276	611.26355889183	633.378584199292	-74.8147662401204
548046.8	211.743386640779	693.016749196142	724.642999312416	-73.0100637770174
467390.6	266.113145567325	783.578236983343	827.533116991496	-71.2418587254641
398593.7	332.593392612785	881.3923857791	942.056740604861	-69.3260024501057
339937.5	413.838872507128	987.660965031299	1070.85797108885	-67.2658754019333
289906.2	508.268530183796	1100.95173328266	1212.61354841239	-65.2189836788284
247234.4	625.852004809711	1219.41120509386	1370.64014935824	-62.8312393634002
210843.7	765.596805459952	1342.80332382842	1545.72288428914	-60.3104542479427
179812.5	932.736571642872	1460.78285885145	1733.17168012702	-57.441024314148
153343.8	1125.55874224371	1569.79787437049	1931.6179354674	-54.3591473594968
130781.2	1344.77862844174	1663.62120843498	2139.17392576394	-51.0498577263801
111531.3	1585.30523648681	1730.01021050426	2346.51401472088	-47.4992268107985
95109.37	1837.61218739942	1769.8607041461	2551.31837749807	-43.9240618424294
81109.37	2095.10823981037	1774.15793538826	2745.38065051505	-40.2582492212927
69171.88	2347.9212745168	1749.51637981245	2928.06111182138	-36.6910540958538
59000	2589.2570092718	1693.48634176434	3093.88879079477	-33.1864259616432
50312.5	2803.52521208897	1625.58272058594	3240.72103030886	-30.106668950834
42906.25	3019.30526976993	1506.62809137515	3374.33438144195	-26.5191166349341
36593.75	3172.83764437951	1400.8867485328	3468.34000637287	-23.8226512003336
31203.13	3312.77834486081	1305.72192819042	3560.81593401513	-21.5117347956545
26609.38	3428.7999395813	1204.77131905448	3634.30088970203	-19.3598542861698
22703.13	3527.37100117917	1116.293260254	3699.79145666999	-17.5608126460827
19359.37	3612.5112645064	1030.20218465239	3756.53486306838	-15.9168878698712
16500	3682.73527247195	963.110168005388	3806.58906145967	-14.6557791148985
14112.02	3744.59510610496	903.053233865429	3851.94725455322	-13.5586566104702
12011.13	3798.56887744182	854.9336469633	3893.58922555777	-12.6840537249369
10236.38	3847.3683987276	823.020403520191	3934.41306679132	-12.0745985182562
8750.684	3884.90574713977	808.121999379677	3968.06676229635	-11.7508544456955
7449.463	3918.81914537278	788.68480601528	3997.39505395447	-11.3790965099028
6363.206	4000.76940911186	723.477833131375	4065.65813121538	-10.2502894394038
5414.761	4026.21650873876	738.921780516722	4093.46122162682	-10.3996251591267
4620.567	4075.04404254981	785.963950755058	4150.1473805887	-10.9167310283882
3941.215	4108.265751497	829.203538819645	4191.11273932284	-11.4111477689625
3361.769	4151.91496357567	880.450897677121	4244.24217593483	-11.972720892704
2867.244	4197.06220502334	945.781275618415	4302.30558818708	-12.6991225149488
2442.658	4245.24101930606	1012.66140819391	4364.35040294017	-13.4166318322132
2083.003	4295.27177860746	1114.26791085627	4437.44888751022	-14.5429408067255
1777.843	4352.45208063606	1210.38097788087	4517.61676394191	-15.5408098323033
1513.548	4416.40230953205	1337.40513785632	4614.46225062081	-16.8477208334187
1292.065	4488.04895917743	1474.24618993762	4723.97981457575	-18.1844542877707
1101.762	4565.5031354898	1637.6173542143	4850.32055425113	-19.7325919797922
939.101	4660.02578565418	1832.81448310431	5007.49930129189	-21.4699948202792
801.2801	4752.16186496384	2032.82541739245	5168.69631226419	-23.1597161130554
684.3433	4860.19581068283	2254.3568919512	5357.57672035284	-24.8837919552277
582.9476	4988.3875461363	2529.2691616759	5592.96100492864	-26.8864398773925
497.0677	5126.09462628014	2823.53438594596	5852.28096951927	-28.8466717339838
423.5089	5284.39675480783	3162.97896687649	6158.67558872251	-30.9026562972974
361.5036	5469.49104185817	3537.5661929479	6513.80893383086	-32.894045598788
308.1262	5673.67649745791	3959.40337799232	6918.63282068526	-34.9094532910504
262.7298	5899.01409585347	4431.73004756481	7378.25172500686	-36.9163009938536
224.2111	6157.66661194629	4950.43030030219	7900.8618683045	-38.7973959197814
191.2854	6449.76896026551	5563.22442556175	8517.56923364709	-40.7792913106067
163.1722	6784.55837851323	6225.59697236037	9208.05571517227	-42.5398874826406
139.1537	7163.61266663826	6967.34278939327	9993.05818969001	-44.2042496634043
118.6706	7614.26624493325	7772.74477678009	10880.8369077793	-45.5900970599549
101.1982	8079.13419041154	8719.9630301373	11887.3951946437	-47.1845813080245
86.24196	8637.0806589902	9734.49639906128	13013.8227455748	-48.4184688381505
73.61024	9270.42490228271	10864.2132552824	14281.8733898995	-49.5258988533132
62.69291	9994.94855176047	12138.7381770168	15724.1203595783	-50.5322075472133
53.57697	10817.6089964452	13512.7570152595	17309.3982146525	-51.3210558395494
45.65746	11759.6483678565	15046.8056580753	19097.0073636557	-51.9910268485518
38.96512	12813.0377078695	16733.5557588443	21075.7164442312	-52.5583868460242
33.18414	14007.0649248837	18619.7889752156	23300.0946197964	-53.0470396311795
28.30617	15341.0224715279	20683.8537970429	25752.0635749714	-53.4360149487158
24.17237	16828.3116537934	22869.5263933455	28393.7900001589	-53.6528794741728
20.61345	18499.4888872391	25340.3677336254	31374.5968255282	-53.8690507206978
17.55618	20423.412801799	28032.2680857078	34683.1925361792	-53.9241176943878
14.98558	22510.990622565	30951.9587791984	38272.2935173528	-53.9720513435284
12.76553	24872.2171449208	34158.7201787373	42254.5305257716	-53.9402636450546
10.8809	27492.4419748859	37649.614738727	46618.9645500308	-53.8623929511183
9.278505	30447.4675587362	41485.4592483258	51459.6114422252	-53.7238975928793
7.923394	33591.0247740353	45505.1914972741	56560.4048657136	-53.5659961541192
6.75822	37143.0106672071	49901.4131418723	62207.3490431805	-53.3386636897451
5.761429	41014.2352767663	54826.3729852482	68469.6916164772	-53.2007584780351
4.919708	45208.2653036037	60131.8755794216	75230.5105157479	-53.0634720607438
4.191257	50072.491689499	65801.1742789091	82686.4496787612	-52.7300793789131
3.564097	55127.391314511	72121.5716951675	90777.4772557842	-52.6068762642261
3.051758	60701.7574504901	78601.3396182762	99312.0030377281	-52.3220302963768
2.604164	66775.9275906702	85812.266056516	108732.559573242	-52.1112677714379
2.214424	73728.903338427	94349.3389223815	119740.339662862	-51.994298437562
1.892567	80564.4102895317	102738.950858842	130560.010067691	-51.8976576462573
1.607507	88734.4207241283	112485.671885216	143271.852785937	-51.7318264716126
1.376413	96972.432923227	122925.161283752	156570.265451925	-51.7310186011214
1.17375	106005.742381015	134407.09293772	171179.683519158	-51.7374529171607
1.001604	116100.68351143	147014.729441614	187330.455037648	-51.7010930154817
