EC-Lab ASCII FILE
freq/Hz	Re(Z)/Ohm	-Im(Z)/Ohm	|Z|/Ohm	Phase(Z)/deg
6999984	20.7135240158539	94.9092200551978	97.1432454092477	-77.6884933573786
5969734	18.0147898494879	94.0327912497913	95.7428769337336	-79.1546923551184
5091109	14.6721993836425	99.098204457915	100.178478534744	-81.5781319411832
4341796	13.7392757790287	108.591092486929	109.456809136924	-82.7890782411922
3702781	14.9489775400828	120.568050107322	121.491261563026	-82.9320885068569
3157797	14.4404110829139	135.644481512981	136.410963038785	-83.9233054924332
2693047	15.0318727491598	154.821397117229	155.549420454329	-84.4544373685195
2296687	15.6876108241705	178.496350931462	179.184397839818	-84.9773186523558
1958656	17.8377317346501	205.584151740356	206.356555796609	-85.0410888549539
1670375	19.9724428725022	237.989546692694	238.826135105205	-85.2028921362988
1424531	23.0942227496265	275.817193797703	276.782346833841	-85.2137783344063
1214875	27.2230456291547	319.668252098825	320.825319470338	-85.1324183274977
1036062	31.36381598928	371.326151103218	372.648358974704	-85.1720097111413
883578.1	36.6346812099531	431.542626796823	433.094837893569	-85.1476590048482
753531.2	43.2930080104799	501.870244804335	503.734083780876	-85.0696794489309
642624.9	93.1634099957689	655.109036311943	661.700287456188	-81.9062075746751
548046.8	116.733425317198	752.1546876461	761.159225612019	-81.1781501044024
467390.6	142.896451334663	862.699669229053	874.454181242195	-80.5949936605182
398593.7	172.181159297047	988.621331256443	1003.50310823242	-80.1202981272523
339937.5	205.837817141484	1133.77748672367	1152.31098075433	-79.7100030501592
289906.2	242.335201454998	1300.98985287923	1323.36727598915	-79.4484478166819
247234.4	287.196551874616	1495.6233478514	1522.94814686741	-79.1301124657072
210843.7	337.775202051422	1720.07231740336	1752.92351921532	-78.8900431495474
179812.5	402.59966172854	1982.47856083672	2022.94531112464	-78.5205426674676
153343.8	478.256648360281	2284.68002510244	2334.20055667951	-78.1768825819481
130781.2	576.834729327086	2634.54034284609	2696.95033751855	-77.6499332977663
111531.3	700.029076078248	3037.48667240722	3117.10859490112	-77.0220288500824
95109.37	858.156797431959	3499.56071982781	3603.24275073723	-76.2218932891822
81109.37	1072.17108157752	4024.84559492522	4165.2050239046	-75.0834834460368
69171.88	1333.04830348529	4617.87673028539	4806.43352971164	-73.8980910636906
59000	2282.67839436954	5573.92131298679	6023.22334431406	-67.7295128497531
50312.5	2695.10490639398	6278.17956881856	6832.21261047983	-66.7670583454924
42906.25	3538.03427719498	7078.01989591773	7913.03053157347	-63.441267527876
36593.75	4191.95460614784	7744.64038156196	8806.3578203321	-61.5745710313398
31203.13	5032.27002186497	8548.96474050183	9920.10784756418	-59.517194180584
26609.38	6043.43822744333	9301.71675016693	11092.5686885076	-56.9877287545302
22703.13	7213.9139076404	10038.7429700264	12361.913860123	-54.2987003121104
19359.37	8590.48661342504	10652.3966300311	13684.6634675074	-51.1160114334059
16500	10091.0760679598	11185.0492787347	15064.3666835706	-47.9434352597855
14112.02	11674.0948834544	11531.0296862198	16408.8127837567	-44.6467621573177
12011.13	13361.0423087498	11634.0278888464	17716.321754096	-41.0474756657736
10236.38	15010.6137303552	11512.5678940042	18917.1283253031	-37.4868294479331
8750.684	16569.5830504859	11326.5987366499	20070.9471975796	-34.3556437454329
7449.463	18036.9620369117	10758.7349202253	21001.9612561463	-30.8153432588975
6363.206	19466.867681214	10344.408203695	22044.6301489176	-27.9855218974802
5414.761	20537.2486064341	9575.89839789455	22660.0178828102	-24.9982173564932
4620.567	21612.711207563	8902.08820650346	23374.2691902418	-22.3863376811878
3941.215	22513.0660594131	8357.55688870696	24014.3061641071	-20.366506754747
3361.769	23099.2185001879	7753.21405206084	24365.6771598184	-18.5542412487482
2867.244	23819.1743327747	7294.42073817494	24911.0746416253	-17.0267644148192
2442.658	24261.8165004882	6821.86998891795	25202.6516471791	-15.7047731645359
2083.003	24786.6366541353	6437.13362115961	25608.8665481467	-14.5582101319657
1777.843	25169.7093104792	6153.85171727338	25911.0817553457	-13.7389664285979
1513.548	25489.2383466163	5984.09003060966	26182.2574463139	-13.212022873994
1292.065	25898.4176707691	5786.19000573154	26536.9182956883	-12.5941165398352
1101.762	26230.8531085257	5584.03643494951	26818.6337778026	-12.0177553754013
939.101	26474.4788796664	5985.18422595189	27142.5949785293	-12.7389258929766
801.2801	26878.6515740724	5952.68502494019	27529.9177159419	-12.4874661758496
684.3433	27082.7858530794	6130.9937335204	27768.0819237524	-12.7556046943928
582.9476	27517.4121840884	6297.99708716865	28228.9344577333	-12.8914300693065
497.0677	27790.1400627466	6790.19420090262	28607.6671889381	-13.7305267602756
423.5089	28247.48993389	6718.61514622789	29035.5037333321	-13.3791030966321
361.5036	28635.7231655537	7364.06785548836	29567.4506272432	-14.4218920133482
308.1262	29065.8515626816	8125.72640822243	30180.310746	-15.6190071121827
262.7298	29514.8845997792	8908.79492947738	30830.0995787196	-16.7959540966287
224.2111	30055.8677333998	9702.34642405674	31583.0763438274	-17.8906186121159
191.2854	30512.1565378371	10929.220957638	32410.4854534817	-19.7071354649545
163.1722	31129.7235310227	12147.5979962706	33415.9217170035	-21.3169749819336
139.1537	31797.7999153602	13480.3377105801	34537.2202739099	-22.9739975733417
118.6706	32528.9849399613	15060.9838872862	35846.4516636908	-24.8442292194739
101.1982	33312.3995754725	16804.5624716077	37310.9807608713	-26.768828830786
86.24196	34268.1343745146	18871.9760899464	39121.049513648	-28.8422370406495
73.61024	35323.150464832	21111.457718734	41151.1677327759	-30.8653395561006
62.69291	36490.8337017867	23723.9101242604	43524.7614104366	-33.0292407201271
53.57697	37792.67355236	26599.4980828546	46214.9269446035	-35.1389114288444
45.65746	39308.0291699218	29868.6795862573	49368.605180316	-37.2298234993492
38.96512	41041.9861469567	33525.3230812081	52994.2630346565	-39.2438159858576
33.18414	42992.1820956821	37733.0464454504	57202.3645962543	-41.272527758123
28.30617	45102.7405658992	42278.6348693696	61820.2246273198	-43.1488843230851
24.17237	47622.5472430807	47484.1038744099	67250.6291916678	-44.9165966309345
20.61345	50522.7598664257	53385.4415899205	73502.0723399778	-46.5781054818785
17.55618	53887.336680792	60016.9468404515	80659.0290209262	-48.0803263361982
14.98558	57528.7348892915	67310.500920684	88545.2363041388	-49.4802513057752
12.76553	61804.6030433879	75578.3339188614	97631.4166408624	-50.725225569237
10.8809	66591.6660560802	84530.0345516004	107609.371011168	-51.7694182325511
9.278505	72445.9332458883	94407.9132526157	119001.123224031	-52.498398164874
7.923394	78768.744514048	105259.265981472	131468.734637851	-53.191361970195
6.75822	85857.9174134385	117903.13864712	145851.74693988	-53.937622309619
5.761429	94022.3368121762	131451.609093755	161615.981118699	-54.4253010665226
4.919708	103380.604490691	146559.927178869	179352.618156346	-54.8015796393188
4.191257	113823.277577101	162863.034360239	198696.015258027	-55.0507016886417
3.564097	125733.042307237	181630.747257999	220903.884704033	-55.3072607301454
3.051758	138648.243331406	200581.602092643	243836.655318547	-55.3465656348914
2.604164	153538.408790025	222604.260430849	270419.488454027	-55.4045317750247
2.214424	169995.446581656	246433.180674426	299378.964517901	-55.4011685127673
1.892567	189370.510058003	271883.630517026	331333.515694907	-55.1422832626154
1.607507	209984.017389415	300869.005203291	366899.776302761	-55.0878465425
1.376413	232743.449402992	329692.331819584	403567.276796122	-54.7801510177809
1.17375	258427.36272083	363580.274784349	446066.495059993	-54.5953606696953
1.001604	286270.347595671	399554.462385027	491522.614255269	-54.3793899583987
