EC-Lab ASCII FILE
freq/Hz	Re(Z)/Ohm	-Im(Z)/Ohm	|Z|/Ohm	Phase(Z)/deg
6999984	0.0146840866233316	-2.60061649078702	2.60065794647304	89.6764893049008
5969734	-13.2220199531363	0.306735181563335	13.2255774207686	-178.671044242037
5091109	-10.4938094453615	-4.65775049429678	11.4810572833115	156.065624688725
4341796	-1.02538251925115	-4.33094297304668	4.45067144895781	103.319932209894
3702781	2.17872908298584	0.157850839929344	2.18443981485294	-4.14388917835172
3157797	0.325292984637398	-0.130362008677317	0.350442262235437	21.8385728403089
2693047	-8.39692761769492	-10.1641177544298	13.1839934444281	129.561284635327
2296687	-11.6459005497979	-11.3341227110251	16.2508257403849	135.777303754701
1958656	-15.1047853061352	-11.2170805175	18.8142880407555	143.401767726066
1670375	-20.4721689735511	-9.53223456486984	22.5825861734507	155.032409896766
1424531	-26.400855159595	-5.99036795509507	27.0719349399954	167.216013635545
1214875	-31.8855642277767	-0.897613276080863	31.8981961201111	178.387487429227
1036062	-36.4795775306138	5.30489388039415	36.8632808617777	-171.725993624138
883578.1	-1.49280623621835	5.74879423010801	5.93945330472557	-104.556661610684
753531.2	-4.8022252044363	9.82880065844604	10.9392270886746	-116.039537966019
642624.9	-6.73487966611831	14.589827393051	16.069277129856	-114.778744337834
548046.8	6.75600041384527	16.8471898806772	18.1513456379264	-68.1484022937733
467390.6	8.79334930240069	16.1355078346827	18.3760062319628	-61.41099158083
398593.7	10.2751309951311	15.1727014650077	18.3245514737292	-55.8936830334618
339937.5	11.1597752925641	13.4858898887696	17.5045654236986	-50.3917354845811
289906.2	11.0241806440282	12.7311953127339	16.8408994107542	-49.1100976518088
247234.4	23.7246557707529	43.2242276811895	49.3071308238071	-61.2387604676136
210843.7	24.7944922685941	37.3203061238919	44.8059381783082	-56.4011288342973
179812.5	24.7139530700123	30.7300741650287	39.4349709589716	-51.1928221554212
153343.8	22.497889491329	25.551607802499	34.0446720186402	-48.6364620904639
130781.2	27.7569351576502	63.3628097452359	69.1758130285215	-66.3435279433317
111531.3	24.4516063450015	38.8995131680992	45.9461987281433	-57.8471940951162
95109.37	17.560908152129	23.2767231737771	29.1580406892535	-52.9676104920405
81109.37	14.0970354069041	14.8061536895817	20.4437910951717	-46.405427461582
69171.88	11.4554242528816	9.33114083077593	14.7748750931195	-39.1649139678902
59000	10.3088592952106	6.49371384990459	12.1836324440986	-32.2074760024607
50312.5	7.69671740319001	4.05498344266361	8.69956030525934	-27.7823166858591
42906.25	7.50670306799705	3.33254091413124	8.21318573365019	-23.9384459707295
36593.75	9.1542680197749	1.81223831476351	9.33192534728876	-11.1978585001471
31203.13	9.24749443541144	0.0129280241379133	9.24750347211471	-0.0800996143508481
26609.38	8.85328102125724	-0.94389186497588	8.90345532330687	6.08559673646867
22703.13	8.35779995939907	-1.55230182530269	8.50073297534801	10.5217052765352
19359.37	7.77273114318846	-2.2295612931443	8.0861791338171	16.0052207731466
16500	6.24150672155017	-2.30214062668342	6.65253768273298	20.2461798881916
14112.02	6.18067929384577	-3.0530841208018	6.8936288834014	26.2880943223594
12011.13	5.30123968749943	-3.20043761817598	6.19241012628806	31.1200078368803
10236.38	3.30509712163668	-3.58694663935917	4.8774843082332	47.3418009270084
8750.684	3.7037419687229	-10.1398246670621	10.7950798445237	69.9344263327551
7449.463	3.42237195091523	-9.66693415955542	10.254864495233	70.5045766346898
6363.206	2.62570952525453	-8.71061886885887	9.09775970168109	73.225209429089
5414.761	1.50716126733991	-6.75382310930656	6.9199466527982	77.4201772219188
4620.567	0.376719240201265	-3.60789211315658	3.62750642812873	84.0390429670496
3941.215	-0.251511257495652	1.17407254539343	1.20070989605884	-102.091224218236
3361.769	-1.13495825840591	7.77434023603543	7.85674845937957	-98.3058066573661
2867.244	-1.07777892221071	15.1504707636332	15.1887580718394	-94.0690702412712
2442.658	0.351303839244867	23.9203791555856	23.9229587077862	-89.158592753882
2083.003	3.26297526331321	33.4309229246855	33.5897843870016	-84.4253884083063
1777.843	14.2131036006873	38.3169365751624	40.8680797502022	-69.6484058014258
1513.548	20.5902788628274	45.6398487366572	50.0695054534588	-65.7176288479308
1292.065	28.2739817450714	52.9679113162428	60.0417993811477	-61.9069438482952
1101.762	36.9499459930753	59.660265471472	70.1758205154574	-58.2284402119963
939.101	46.5896839121333	65.8239969136141	80.6436433745151	-54.7094537554397
801.2801	58.0589822916848	70.0723059386168	90.9998543092311	-50.3562751266404
684.3433	68.2397687471302	76.3072224639389	102.369225057255	-48.1944767177221
582.9476	79.824465507188	80.2251403858407	113.172516290114	-45.1434363516048
497.0677	91.9056355623896	83.6216168815271	124.254660508199	-42.2979274057568
423.5089	104.182056914961	86.4161475207086	135.357495305406	-39.6747719210432
361.5036	117.515598290777	89.2628190534441	147.572919965037	-37.2196764167974
308.1262	130.463341681216	92.0196901364731	159.650577497992	-35.1964593097873
262.7298	144.379845124895	92.8684554095146	171.668546007816	-32.7500613048716
224.2111	158.007450756997	94.4941371151927	184.107296009337	-30.880941196862
191.2854	171.13665205613	95.5349459192181	195.996631524036	-29.1719054968119
163.1722	185.324613006304	95.7188928702393	208.584080500504	-27.3160436321816
139.1537	199.533132935854	96.0056836160704	221.428458933774	-25.6946074494291
118.6706	288.147161873825	155.426390579535	327.392959277567	-28.3423943897554
101.1982	282.818447582236	128.309107724948	310.563200360245	-24.4028511819948
86.24196	292.51351451385	123.385646179886	317.471532356009	-22.8705901504765
73.61024	304.334129065539	119.934899881093	327.114112082569	-21.5088814658347
62.69291	317.08323618969	117.96852082889	338.316938061167	-20.4073529159619
53.57697	329.092849991286	117.154755982161	349.324119929653	-19.5953743174363
45.65746	342.286855631694	118.160768065289	362.108075922108	-19.0451744059281
38.96512	354.851692283983	119.451467685907	374.417382941983	-18.6044495403355
33.18414	367.387121325725	121.089899269445	386.828205565581	-18.2420938419609
28.30617	382.962382263399	125.127872607124	402.886051796339	-18.0941160322125
24.17237	394.955923783116	130.408178627856	415.928449116443	-18.2724033093233
20.61345	408.904120736556	135.732709419443	430.843299079467	-18.3632056606957
17.55618	424.120367449083	143.392354082688	447.704649623521	-18.6800627805589
14.98558	439.564170370103	151.520752042174	464.946446564099	-19.0194199530369
12.76553	456.920566095601	160.778862335219	484.382334829555	-19.3856889531523
10.8809	472.39244627915	170.84921851176	502.338609672478	-19.8834345785163
9.278505	489.607287106676	184.506772381681	523.218926112831	-20.6487400350505
7.923394	505.44486666361	195.622510407738	541.980331575621	-21.157950545895
6.75822	524.403414103565	209.515115537964	564.708353366905	-21.7782117365919
5.761429	543.029586577417	223.557839702168	587.247170781385	-22.3762937310392
4.919708	562.00018449666	239.315107970657	610.83216048051	-23.0656364430949
4.191257	586.082236913907	258.062373485933	640.381587051972	-23.7647423559797
3.564097	597.796658608467	277.491106381388	659.06157463792	-24.9002473031038
3.051758	13945.8539161897	2591.23081693668	14184.5450613809	-10.5258935980176
2.604164	278597.785081373	12898.0002575647	278896.189043327	-2.65068037719168
2.214424	417555.082849543	4687.29025692155	417581.390753277	-0.643150281654505
1.892567	628309.390525906	60145.7202643275	631181.588680429	-5.46805021980518
1.607507	677340.496294571	73006.3338550237	681263.585335021	-6.15180773927399
1.376413	728744.121471733	69460.1141073573	732046.926112948	-5.44468843866651
1.17375	793300.995242909	53555.8790058648	795106.723169589	-3.86218702992431
1.001604	880627.573600053	39883.9122362093	881530.288668508	-2.5931726032944
