EC-Lab ASCII FILE
freq/Hz	Re(Z)/Ohm	-Im(Z)/Ohm	|Z|/Ohm	Phase(Z)/deg
6999984	23.4364748990306	92.7641371147666	95.6789082835925	-75.8211666072677
5969734	20.5080063024596	92.5524282332679	94.7973116410793	-77.5061208911884
5091109	17.0306329191867	97.9699491802534	99.4391944859245	-80.1385181851375
4341796	15.819355845199	107.27048375307	108.430663116919	-81.6109624228442
3702781	16.6174433324799	119.434079458341	120.584570982234	-82.0790116456866
3157797	16.0074158442585	134.408055485894	135.357906091629	-83.2083114598894
2693047	16.2609800206687	153.419117181497	154.278465729934	-83.9497761425682
2296687	16.3049409637325	176.947186971039	177.696815044037	-84.7353012796926
1958656	17.8469964699185	204.037072266567	204.816117876767	-85.0010964008538
1670375	19.6525770667981	236.247428653756	237.063433137374	-85.2447180553434
1424531	21.7984868648745	274.110901203932	274.976290229594	-85.453160101212
1214875	24.3479044950817	318.009680984768	318.940398277383	-85.621781580319
1036062	27.4326681515926	369.326874702934	370.344288007459	-85.7520148871522
883578.1	30.9525942290314	429.721019186092	430.834327114078	-85.8801282501435
753531.2	35.4968017140164	500.583685501108	501.840661088553	-85.9438984527415
642624.9	79.7112385364891	655.277178352613	660.107613968195	-83.064327165973
548046.8	98.9439808221035	752.806957067761	759.28138785996	-82.512339626144
467390.6	119.895026352474	865.700852276323	873.963833906193	-82.1149933952208
398593.7	141.271910483129	994.027253924317	1004.01590337797	-81.9112496032723
339937.5	166.292599782971	1142.10099636812	1154.14380154625	-81.7158136993531
289906.2	190.018935675546	1314.50246281315	1328.16562244966	-81.7745418733541
247234.4	217.214670676579	1514.32297115456	1529.82230148587	-81.8371661603618
210843.7	247.759591516704	1747.32941395217	1764.80732547521	-81.929641548496
179812.5	279.193621575544	2018.67782085605	2037.89332957949	-82.1256504102102
153343.8	315.061430865089	2333.93626637192	2355.10556041653	-82.3120335809663
130781.2	359.063788974616	2703.21672014523	2726.95937641644	-82.4337871124316
111531.3	415.950531467564	3130.31420509628	3157.82866337864	-82.4309796192354
95109.37	471.878083218973	3635.22490994818	3665.72353994817	-82.6039555775854
81109.37	551.009060098679	4215.60038455654	4251.45828940895	-82.5532488127163
69171.88	638.856696753379	4883.66731723266	4925.2760678355	-82.547175460088
59000	1327.0367660041	6081.26121100911	6224.3686021034	-77.6900403434254
50312.5	1654.74924803767	7178.06636364599	7366.33095881438	-77.0184765117526
42906.25	2001.03599936271	8181.11840595669	8422.282555402	-76.2557550948744
36593.75	2193.18805443952	9265.48227019229	9521.51435126702	-76.6828951311445
31203.13	2342.6908233854	10548.1664834846	10805.1847025992	-77.4781605507861
26609.38	2793.89277247942	12112.9233694313	12430.9593104405	-77.0116583139905
22703.13	3183.89671830583	13876.2516677805	14236.8380850672	-77.0772046857535
19359.37	3773.87381033657	15994.5743579357	16433.7619682128	-76.7240335008349
16500	4359.72936589026	18409.6026587759	18918.7925142651	-76.6767644827366
14112.02	5095.24753129616	21169.6127723109	21774.1601981516	-76.4670619297187
12011.13	6254.78535215846	24303.2706085236	25095.2446107366	-75.5673463040248
10236.38	7617.63965980951	28298.1939136873	29305.5662419847	-74.9335976868306
8750.684	9038.42889550719	32213.2676308883	33457.2534491158	-74.3268926775665
7449.463	11169.9234384416	36930.7588502004	38583.0032381139	-73.1717524668033
6363.206	20436.7087744272	46163.8323905423	50485.2303799124	-66.1210484314824
5414.761	22205.7894361543	49892.9703486163	54611.405170447	-66.007660083826
4620.567	29153.6255825822	57142.9671685687	64150.2344612824	-62.9698951498219
3941.215	35366.3312687468	60296.0295298634	69902.7078479575	-59.6064610050654
3361.769	38872.9806755261	68172.2540273381	78476.5241697653	-60.307474867408
2867.244	47002.8799568505	72267.292872143	86208.0758589716	-56.9598944648428
2442.658	56441.0763105177	81268.6686474135	98945.3970572294	-55.2200279058367
2083.003	68963.0451399998	86080.0736822968	110298.144499947	-51.300039747624
1777.843	77695.2983969757	91206.4989305691	119813.124657389	-49.5736033193358
1513.548	89343.3025001093	94018.3384134688	129698.394977176	-46.4605116240059
1292.065	102894.823366952	93326.7541304222	138914.46185418	-42.2083798319558
1101.762	117766.89156916	95296.5053774474	151494.107763359	-38.9796480648346
939.101	127445.025078633	96818.7675721142	160050.330119861	-37.2235897185381
801.2801	139589.109759193	92549.3994976186	167482.867514065	-33.5448970061668
684.3433	150986.666100052	93042.9867410069	177352.673286014	-31.6427516108459
582.9476	161850.291855783	87178.622077688	183835.875500856	-28.3085669615308
497.0677	168660.774234464	84347.4206459411	188576.096404057	-26.5696801603544
423.5089	178295.843633046	82362.4905460475	196400.070534018	-24.7942386518487
361.5036	184923.298962983	78876.17462976	201042.476664951	-23.0999222375555
308.1262	192271.81545336	78229.0228074522	207577.048411282	-22.1397767532092
262.7298	193070.316405776	78727.5049935138	208504.59735826	-22.1839632583697
224.2111	198738.288344448	75263.3593078297	212512.306722176	-20.7419717274742
191.2854	216340.268290846	68162.7553133252	226824.321658987	-17.4881787863939
163.1722	219053.011283467	67893.4512817005	229333.25637442	-17.2203382059041
139.1537	215461.072241959	80606.075891702	230045.241468529	-20.5113103783104
118.6706	197359.997925904	82877.6424504666	214055.302198894	-22.7790601427043
101.1982	250132.616661562	78873.1608700083	262273.333420663	-17.5013854635717
86.24196	235687.867290554	70743.6907707235	246076.086956522	-16.7075696271518
73.61024	253561.93649214	114111.340007915	278055.846110176	-24.2293366433174
62.69291	260796.805480058	92857.6504807909	276834.818983118	-19.5984568303741
53.57697	234354.591707042	149332.793359691	277889.110666076	-32.5056432390467
45.65746	230801.583024818	119373.786045098	259845.091393897	-27.3486334715687
38.96512	271949.678224875	129261.055596622	301106.373198188	-25.4223207164491
33.18414	279052.564169191	150979.423177642	317277.669861044	-28.4152918100299
28.30617	294399.987949284	185242.25020072	347830.481936194	-32.1789083267954
24.17237	275294.706987193	228044.838136032	357479.543324724	-39.6372030784165
20.61345	286633.561367457	212321.068613052	356705.809707636	-36.5288440144743
17.55618	318858.383467641	278463.996853111	423335.406328134	-41.1312191771099
14.98558	315017.510293065	269899.742058369	414827.557612094	-40.5892068324941
12.76553	318878.995275416	346184.009345391	470666.741925014	-47.3510312770879
10.8809	338577.266046946	359681.678280582	493969.103056619	-46.7311998047375
9.278505	384261.199907312	399999.612441702	554667.792203332	-46.1496476426797
7.923394	381729.948691116	479415.024239901	612826.663253702	-51.4717551988247
6.75822	432887.338634787	507152.439364644	666779.607294507	-49.517103951158
5.761429	413702.805147547	594126.237585163	723972.373211886	-55.1496801477506
4.919708	496803.267185729	681036.427877918	842985.232600862	-53.8899522210641
4.191257	511114.847878407	702885.400378768	869072.076290216	-53.9766006284218
3.564097	494749.780830527	842216.552671481	976783.531405853	-59.5684166074687
3.051758	567020.737517434	1009142.15399342	1157532.03141049	-60.669068531915
2.604164	690806.431993593	1105442.75294509	1303540.25888062	-57.9981684741332
2.214424	757575.069950261	1176500.42365621	1399311.69989869	-57.2216043969247
1.892567	801382.597209521	1310687.73514728	1536267.03608968	-58.5574898737399
1.607507	808513.256403574	1483425.8661671	1689451.38615881	-61.4082413834133
1.376413	852715.166430524	1702446.94993972	1904061.12622985	-63.3948006506909
1.17375	887170.292436257	1954451.98011436	2146381.52954091	-65.5856193719326
1.001604	1146343.88312199	2296184.26203117	2566430.68551848	-63.4698581218531
