EC-Lab ASCII FILE
freq/Hz	Re(Z)/Ohm	-Im(Z)/Ohm	|Z|/Ohm	Phase(Z)/deg
6999984	3.26255294687366	2.92316417644385	4.38054112337718	-41.8595287488125
5969734	3.80854945846649	2.49637435695692	4.5537823737699	-33.2434753693044
5091109	3.80916961368888	5.35523293373574	6.57178004199917	-54.5758113497255
4341796	-14.0788513116433	-20.9871983226378	25.2720507218763	123.854911474722
3702781	-4.32142808349519	-7.34278785929388	8.52005130427127	120.477955526
3157797	-4.56011463753347	-5.64414862456818	7.25610496090443	128.936015793501
2693047	-2.64039577451603	-5.86839692082602	6.4350425225046	114.224636854163
2296687	-3.18516910544259	-4.31861406636708	5.36616526809318	126.410417832564
1958656	-2.30795082692413	-3.70361160688742	4.36387167022255	121.929601395744
1670375	-1.32493870208337	-3.19909585079914	3.46261127285155	112.497398284961
1424531	-0.682255936643762	-3.44398497463749	3.51091236982845	101.205259579626
1214875	0.0442554858955925	-2.71077363622233	2.71113486475127	89.0646849712601
1036062	0.450186273859107	-2.10596724907726	2.15354724474695	77.9336619979151
883578.1	0.659654624143058	-1.52749187757451	1.66384364025271	66.6426692081695
753531.2	0.909344576120467	-0.447749355317533	1.01360102767656	26.2150307443244
642624.9	0.627270028402837	0.557623283512426	0.839292210643989	-41.6360866678673
548046.8	0.169895221340303	0.861000030662814	0.87760209607523	-78.837617511293
467390.6	-0.026613826222233	1.09528888939779	1.09561217909643	-91.3919249435225
398593.7	-0.0934107051265405	1.34124163245755	1.34449048954227	-93.9839287129148
339937.5	-0.0250179798594265	1.6749241362271	1.67511096988598	-90.8557510388391
289906.2	0.254525450324926	1.76269645533195	1.78097782089023	-81.7835373107376
247234.4	1.39673938772305	1.48116753097093	2.03586300423665	-46.6803841778873
210843.7	4.20665413045276	5.34457374615369	6.80150038604208	-51.7941127135212
179812.5	16.7342979392843	-2.0836196574176	16.8635167861722	7.09748030971536
153343.8	7.98024249183719	-3.0358688489252	8.5381947680056	20.8279726925233
130781.2	-15.5970010395091	33.0552049278648	36.5501438335006	-115.260143477303
111531.3	-9.7533912095193	60.4500486225348	61.2318301094516	-99.1654725331804
95109.37	-0.17134141144888	55.8173010033739	55.8175639846503	-90.1758793191368
81109.37	1.89703746097062	42.825158252823	42.8671544484546	-87.4636117085465
69171.88	2.4290930949676	31.0729065275234	31.1677078613783	-85.5300510373185
59000	5.34215496005394	18.818475309981	19.5620457163762	-74.1519113669336
50312.5	6.65396908242754	6.60390758746997	9.37480132982801	-44.7836532337303
42906.25	2.79981895985666	-8.66445457495343	9.10558945315481	72.0923572765563
36593.75	0.137950573994239	-12.7936419103178	12.7943856316083	89.3822181813216
31203.13	1.62346987420628	-12.439736143422	12.545225775187	82.5645360812804
26609.38	3.38250785946211	-12.7385266132793	13.179962810894	75.1292054780882
22703.13	4.57927840067284	-13.1684177612758	13.9419158298404	70.8250319295065
19359.37	5.26004744329141	-13.4708931390279	14.4614335758522	68.6705960282555
16500	5.47423023272233	-13.9382656975059	14.9747269522726	68.5576660468353
14112.02	4.68904391158536	-13.939571221104	14.7070995996154	71.407901894493
12011.13	3.52008319422785	-13.7677083844879	14.2105868933899	75.658045522994
10236.38	2.62723248876993	-13.0722690072436	13.3336629456346	78.6362228463045
8750.684	4.03559331496035	-11.8277419208113	12.4972593935259	71.1604987185555
7449.463	3.91225077540761	-11.3056775929371	11.9634464919235	70.9121788101458
6363.206	2.95671077375932	-10.3080604818347	10.7237236768217	73.9952647057448
5414.761	1.54084199622682	-8.23708696355239	8.37996394398335	79.4046165453544
4620.567	-0.0358461236067378	-4.7498337510891	4.74996901122132	90.4323925240169
3941.215	-1.34896573167977	0.722084757842421	1.53007024111793	-151.840404724312
3361.769	-2.48682270488859	8.72091216777043	9.06854984016274	-105.915832092294
2867.244	-3.49339083464572	17.7647599992372	18.1049848758315	-101.125102784087
2442.658	-3.34974835521747	28.9909076758982	29.1837890260284	-96.5910012723191
2083.003	-1.7051607465206	42.8005084403288	42.834461545841	-92.2814419204631
1777.843	1.04998772906844	56.1505600588304	56.160376326655	-88.9287220864756
1513.548	5.87666081356277	70.9640047894913	71.2069176279988	-85.2660320853223
1292.065	12.4721748963561	86.9646240989138	87.8544306868508	-81.8384839632906
1101.762	21.1732535962649	104.248365410184	106.376822468745	-78.5191675687592
939.101	32.7591104560311	121.058448038969	125.412547854966	-74.8580818494323
801.2801	44.4196101837211	139.941737761772	146.822313483538	-72.3897796680087
684.3433	61.8601672824085	159.509858284424	171.084994041338	-68.8030065747103
582.9476	82.1505826598355	178.551733935559	196.543735394301	-65.2931244175184
497.0677	103.981578503138	198.252635166736	223.866647847684	-62.3234268695758
423.5089	129.545561531005	217.222869207366	252.918618174036	-59.1893477302102
361.5036	156.395715014874	255.746687552861	299.776563242149	-58.5531353944969
308.1262	188.423440094304	270.212946183858	329.421354897238	-55.1113721895681
262.7298	222.267933851261	284.988310825276	361.41578787534	-52.0486377548522
224.2111	260.969404871508	298.679642470087	396.62899428187	-48.8548736019678
191.2854	301.447334878636	310.172771105729	432.524731825637	-45.8173321215038
163.1722	343.963568634794	318.89845499921	469.049209730563	-42.834479462585
139.1537	388.660639525805	323.986894766352	505.988735741173	-39.8145335160095
118.6706	434.968684219379	326.521838416287	543.888101739953	-36.8947864286464
101.1982	480.049225482462	328.152672573492	581.490701046402	-34.3557812553037
86.24196	524.198090589307	329.704686945463	619.26474045539	-32.1686466526847
73.61024	568.683024219868	328.847628338048	656.917913212461	-30.0391516042558
62.69291	613.522528185548	327.39846709569	695.413293551248	-28.0860416130579
53.57697	657.013702137968	328.242766625521	734.445585893887	-26.5466243386784
45.65746	698.57900459665	326.726538008069	771.208698279515	-25.0655685453109
38.96512	740.289008701998	327.348770230546	809.435008988639	-23.8545592199444
33.18414	784.578323612171	325.642990631999	849.474251069352	-22.5411279591204
28.30617	829.249080751712	323.171306384157	889.996478193932	-21.2916387882329
24.17237	870.998033708371	335.019006980453	933.20700263233	-21.0386435442149
20.61345	915.502530151594	338.168671545531	975.962567483425	-20.2732406848556
17.55618	962.474115171142	345.800807436937	1022.70945082096	-19.7625118358539
14.98558	1008.88480795941	356.992257232959	1070.18317472084	-19.4862430461977
12.76553	1055.65016038381	371.412506751992	1119.08199489142	-19.3835518205764
10.8809	1107.66095056609	382.488942888172	1171.84067724273	-19.0504226993315
9.278505	149423.432807967	7407.27024383825	149606.918037176	-2.83796309168609
7.923394	262897.390985991	54614.0380895341	268510.207149907	-11.7356481458127
6.75822	311454.860146115	62172.3767534593	317599.644741316	-11.2889530599949
5.761429	389315.99800397	67231.6483116577	395078.524899202	-9.79787050521259
4.919708	499858.368003936	108946.013448105	511593.219178864	-12.2955425032146
4.191257	566641.141736537	96963.1093174928	574877.402649472	-9.71035120200636
3.564097	654054.244971685	120293.585978398	665024.437290107	-10.4213689074519
3.051758	705057.692643006	150845.371270631	721013.644800744	-12.0762314479724
2.604164	765605.009174694	148189.827925723	779814.885196505	-10.9546551048479
2.214424	862332.410536906	128221.767555299	871813.057907138	-8.45744720265994
1.892567	995653.918831059	140540.555513341	1005523.93001243	-8.0344496512487
1.607507	1132188.24138212	189697.076475514	1147970.0321643	-9.51150619920621
1.376413	1234807.48084327	211670.638330402	1252818.41217221	-9.72709875835803
1.17375	1347341.45101315	232617.266098553	1367274.58036247	-9.79549845994075
1.001604	1485693.33768637	217100.460595367	1501471.71256617	-8.31364052566005
