EC-Lab ASCII FILE
freq/Hz	Re(Z)/Ohm	-Im(Z)/Ohm	|Z|/Ohm	Phase(Z)/deg
6999984	26.2708670269352	89.7664912577607	93.5317133761407	-73.6874717782005
5969734	23.1435020620071	89.0868942173537	92.043991704989	-75.4372848845301
5091109	20.3410103057172	94.0289292061955	96.2039304182579	-77.7934592254466
4341796	19.9725520515119	102.555424193275	104.482141377907	-78.9796537487059
3702781	21.9497770168126	113.466865157546	115.570420955228	-79.0515599519948
3157797	22.6290443895866	127.004837763575	129.005048216486	-79.8973602491669
2693047	24.7133580137853	144.476977712534	146.575397503352	-80.2932740856023
2296687	27.3940869113359	165.905256650197	168.15168801375	-80.6239853249518
1958656	32.1261459081425	190.043209456925	192.739489237676	-80.4050581514324
1670375	37.6338635352445	218.876224037407	222.088066166246	-80.2438851236621
1424531	45.3294936722863	252.132185864698	256.174554055426	-79.8079788331265
1214875	54.3939524560246	290.488562754318	295.53731939445	-79.394188713483
1036062	66.4624139530787	334.533344191259	341.071562643762	-78.763247589485
883578.1	81.5849599499975	386.007760514797	394.535292296762	-78.0658433612517
753531.2	101.405304010374	444.359707811531	455.783485448722	-77.144928297138
642624.9	126.387616814727	511.064650574752	526.460736191408	-76.109307082439
548046.8	215.407698673489	642.424605393484	677.576453444762	-71.4634788006207
467390.6	268.457082347316	723.723589654283	771.909994289823	-69.6482339140873
398593.7	331.224207816457	810.64533342065	875.702764892469	-67.7754067691431
339937.5	407.210117445422	904.540556640559	991.974646025555	-65.7634654715412
289906.2	496.519318177155	1004.29992987304	1120.33467431215	-63.6925095210409
247234.4	604.311345120787	1107.89726705523	1261.99388120155	-61.3893910719535
210843.7	731.020880948426	1212.47422356864	1415.79845712622	-58.9135258476342
179812.5	879.810030836134	1315.03510428397	1582.20827196012	-56.2159259565993
153343.8	1050.47928729481	1409.14023797878	1757.60716410872	-53.2963794044645
130781.2	1242.46042435402	1488.22836840922	1938.69326677119	-50.1428884549999
111531.3	1449.57456564147	1547.21710836602	2120.17621950987	-46.8661714725364
95109.37	1666.89120972996	1579.39760199263	2296.30640164919	-43.4561443998799
81109.37	1888.65062922775	1591.06712415622	2469.51327043471	-40.1119902849296
69171.88	2102.58256603248	1576.06482604141	2627.70504107076	-36.8546851125652
59000	2302.00475229989	1537.46781667611	2768.21841026427	-33.7382530732896
50312.5	2491.98464471606	1496.01072801108	2906.55045850315	-30.9776163656344
42906.25	2676.93311579897	1408.65603395732	3024.94342566362	-27.7542474834756
36593.75	2809.56558324212	1344.60141423839	3114.74103734331	-25.5748363519349
31203.13	2927.43252859198	1283.95149685199	3196.62206958015	-23.6819213066935
26609.38	3044.76237523184	1221.34576025084	3280.58887819095	-21.8572054278065
22703.13	3137.33365185411	1175.85327304225	3350.44674077658	-20.5456878460182
19359.37	3219.59898447935	1133.71482894376	3413.37471342182	-19.3986549880561
16500	3295.96776360017	1114.65060245003	3479.34612596012	-18.6848240598364
14112.02	3363.38096747743	1098.36646501904	3538.18320948306	-18.0852867525895
12011.13	3426.53081923913	1101.67760115839	3599.27867663643	-17.8233247190777
10236.38	3489.35993158195	1121.09883852787	3665.03688083464	-17.8117280533043
8750.684	3547.56948073821	1151.78233860379	3729.85948477752	-17.9869557357892
7449.463	3609.55263398208	1208.2266478941	3806.40011693048	-18.506955041916
6363.206	3673.49882028593	1273.9541627969	3888.12972925926	-19.1263338776084
5414.761	3726.38640339339	1367.70012334617	3969.4532690027	-20.1547129057769
4620.567	3829.46649845875	1423.39489106785	4085.44571359551	-20.3898662440545
3941.215	3900.49282197525	1554.88154747902	4198.98807821256	-21.734065338477
3361.769	3982.68129249019	1714.40003902656	4336.00251053497	-23.2901270368051
2867.244	4073.30224763743	1895.32185906943	4492.66470483549	-24.9527245075598
2442.658	4166.33743134669	2106.50665842218	4668.59056823551	-26.8212315507287
2083.003	4271.42409564561	2344.23402689841	4872.42208534218	-28.7587685490549
1777.843	4392.79132399285	2612.83169775921	5111.11583677793	-30.7441761711643
1513.548	4525.13370642625	2929.39830247971	5390.56671191499	-32.9174738430309
1292.065	4668.32501798995	3288.62808779664	5710.37066865504	-35.1629985745517
1101.762	4835.82923621854	3680.46530613615	6077.09381789831	-37.2741303256466
939.101	5018.73757551611	4138.32966877235	6504.88272756233	-39.5081672533751
801.2801	5228.39533075153	4658.68674178187	7002.81942453742	-41.7021773495357
684.3433	5466.95150020844	5235.1802684744	7569.32435221632	-43.7593651242191
582.9476	5726.80149324443	5909.14632775032	8228.86782405647	-45.897798314252
497.0677	6026.64434053111	6673.56806670407	8992.04941869138	-47.9160134997105
423.5089	6369.75179459075	7545.14882867068	9874.36118295673	-49.828334625473
361.5036	6757.43969261066	8505.5134460508	10863.0911889858	-51.5336460998548
308.1262	7201.35430952756	9601.12728908824	12001.7144238907	-53.1281589958141
262.7298	7721.64186618822	10847.445429258	13315.0600993912	-54.5552307057244
224.2111	8316.10491910513	12247.2980090722	14803.8477953736	-55.8228883682954
191.2854	8962.36397218115	13812.766727928	16465.615465266	-57.0226218842537
163.1722	9719.81615199526	15555.7200872134	18342.7166325035	-58.0012624462269
139.1537	10607.4740756508	17548.3268260054	20505.1769233504	-58.8482086589893
118.6706	11677.4021100784	19739.5705700857	22934.959479621	-59.3925758601431
101.1982	12822.1805926766	22237.8520001434	25669.6392014281	-60.0325697173042
86.24196	14135.9788589854	25017.1075753343	28734.6753894581	-60.5312721821861
73.61024	15625.3954180439	28134.8685275027	32182.6631749159	-60.9533128940794
62.69291	17335.6154291377	31677.9230385095	36111.1391448772	-61.310494783564
53.57697	19206.4717427845	35488.3841095786	40352.3724645202	-61.5775504118745
45.65746	21408.2567462408	39833.0715429802	45221.5329844217	-61.744223834478
38.96512	23857.7806262662	44608.7470091965	50587.88398561	-61.8611072246847
33.18414	26699.9398709566	50011.3074258787	56692.3068816082	-61.9032196226268
28.30617	29860.4566807115	55920.7308605754	63393.8089497828	-61.8987505518248
24.17237	33465.8197210987	62491.8749882289	70888.613536657	-61.8299383206296
20.61345	37532.5677021495	69884.7203665838	79325.7069242503	-61.7613552725524
17.55618	42120.5713317972	77908.5939208248	88565.7469682099	-61.6025313717422
14.98558	47201.1260267285	86902.4698187008	98893.8095068711	-61.4913775594868
12.76553	53076.2993839915	96878.7145779449	110465.283662217	-61.2832792882953
10.8809	59723.341221212	107909.666640663	123334.397639605	-61.0373658026251
9.278505	66954.6718671096	119983.166059393	137400.466602076	-60.8370024616679
7.923394	74727.3387597904	133703.747538351	153169.407075694	-60.7990726556302
6.75822	84064.2074464094	148603.718402966	170733.289363208	-60.5034264333427
5.761429	93870.3779824253	165270.274305943	190068.175746823	-60.4042474390056
4.919708	105116.516415422	182855.318097479	210915.977061587	-60.1070542306712
4.191257	116906.157778366	202956.99023622	234219.105993182	-60.0574360856129
3.564097	131228.361876322	225829.676126609	261189.443852909	-59.8393683487861
3.051758	145485.421512151	249569.338540994	288878.629552893	-59.7601282857195
2.604164	162361.913393508	276730.790453229	320844.699668968	-59.5992417368468
2.214424	180396.05733181	308175.376474682	357092.145203691	-59.6566521079189
1.892567	202734.522902172	340970.470080311	396688.981751648	-59.2650927507265
1.607507	224773.743360714	379467.251363429	441042.662972307	-59.3600318573797
1.376413	250090.71152913	421522.131117788	490128.831038563	-59.3191799665868
1.17375	279649.434947704	466547.75578538	543939.900076235	-59.061463550337
1.001604	311167.520432276	517862.378180981	604157.817550375	-58.9996414042424
