EC-Lab ASCII FILE
freq/Hz	Re(Z)/Ohm	-Im(Z)/Ohm	|Z|/Ohm	Phase(Z)/deg
6999984	12.7859892703632	102.746754877212	103.539254195786	-82.9064772934145
5969734	17.8061415260256	93.4142308011211	95.0961470944537	-79.208034725845
5091109	14.5263983344372	98.7451616083656	99.807931496615	-81.6312451287918
4341796	13.4029995455621	108.281045550231	109.107402234081	-82.943834141657
3702781	16.5180785364933	119.432093744143	120.568950956071	-82.1256504102102
3157797	15.5213828497352	132.869918697976	133.773422698138	-83.3371123722348
2693047	16.099832881476	151.160285104359	152.01525058902	-83.9204407034575
2296687	17.2613063615949	174.101135303927	174.95473132049	-84.3378977529898
1958656	19.6925346083772	199.876997786646	200.844741438518	-84.3731919531699
1670375	22.0740629050821	231.088113019393	232.14000136125	-84.5435323056623
1424531	25.8784377314328	267.515011724635	268.763790413536	-84.474605482908
1214875	30.4627550000509	310.226765524507	311.718824407495	-84.3918130815116
1036062	35.0176288660539	359.775273480786	361.475423424021	-84.4408009729953
883578.1	41.7737361443779	417.296186927245	419.381869726719	-84.2834094666729
753531.2	49.9808511941864	484.67428561823	487.244547045565	-84.1123242690468
642624.9	112.571040407707	637.920723267005	647.777035956024	-79.9922993558201
548046.8	138.477947378188	729.267229635149	742.298345767927	-79.2483136588427
467390.6	167.833551837528	832.620389074093	849.36730183372	-78.603449660423
398593.7	201.757672754663	952.009126723788	973.153397918728	-78.0344452740786
339937.5	241.123681633849	1088.11149780914	1114.50763187567	-77.5052614544957
289906.2	286.869119457448	1246.10503737077	1278.69920460564	-77.0356652456065
247234.4	339.39223487592	1428.24787249561	1468.01875818476	-76.63281861985
210843.7	405.395386789107	1636.62783495532	1686.08899224817	-76.0877638693421
179812.5	491.145337532891	1880.22221941264	1943.31143591378	-75.3605085399825
153343.8	594.366183704492	2157.82757873693	2238.18922790034	-74.5999643627259
130781.2	726.115658359498	2474.58887065459	2578.92109768454	-73.6467917747462
111531.3	894.782949658961	2830.69471181235	2968.74873953368	-72.4582481245269
95109.37	1109.12055480696	3233.33321626414	3418.27326182275	-71.0666482317131
81109.37	1393.37521890191	3670.99597598186	3926.53867373351	-69.2150778209684
69171.88	1743.39245876456	4145.28655415904	4496.97875037995	-67.1897293109604
59000	2852.5973567248	4838.02522450909	5616.38671679395	-59.475540148878
50312.5	3364.36872375532	5295.97942740976	6274.26290530852	-57.5734921563822
42906.25	4254.03249030262	5698.26032397153	7111.04515161439	-53.2568453166005
36593.75	4919.91859334935	5984.72700743734	7747.42255971201	-50.5770930608838
31203.13	5715.80208460699	6267.03090438441	8482.10291301084	-47.6338375151866
26609.38	6601.24306605285	6461.15441068495	9237.04099459478	-44.3855506985175
22703.13	7512.93984399909	6552.77744543906	9969.11015833429	-41.0948993824765
19359.37	8439.58502001218	6534.51161785156	10673.6328114589	-37.7495191378446
16500	9333.0313595047	6403.71042839493	11318.7005264841	-34.4553441313636
14112.02	10150.2538378547	6185.73017955502	11886.5853308317	-31.3588109163129
12011.13	10912.8065571899	5886.45933239139	12399.1834580566	-28.3427954602119
10236.38	11582.4967642796	5559.44488976277	12847.6324191213	-25.6403884532759
8750.684	12160.8611740726	5223.20359242414	13235.1199565013	-23.2439752864073
7449.463	12652.2264992484	4872.11337912603	13557.8878947771	-21.0606737714377
6363.206	13076.2037000333	4549.76286263629	13845.1235209726	-19.1849417304723
5414.761	13432.2386431462	4274.31153579086	14095.9133819496	-17.6517410481699
4620.567	13687.1351654102	4050.08737775614	14273.7828484137	-16.483732205328
3941.215	13968.8059030355	3861.18675222645	14492.6292125428	-15.4515945740235
3361.769	14199.5398638612	3736.87717366513	14683.0236448915	-14.7441521252195
2867.244	14399.3961245717	3684.73413624941	14863.3735876877	-14.3536928469938
2442.658	14605.5881140648	3665.12669826497	15058.4314545721	-14.0869236975809
2083.003	14777.6996992119	3698.14379326451	15233.4065761979	-14.0498132211902
1777.843	14956.3038294371	3795.56726475132	15430.4035948412	-14.2397430006982
1513.548	15172.5260136227	3942.7938539528	15676.4526921376	-14.5669190904517
1292.065	15373.0255693961	4158.37038030941	15925.5128450277	-15.1361583894921
1101.762	15549.0611647729	4452.47709482026	16173.9869972048	-15.9790767089547
939.101	15761.2604498319	4787.72558785737	16472.3904540919	-16.8969665559102
801.2801	16010.7465228042	5214.93753834814	16838.633488094	-18.0411976502542
684.3433	16335.0127356773	5638.24920466201	17280.6971841015	-19.0428023606562
582.9476	16564.9488075697	6288.82904108739	17718.5467718272	-20.7891032357016
497.0677	16887.1254145499	6965.21641980927	18267.1630129453	-22.4140516497383
423.5089	17203.597737456	7725.77120505894	18858.7198882935	-24.1838380648061
361.5036	17645.1110050021	8630.18777387154	19642.5579645607	-26.063162551147
308.1262	18102.6272588703	9626.10416091799	20502.8533377781	-28.0018913016871
262.7298	18610.9814070486	10765.7511818969	21500.4657494674	-30.0477631599166
224.2111	19144.7773325217	12173.0764295793	22687.1392835724	-32.4499632005159
191.2854	19807.3321527678	13528.5931863965	23986.5220616304	-34.3334416308715
163.1722	20638.2019221421	15107.0138335407	25576.4979140206	-36.2038566234982
139.1537	21446.7778882561	16987.0583776545	27359.1745875863	-38.3812108365543
118.6706	22356.9429702354	19143.9058808682	29433.3489659247	-40.5729348311124
101.1982	23543.8986027364	21516.7949353509	31894.9467111308	-42.4242244925375
86.24196	24656.953665636	24325.4327073316	34636.5708531927	-44.6122185318492
73.61024	25956.3678106029	27308.8128761166	37676.3094081951	-46.4544726488452
62.69291	27503.8298684102	30776.5005074657	41275.3393797857	-48.2140088489581
53.57697	29214.2544931425	34620.6193974892	45299.6683548114	-49.8409969927454
45.65746	31229.4843208682	39114.7521690473	50052.4178056699	-51.3958955867494
38.96512	33459.7157924173	43838.6010726539	55148.6674808796	-52.6473958394978
33.18414	36053.6427210884	49360.7502343575	61125.6805046661	-53.8551908716335
28.30617	38929.9671691044	55543.1467541427	67827.6012780917	-54.9735414623714
24.17237	42168.1875742738	62275.4920454944	75208.9951588743	-55.8971551577003
20.61345	46144.0347939384	69968.5170141079	83814.4696351274	-56.5952641240215
17.55618	50493.5528967015	78505.5413847876	93341.9461563267	-57.2515013346746
14.98558	55412.9894877155	87974.3723562337	103971.580710495	-57.7941382032871
12.76553	61145.4999761615	98842.210427379	116226.308250349	-58.2583486089021
10.8809	67877.6261807783	110278.326131037	129493.943295433	-58.387206817027
9.278505	74891.3203315275	123507.303923032	144439.482079298	-58.7685675254661
7.923394	83305.8635841166	138017.520524206	161210.120275202	-58.8852790283342
6.75822	92281.9333058912	153878.263003115	179428.189088361	-59.0485719999465
5.761429	102699.682579932	171736.76233039	200101.824923571	-59.1203063158969
4.919708	113983.633242981	191309.388519119	222691.604652779	-59.2131827744876
4.191257	127529.547603626	213307.706981809	248523.567031022	-59.1262077811868
3.564097	142468.867451181	237419.682855771	276885.326444283	-59.033216731037
3.051758	158574.187968219	263742.516026856	307743.217390662	-58.9837704733172
2.604164	177220.491051688	292499.318580842	341998.470491987	-58.7890221187523
2.214424	198188.120872096	325540.904444199	381123.879757172	-58.6670966999484
1.892567	221199.039442561	360186.918196644	422686.20877704	-58.4449609627762
1.607507	248109.568966807	399660.195163194	470411.128493764	-58.1679358688305
1.376413	276248.006929741	441608.585224174	520894.52279358	-57.9719843028957
1.17375	307767.830915929	487708.304744221	576697.865665531	-57.7460670442756
1.001604	342975.946485797	537228.769489496	637375.282416118	-57.4451496102729
