EC-Lab ASCII FILE
freq/Hz	Re(Z)/Ohm	-Im(Z)/Ohm	|Z|/Ohm	Phase(Z)/deg
6999984	11.2436514389914	8.89881279027747	14.3390573873578	-38.3599311840432
5969734	15.6574005989984	-6.22903647628727	16.8509670031257	21.6943135266509
5091109	2.41306948874851	-2.82430960781622	3.71478520487147	49.4896650023492
4341796	3.49090757962306	-9.93686299649112	10.5322211304408	70.6431751253319
3702781	6.50387047111162	1.70399109156962	6.72338580963091	-14.6813101142496
3157797	23.3566944140791	-9.22360699630547	25.1119513374602	21.5491661284104
2693047	2.07193293485907	-0.874954323569535	2.24910007667217	22.8937949411793
2296687	0.63608220766592	-3.57684780105427	3.63296583617516	79.9163251521858
1958656	0.790338629505351	-2.99596217036391	3.09845517565448	75.2219673451199
1670375	0.396157564676545	-2.56788166897105	2.59826039531991	81.2298881933027
1424531	0.0532835774906072	-2.15188190411302	2.15254149062899	88.5815669584058
1214875	-0.303845529579145	-1.67456427069054	1.7019070487305	100.284287219732
1036062	-0.179387558261274	-1.4898740957576	1.50063477144456	96.8656199435253
883578.1	-0.128901718442215	-1.18582866955202	1.19281402010074	96.2037963943697
753531.2	-0.206717472214	-0.995702798142668	1.01693469581271	101.728541933919
642624.9	-0.113787216651931	-0.748427259773802	0.757027670462524	98.6447684889655
548046.8	-0.178361801748562	-0.615088404514411	0.64042694953529	106.170970198465
467390.6	-0.159121950494086	-0.474850786410074	0.500802420604481	108.525941328012
398593.7	-0.136173434106403	-0.380990012352476	0.404594356941209	109.667903509487
339937.5	-0.111294739291181	-0.303694702881425	0.323445500126573	110.126327041372
289906.2	-0.0891077797001435	-0.2416983383805	0.257601015485157	110.237595445186
247234.4	-0.0708493117841997	-0.194866144418153	0.207346182074064	109.980222803613
210843.7	-0.0559366316386668	-0.154302803289351	0.164128796565478	109.926192883532
179812.5	-0.0451305376285829	-0.12189024131883	0.129976907008159	110.317351170268
153343.8	-0.0341236945836248	-0.0974925638595784	0.10329194808866	109.290725392953
130781.2	-0.0238873422250521	-0.0809724530124849	0.0844224097348319	106.43636424917
111531.3	-0.017006797985827	-0.0671300601581277	0.0692508206057124	104.216267384597
95109.37	-0.0159397261526931	-0.053761199430149	0.0560744276296344	106.514630283985
81109.37	-0.00877148827337148	-0.0462866894661563	0.0471104725965074	100.73050675058
69171.88	-0.00537184066416839	-0.0388315153459395	0.0392013170210281	97.8761456067975
59000	-0.000792739121890455	-0.0304167649261016	0.0304270935826131	91.492937402804
50312.5	-0.000132948072472798	-0.0273403165265252	0.027340639768677	90.2786106518038
42906.25	0.000204082692867226	-0.0252312063532389	0.025232031701495	89.5365730113299
36593.75	0.000508128348093826	-0.0213554798536906	0.0213615241544119	88.6369719771949
31203.13	0.000881983759557648	-0.0175980640062656	0.0176201518756435	87.1308378211345
26609.38	0.00137113495379305	-0.0153885472120891	0.0154495112013361	84.9083345338221
22703.13	0.00175520147496321	-0.0130300312772586	0.013147716429253	82.328190990789
19359.37	0.00202645748469322	-0.0111564296648376	0.0113389793545864	79.7050183173415
16500	0.0023824887156485	-0.0094077270130839	0.00970471947213833	75.7887371960633
14112.02	0.00231514978242514	-0.00828496241927139	0.00860235553809551	74.3875116122914
12011.13	0.00235714908188445	-0.00720841769205737	0.00758402514614729	71.8922804144966
10236.38	0.00237297114198701	-0.0061892148394134	0.00662852716439468	69.022965072261
8750.684	0.00235839118140253	-0.00529779885527635	0.00579902420028444	66.003076421465
7449.463	0.00238115070891337	-0.00459398523373306	0.00517441581498009	62.6014259917733
6363.206	0.00230962051880401	-0.00390395979381014	0.00453599482060623	59.3910288740962
5414.761	0.00229209668384083	-0.00336054289415552	0.0040677949495437	55.7036100145051
4620.567	0.00231767231282376	-0.00298491764942222	0.00377906580036153	52.1720528639234
3941.215	0.00232030709924675	-0.00260252686015113	0.00348668482840405	48.2811022067679
3361.769	0.00224359568708133	-0.00223025791158697	0.00316350627615724	44.8291861897094
2867.244	0.00207641129505273	-0.00202511022026039	0.00290044053040666	44.2833923236457
2442.658	0.00209155337467814	-0.00180414809910105	0.00276216326139811	40.7806492205811
2083.003	0.00204823774525168	-0.00154894494707033	0.00256797747461467	37.0977739163054
1777.843	0.00199733707728794	-0.00142745167717348	0.0024549895500744	35.5525353907273
1513.548	0.00192357837059773	-0.00138735078016225	0.00237168630620666	35.8004370399466
1292.065	0.00182658498305784	-0.00120012751258285	0.00218557057694112	33.3062543549169
1101.762	0.00187774802029595	-0.00098098933497268	0.00211855556997108	27.5838555647817
939.101	0.00182986097348717	-0.000929393484362117	0.00205235558104978	26.9261916892187
801.2801	0.00179642064939071	-0.000817413589398276	0.00197364944346516	24.4666500324827
684.3433	0.0016825375926581	-0.000933973483783672	0.0019243802168799	29.034573242897
582.9476	0.00168637715776892	-0.000772214715378206	0.00185477316265128	24.6036786187662
497.0677	0.00167888044585804	-0.00062470341756062	0.00179133858089318	20.4099942513974
423.5089	0.00182629146781927	-0.000280221412604151	0.00184766462473884	8.72328243086678
361.5036	0.00162488471513512	-0.000596159031156844	0.00173079632767972	20.1477400094101
308.1262	0.00155784741834421	-0.000563189233907197	0.00165652367686994	19.875814239841
262.7298	0.00158582755149486	-0.000477333620881718	0.00165610881547809	16.7517790506241
224.2111	0.00154457453399656	-0.000687291902547353	0.00169058588967785	23.9877088819549
191.2854	0.0014532613096403	-0.000509613549659026	0.00154002415698375	19.324181933845
163.1722	0.00127444466727298	-0.00065882872997757	0.00143466529385233	27.3368649184567
139.1537	0.00136131229573136	-0.000471743834101003	0.00144073363656218	19.1130469863393
118.6706	0.00141341406335152	-0.000560896824891258	0.00152063952423083	21.6450735337373
101.1982	0.00126194847096423	-0.000397871790686383	0.00132318400277246	17.4992139535281
86.24196	0.00117995876700735	-0.000307775266458389	0.00121943770094296	14.6190525202307
73.61024	0.00125360532310175	-0.000383900408630909	0.00131107049004088	17.0265295021232
62.69291	0.00111993158678938	-0.000399016441759859	0.00118889060888009	19.6102941384215
53.57697	0.00112057884742557	-0.000318214437772861	0.00116488513670006	15.8531291264291
45.65746	0.00121968649191182	-0.000164835487399385	0.00123077450268453	7.69665092397342
38.96512	0.00102288251220643	-0.000264973778226262	0.00105664551147736	14.5230133346108
33.18414	0.00101014934564904	-9.64789663536904E-05	0.00101474622022645	5.45574824298592
28.30617	0.00170105795280122	0.000696960639045458	0.00183830146906511	-22.2799852552556
24.17237	0.000932751403071825	-0.000172016758294377	0.000948480334570287	10.449008391489
20.61345	0.00111000072421957	-4.41321854943052E-05	0.00111087769694259	2.27680650826158
17.55618	0.00104151386623771	4.40717622723153E-05	0.00104244589969706	-2.42303106715691
14.98558	0.00104897653412672	1.62182805113813E-05	0.00104910190247242	-0.88578243803194
12.76553	0.00105996135884763	-1.78367839675289E-05	0.00106011142485703	0.964069099327435
10.8809	0.000978346511661851	0.000131251012827463	0.000987111303374218	-7.6409479671308
9.278505	0.00162608265730595	-0.000107174050481034	0.00162961071593424	3.77087360019872
7.923394	0.00122773487261857	0.0002897150824724	0.00126145461529764	-13.2774947612436
6.75822	0.00110677964097875	9.32858242021094E-05	0.00111070401938685	-4.81783422262112
5.761429	0.00108813278767769	4.87325346788417E-05	0.00108922349568647	-2.56430469774453
4.919708	0.00136385151044896	0.000235139914505479	0.00138397316518333	-9.7821256250024
4.191257	0.0011447943810445	-9.90792736836188E-05	0.00114907392161895	4.94648960368657
3.564097	0.00119329940941135	-5.36220651860457E-05	0.00119450358156695	2.57291052382739
3.051758	0.00120607480130138	0.000256743219204463	0.00123309914724714	-12.0174574373478
2.604164	0.00111556403444018	0.000154275419407116	0.00112618116658453	-7.8737006122468
2.214424	0.000802669442810441	-0.000476992472628582	0.000933702336596602	30.7212234818913
1.892567	0.00105594075485202	-0.000161551226229459	0.00106822735241787	8.69838741466835
1.607507	0.00148188592902507	3.03168127947153E-05	0.0014821960112551	-1.1720086612097
1.376413	0.00115108707368948	2.0831712386076E-05	0.00115127555843766	-1.03679291339001
1.17375	0.00111347606670697	0.000255716404757179	0.00114246217915131	-12.9340409405304
1.001604	0.00108513628842217	-7.47882282184304E-05	0.00108771045941956	3.94262400182493
