EC-Lab ASCII FILE
freq/Hz	Re(Z)/Ohm	-Im(Z)/Ohm	|Z|/Ohm	Phase(Z)/deg
6999984	18.6116663517706	-13.3878633390754	22.9266004714042	35.7284620817222
5969734	4.49970219833699	8.11926986468239	9.28277237732663	-61.0047645040822
5091109	8.90045561837004	8.73347033771074	12.469627675045	-44.4574511722285
4341796	0.912340359623582	1.05767368410902	1.3967958168089	-49.2192231934695
3702781	11.108477239055	4.09294902884992	11.8385175728791	-20.2264586808831
3157797	25.7570392705683	-18.6157703682906	31.7800562993605	35.857331749003
2693047	6.65659116360655	-9.00514522779016	11.1983412384601	53.5282382354201
2296687	-1.19996959764718	-18.7463366723337	18.7847029699104	93.6625566856259
1958656	0.97351130348242	-17.2091033248112	17.2366168809902	86.7622540715269
1670375	8.6827337319747	-13.9813403553104	16.4580601284417	58.1587685441084
1424531	4.20026816154755	-20.8992998455071	21.3171993156072	78.636280142084
1214875	14.2070185991829	-10.4087475923376	17.61196763336	36.2283047326164
1036062	5.4051340198009	2.27080303943914	5.86276557743315	-22.7882331970044
883578.1	2.1922115037129	1.9742866443903	2.95018627059871	-42.0059251950463
753531.2	0.54082854120268	1.51722022673531	1.61073049496002	-70.380875046721
642624.9	0.892525777673902	0.795850823817203	1.19581804534926	-41.7228725850958
548046.8	1.01394173909594	-0.0785394028069873	1.01697900080295	4.42925711075237
467390.6	-0.171671596088354	-0.553571852980484	0.579579962831505	107.22950972497
398593.7	0.00104770075717104	-0.621291061273931	0.621291944657071	89.9033805917726
339937.5	0.443086147572391	-1.23780181831374	1.31471619583519	70.3045570684096
289906.2	0.429017277948409	-0.465754349482686	0.633232136613661	47.3511000320234
247234.4	0.40222115864716	-0.486210429725575	0.631016990609122	50.4004960092686
210843.7	0.346200300782914	-0.453398315835629	0.570460060884867	52.6358163624582
179812.5	0.334753718392925	-0.383948946364579	0.509388697746976	48.9157904747461
153343.8	0.327076020367667	-0.340616092445594	0.472226688712589	46.1617370521569
130781.2	0.316556810868858	-0.299188518923526	0.435570871802874	43.3842897627926
111531.3	0.308330136949417	-0.271097022987306	0.410561894510226	41.3233147370834
95109.37	0.299412244511905	-0.246668722339614	0.38793446707442	39.4831691047735
81109.37	0.2912691010295	-0.227701305080279	0.369710120972899	38.0167237351818
69171.88	0.280595265271685	-0.210523399710348	0.35079025744523	36.8799525513305
59000	0.270510580922589	-0.186361126280669	0.328491162407265	34.5638737969173
50312.5	0.258965439347411	-0.169099484501219	0.309285845836785	33.1437692537958
42906.25	0.269744632064777	-0.187606334596214	0.328570088882705	34.8184618636057
36593.75	0.247840716878954	-0.181840530909346	0.307393883518307	36.2674663979136
31203.13	0.233231921504614	-0.178181666135859	0.293506107867767	37.3786607457903
26609.38	0.216924295648058	-0.173477777559119	0.277760129156899	38.6498764762691
22703.13	0.201410336794251	-0.172532338345281	0.265204697436648	40.5840559419158
19359.37	0.183348538107849	-0.17097967293334	0.250700488596806	43.0007346259981
16500	0.164077593093304	-0.168476285875296	0.235171672311157	45.7578075361677
14112.02	0.145107878493233	-0.163611846816421	0.218689580957774	48.4300769630799
12011.13	0.125651124755162	-0.157651285564881	0.201598940950832	51.4444766781985
10236.38	0.10666742057647	-0.150218575536767	0.184237778560025	54.6221464466177
8750.684	0.0891496110795374	-0.141775139755963	0.167474903816827	57.8379121788351
7449.463	0.073375397872356	-0.131651834699144	0.150718793096871	60.8671400416918
6363.206	0.0597021374745509	-0.120744063076291	0.134697713370352	63.6898166194038
5414.761	0.0480254390089685	-0.10885051962988	0.118974276277265	66.1926681558737
4620.567	0.0383210901497246	-0.0969695220028944	0.104266936982598	68.4367146562831
3941.215	0.0305577384787921	-0.0855926383052888	0.090883855073375	70.3527428189801
3361.769	0.0243465022147104	-0.0751427157479587	0.0789884795401798	72.0474946811976
2867.244	0.0195121907676133	-0.0655939912285357	0.068434620433235	73.4338806580756
2442.658	0.0158041237884894	-0.0568916519285687	0.0590460023023008	74.4750595633874
2083.003	0.0128664766546301	-0.0494624276131239	0.0511084921210523	75.4190075308654
1777.843	0.0106396118901193	-0.0427756909285629	0.0440790321534889	76.0322442589939
1513.548	0.00893596133248546	-0.0369742788077711	0.0380387788748597	76.4132611927559
1292.065	0.00778757269690628	-0.031734921342974	0.0326764673909887	76.212382189783
1101.762	0.00663749936449799	-0.0276030441186583	0.0283898651358246	76.4792086349755
939.101	0.00589712091321857	-0.0237446734667289	0.0244660081154793	76.052469669162
801.2801	0.00519976099627814	-0.0204955051175676	0.0211448160181793	75.7642718982112
684.3433	0.00456987920099592	-0.0175874155900776	0.0181714331589394	75.4344773913339
582.9476	0.00448573683564847	-0.0152626747290638	0.0159082077822706	73.6218108148785
497.0677	0.00401232691713982	-0.0131340471864427	0.0137332429813831	73.0125847913159
423.5089	0.00415712985597563	-0.0109673093406549	0.0117287511190689	69.2409182175288
361.5036	0.00365354675298155	-0.00991539611922749	0.0105670944008944	69.7725657556307
308.1262	0.00342837803395897	-0.0084579819146771	0.00912640312569729	67.9352046982051
262.7298	0.00328657076372431	-0.00737234612355044	0.00807174298094263	65.9728242498821
224.2111	0.00248119503500069	-0.00594006878756834	0.00643744871845638	67.3294737171928
191.2854	0.0029124479380598	-0.00558095280314455	0.00629518762093996	62.4419718373884
163.1722	0.00298046530449708	-0.00522017338461296	0.00601110502293317	60.2757330055577
139.1537	0.00263170719599332	-0.00442418086723409	0.00514774310853244	59.2538627779419
118.6706	0.00272553079130031	-0.00362527145689406	0.00453553869242639	53.0636324889264
101.1982	0.0027240226996759	-0.00336605794992874	0.00433020158775871	51.0180700279063
86.24196	0.00270156424987563	-0.00272384673666652	0.00383637725478803	45.235315863632
73.61024	0.00239373858797545	-0.00262081066440655	0.0035494553055687	47.5927335229639
62.69291	0.00233786788664033	-0.00219731451097282	0.00320839793596678	43.2248699858754
53.57697	0.00236855226567827	-0.00206643831248556	0.00314327967806841	41.1030010056997
45.65746	0.00220853755043883	-0.00178987233030402	0.00284275941129148	39.0224594712868
38.96512	0.00218583420890299	-0.00146507415825656	0.00263140902901881	33.8323098249383
33.18414	0.00205536689685875	-0.00154252158688832	0.00256980659325156	36.8876702928309
28.30617	0.00206197790533871	-0.0013296646711189	0.00245352012824977	32.815911344266
24.17237	0.00194233655990788	-0.00111492125368553	0.00223958047720427	29.856269205628
20.61345	0.00193678146739811	-0.00100613968707872	0.00218253053183034	27.4514507479049
17.55618	0.00196376358582374	-0.000942580244617765	0.00217826190770324	25.6403827236979
14.98558	0.0017912909795951	-0.000980908767078962	0.00204227945759418	28.7050594853393
12.76553	0.00205793706524889	-0.000803873965156841	0.00220937057018107	21.3366732709302
10.8809	0.00192228469864002	-0.000493385045451847	0.00198459246841791	14.3951406138935
9.278505	0.00155403148030944	-0.000400489839276029	0.00160480713892856	14.4512618299266
7.923394	0.00913436607871963	-0.00085482918000044	0.00917427798723388	5.3463883615871
6.75822	0.00154744765924024	-0.000692499766046711	0.00169533188021191	24.1090384246518
5.761429	0.00172907271353592	-0.000500806901566193	0.00180013888390613	16.153078261758
4.919708	0.00135151709395961	-0.000532446858459734	0.00145261767590398	21.5025732005103
4.191257	0.00185879984964257	-2.4188738051479E-05	0.00185895722814694	0.745553309504852
3.564097	0.0018763100719014	-0.000652301623234529	0.00198646341360546	19.1700734756886
3.051758	0.00218358093725214	-0.000307281457378775	0.0022050958263939	8.01027083229418
2.604164	0.00125200398125656	4.77794892777849E-05	0.00125291533978873	-2.18548448416906
2.214424	0.00152475627055369	-0.00175162074322166	0.00232229561268095	48.9609796560481
1.892567	0.00190422107649343	-0.000294365748143315	0.00192683914789008	8.78756256590251
1.607507	0.00220890548026483	-0.00020955771025495	0.00221882352941176	5.41940094637842
1.376413	0.0017076264895053	9.94984879840141E-05	0.00171052277879346	-3.33468999809035
1.17375	0.00154418828386304	-0.000125298852294337	0.00154926345674523	4.63894304799419
1.001604	0.00124516822133249	0.000474833436620548	0.00133263299221849	-20.8738895302251
