EC-Lab ASCII FILE
freq/Hz	Re(Z)/Ohm	-Im(Z)/Ohm	|Z|/Ohm	Phase(Z)/deg
6999984	2.32443992467948	1.5066900694002	2.77004258607573	-32.9511007360271
5969734	4.95478348821644	2.05042501470226	5.36228702663509	-22.4811106300804
5091109	7.29386118052933	-2.8693072406757	7.83794201064455	21.4740112544231
4341796	4.34939401968169	-4.99074345700004	6.62002632865093	48.9281033377635
3702781	3.55356874688106	-7.20108787352603	8.03016297475048	63.734736510542
3157797	1.80587909390171	-6.40686797738446	6.65651234366959	74.2586534041665
2693047	0.780272293206281	-9.26296237278857	9.29576768057605	85.1850158530908
2296687	0.604209300171036	-8.25358503776418	8.27567126304676	85.8130921881132
1958656	-2.00039549639152	-8.56554648665266	8.79603142087335	103.145237378159
1670375	5.06305118672899	-17.3382468762844	18.0623722711725	73.7213335838928
1424531	0.31242565965164	-14.4797875916761	14.4831577528129	88.7639394245959
1214875	11.5073400267906	7.99917195096782	14.0144791695349	-34.8045733666517
1036062	9.3023672342041	-7.55573278920775	11.9842869684393	39.084803008975
883578.1	-2.5202428128105	-9.5231970234697	9.85103575180525	104.82308698542
753531.2	-2.66588569303806	16.5480124198266	16.7613740956724	-99.1517215460973
642624.9	9.85391292155642	10.3400271983081	14.2834086382547	-46.3789740001808
548046.8	9.88595515047976	2.50253629543411	10.1977839331525	-14.2054743949714
467390.6	10.0264495325811	1.03367721376606	10.0795921947098	-5.88611575051593
398593.7	6.95300474333792	-5.52631104645076	8.88168839483818	38.4779948673078
339937.5	6.2978820578907	5.35709362389242	8.26811771265083	-40.3850963475567
289906.2	3.05413776466173	3.36582657329236	4.54494730519662	-47.7795234937545
247234.4	7.3245816282834	2.20317522564244	7.64875657242871	-16.7408642046268
210843.7	5.06124221993029	2.43892504303291	5.61823176580835	-25.7286124945701
179812.5	0.0322934823942255	-4.34258579772257	4.34270587072011	89.5739298595724
153343.8	3.43352803778502	1.2137952280365	3.64175969029534	-19.4691402560131
130781.2	2.36036889040106	-2.14878169789101	3.19195928607564	42.3134259141151
111531.3	6.69799128450685	-4.36103905976575	7.99260589095523	33.0680127741236
95109.37	8.95082997598972	0.880202573665022	8.99400432675917	-5.61626867182757
81109.37	11.0814756979633	0.616930353308222	11.0986353532938	-3.18649389142197
69171.88	3.39770253275043	20.0487078543794	20.3345781645775	-80.3813376987139
59000	24.3072598385543	11.1915446125863	26.7599243585348	-24.7222808823582
50312.5	5.86900008590291	-132.028357853034	132.158739549744	87.454730862722
42906.25	165.372022937511	49.3573027650551	172.580558889713	-16.6183772871838
36593.75	-27.1912017617982	-470.208196443026	470.993746726487	93.3096146838253
31203.13	-273.056156427331	-628.262244315768	685.035117490741	113.490792510159
26609.38	-110.418067580769	-776.650607662507	784.460525476466	98.0916350335462
22703.13	-658.122433273258	-1285.69260547583	1444.34435400729	117.107072929907
19359.37	-237.102353448916	-1186.53525112645	1209.99315211976	101.300427869397
16500	-60.935196854451	-1641.40898917296	1642.53967013083	92.1260557664236
14112.02	33.8504238908023	-2416.80976911679	2417.04681611588	89.1975538839509
12011.13	-128.645366280245	-2349.24460941515	2352.76430292784	93.1344041900743
10236.38	26.8442772169205	0.694034581429767	26.8532475372923	-1.48100078941919
8750.684	1.43861301370781	1.40475777672639	2.01070928144343	-44.3178270871331
7449.463	1.90633923416409	-1.29535730096752	2.30479496113714	34.1961036473787
6363.206	-0.0398193668263247	2.97994094595679	2.98020697659815	-90.7655674818855
5414.761	1.18563959610897	-1.91233644971056	2.25006043224466	58.2012820125071
4620.567	3.57792651314668	-3.42694285596723	4.95434107339642	43.7652322120412
3941.215	1.42765731090187	0.696497908049553	1.58849448638922	-26.0059297969914
3361.769	3.52501633225623	1.06602275607039	3.68268172112838	-16.8261776203218
2867.244	2.89705459854622	1.50955321970939	3.26675316944712	-27.5224344891436
2442.658	3.28535208551302	-2.76701957443164	4.29533882843631	40.1050632251865
2083.003	1.72114067822412	4.3903359142133	4.71565209423564	-68.5933613174719
1777.843	4.53451035456796	2.88911466664083	5.37668742932701	-32.5028128275388
1513.548	5.81206204171759	1.18077569979065	5.93079222616933	-11.4838904906323
1292.065	7.23083114575469	-1.04832565222921	7.30642906839845	8.24926298779915
1101.762	5.76154481812993	6.07260044181098	8.37089450520091	-46.5056492391063
939.101	7.37378546606177	6.80577810739115	10.0345068511885	-42.7060624319624
801.2801	103.461884386037	-33.4096190549673	108.722417955579	17.8961591139948
684.3433	7.83420817577522	11.1261760316498	13.607593866244	-54.8497023645319
582.9476	31.0664280481079	-101.923354901249	106.55277202398	73.0486811324092
497.0677	21603.8881318589	-19903.3146025999	29374.6474801646	42.6538717064039
423.5089	20242.2909733112	-34014.9745438413	39582.4309140604	59.243148467173
361.5036	3446.54699843669	-62234.6889096664	62330.0504563841	86.8302068660294
308.1262	32777.0168416264	-14515.5567926206	35847.3739907968	23.8865302649127
262.7298	-108437.59001266	-1034901.12397353	1040566.69528167	95.9816606571975
224.2111	135815.146268543	-602354.558383694	617476.127442641	77.293782732313
191.2854	316261.661532356	-227372.296026908	389512.001812209	35.7137657142771
163.1722	521679.738101353	-244408.753763248	576094.947089107	25.1032519794966
139.1537	705234.291889738	-520837.440590003	876713.776541446	36.4470199117517
118.6706	-180579.450056906	-715460.1432201	737897.116351176	104.16538873239
101.1982	662294.576580613	-196170.774594836	690736.620553182	16.4992192545304
86.24196	210079.390222522	-426656.488773092	475572.402067709	63.7850422049545
73.61024	-182084.6402901	-246455.769751588	306423.33898289	126.457457667544
62.69291	-107614.377662134	-171288.218596904	202288.180845321	122.139705019218
53.57697	88812.119257191	-110393.142283392	141683.585464777	51.1830589545922
45.65746	51952.8510481818	-372335.32282617	375942.404306967	82.0566662916765
38.96512	583313.955664711	-227158.120015191	625984.011267099	21.277274736309
33.18414	175368.993075237	670562.025783678	693114.502918048	-75.3439500597032
28.30617	877699.735628237	413864.199386366	970381.575183491	-25.2454142676245
24.17237	1042981.31678181	-129444.102959637	1050983.25531235	7.07478545145023
20.61345	1764698.85811539	1356480.26286462	2225803.39728715	-37.5485885686702
17.55618	1851606.43843778	1330805.81878035	2280239.13881064	-35.7059505699515
14.98558	13209171.0224512	-10464433.94645	16851901.2850177	38.3866080989844
12.76553	6143523.12434214	2365001.45416802	6583016.65329379	-21.054634796277
10.8809	12340357.7842098	-4304451.37389785	13069534.4933382	19.2293287708611
9.278505	5309013.51380947	3786621.53577137	6521052.61019869	-35.4981330480796
7.923394	4981588.5908616	4253255.98653825	6550298.5714871	-40.4905377705946
6.75822	2504528.59339803	-370467.055078065	2531779.87077205	8.41411440461419
5.761429	640800.879302146	-1159361.07874228	1324667.45933342	61.06973791805
4.919708	639323.049014121	-3109327.29150129	3174373.98027949	78.3810847401327
4.191257	7830663.55808686	-2787897.10956211	8312139.43900452	19.5969041147493
3.564097	12232737.7020952	-4742198.07577181	13119768.0725734	21.1895434387186
3.051758	6772915.27638876	1870541.43599094	7026471.84616144	-15.4390697166219
2.604164	27294876.9904718	-13307945.1676086	30366292.4063683	25.9921043253949
2.214424	9575235.54745932	7545381.56053363	12190894.9090446	-38.2384641314754
1.892567	3232744.26710768	-5254547.31930181	6169351.91306992	58.3990097476067
1.607507	659169.482619459	-5178353.61814673	5220138.94464411	82.7456480403213
1.376413	49322.0852625922	2757390.26664935	2757831.34921395	-88.9752462594402
1.17375	6581346.28018117	2488489.73780757	7036099.77436564	-20.7122352179069
1.001604	5575071.41073499	-3004715.23103785	6333224.68055772	28.3226903711808
