EC-Lab ASCII FILE
freq/Hz	Re(Z)/Ohm	-Im(Z)/Ohm	|Z|/Ohm	Phase(Z)/deg
6999984	22.441482827878	86.4880033802616	89.3520838045655	-75.4539579563684
5969734	26.7800164463435	86.3106490172647	90.3697815348022	-72.7622022348438
5091109	26.1553002549663	90.3998698170052	94.1075777733065	-73.8633125255262
4341796	28.3727658123755	98.0221804248608	102.045880343539	-73.8567808066617
3702781	34.9243941405631	106.241264978503	111.834340389336	-71.8028989984562
3157797	38.8878745087711	116.394777769199	122.719236779533	-71.5253582424949
2693047	45.8896802627006	129.997683776192	137.859568190923	-70.5567730898262
2296687	55.9495674009082	146.470619349487	156.792845579673	-69.0938972472982
1958656	68.8346133199168	162.961658711095	176.90309833571	-67.1009208527151
1670375	85.62102726121	181.170182499493	200.383620428828	-64.70458217036
1424531	105.592406654115	199.706238692688	225.903382258409	-62.1328611069153
1214875	128.740018037149	217.578430925715	252.812906807191	-59.3874192399869
1036062	157.786849557509	234.024080708474	282.248047370979	-56.0108357138322
883578.1	189.915754476316	247.971030321696	312.342161222452	-52.5522619271942
753531.2	224.982704618336	258.656166037255	342.812236663853	-48.9828036184646
642624.9	261.894855797022	264.694884426725	372.36044007738	-45.3046552159987
548046.8	299.149894527962	266.447523862382	400.605719340707	-41.6908900809716
467390.6	335.799078342663	263.26701018174	426.6972459084	-38.0965023785759
398593.7	369.897981308327	256.357363752567	450.048457975517	-34.7238493428957
339937.5	400.598749308728	247.09630774406	470.676049155324	-31.6670106438917
289906.2	427.92915461014	236.848009605036	489.101565136748	-28.9634233438977
247234.4	453.121139065685	224.341274059153	505.616231854425	-26.3401131605794
210843.7	472.806622834598	212.806858998822	518.490946722507	-24.2321670548254
179812.5	516.13462842995	178.774179416512	546.218968812481	-19.1046130475949
153343.8	526.531386990952	171.543051388382	553.770999571351	-18.0455234816074
130781.2	535.981029664176	167.409258030191	561.517162546337	-17.3457643968362
111531.3	544.916928186461	165.563811742644	569.51368234918	-16.90051889424
95109.37	553.328122075915	166.589437675681	577.861619615941	-16.7553714959995
81109.37	561.43379760903	169.872336729875	586.57013211019	-16.8341761111418
69171.88	570.572353452625	175.05809546262	596.823380332463	-17.0566097863675
59000	579.941032133092	183.222078066174	608.195635172173	-17.533007004285
50312.5	587.132915843673	201.650632553441	620.79629386482	-18.9550194968642
42906.25	592.980217442882	212.783823796668	630.00197932081	-19.739914380414
36593.75	605.361035585261	231.045247352067	647.95361695791	-20.8901156949832
31203.13	621.827193564946	243.709087616868	667.879613436361	-21.401411772202
26609.38	628.316876394328	273.180174390841	685.134661830895	-23.4984831390044
22703.13	644.523154445336	300.226380247214	711.017563786234	-24.9766512250845
19359.37	658.499470598607	334.905275526549	738.771342401801	-26.9573663228518
16500	676.1092165442	373.797770256863	772.55967131673	-28.9367120514887
14112.02	693.37072247722	417.135187990913	809.175335665143	-31.031319699772
12011.13	714.225526176679	468.10403042788	853.955201134802	-33.2408684113366
10236.38	737.230188151985	524.907743287314	905.006347649337	-35.4508583004034
8750.684	762.480041620351	590.746102445548	964.550035728565	-37.7674240689425
7449.463	792.067154400059	664.390997218149	1033.82095851455	-39.9901393506391
6363.206	823.348052322413	746.832553078025	1111.6028416661	-42.2101617306987
5414.761	863.109047902867	843.602763816035	1206.90631437981	-44.3451858218506
4620.567	906.198447167497	953.577820760973	1315.48709073713	-46.4593427901038
3941.215	952.586267146528	1074.11205775245	1435.66615512289	-48.4314864392559
3361.769	1006.37366024676	1214.32379852512	1577.13988970635	-50.3496803824185
2867.244	1070.38031195283	1372.01554793448	1740.15535972803	-52.0403642442905
2442.658	1142.18736407239	1551.18178134661	1926.33249814986	-53.6345333655728
2083.003	1223.49352003347	1752.02418751366	2136.94294430076	-55.0721933355371
1777.843	1317.66238224351	1976.29007418684	2375.28032259543	-56.3072095925195
1513.548	1428.52729140635	2231.05591363509	2649.20756303822	-57.368888927741
1292.065	1546.29310954665	2511.14883102744	2949.04914035048	-58.3764352104786
1101.762	1711.46435787838	2836.39621211596	3312.74111883103	-58.8934723248046
939.101	1869.07519146486	3206.15526443616	3711.18224438266	-59.7593261448063
801.2801	2067.22060227528	3600.39634772975	4151.6568836089	-60.1370772191361
684.3433	2286.56450034976	4039.91288724556	4642.11948906881	-60.4904202913933
582.9476	2536.96242651241	4545.61063664289	5205.64639727832	-60.8335647148971
497.0677	2822.71446400918	5102.56141286893	5831.28201319621	-61.0488249585278
423.5089	3146.7438302356	5715.52924504238	6524.51310704948	-61.1645624331442
361.5036	3527.77448552435	6400.99994962745	7308.76139820197	-61.1395814732765
308.1262	3958.06584037082	7160.10083180936	8181.27918594565	-61.0664147628383
262.7298	4439.01754995002	7995.97862718327	9145.52081705225	-60.9628812892581
224.2111	5002.52736053618	8908.61885210341	10217.0822569345	-60.684137321927
191.2854	5608.86443141717	9916.73005980057	11393.0195860873	-60.5076663210267
163.1722	6367.98661104405	11047.3355535828	12751.2695960791	-60.0396743939638
139.1537	7104.20226699967	12256.5721566586	14166.6245408645	-59.9023937062505
118.6706	7935.60452969626	13586.4727768204	15734.2321632489	-59.7115987604719
101.1982	8988.66375651317	15069.9908297907	17547.0994679357	-59.1855662087623
86.24196	10133.8849763551	16663.7736972166	19503.2555883894	-58.6945986741147
73.61024	11397.2009764307	18408.1964053747	21650.8171900278	-58.2368053958052
62.69291	12843.1488648807	20318.7325368317	24037.4159316011	-57.703668167436
53.57697	14352.898615502	22377.5234595678	26584.9441385606	-57.3239690366028
45.65746	16074.6714527985	24679.0743876093	29452.5342703233	-56.921861526402
38.96512	17982.5099604927	27103.8469521564	32526.7456731401	-56.4370360993182
33.18414	20114.3089046329	29795.5860073796	35949.4418348067	-55.9776270800264
28.30617	22381.9395850536	32723.1223737099	39645.3522808637	-55.6286785940579
24.17237	24972.1965421733	35829.9926105814	43673.7789825342	-55.1249111822671
20.61345	27807.1035041406	39194.0764259716	48056.3277017178	-54.6453626964764
17.55618	30930.8045715577	42934.5757390031	52915.8999293416	-54.2303750950411
14.98558	34250.2162273207	46937.6988477374	58105.2913660977	-53.8819480006661
12.76553	37931.0258788447	51251.7762485599	63761.3307017194	-53.4951556523292
10.8809	42025.5572270611	56091.3948753916	70088.4586741076	-53.1582163617466
9.278505	46556.8345257825	61331.7736965571	77000.8136699008	-52.7979347705904
7.923394	51137.9209352535	66721.5039401541	84064.5350050557	-52.5320594353379
6.75822	56448.4048538701	72832.2652474947	92146.4121473421	-52.2226450372334
5.761429	62118.28224884	79355.9519235425	100777.220120611	-51.9468575321252
4.919708	68232.4912030861	86632.7858646026	110276.527159869	-51.7758239007007
4.191257	74888.4607960825	94763.4569824339	120782.425624211	-51.6818359039874
3.564097	82288.7836718979	103414.75632155	132159.206048031	-51.4901700623602
3.051758	89708.188200143	112989.972581138	144271.594342194	-51.5522443098847
2.604164	98331.6668238549	123049.736529896	157513.029176746	-51.3709031677258
2.214424	107503.206542903	134975.516075883	172555.293621949	-51.4639228657653
1.892567	117256.349232874	147236.621275551	188222.405892767	-51.4668735984102
1.607507	128417.928998762	161725.548882605	206509.848795913	-51.5487206194446
1.376413	139798.845586554	177295.446159579	225781.736321291	-51.7439445289796
1.17375	152337.179055935	194037.85425512	246692.733996466	-51.8648959195317
1.001604	166299.396965825	212956.168638058	270195.890405828	-52.0134008504517
