EC-Lab ASCII FILE
freq/Hz	Re(Z)/Ohm	-Im(Z)/Ohm	|Z|/Ohm	Phase(Z)/deg
6999984	28.8187668955047	-14.1686099250504	32.1134058079437	26.1808194343771
5969734	19.2097394471134	-26.8821900465	33.0403727479295	54.45078622925
5091109	-0.0574300377512318	-20.4911108708772	20.4911913497438	90.1605813460068
4341796	-14.2780371869022	-22.4395681765061	26.5969277522541	122.468124427387
3702781	96.0096771126999	-61.3897612881672	113.95859287611	32.5953455114524
3157797	3.74012942067772	-6.06928554186005	7.12915107653433	58.3570119412236
2693047	-4.79410842705297	-10.6615291918992	11.6898109616905	114.211745303772
2296687	2.00589112133379	-10.8173410009418	11.0017482938532	79.494800102308
1958656	-1.09049010211163	-9.63455356341922	9.69607090677442	96.4575594018331
1670375	1.33396655687287	-9.96922464160984	10.0580766913827	82.3786112767605
1424531	-5.03564680231097	-5.92376683946836	7.7748795672994	130.36703518262
1214875	17.6785136934386	8.62055989095086	19.6683476490164	-25.9952154862224
1036062	5.99084340061272	-7.27598269625169	9.42497367883959	50.5329008261454
883578.1	2.2784784328776	13.4645636997839	13.6559854860287	-80.3953751646947
753531.2	9.17729974510888	7.1717091296545	11.6471559812662	-38.0062672554207
642624.9	12.1231764229917	-20.2748166663333	23.622861753742	59.122999217534
548046.8	5.12690555491515	-18.7384580016026	19.4271708914819	74.6981693288113
467390.6	10.0323758883012	-12.7170944099757	16.1979337014449	51.730480020794
398593.7	14.7744198963067	-27.7227979712736	31.4139620332812	61.945332020569
339937.5	19.5614774110348	-32.514488620139	37.9452680677258	58.9678995423921
289906.2	31.8197808860497	16.576818383831	35.8788149660316	-27.5176903986
247234.4	-8.33849466157579	-76.8507267311555	77.3017767734213	96.1925091258056
210843.7	-77.7154738612858	-15.8081375636681	79.3069485651544	168.502303885614
179812.5	-73.7838015059943	-14.1700168639701	75.1321418741751	169.12883323459
153343.8	-82.9268385642324	-15.2991771779653	84.3263029936747	169.547035129256
130781.2	-83.3724893349041	-17.5427371130586	85.1981197170253	168.117505430404
111531.3	-84.433532492851	-19.0405916229868	86.5538302940701	167.291815951841
95109.37	-83.2931201658821	-17.4859424480891	85.1087660013113	168.14391878476
81109.37	-85.3234664826444	-18.6409916591949	87.3360206481445	167.675984153476
69171.88	-84.5250400455694	-17.6370130814214	86.3455072666745	168.213762339986
59000	-86.5462338220708	-20.6358308111528	88.9724007883966	166.588968624554
50312.5	-85.4640136844176	-24.2987150411853	88.8511406100284	164.128745148042
42906.25	-84.6182523620085	-25.6115100326847	88.4092646669729	163.160446474271
36593.75	-86.9183462941868	-29.438556012631	91.7683360567521	161.289166315374
31203.13	-79.907906475901	-30.3166063485591	85.4656079242102	159.223538872368
26609.38	-81.2317447571114	-34.0299912451363	88.0717699403648	157.26998197409
22703.13	-82.329276381896	-38.7383691659057	90.9877518966185	154.801622496887
19359.37	-83.66275770732	-44.0966963833194	94.5725946514972	152.207326896314
16500	-85.1975498501053	-50.2838465836576	98.9297110463282	149.45076964816
14112.02	-86.9132135535168	-57.2748777545948	104.088031550236	146.615545294735
12011.13	-88.9489240097643	-65.15453214157	110.258895972532	143.777456152334
10236.38	-91.2595449331097	-74.7986462757772	117.996364461313	140.661081408838
8750.684	-93.9602707240019	-85.230114630627	126.857025483327	137.789245052303
7449.463	-97.1453590918535	-97.3784941337449	137.549234504744	134.931331570191
6363.206	-100.603342869096	-111.71574193094	150.337751717981	132.003975603308
5414.761	-104.449847248961	-127.77555491124	165.034429811499	129.264206018552
4620.567	-109.413438412564	-146.354947985745	182.732239369986	126.781408004911
3941.215	-114.851604917654	-168.09890667112	203.588146944234	124.342383966819
3361.769	-121.352632225551	-192.739050913473	227.760407215776	122.195396516905
2867.244	-129.533520545065	-219.060257058258	254.492296872083	120.596443198033
2442.658	-138.765135673692	-251.454905188615	287.202597867697	118.892065644858
2083.003	-149.890230084214	-286.700438353424	323.518503994353	117.601077140869
1777.843	-161.840374319649	-328.735086923418	366.413788133677	116.211597191897
1513.548	-176.963224766888	-374.917315590524	414.582894545229	115.26759192864
1292.065	-193.900193614382	-428.008705559635	469.881620324235	114.371887007511
1101.762	-214.226357615364	-487.311886785669	532.321150528283	113.730689938981
939.101	-235.26365194831	-555.583738485995	603.342586262673	112.950378717792
801.2801	-267.542766648774	-633.665982429616	687.831163349387	112.890160853524
684.3433	-300.484795790712	-713.503301970241	774.195113924018	112.837907102608
582.9476	-339.040250792098	-812.905279876893	880.774253545651	112.639663705492
497.0677	-373.583447939594	-924.773321577662	997.381716734479	111.997378017151
423.5089	-431.201537608856	-1032.44137745901	1118.86994951411	112.667967820572
361.5036	-494.840712690187	-1179.09803169863	1278.72573263046	112.766688448673
308.1262	-564.587343452757	-1317.57465952666	1433.44405255797	113.19537547099
262.7298	-648.278187897359	-1496.29791025415	1630.69679742569	113.424902363719
224.2111	-713.437783178186	-1672.02627232454	1817.87384760596	113.107483745217
191.2854	-837.22275797081	-1889.42305272764	2066.60625631563	113.898623868733
163.1722	-974.200766791028	-2202.01669536779	2407.89216135082	113.865220429277
139.1537	-1063.37234766538	-2363.48071637492	2591.67934869564	114.22383471325
118.6706	-1202.5900552672	-2630.78648690874	2892.62171407345	114.56617699584
101.1982	-1375.44420855055	-2941.67865482724	3247.35585963433	115.059436361668
86.24196	-1538.94809864794	-3306.20131663355	3646.82442632512	114.960715733567
73.61024	-1729.93902783596	-3728.90743415677	4110.64954630526	114.887835502027
62.69291	-1683.1026935641	-3822.39400364186	4176.54529439823	113.765181998247
53.57697	-2089.52797969039	-4640.65778293159	5089.38422956968	114.240393193529
45.65746	-2498.07675819399	-5334.00262985305	5889.98909549995	115.095131632305
38.96512	-2671.88929976028	-5730.83725427225	6323.09165401927	114.996353708425
33.18414	-2984.21686965369	-6637.66275534393	7277.64502973357	114.208135669663
28.30617	-3135.45628459411	-7019.24083388352	7687.70628969777	114.070052841037
24.17237	-3784.47830702287	-7997.25724303646	8847.50809367394	115.324543933475
20.61345	-4088.15348152484	-9514.81522890131	10355.9020721826	113.251353447574
17.55618	-4881.68225561642	-11218.4389639351	12234.5492124695	113.516174540484
14.98558	-5576.36915479706	-11896.6221581026	13138.7028173724	115.114153831103
12.76553	-5500.12300671672	-13214.8632092489	14313.7682923881	112.597436715991
10.8809	-6117.39401251134	-15130.7021458824	16320.5593326858	112.013650018533
9.278505	-6549.17751010282	-17016.999901452	18233.7602184754	111.049763119784
7.923394	-7423.49953373928	-19305.5446214212	20683.6263372048	111.033090047946
6.75822	-8738.09411769265	-21795.7726378232	23482.1207238473	111.846231750795
5.761429	-9991.33096773294	-22390.7632317545	24518.8289403729	114.047650191247
4.919708	-11700.7262423706	-26514.8554010435	28981.796899729	113.811362396535
4.191257	-12335.7834426523	-30148.2910236624	32574.3918560494	112.252917193779
3.564097	-15113.2244230252	-36027.6875425826	39069.2183454786	112.757521123951
3.051758	-14638.50210508	-37268.4246808501	40040.2450301273	111.444187265952
2.604164	-17488.3329612932	-45673.2283903782	48906.9072970752	110.951901928376
2.214424	-26247.1385995409	-61248.0789885043	66635.1218536109	113.196979752816
1.892567	-27226.5590917619	-64512.9067492117	70022.8581051194	112.881337303479
1.607507	-28910.8163209118	-77956.4992331552	83144.7597448596	110.34771793341
1.376413	-45534.8598049132	-70395.3837736485	83838.7351651511	122.896582266586
1.17375	-36742.9085137334	-88837.4700577068	96136.0359714428	112.469839015016
1.001604	-38993.2327233595	-102104.340708252	109296.699811499	110.901653529743
