EC-Lab ASCII FILE
freq/Hz	Re(Z)/Ohm	-Im(Z)/Ohm	|Z|/Ohm	Phase(Z)/deg
6999984	30.8109820269675	79.3628207313941	85.1338588806446	-68.782322798306
5969734	32.0897590954102	78.0108577417235	84.3531064300591	-67.6401887294923
5091109	32.7913875437778	80.9231134212698	87.3145198855146	-67.9413926423925
4341796	38.5326572314499	85.9309626734475	94.1748162690103	-65.847862154764
3702781	46.8435097681561	89.7087777252999	101.202664037893	-62.4276478925101
3157797	52.769469033691	95.0341029703255	108.70187482041	-60.95795385222
2693047	62.8687117749108	101.705070441956	119.567538545544	-58.2778291739366
2296687	75.2901468391184	108.531523674606	132.089734052982	-55.2503029957314
1958656	89.097102534472	113.50407792135	144.296463521509	-51.869210291729
1670375	104.653320740391	117.424601829798	157.292258731565	-48.2913466921448
1424531	120.893581249409	119.289169421175	169.838640858025	-44.6172720196023
1214875	137.520374005652	118.848771116062	181.760511834811	-40.8344499575439
1036062	153.556722678123	116.980498037026	193.039125569499	-37.3003832518195
883578.1	168.960155438335	113.279394317928	203.420144781147	-33.8398900565679
753531.2	183.001754402073	108.063221773165	212.526003148398	-30.5620099697804
642624.9	195.511416442515	102.06840122113	220.550838781439	-27.5671939520993
548046.8	206.352641671376	95.5252400855256	227.3905983504	-24.8404706163378
467390.6	215.657070492496	89.0052103773837	233.302163572753	-22.4267426649004
398593.7	223.375188885877	83.3424338878928	238.416518505239	-20.4608041486696
339937.5	228.474329609584	75.412576517404	240.598370708412	-18.2665190327673
289906.2	235.004181611501	68.0599586335963	244.661242014542	-16.1516344081143
247234.4	239.753044600415	72.4910702944046	250.472508806051	-16.8230721890722
210843.7	242.290321710743	63.4342617570592	250.456594162259	-14.6713635669261
179812.5	245.601335617428	64.4200716375963	253.909357225876	-14.6973300142014
153343.8	251.446423121151	60.5110634404708	258.625003623233	-13.5310457743229
130781.2	254.166297570649	64.0438444574587	262.110894152957	-14.1427584347164
111531.3	256.986625509867	62.2379379718909	264.415745775363	-13.6139699560122
95109.37	260.111899116157	64.0491206447191	267.881484834573	-13.8331320422277
81109.37	263.964067471153	68.0786623842095	272.601785005049	-14.4619303040719
69171.88	266.482309239415	72.2135440663588	276.093493375333	-15.1623311015737
59000	270.106890265543	77.2131147976871	280.926319994555	-15.9531847461928
50312.5	273.801259722387	83.6934664824993	286.307048738628	-16.9969419615826
42906.25	277.785398201907	90.9212638375552	292.286509562125	-18.1236634657074
36593.75	282.008871596692	99.8766063267747	299.172759706818	-19.5021712729024
31203.13	285.949652903496	109.065983288401	306.043449049797	-20.8776882404068
26609.38	292.066661647511	122.353327190559	316.659551443695	-22.729911823038
22703.13	297.867399471668	136.46789064142	327.640767982454	-24.614874214083
19359.37	304.4202337161	152.689115791386	340.566652473374	-26.6371287519972
16500	311.259756058031	170.67526556313	354.982650303292	-28.7375920289468
14112.02	319.29877461536	191.209258820895	372.172927722728	-30.9149118645353
12011.13	328.038351022576	215.430612864361	392.453193006153	-33.2938612778082
10236.38	337.914991088886	242.56493128322	415.961881776486	-35.6718538515633
8750.684	348.864369362533	271.899032813591	442.306943485725	-37.9322525674457
7449.463	361.310533496127	307.723833627289	474.593783563935	-40.4206369195886
6363.206	374.550507267684	347.57812294166	510.978115032461	-42.8609271944083
5414.761	389.547816991761	394.072362143199	554.112378789869	-45.3308164689244
4620.567	405.895842271958	445.678659172315	602.810834354605	-47.674729513025
3941.215	424.425638551668	506.139488208582	660.540917872645	-50.0183274303384
3361.769	445.96947872715	574.255693907003	727.088975257347	-52.1669306212349
2867.244	469.820128351351	652.155206821495	803.764497093811	-54.2305870894253
2442.658	496.530496808766	741.658761095644	892.524650735813	-56.1982272903077
2083.003	526.97054967429	843.257924254968	994.375123905874	-57.9978246994561
1777.843	560.779579323531	959.118476566619	1111.02744731071	-59.6859302512501
1513.548	601.306984630842	1093.33432116385	1247.77803619099	-61.1902882381455
1292.065	645.415564546148	1243.38212404354	1400.91411490835	-62.5670485240654
1101.762	695.913402990583	1417.37972797882	1579.00625639902	-63.8496145484658
939.101	750.802026870918	1614.3930096305	1780.44052781813	-65.0583836088533
801.2801	822.063892197697	1838.99999433005	2014.37583931131	-65.9145544421172
684.3433	895.318714123313	2091.89854472704	2275.44174201198	-66.8293961536026
582.9476	987.262681255374	2386.62662352906	2582.76484449074	-67.5268576776154
497.0677	1095.81504497267	2725.00249945391	2937.08175487482	-68.0932837538817
423.5089	1215.46355842318	3107.89162743155	3337.11582503722	-68.6400573777751
361.5036	1353.56704275988	3538.47669341543	3788.5301964073	-69.066739047809
308.1262	1513.89877272683	4029.72396623432	4304.7142458132	-69.4096542881948
262.7298	1700.76037395116	4586.45208573435	4891.63863999984	-69.6540780835976
224.2111	1916.41852322601	5212.63259739498	5553.755355756	-69.8141051957776
191.2854	2166.44290087478	5928.40081508231	6311.84688241242	-69.9259465573872
163.1722	2456.39090968864	6735.64128679196	7169.56901393225	-69.9638190676453
139.1537	2798.02319462342	7646.92570984492	8142.75178361332	-69.9023406962278
118.6706	3173.11760602658	8658.52345895901	9221.64322835249	-69.8734636233532
101.1982	3644.88454789409	9836.99963745132	10490.555048933	-69.6689176904915
86.24196	4171.34912278154	11155.221461251	11909.6229727764	-69.4973741266293
73.61024	4760.72713706933	12620.4525251082	13488.526413665	-69.3323622816316
62.69291	5471.61499958074	14262.1781029548	15275.7420423376	-69.0109329585632
53.57697	6260.2414638557	16082.3823298842	17257.8574739262	-68.7309857798623
45.65746	7200.60343637777	18195.1953783128	19568.1839909316	-68.4092126821169
38.96512	8253.63332739654	20461.3893619934	22063.3387710521	-68.0320345655822
33.18414	9457.91478731937	23055.6629135535	24920.1874894151	-67.6955364525019
28.30617	10831.9683023456	25899.1940661978	28073.1150851058	-67.3035760248529
24.17237	12377.7869934097	29123.0979933464	31644.3430581878	-66.9737242221961
20.61345	14136.6076963942	32740.2120061334	35661.8165461087	-66.6462215464993
17.55618	16161.6762722212	36736.9169975213	40134.7835475768	-66.2538600483937
14.98558	18453.0546871895	41132.4222849756	45082.051753641	-65.8377780975697
12.76553	21076.402478294	46151.9429987458	50736.7380108981	-65.4550422904223
10.8809	23990.6763211005	51651.6542834375	56951.259341296	-65.0865158365942
9.278505	27219.8645969168	57539.381260192	63652.9765563263	-64.682809774145
7.923394	30991.183170746	64388.7084789962	71458.7938179472	-64.2978394315966
6.75822	35103.8719424968	71877.8548096668	79991.9235760383	-63.9699356854432
5.761429	39959.0091066174	80116.8661664541	89528.959857223	-63.4918597011861
4.919708	45266.5030885373	89234.4939475276	100059.238513672	-63.1024202878356
4.191257	51174.4003344586	99562.6698373999	111944.381166464	-62.7972056703695
3.564097	57919.6049547849	111103.304191979	125294.15325742	-62.4663798394609
3.051758	64954.3817968393	123129.549839056	139211.916724748	-62.1870629143346
2.604164	73368.4959524733	137092.442097914	155490.430183654	-61.8454081810981
2.214424	82587.6035152823	152581.774608487	173499.02073808	-61.5747429186783
1.892567	92593.3555519036	169586.384285587	193217.67835118	-61.3656706192351
1.607507	104554.260391195	189106.77459743	216085.551494293	-61.0624613540519
1.376413	116968.254908882	209389.758420812	239845.040782492	-60.8116204313436
1.17375	131421.717316492	232613.072790548	267171.310988805	-60.5344234500593
1.001604	147510.778902641	258051.474208726	297237.267572154	-60.246282974888
