EC-Lab ASCII FILE
freq/Hz	Re(Z)/Ohm	-Im(Z)/Ohm	|Z|/Ohm	Phase(Z)/deg
6999984	2.48634232691396	1.6090572647949	2.9615812411604	-32.9092633578267
5969734	4.31132216176891	2.57842225700418	5.02352068951391	-30.8818865772239
5091109	4.21950716483483	5.86636568942617	7.22623602687935	-54.2736276789955
4341796	17.6570523502521	-9.79569480867909	20.1922543190285	29.0204269149352
3702781	-2.95797157867273	-9.47003918872946	9.92125184118957	107.346221227838
3157797	-5.15984639971215	-5.86125351018278	7.80886083748791	131.358481351314
2693047	-3.91731370300494	-4.3933308501926	5.88614496992763	131.721793889206
2296687	-2.95473174391108	-4.49751177047105	5.38126860544997	123.303726075806
1958656	-2.02810881829376	-3.58468237974156	4.11863729192927	119.499916569712
1670375	-1.70782886573983	-3.12222798966455	3.55879011099263	118.678237795715
1424531	-1.02076432295957	-2.81528924988383	2.99463075579253	109.929573334524
1214875	-0.114181692704941	-3.00351903323779	3.00568861360764	92.1771063059698
1036062	0.124015599636837	-2.28391372603335	2.28727824650103	86.891914420565
883578.1	0.893496360677969	-1.43061890136257	1.68671461352554	58.0130653768066
753531.2	1.15964251002081	-0.503789902597491	1.26434766461071	23.4818387150559
642624.9	0.706411083881346	0.425562314989255	0.824693824015575	-31.0659664576436
548046.8	0.327747131656367	0.87674964925294	0.936006479557769	-69.5032182961397
467390.6	-0.000144160767084434	1.06255886038852	1.0625588701679	-90.0077735020454
398593.7	-0.0634448368287771	1.3107239344723	1.31225854149202	-92.7712062437409
339937.5	0.0318178476024152	1.58313248122361	1.58345218700512	-88.8486225867163
289906.2	0.368602474338457	1.64347472103698	1.68430310300017	-77.3587561462808
247234.4	1.27605805866452	1.23728079047342	1.77741045444129	-44.1160771883116
210843.7	4.05800934701883	4.60543816586327	6.13820010753008	-48.6156178858771
179812.5	15.1639195149985	-1.89694850167067	15.2821094314673	7.13044257166924
153343.8	7.25599319363686	-2.75739441461423	7.76225876815829	20.8075983133284
130781.2	-12.3571230611832	32.2247731075002	34.5128163466717	-110.980148747676
111531.3	-4.46147484414131	55.3667462544241	55.5462091288568	-94.6069630193401
95109.37	2.28092029255729	50.9586902117237	51.0097118740679	-87.4371410584115
81109.37	2.97213767111726	40.1984550180141	40.30818016447	-85.7714381564072
69171.88	4.48504958895953	29.0883673429939	29.4321046562488	-81.2347583345613
59000	5.98727047252828	17.6568335660499	18.6443337046512	-71.2686731502762
50312.5	7.14493436674412	6.08426477874117	9.38447467911292	-40.4160360684937
42906.25	2.93995604940759	-7.75937764129026	8.29766731995224	69.248767739322
36593.75	0.338830135894426	-11.2746564057587	11.2797465808815	88.2786441721201
31203.13	1.53970897606768	-10.925157609655	11.033121612979	81.977999186405
26609.38	2.84978756114978	-11.1595865493714	11.5177107576374	75.6747185948323
22703.13	3.57178388073477	-11.5126157495095	12.0539604067099	72.7635200377726
19359.37	3.66154295123923	-11.662331926326	12.2236198707082	72.5696311199003
16500	2.31234290940951	-11.8456798899891	12.069261029027	78.9544436057201
14112.02	-1.37609190460213	-10.3863165591382	10.4770797742759	97.5472105366129
12011.13	-3.26465274229595	-7.60798389797298	8.27885115940592	113.224596318542
10236.38	-3.54144184024746	-5.30749187092961	6.38053918315993	123.713333603545
8750.684	-2.54795922204803	-4.25261932416877	4.95750615869645	120.927956578296
7449.463	-2.20584841891835	-3.3523817426257	4.01300767449238	123.344692558158
6363.206	-1.92568353110664	-2.51303626547181	3.1660082649216	127.462139161306
5414.761	-1.76968226476225	-2.61789949468731	3.15993244904034	124.058426083552
4620.567	-1.0844116689091	-1.21335128038217	1.62731988166779	131.788199697662
3941.215	-0.140313985589007	0.245218877174347	0.282524887885156	-119.778144875027
3361.769	1.09195962487006	1.70270789114474	2.02276790188913	-57.3276359664916
2867.244	2.82141796421647	2.86142491039933	4.01847630908248	-45.4033529257879
2442.658	4.31474934222448	3.91975102628525	5.82936617431869	-42.2537007935507
2083.003	5.86154627977474	4.69398439962957	7.50940838774313	-38.6880927612043
1777.843	7.3627129649987	5.14565074430167	8.98260896328524	-34.948918623979
1513.548	8.77164394799419	5.40859869229819	10.3050801726485	-31.6579980177743
1292.065	10.0556222516863	5.44155052977464	11.4335476137855	-28.4198181766114
1101.762	11.2355743738568	5.45199259767208	12.4884888915968	-25.8846919275417
939.101	12.2646857963702	5.24599280505477	13.3395261607889	-23.1579227551566
801.2801	13.2712953258782	5.09680267322163	14.2163524547064	-21.0091419473437
684.3433	14.0880715599403	4.92028251625924	14.9225648036054	-19.2518402826318
582.9476	14.8806472780985	4.76611948460538	15.6252858647999	-17.7597321333962
497.0677	15.6802074626962	4.63647558943288	16.3513244712654	-16.4724048297183
423.5089	16.3939893929715	4.49563016207838	16.9992228872691	-15.334923178201
361.5036	17.1643409848806	4.4152875924842	17.7231308173697	-14.4257823967771
308.1262	17.8714829507721	4.38268747535491	18.4010285681635	-13.7789245052303
262.7298	18.5998852866129	4.40348106438327	19.1140361556512	-13.3194123535354
224.2111	19.3591689744872	4.44796400522417	19.8635799183963	-12.9397074931243
191.2854	20.0438252333916	4.46166467898252	20.5343950895668	-12.5491851895411
163.1722	20.8381193335232	4.60123716991947	21.340070310381	-12.4516047474523
139.1537	21.6447844190946	4.69926837117926	22.1490364524836	-12.2493048091475
118.6706	22.5016843340416	4.71131793525351	22.9896131884792	-11.8255452238688
101.1982	29.5244437978523	7.23602779100793	30.3982381029687	-13.7709489327221
86.24196	30.3492496142685	7.39358767327013	31.2368706952458	-13.6915140640052
73.61024	31.6604510296093	7.77749139193323	32.6017412380057	-13.8016021747616
62.69291	33.1900472454985	8.44597108464222	34.2478271386819	-14.2771972517659
53.57697	34.7585738773379	9.40447705436647	36.0083691195875	-15.1397794827574
45.65746	36.6265536643407	10.5462743393944	38.1146734968122	-16.0632613977933
38.96512	38.7746107737296	12.0011736034816	40.5893903442159	-17.197878260335
33.18414	41.1169939639028	13.7804079843274	43.3648110435424	-18.5286357648838
28.30617	43.5146622682758	15.6230247762332	46.2342376976295	-19.7496088263076
24.17237	46.2960831698067	17.5557041292417	49.5129282545391	-20.7669756056537
20.61345	49.1056108286824	20.1984099290966	53.0974272307222	-22.3586351717932
17.55618	52.5442413032597	22.3437262879227	57.0976304111195	-23.0369656350266
14.98558	55.8327060566056	25.1022211411233	61.2161136615285	-24.2085440049321
12.76553	59.4434678384493	27.88583943837	65.6593170071339	-25.1319915425004
10.8809	63.4368522421435	31.3499436015021	70.7605341006476	-26.2981841091317
9.278505	67.1909517415844	34.9692109699626	75.7460871055507	-27.494508526209
7.923394	71.4137032264064	38.935684607574	81.3382108505573	-28.5997956792179
6.75822	76.159857747829	43.1185133445994	87.5187415655524	-29.5167172274996
5.761429	80.7106096833461	47.1129817197587	93.4549921726162	-30.2732736185021
4.919708	26691.4343660987	-5321.02952826722	27216.6497526872	11.2743082587514
4.191257	62878.5952046165	5487.13015139468	63117.5596185749	-4.98730883588507
3.564097	89232.6003318051	-3979.2345579609	89321.2811688397	2.55335375540619
3.051758	132032.703968053	-5003.12067047963	132127.461693468	2.17007306539563
2.604164	163426.111055378	7780.48519117092	163611.215154997	-2.72571263821083
2.214424	183345.722401992	10424.9933844837	183641.864535772	-3.25432006225176
1.892567	211280.996297529	2369.91789125029	211294.287445941	-0.642654100203922
1.607507	241211.350228419	-8470.57667352841	241360.034281152	2.01121937078002
1.376413	277105.377838203	-12838.6465030635	277402.633857149	2.6526897401792
1.17375	304021.118816491	9563.82966323491	304171.510046977	-1.8018038696175
1.001604	360338.191254245	2570.56185453766	360347.360007852	-0.408726719720571
