EC-Lab ASCII FILE
freq/Hz	Re(Z)/Ohm	-Im(Z)/Ohm	|Z|/Ohm	Phase(Z)/deg
6999984	28.9193911878346	98.0369002155265	102.21333078686	-73.5647442184835
5969734	19.2545232134534	92.7594318181386	94.7367344560774	-78.2733686746481
5091109	16.1394042267601	98.3288904753144	99.6446238936207	-80.6787600901664
4341796	15.2318273465761	108.021094002247	109.089712226947	-81.973759298721
3702781	17.615560124392	119.667698872425	120.957290445502	-81.6259739170766
3157797	17.3067462887123	133.565178085971	134.681774061077	-82.6170190153144
2693047	17.7207566624059	151.725181307988	152.756524769419	-83.3383155836046
2296687	18.5053052251292	174.485671485943	175.464229617821	-83.9460519168999
1958656	20.3827594164426	200.528439209745	201.561682403489	-84.196090698695
1670375	22.6521108696544	231.838372694637	232.942373089459	-84.419544238796
1424531	25.7253642425049	268.103268367976	269.334655911564	-84.5190670078102
1214875	29.1901334215273	311.316046708608	312.681538993658	-84.6433988493536
1036062	32.4426869011855	359.017891140386	360.480754121851	-84.8364856263127
883578.1	38.1194258026255	418.184574514925	419.918359905531	-84.7916230309539
753531.2	44.0759843349086	486.338326163616	488.3315061418	-84.8215314278598
642624.9	102.366388981615	641.425954482514	649.543018342079	-80.9325230976298
548046.8	118.652685740917	735.608263299998	745.116082814465	-80.83718292052
467390.6	143.742607626913	842.199690296225	854.378285996573	-80.3143589324632
398593.7	170.222329716242	964.468499613837	979.374866065793	-79.9907523697733
339937.5	200.879875429074	1105.41194014269	1123.51603538286	-79.700377359201
289906.2	232.581913844727	1268.21711388718	1289.36767238984	-79.6078446752873
247234.4	269.060737355268	1456.84540093723	1481.48310912347	-79.5361103593369
210843.7	308.174110143308	1688.67396296054	1716.5637288908	-79.6576347076842
179812.5	363.868045812121	1932.64342310901	1966.59872766399	-79.3374658917651
153343.8	425.422067077781	2232.12003018903	2272.29922420614	-79.2093525287738
130781.2	500.724537212028	2577.98484376466	2626.16277424811	-79.0082443426829
111531.3	598.896933222428	2980.93814026049	3040.50484832418	-78.6400043677523
95109.37	719.243604024852	3444.55471815844	3518.84477752547	-78.2057596548227
81109.37	883.368517398167	3977.21706726768	4074.13739798937	-77.4774730014319
69171.88	1087.33605945399	4591.43747951878	4718.43171345297	-76.6767644827366
59000	2001.30546512265	5622.84884889496	5968.38778417164	-70.4081478377693
50312.5	2278.3860999988	6435.94529218067	6827.33000700935	-70.5055506629415
42906.25	3056.71449300926	7264.18765955177	7881.11196754348	-67.1790150001915
36593.75	3618.34889003471	8101.98081849716	8873.24866513451	-65.9344360776083
31203.13	4286.1361443335	9063.19126011447	10025.5872079982	-64.6897425634661
26609.38	5267.29578222275	10108.2902011615	11398.3303886279	-62.4765784882143
22703.13	6377.12924252207	11179.0368904384	12870.0677221844	-60.2972189228751
19359.37	7737.41380529038	12244.3664573907	14484.2011287186	-57.7105436609775
16500	9316.31286664249	13257.3318584253	16203.4111665904	-54.9031707859735
14112.02	11106.9822089664	14136.156573187	17977.6521395858	-51.8427682894837
12011.13	13161.4870868181	14808.4924703004	19812.0213905453	-48.3699565016368
10236.38	15347.6163356958	15298.9200701056	21670.4010691818	-44.9089591035254
8750.684	17390.28477831	15340.9622707888	23189.8065551329	-41.4173542999982
7449.463	19811.6912065343	15418.6067103067	25104.5123702928	-37.8921226034747
6363.206	21735.1308420965	14694.1918044933	26236.1427330752	-34.0609429035073
5414.761	23895.6018505943	14411.8808300279	27905.2342197848	-31.0949581220772
4620.567	25608.0235222955	13333.1622896859	28871.1635609225	-27.5043462115514
3941.215	27020.7697562013	12485.1991192039	29765.7890079166	-24.799739046682
3361.769	28371.261711146	11890.612592632	30762.2359218311	-22.7389301787334
2867.244	29238.7819992246	10971.0147063812	31229.3057317292	-20.5671623041797
2442.658	30171.229726406	10334.5515361804	31892.1002547266	-18.9078707999029
2083.003	31028.8087682749	9543.99269411633	32463.4374354214	-17.0971064433274
1777.843	31617.1830553327	9007.50071511062	32875.2389114838	-15.901859186905
1513.548	32358.175278819	8685.99749303918	33503.7021808614	-15.0258525547735
1292.065	32692.9933834563	8303.68930405514	33731.0401919211	-14.2511964270228
1101.762	33770.6772956542	7027.69374776188	34494.160729311	-11.755501133414
939.101	33998.4934536163	7222.29582945357	34757.1447930312	-11.9930551648532
801.2801	34406.1562992882	7373.86575586565	35187.4620777995	-12.0965370722318
684.3433	34867.5771030851	7822.39527763848	35734.2664807773	-12.6447029835673
582.9476	35152.910511496	8108.95020868132	36076.0611890505	-12.9895720100345
497.0677	35567.1212968842	8705.23329604925	36616.952413956	-13.7530611903581
423.5089	35963.2924400984	9464.60440570874	37187.862800766	-14.7444271449612
361.5036	36546.845319203	10142.7315571972	37928.1808979433	-15.5107639255266
308.1262	36940.0485053925	11205.9352287399	38602.333710949	-16.8754176132354
262.7298	37588.3251104498	12318.9380984821	39555.5106209376	-18.1456822337742
224.2111	38374.5161886375	13644.5537953189	40728.0903184197	-19.5734987888182
191.2854	38897.7948221935	15268.8350630546	41787.2679917249	-21.4318587494353
163.1722	39627.5650183029	17153.6838766173	43180.9307428492	-23.4064603875285
139.1537	40586.8077415369	19034.6531171189	44828.6401972838	-25.1259296490279
118.6706	41599.9746606217	21409.3847239528	46785.8915274957	-27.232569411009
101.1982	42786.1593051183	24126.5837136818	49119.7258723647	-29.4181111909576
86.24196	43934.4800228707	27199.0304736797	51672.2923198515	-31.7608897786239
73.61024	45381.6916815536	30433.6703934349	54641.6163148184	-33.8464217754324
62.69291	46933.185779197	34444.7176299984	58216.5139800979	-36.275304460551
53.57697	48740.6061473373	38726.6875649032	62252.7350191096	-38.4687817059621
45.65746	50945.6257993155	43568.9376598874	67035.1334517582	-40.5372166421639
38.96512	53241.9227975016	49278.8292162205	72547.2628849397	-42.7862478753909
33.18414	55902.693628271	55493.9037771904	78769.8198000249	-44.7897437750926
28.30617	59034.8198519231	62554.1788645349	86012.4133388038	-46.65794715063
24.17237	62479.4650593117	70740.7066588802	94381.8368792189	-48.5484786914437
20.61345	66226.8093236403	79322.2582427372	103334.461463334	-50.1412154182381
17.55618	70805.4576580407	89475.9036125978	114102.367028276	-51.6441811176914
14.98558	75975.1996815225	100863.893254022	126276.505847311	-53.0113042534972
12.76553	82346.2613055168	113181.289833725	139967.535948241	-53.9618355060412
10.8809	89069.4066195899	127599.529350778	155611.693282047	-55.0834691449452
9.278505	96782.6938720698	143224.269745189	172858.558588163	-55.9514429087889
7.923394	105211.937359029	161697.15657742	192913.250473011	-56.949042644203
6.75822	115313.339061906	180495.703412323	214186.519454225	-57.4267003692697
5.761429	125690.279707615	203224.351125724	238952.261557513	-58.2640208910739
4.919708	138772.186298672	227613.478096233	266581.347999401	-58.6300263306035
4.191257	153521.112655435	254588.137596645	297294.217629424	-58.9092859599502
3.564097	169493.939648705	285386.702410549	331924.336996259	-59.293511457365
3.051758	187372.313249911	318997.541813995	369956.504816437	-59.5709376217673
2.604164	208342.877259467	355703.063318605	412227.393266135	-59.6415833179069
2.214424	232206.064070475	396683.787179445	459649.522138475	-59.6566521079189
1.892567	257767.262984131	442608.592951106	512197.548237482	-59.7842498088945
1.607507	289105.29124063	493789.972244059	572197.873215305	-59.6517819666603
1.376413	320427.851016819	549687.654170997	636262.936886371	-59.7609304266327
1.17375	358993.962395969	610484.928117274	708215.018546706	-59.5424616193493
1.001604	401058.566089236	677256.83815395	787098.976152199	-59.3667927593622
