EC-Lab ASCII FILE
freq/Hz	Re(Z)/Ohm	-Im(Z)/Ohm	|Z|/Ohm	Phase(Z)/deg
6999984	19.892841066279	95.5177182850656	97.567205720331	-78.2355534601695
5969734	17.4954247690101	94.8803586175413	96.4799064014955	-79.5523250649392
5091109	14.0792743978993	100.110970322808	101.096153965151	-81.9946149624638
4341796	12.8278917947738	109.811488228123	110.558209802681	-83.3370550764553
3702781	13.6699596006016	122.163494641454	122.925942007758	-83.6152260859913
3157797	12.8894141380044	137.607694007657	138.210037431895	-84.6488419484073
2693047	13.0310051042518	157.10652683546	157.646020781776	-85.2585263382061
2296687	12.9807116761883	181.421417191291	181.885209655202	-85.9074583369712
1958656	14.3925755380278	209.168224280535	209.662806141886	-86.0637612234829
1670375	15.7237707386511	242.617703198398	243.126688932966	-86.291913017504
1424531	17.4056587656977	281.517735818479	282.055300495188	-86.4620241868783
1214875	19.2895563565883	326.915812366922	327.484404758393	-86.6231972146486
1036062	21.7346579007988	380.286111105727	380.906709909372	-86.7289079278503
883578.1	24.2706001025588	442.812436213206	443.477074598466	-86.8627508687928
753531.2	27.5778088539167	515.779714999094	516.516456606882	-86.9394126217813
642624.9	70.6186072552781	676.27830801627	679.955393819348	-84.038641896593
548046.8	87.9601414774349	779.43073468005	784.378261206041	-83.5613107574695
467390.6	106.121615043792	896.121020113666	902.382779018449	-83.2462985617066
398593.7	125.491802047333	1031.09787681211	1038.70641855508	-83.0608321234227
339937.5	146.410339604305	1186.43023078439	1195.42991432461	-82.9650335800769
289906.2	164.549162464701	1367.35450661101	1377.21994380609	-83.1379522426474
247234.4	186.062479699691	1579.90293701084	1590.8213402917	-83.283311635272
210843.7	207.051811720307	1824.7340058383	1836.44347715887	-83.5263603319665
179812.5	231.461070681804	2112.35801930184	2125.0013244584	-83.7467771957534
153343.8	254.8767938673	2449.88436184389	2463.10689302339	-84.060528884367
130781.2	282.79297618975	2844.16844885001	2858.19279140091	-84.3217976389467
111531.3	316.216340530188	3307.17931683318	3322.26245316464	-84.5382610939471
95109.37	348.346041718532	3847.53337927606	3863.27038523379	-84.8266880480159
81109.37	388.656138602612	4472.24081973306	4489.09696306063	-85.0332393331606
69171.88	961.014536620339	5698.78013644915	5779.2425094629	-80.4279764632376
59000	1088.95224871001	6532.47881798369	6622.62006364371	-80.5359217118402
50312.5	1131.81454094432	7494.11393772613	7579.09941000341	-81.4116877016977
42906.25	1493.26732227412	8812.34157462457	8937.96460742759	-80.3824836143042
36593.75	1621.72872922287	10011.9651863917	10142.4578364766	-80.7991958187029
31203.13	1761.90260510759	11532.0796010566	11665.8973386102	-81.3133681440533
26609.38	1953.19975831374	13313.6596680227	13456.1704452571	-81.6538769616995
22703.13	2137.6483022012	15390.2429054903	15537.9894759231	-82.0924188580926
19359.37	2362.53837188906	17830.9355059921	17986.7687086229	-82.4524655365529
16500	2627.74322654107	20723.1253327142	20889.0631197288	-82.7733219018261
14112.02	2921.44939009741	23993.9571940591	24171.1573651168	-83.0579673344471
12011.13	3334.11183433928	27936.0049303416	28134.2615540546	-83.1940448107907
10236.38	3789.6206261366	32412.7070358262	32633.4920270623	-83.3313827942835
8750.684	4340.620872193	37569.3149516554	37819.2334069954	-83.4094769417598
7449.463	10024.5161369892	48640.7315140532	49662.9810422508	-78.3547859773362
6363.206	11643.3213551142	55456.2068330073	56665.3139802803	-78.1426770015788
5414.761	13208.8781794876	63603.9320609088	64961.0239787616	-78.2679255755944
4620.567	15318.7533728497	72298.7592530594	73903.8212437628	-78.0370235841567
3941.215	17585.1603972429	83044.90134288	84886.3564140046	-78.0439563734777
3361.769	19594.5431452354	96101.4427695891	98078.7103476952	-78.4756800721088
2867.244	22885.2769427766	109895.045330461	112252.647580944	-78.2364701926417
2442.658	26521.3027510272	126949.380371916	129690.110171998	-78.1999154853124
2083.003	30438.2386870796	147129.761227652	150245.309455162	-78.3115276638038
1777.843	35700.8771250578	168974.645853862	172704.903140984	-78.0700259531562
1513.548	41338.4759686584	195616.189558631	199936.397919062	-78.0675622346371
1292.065	49455.2478198721	226313.519839212	231654.118890509	-77.6731953842486
1101.762	61028.9562316739	261273.54254436	268306.536507047	-76.8524333427237
939.101	72909.6803768638	301266.318798036	309963.249974536	-76.3953849095478
801.2801	133094.090622337	380929.021967783	403510.788871771	-70.7409217251812
684.3433	167507.238152222	438294.401387448	469212.805793881	-69.084156964781
582.9476	210319.738350643	488774.516756204	532104.23844407	-66.7177839751111
497.0677	251502.611622935	546185.685799006	601308.878218913	-65.2753054300898
423.5089	291576.271592325	599027.066037473	666220.79523319	-64.045508818621
361.5036	361681.906517653	659976.980160212	752584.490833845	-61.2762892031947
308.1262	435478.93582975	741813.511706518	860191.368069785	-59.585089679307
262.7298	522372.844777345	796572.485474161	952576.040836247	-56.7441128296186
224.2111	617245.907809069	864433.847700152	1062185.66538846	-54.4714012507188
191.2854	729987.400533685	924940.873181983	1178302.68769131	-51.7185796873891
163.1722	845104.215630854	981454.510674287	1295165.66191354	-49.2691392765812
139.1537	999011.402691984	1010297.27899173	1420818.20605125	-45.3218153019629
118.6706	1129213.81803891	1026300.115676	1525914.73362262	-42.2665235890057
101.1982	1278048.49543783	1021638.6995979	1636200.96235364	-38.6379303062406
86.24196	1428949.827212	1007882.26124287	1748634.97083217	-35.1964936872551
73.61024	1554747.22530058	942998.194169613	1818374.14433526	-31.2379970356316
62.69291	1625917.60479489	917691.238707107	1867020.42495033	-29.441006584451
53.57697	1739116.47379078	876823.567286467	1947651.32340454	-26.7562180297152
45.65746	1853087.66815134	795079.493348325	2016453.64603246	-23.2220711098995
38.96512	1928092.74041462	786403.101960374	2082299.55924032	-22.188867777096
33.18414	1993365.16448311	731273.042696442	2123267.51539916	-20.1457403867051
28.30617	2067518.57370647	732578.130698558	2193468.43382781	-19.5106224003806
24.17237	2077632.93218316	684254.632917454	2187410.11325288	-18.2289559197186
20.61345	2137201.55989603	632735.925045264	2228897.76761181	-16.4918166398173
17.55618	2172216.90694216	616867.262196832	2258107.9491414	-15.8535130081518
14.98558	2228004.63317768	640001.822926751	2318104.17773033	-16.0268900369584
12.76553	2266860.63526208	642069.231051975	2356036.9345926	-15.8143284245428
10.8809	2305611.36194757	657679.727127991	2397579.27414651	-15.9208928448592
9.278505	2349497.06778017	687493.059025637	2448016.17186571	-16.3101546412931
7.923394	2386764.25785267	705722.881983946	2488913.09786395	-16.4719923001058
6.75822	2438210.47709759	733015.231359789	2546012.89471085	-16.7326995560462
5.761429	2485374.31617929	766820.990716899	2600980.56957905	-17.1467417771196
4.919708	2525082.18315587	847666.605052698	2663565.03675296	-18.5568310179822
4.191257	2587917.35018566	921020.120428467	2746924.5118179	-19.5902578043258
3.564097	2645532.92602211	1009782.14013028	2831696.3878907	-20.8915194415813
3.051758	2730785.85973301	1094480.45670169	2941951.54307811	-21.8405781925918
2.604164	2773603.95314663	1200496.06602707	3022262.34689464	-23.4043576324204
2.214424	2852457.95451609	1334234.4653715	3149078.9115021	-25.0677973511339
1.892567	2936048.1217105	1469371.18714967	3283204.26696625	-26.5860782124511
1.607507	3048810.09615066	1635297.99959912	3459688.21570428	-28.2078868177704
1.376413	3152094.98204449	1819997.90111936	3639793.28202975	-30.0018405926369
1.17375	3277627.34039365	2020876.22584542	3850556.02513237	-31.6566057303321
1.001604	3428474.38310419	2240641.85560375	4095718.80390794	-33.1661833627413
