EC-Lab ASCII FILE
freq/Hz	Re(Z)/Ohm	-Im(Z)/Ohm	|Z|/Ohm	Phase(Z)/deg
6999984	32.1656163745189	-5.00134707399609	32.5521174320088	8.83800004060788
5969734	24.4019123457517	-25.9054863540315	35.5885873471912	46.7119312340872
5091109	8.96486643785168	-28.5773740534503	29.9505448704916	72.5830956280859
4341796	-2.62162720580138	-32.7836663145156	32.888321730178	94.5720698896166
3702781	2.96761634263247	-7.4889052916804	8.0554608325544	68.3831431024384
3157797	3.3216228369104	-9.64256542538589	10.1986394314895	70.9924501972437
2693047	10.1349046583478	-6.22715897756804	11.8951167024837	31.5676884101058
2296687	2.10896946836895	-10.7056523544228	10.9114043345607	78.8556656818396
1958656	11.304297538007	-8.63586633180866	14.2255168668368	37.3778528752992
1670375	-8.63484004853644	-14.933938954276	17.2505940579984	120.036606136411
1424531	13.8072200428081	-6.89504978643236	15.4331149437792	26.5366262251533
1214875	17.7778554277215	-24.5637864205768	30.3221329547359	54.1051437097594
1036062	8.74209224260866	-1.41364217836033	8.85565135869281	9.18551613208857
883578.1	29.1771525844984	-5.65123018913873	29.7193983046382	10.9617082153059
753531.2	29.175008607875	19.982821256549	35.3623284391846	-34.4083902400526
642624.9	46.1417467965529	-22.4400914514718	51.3090489269448	25.935020540266
548046.8	34.1994034864415	-35.1943375609055	49.0738280061724	45.821423040161
467390.6	74.3154025018318	2.8336256766189	74.3694055609191	-2.18361434992575
398593.7	50.882736968065	-102.947502697581	114.835714100752	63.6986974652283
339937.5	7.22053649850297	110.791385089761	111.026425491564	-86.2711719453203
289906.2	-59.3770997735701	-516.033230395641	519.438095301145	96.5638430728299
247234.4	-86.7587698689212	-607.525676627198	613.689279611844	98.1272730084034
210843.7	-109.207485075593	-707.741869211847	716.1178871052	98.771793232146
179812.5	-135.632443267588	-813.654189114833	824.881384885641	99.4639262486641
153343.8	-165.251103641399	-938.460067849703	952.898329415667	99.9866929409414
130781.2	-198.950626765625	-1082.85967516386	1100.98429960941	100.410681709338
111531.3	-236.536168231812	-1244.90190201037	1267.17406243611	100.758180612085
95109.37	-295.021077217888	-1436.79674079294	1466.7727534816	101.603407951462
81109.37	-362.706260266963	-1656.65749187316	1695.89795583824	102.349399000722
69171.88	-446.278143938255	-1900.81656387688	1952.50295550754	103.212731806426
59000	-469.291527000705	-2335.27011867468	2381.95740190489	101.362708381728
50312.5	-706.214437945362	-2474.30739713055	2573.1179389716	105.929754966715
42906.25	-826.799249193208	-2869.23297686249	2985.98306659325	106.074885176222
36593.75	-921.244003685836	-3464.55346965014	3584.94368971005	104.890696005246
31203.13	-1984.04978224105	-2883.59022051348	3500.2208642101	124.529855757386
26609.38	-1944.49497818299	-4403.98471483655	4814.16057986155	113.822936143997
22703.13	-2896.17220825773	-4246.81788972836	5140.35754091106	124.292536638643
19359.37	-1142.33932054071	-993.832277030471	1514.14719169603	138.976814674271
16500	-1987.35200452515	-4155.80879397072	4606.55128289424	115.557623164535
14112.02	-1269.89677752181	-3337.22311282199	3570.67163574496	110.833070481665
12011.13	-2765.69460454789	-6472.24696624417	7038.39807326086	113.137793212579
10236.38	-3759.30528858018	-7474.73720714836	8366.84364433058	116.699413458671
8750.684	-4642.09246702648	-8612.29341071861	9783.69154587016	118.325009315017
7449.463	-6128.34061061644	-9407.62598285118	11227.6437988096	123.081131972398
6363.206	-7326.16942372953	-9645.19686552351	12112.0840898622	127.219090464612
5414.761	-7345.36716038887	-12881.6039585417	14828.6931071365	119.692716867773
4620.567	-9678.4416210318	-13504.8768374447	16614.870767065	125.627757484416
3941.215	-10730.130008173	-9845.08683961292	14562.3289645515	137.463060179535
3361.769	-11507.9206656946	-11019.1747625389	15932.8105020833	136.242889259025
2867.244	-15405.3146050211	-12901.6730089441	20094.200270461	140.054433695353
2442.658	-17936.6599286184	-13902.3350854859	22693.5825779897	142.221474668097
2083.003	-19424.0513064952	-12068.9556198855	22868.1756795797	148.145629086632
1777.843	-20708.1028631252	-11708.278170881	23788.8482679701	150.516356555544
1513.548	-21853.0312463036	-11208.6511176533	24559.9029828946	152.846232133664
1292.065	-22208.8621986566	-10266.0317664691	24466.8136133227	155.191291093355
1101.762	-24425.8817559569	-12084.12300485	27251.600473226	153.677192823943
939.101	-24094.103269454	-10536.1531229995	26297.0784497139	156.380636884488
801.2801	-26824.3191320633	-9768.83763844136	28547.7544774542	159.989468852899
684.3433	-27630.5713621574	-10893.9267814693	29700.6079823173	158.482131485469
582.9476	-28341.1905498001	-9001.10881517205	29736.224401942	162.380249844641
497.0677	-14142.1767070649	-19693.2142924247	24245.0789064752	125.683047911646
423.5089	-29436.6536695421	-7479.63136209479	30372.0507139936	165.743282918941
361.5036	-30568.2642953026	-8953.71948391693	31852.5960421462	163.674217729165
308.1262	-52960.816252377	-8269.69745137919	53602.5741364665	171.125075488605
262.7298	-54099.7774005338	-8772.98756573427	54806.4889006387	170.788921150202
224.2111	-54780.8217834475	-10211.3467762541	55724.4115110671	169.441037937156
191.2854	-55885.6591433975	-11006.1289904675	56959.1237050467	168.858740929965
163.1722	-56293.2859412451	-12129.0020002139	57585.125957872	167.840881406915
139.1537	-57424.454613141	-13779.9665589005	59054.6819988145	166.506061631599
118.6706	-12945.9715300723	-58940.1509641005	60345.1702667943	102.388073651894
101.1982	-60257.4795823714	-16888.4676019201	62579.4230043791	164.343317842318
86.24196	-44989.1556126566	-42853.2413670363	62132.3138020894	136.39288960979
73.61024	-62257.1879504416	-23639.4685462572	66594.1583372453	159.207897124561
62.69291	-31979.9812763198	-27267.1311470189	42026.3684300998	139.548053596016
53.57697	-64218.5205690779	-28974.952416433	70452.5815823355	155.715432884341
45.65746	-78748.0388604038	-25720.0934422038	82841.8784856751	161.912315213358
38.96512	-73812.5575292495	-34975.6313540697	81679.7921007672	154.646350934406
33.18414	-75441.1409385492	-41208.2617669195	85962.1229609938	151.355281359175
28.30617	-71697.1023872846	-39978.8908847505	82090.1102880704	150.855604866041
24.17237	-77860.7816931347	-56891.2486546883	96430.8845720891	143.845179763718
20.61345	-79088.8993648095	-50410.5009525962	93788.4460316337	147.486956805349
17.55618	-92837.1721614291	-61941.0833763761	111603.935167045	146.288730168392
14.98558	-90621.4574660161	-77072.8288723164	118964.152178908	139.619100362613
12.76553	-87297.4189514349	-86434.7431066906	122848.704394885	135.284502755109
10.8809	-124623.536692194	-120178.060724787	173129.408759001	136.040348678446
9.278505	-128155.961690428	-138829.999205955	188938.400533941	132.710547156264
7.923394	-135860.943674724	-154247.166303521	205548.98279693	131.373607437106
6.75822	-154208.741512568	-189051.343159608	243968.740434798	129.204045450063
5.761429	-119902.208832179	-151955.396004977	193563.896576466	128.275624638833
4.919708	-171449.557302658	-200610.261368335	263892.833676	130.518525223652
4.191257	-171010.353670713	-276267.138346221	324912.40787725	121.757656761425
3.564097	-187649.006980488	-287622.39795238	343422.179867056	123.121009834939
3.051758	-210007.993213713	-238776.458159242	317989.86490881	131.332182588518
2.604164	-188283.40185873	-311490.81264036	363974.127892145	121.151238231058
2.214424	-231478.073038738	-393278.165529847	456343.964329813	120.480476540299
1.892567	-279136.596513197	-410191.449920742	496159.515782024	124.235412746468
1.607507	-297613.708560518	-477389.46951678	562560.774608981	121.940201114954
1.376413	-314395.283853256	-515354.970591595	603684.636397709	121.385520673487
1.17375	-362709.183483897	-570049.027602477	675658.083392839	122.467666061151
1.001604	-369787.302781697	-633392.379450907	733436.129219882	120.277248410366
