EC-Lab ASCII FILE
freq/Hz	Re(Z)/Ohm	-Im(Z)/Ohm	|Z|/Ohm	Phase(Z)/deg
6999984	2.73252948986726	1.43465710266294	3.08625313531075	-27.7007733324561
5969734	5.02316863910194	1.56039185901751	5.25994733153721	-17.256829887876
5091109	6.50198671412775	-1.61168364700605	6.69875775115958	13.9216253736856
4341796	4.23174136256615	-5.72710721101623	7.1209122987246	53.539422371581
3702781	3.34274645989104	-5.57152412021685	6.49737138520435	59.0375139145005
3157797	2.27816290492546	-6.73937891340702	7.11401815852712	71.3228176619161
2693047	0.239782867865319	-9.11535055169333	9.11850379744273	88.4931595706171
2296687	-0.0103639842747078	-7.16400705287927	7.16401454952975	90.0828882689871
1958656	0.541006079724616	-10.0849871721243	10.0994878008843	86.929328564587
1670375	-0.751275754197514	-13.905522955304	13.9258028105863	93.0925209752503
1424531	-0.0273111900114042	-12.3096745998278	12.309704897143	90.1271206107712
1214875	9.87802850372821	-5.41298101148132	11.2639163061133	28.7219445515618
1036062	17.0702586706797	12.9316759136628	21.4154610741848	-37.1459653964538
883578.1	9.87940194415793	3.38573469600876	10.4434564300326	-18.916917803488
753531.2	3.94656934113467	10.342195519083	11.069616873195	-69.1132059249941
642624.9	10.0431393213023	-3.50167185243238	10.6360873063926	19.2217771871213
548046.8	6.99165412008366	2.68861752795746	7.49078711128028	-21.0340828001657
467390.6	3.9987649661836	5.10438439702694	6.48420090122055	-51.9249189781496
398593.7	6.54498186118369	3.48868313401541	7.41671743919014	-28.0590323825955
339937.5	4.85032077333791	-5.13602038761342	7.06429876394352	46.6387301461813
289906.2	3.8552416994165	-2.96893027067647	4.86594651769405	37.5999485054257
247234.4	6.56379146412191	15.3096127753716	16.6573587857229	-66.7934144040684
210843.7	5.3119217937071	-1.66134896745035	5.56566200322197	17.3675196043173
179812.5	4.25599952314911	-2.39756618108356	4.88485982743835	29.3942131213227
153343.8	6.98202882492621	-0.475313722031677	6.99818902620185	3.8945007036541
130781.2	5.38445198748879	5.70451560699303	7.84434965538884	-46.6532832741776
111531.3	5.88965688810748	0.942569431871828	5.96460354034793	-9.09240476080187
95109.37	7.96950621771289	-1.79168756660326	8.16842541071932	12.6704517068805
81109.37	7.83533062367637	1.36832788487639	7.95391269645645	-9.90598764115378
69171.88	-0.532556769768699	-10.0741228889084	10.0881895647264	93.0260578710151
59000	18.4352298996621	-5.08259330398019	19.1230347002525	15.4135329876929
50312.5	21.6195492369364	-7.08138627308369	22.7497459492834	18.1359763287247
42906.25	131.738715914307	-37.7584208540037	137.043013744366	15.9931485524032
36593.75	266.784333941493	-210.587331292755	339.883663828685	38.2859451439579
31203.13	316.026682090131	-349.695157890554	471.338060467215	47.8952323204811
26609.38	561.513659070251	-551.767674736929	787.238944798248	44.4984291137363
22703.13	375.645922947949	-1305.52513245345	1358.49392008025	73.9475946171899
19359.37	-158.335026633569	-2294.04695088663	2299.50459741469	93.9482907380577
16500	-55.6248914474902	-1775.96669527232	1776.83759282187	91.7939694283658
14112.02	-194.534327226344	-1799.546897021	1810.03111549148	96.1698199971184
12011.13	-420.481668745918	-2475.54136258033	2510.9977840686	99.6399388833282
10236.38	5.9951516277978	-2.06193230414598	6.33982711650462	18.9797999215037
8750.684	4.06536559988139	1.16127729413795	4.22797379539885	-15.9420636353893
7449.463	4.36136427121531	0.388196451767718	4.37860648967209	-5.08638068711453
6363.206	8.44676521640118	-5.2139879286678	9.92640482457261	31.6860500314239
5414.761	-4.66134006253852	-16.8554552295479	17.4881234606209	105.458669067559
4620.567	16.9747027054462	3.33354712319846	17.2989325786555	-11.1105397321691
3941.215	8.09117544006905	15.3773597021691	17.3761420174868	-62.2477964406185
3361.769	662.919994631547	-2548.96728127339	2633.76102186295	75.4218150240615
2867.244	1543.996073409	96.2324707633272	1546.99210183234	-3.56645429100974
2442.658	254.052604794297	-2034.34922171102	2050.15108757355	82.8816682208853
2083.003	4261.62393989084	-487.338873285359	4289.39830074869	6.52373183282726
1777.843	2994.86093448242	93.7346668297859	2996.32745284199	-1.79268696518138
1513.548	533.365524646061	-4968.61920968393	4997.16475951325	83.8729425022412
1292.065	6501.23247937694	837.816978363485	6554.99512129031	-7.34326201509263
1101.762	3.42908803226545	3.69421975688212	5.04042700028126	-47.1315827119749
939.101	5.35938829417722	6.64662028072058	8.53818505561047	-51.1196267970932
801.2801	10664.2664019801	-16438.314441116	19594.5084030553	57.0267299916448
684.3433	5.53321216513625	-2.4825547504037	6.06461169022089	24.1640710208741
582.9476	622.707374427251	-18258.7823228063	18269.3978112523	88.0467108566512
497.0677	-5347.96594826455	-26268.3692155806	26807.2371017578	101.507552112337
423.5089	4770.1313151175	-23114.7719454404	23601.8396497643	78.3397171873243
361.5036	-730.061829193634	-54951.9637927835	54956.8131805132	90.761155706863
308.1262	-3179.40819252939	-65971.1281826065	66047.6978413375	92.7591741300432
262.7298	184794.211390917	-867699.461942537	887159.093296664	77.977321381904
224.2111	8191.07642911035	7882.66919233581	11367.9464576205	-43.9007997559471
191.2854	420336.168777846	-130524.856643458	440135.471172949	17.2508711268066
163.1722	107957.0592753	-517196.703130967	528343.786162866	78.2096557678296
139.1537	567602.533556646	276968.808754022	631572.923044161	-26.0106452396453
118.6706	141460.784799786	40603.0066130619	147172.544253987	-16.0148865711504
101.1982	365340.899414962	-628572.863638642	727033.573975932	59.8338679539528
86.24196	453305.043413193	-385778.826336868	595240.090412002	40.3989733853547
73.61024	-122465.61490884	-244022.140712768	273028.628522802	116.650368271408
62.69291	-99727.4985288351	-169253.280816163	196449.095263516	120.507462852449
53.57697	-95554.3831301908	-174282.761589143	198758.952307888	118.734731434315
45.65746	462581.704001423	-361677.351137607	587190.207005171	38.0206771439683
38.96512	533928.389368223	113495.94807191	545857.907519976	-12.000612478171
33.18414	696660.130145941	486364.695970815	849638.719940271	-34.9203452187358
28.30617	882142.639133144	-85406.0973360083	886267.362165027	5.52995028815993
24.17237	1063608.88932998	311378.178939084	1108250.98230553	-16.3177234137668
20.61345	254479.725036812	1782831.7881653	1800902.30588655	-81.8765283608873
17.55618	-1545894.23007171	1666072.98906267	2272793.03401195	-132.857224351817
14.98558	11332494.6408817	-6392022.96804695	13010895.1425201	29.4249007408299
12.76553	5361244.47059337	-1777550.37716148	5648241.10824024	18.3432266223795
10.8809	17807759.9061143	-17180511.7390318	24744419.5019568	43.97294660151
9.278505	6318854.16047757	6428397.00211327	9014000.55015328	-45.4923561896836
7.923394	6664205.60568776	-1010582.14185589	6740394.09977771	8.6228257406465
6.75822	2039024.83966998	1499333.48633593	2530933.26661124	-36.3277472875393
5.761429	1273764.68332718	138239.915392716	1281244.21665011	-6.19398889215152
4.919708	2265530.10161417	246166.644403341	2278864.77399093	-6.20128264488354
4.191257	1578958.06684759	-557598.750844391	1674522.30316777	19.4503415107548
3.564097	2767238.43698835	-952095.157731937	2926447.29262673	18.9862743445886
3.051758	1075586.34611546	1616417.27278165	1941569.15604283	-56.3596581490858
2.604164	9051695.49430826	-2967333.08645827	9525663.07233624	18.1502143299337
2.214424	2789180.40676863	-3176702.46269614	4227406.51913224	48.7165042944437
1.892567	25443956.8519633	-24290596.6784592	35177095.2081058	43.6715306942255
1.607507	39117256.2295942	14636900.6251254	41765998.0706977	-20.5148512574843
1.376413	13686707.0393453	45866801.9387731	47865326.3821684	-73.3848354708124
1.17375	33385184.9263145	-9331483.37640103	34664782.6268717	15.6161938894086
1.001604	52493193.290721	-4619984.89973575	52696106.1401199	5.02970599385137
