EC-Lab ASCII FILE
freq/Hz	Re(Z)/Ohm	-Im(Z)/Ohm	|Z|/Ohm	Phase(Z)/deg
6999984	3.78414761055614	2.11521916478979	4.33519610324282	-29.2038135164227
5969734	5.98182975324777	2.26988043060863	6.39801878444416	-20.7798786152
5091109	10.7557553521511	-0.0848069410068505	10.756089689686	0.451756193909573
4341796	5.69320951718805	-7.77257661461382	9.63460335647722	53.7781968031239
3702781	2.36800764747056	-7.99561042964797	8.33889958934477	73.5026355934913
3157797	-0.385345069944536	-11.7982232684402	11.8045145226263	91.8706884771338
2693047	-0.939033517951461	-12.154224168957	12.1904449917587	94.4178869469469
2296687	1.38313190363437	-13.739493144503	13.8089364445889	84.2514957174841
1958656	-1.05270507079048	-10.678889547991	10.7306509562216	95.6299218667666
1670375	4.82248619908338	-13.7184689206144	14.5414154285686	70.6317732652088
1424531	10.0830947631433	-12.8922197553691	16.3669829297662	51.9707899792278
1214875	17.3469570811923	4.04790622802206	17.8129858476221	-13.1349084843474
1036062	16.2115055834299	0.84936244232468	16.233740475935	-2.99913096283624
883578.1	6.25445435460353	5.76388716431024	8.50532741972461	-42.6625863944678
753531.2	4.92751262277291	-10.5948433687768	11.6846517558933	65.0575241721606
642624.9	12.7917220829695	-5.96574521507363	14.114470228071	25.003190630155
548046.8	-12.2167182073666	-17.965916034487	21.7260751797567	124.215473815198
467390.6	-16.0928622978874	-21.0481306385168	26.4953584673776	127.400603494109
398593.7	-20.9720133506232	-23.0784579276502	31.1839792890041	132.262264977353
339937.5	-27.8194618822497	-26.7198275716318	38.5729392822958	136.155054829031
289906.2	-35.9575842208164	-28.7348682018087	46.0286922861428	141.370517750769
247234.4	-56.2489191822444	-32.3379174788147	64.8820608183594	150.105087450199
210843.7	-71.5619300356523	-34.5360246668978	79.459718286816	154.237889322258
179812.5	-90.5684940946295	-35.2958983772107	97.2031510025437	158.708392518766
153343.8	-116.264970618618	-35.1962799652751	121.475600497969	163.157638981075
130781.2	-149.364740087698	-32.8989782351455	152.944984717977	167.578409440966
111531.3	-193.125226680289	-27.1656754613855	195.026477955139	171.993106548228
95109.37	-250.282976970721	-15.9489569707123	250.790625402506	176.353831031189
81109.37	-324.725641047723	2.07978368000164	324.732301217496	-179.633040380062
69171.88	-423.031062882531	31.7349045362111	424.219735902806	-175.709826469462
59000	-663.199734025454	53.0564244930694	665.31862396255	-175.426040473534
50312.5	-827.679078597026	116.742483992351	835.871679575237	-171.971506039352
42906.25	-1052.25902951216	227.774655001853	1076.62916487112	-167.786049345921
36593.75	-1320.04781575726	375.881804461878	1372.52080742371	-164.105769540457
31203.13	-1667.42614859604	593.332533896965	1769.84560253216	-160.412540888823
26609.38	-2107.24995932652	915.707868945776	2297.61252005877	-156.512589064706
22703.13	-2668.76162972292	1357.34808064003	2994.1079553514	-153.041839924922
19359.37	-3335.97818403665	2019.71070499095	3899.74124477811	-148.807911002023
16500	-4766.52711744666	2640.03693309914	5448.81416176785	-151.019241612331
14112.02	-5632.9665349687	3821.52706991831	6806.93625136857	-145.846177567433
12011.13	-6534.79649909006	5405.8586615907	8480.97123881545	-140.401015865628
10236.38	-7549.78543144111	7427.84223458912	10591.133099095	-135.466474150843
8750.684	-8472.83756007306	9870.91693215814	13008.611663085	-130.641596558046
7449.463	-9283.39914874671	12956.3332253126	15938.8854817484	-125.622142498023
6363.206	-10166.5242500101	16465.1190044746	19350.9265710341	-121.693600079929
5414.761	-10745.1013822843	20771.8626105269	23386.4807105766	-117.352126978884
4620.567	-11123.4482403056	25878.9938929144	28168.3053388779	-113.259260265147
3941.215	-11572.9453248439	31253.3794670406	33327.2679888806	-110.319299226772
3361.769	-33863.751032517	45980.1911329356	57104.5673358409	-126.371112927818
2867.244	-38842.46689649	69797.1665360657	79877.291460516	-119.096153211483
2442.658	-46561.4644470266	98693.4670357578	109125.4800997	-115.25693491365
2083.003	-49847.8464911898	125318.56225201	134868.639218761	-111.691132075653
1777.843	-45994.4294014612	171321.630033961	177388.242151105	-105.027747509841
1513.548	-63363.9805378469	212311.364295601	221565.135882566	-106.617648095549
1292.065	-56559.1329911993	268078.0978367	273979.565049036	-101.913550005966
1101.762	-63039.2635293505	310459.947022303	316795.403141229	-101.477930194328
939.101	-61914.3504807541	358043.654326204	363357.462010505	-99.8107948978363
801.2801	-63925.2056311358	478419.599455052	482671.467001847	-97.6106369645339
684.3433	-50757.6018570883	566368.120942113	568638.006613858	-95.1211353446905
582.9476	-141570.407443454	610326.497777466	626530.617091465	-103.059293708889
497.0677	51507.3735964	897745.186122728	899221.568214047	-86.7163028563574
423.5089	-143191.653489651	854014.345698822	865935.535873478	-99.518185351863
361.5036	280130.881248137	1062038.97278115	1098362.45854222	-75.2238008100643
308.1262	112303.498907899	1319370.40516404	1324141.36023677	-85.1347674544578
262.7298	214158.810906753	1356661.00930792	1373460.26169867	-81.0294675565659
224.2111	133134.798475913	1788572.36888988	1793520.55837718	-85.7429621539892
191.2854	306331.020627889	1449462.42863589	1481478.99958993	-78.0666455021649
163.1722	1890937.93884192	2766833.37124941	3351270.38491541	-55.6501129451737
139.1537	-170885.368883775	2061573.73308686	2068644.01631896	-94.7384568333226
118.6706	433641.821140824	1362885.87160531	1430210.86839098	-72.3500163970267
101.1982	711328.590192776	935684.823748622	1175369.92160729	-52.7570886093756
86.24196	175899.623178627	1928597.65235877	1936602.58755331	-84.7887009461988
73.61024	1137403.88277161	283664.689382352	1172242.82831943	-14.0037015778381
62.69291	124100.91049002	-77567.5017296581	146348.05536471	32.0068548304956
53.57697	397883.720247734	293740.115666916	494565.173046172	-36.4368269925763
45.65746	500983.597875231	-729469.933863553	884935.56248515	55.5195931594429
38.96512	718792.025584784	954433.86714225	1194824.66612988	-53.0162947158927
33.18414	1197122.35942593	698582.050768069	1386044.30848831	-30.2657449530741
28.30617	612326.177831007	-1595106.14058675	1708597.94796631	68.9993019153221
24.17237	1435853.45067608	668030.10654836	1583647.48447166	-24.9501805749495
20.61345	887053.348302828	1534370.69998539	1772330.97577989	-59.9668514582027
17.55618	2043062.56916524	-661983.273958329	2147632.77040668	17.9531111188308
14.98558	5339850.37694844	3076765.28397136	6162831.05892476	-29.9500910445806
12.76553	1956187.96904075	-853944.777215038	2134453.80665701	23.5829600363185
10.8809	66281.5089593785	-22077.3662686126	69861.6384812913	18.4221343699249
9.278505	4390059.98190404	149392.584928394	4392601.14159559	-1.94900818634251
7.923394	2063594.44399283	-352486.389488348	2093482.42984091	9.69324841182171
6.75822	1698913.85017433	-37279.4549440832	1699322.81455735	1.25704591124743
5.761429	1739867.63059132	-427526.382850895	1791624.45283967	13.8054008849433
4.919708	1147812.34479644	-320887.932729718	1191823.07589619	15.6191217037418
4.191257	3150091.70002209	1395766.85694093	3445466.99846085	-23.8975425137351
3.564097	1007024.24007979	-1251429.45568887	1606291.84853626	51.1763954554348
3.051758	778073.944399945	-797790.353831232	1114391.54322897	45.716818135504
2.604164	1352286.68282088	-1271024.20819371	1855850.69721385	43.2257122338342
2.214424	746099.085639869	-886552.912871773	1158723.39793157	49.9169368189121
1.892567	601757.121816147	-614043.001568223	859744.404710706	45.5789644899955
1.607507	665267.393217184	-718641.928569343	979299.201457783	47.2086856424656
1.376413	777985.584130463	-794599.997451005	1112047.98685306	45.6053090894156
1.17375	743997.109079849	-751456.849124033	1057458.79088246	45.2858049045389
1.001604	558628.275354286	-465862.461886797	727388.055593801	39.8260786155814
