EC-Lab ASCII FILE
freq/Hz	Re(Z)/Ohm	-Im(Z)/Ohm	|Z|/Ohm	Phase(Z)/deg
6999984	24.2878418352988	91.7031190607642	94.8649635349594	-75.1656455938585
5969734	21.3637255713046	91.4607000766038	93.9226726024579	-76.8523760469442
5091109	17.9598476461882	96.7154913730991	98.3689097175236	-79.4801323827527
4341796	17.0139909942607	105.803588369623	107.162844313882	-80.8646275989068
3702781	18.2393924048143	117.429087064007	118.837140339134	-81.1712173150813
3157797	17.9744814198901	131.991695843051	133.209946152074	-82.245226702054
2693047	18.5923227641117	150.674526926749	151.817283371705	-82.965606537872
2296687	19.6281219789258	173.391493454902	174.498920268697	-83.5415437135375
1958656	22.0815241098781	199.427592321296	200.646351290234	-83.6816891902265
1670375	24.9233631905091	230.632931372428	231.975694990154	-83.8322624987869
1424531	28.6288245527993	266.825383835434	268.356842756434	-83.8759218827759
1214875	33.4192765882666	309.126989414343	310.928196907354	-83.8297987802678
1036062	38.8364932584641	358.320582226523	360.41907948355	-83.8141570324608
883578.1	45.9764251786395	415.601105899649	418.136474009645	-83.6872468808393
753531.2	54.1398391796187	482.226749529706	485.256385994435	-83.59419853491
642624.9	105.865638409489	627.54963007543	636.416586524627	-80.4245387164668
548046.8	130.686624260943	718.707719040145	730.492833071351	-79.6941894150136
467390.6	159.31970561844	822.354522360878	837.645348011755	-79.0355744295107
398593.7	191.962583629999	939.105634960533	958.524400904082	-78.4473186612499
339937.5	229.459201557251	1074.5275817634	1098.75431701068	-77.9458659989513
289906.2	271.206182931345	1229.26342346544	1258.82538818144	-77.5584319378839
247234.4	320.267705493286	1407.45372897162	1443.4325070394	-77.1805662719951
210843.7	377.02509450034	1613.77686424639	1657.2337461746	-76.8499123284251
179812.5	448.71363364962	1850.87584211803	1904.49082643083	-76.3725238935221
153343.8	536.034392668228	2126.07797531188	2192.61041391978	-75.8492988350086
130781.2	643.886327212317	2441.06792541054	2524.55980694439	-75.2235143311668
111531.3	781.654491831147	2800.90223968942	2907.92659826499	-74.4070494731053
95109.37	965.397932945502	3208.54186528401	3350.63189118346	-73.2543156850816
81109.37	1181.75893956081	3667.01419600699	3852.73244658238	-72.1375636465921
69171.88	1455.47712623615	4170.39939813162	4417.08555553695	-70.7609179522313
59000	2383.06607832523	4966.04033480284	5508.22662392835	-64.3649327894064
50312.5	2943.86567098429	4807.65705614434	5637.36742268004	-58.5196746592613
42906.25	2942.00354121423	7166.05978475666	7746.47001383364	-67.6795509300177
36593.75	4471.49922677388	6230.21963325417	7668.76404733026	-54.3325678473806
31203.13	4550.0591554352	7049.3743570174	8390.27515301698	-57.1595473381341
26609.38	5278.71297620525	7461.16195181909	9139.6798826015	-54.7208957226085
22703.13	7042.75193361018	8541.92309529802	11070.8990133754	-50.4946730820543
19359.37	7758.93078497253	8301.8145147661	11363.1479425191	-46.9359691911393
16500	8927.69963023337	8902.05038677983	12607.5501893285	-44.9175763887642
14112.02	10776.1668078653	8926.39097570517	13993.0778216262	-39.6365040699064
12011.13	12383.5399024164	8702.05875209973	15135.3191918682	-35.0961630477497
10236.38	12780.917860693	8562.09193585715	15383.799260256	-33.8186104040567
8750.684	13760.9686309802	8295.11225121494	16067.7672662718	-31.0815738279829
7449.463	14844.313506582	8289.29319109555	17001.941803501	-29.179663345358
6363.206	15732.3922929426	7931.32782938267	17618.5733927631	-26.7544991563298
5414.761	16340.5612664273	7546.75192898435	17999.0946211051	-24.7894601838373
4620.567	17063.8176514569	7062.08434533441	18467.4553781183	-22.4828581513556
3941.215	17546.1930053561	6968.36555864611	18879.274550155	-21.6602053491067
3361.769	18070.2988817967	6623.18533122351	19245.8381373532	-20.1290615852889
2867.244	18694.1690971906	6544.07305917202	19806.4850601549	-19.2930875143032
2442.658	19011.135281792	6453.20868430308	20076.532744121	-18.7494536991272
2083.003	19443.4121865239	6579.58995923094	20526.5019301068	-18.6956586917424
1777.843	19793.871857534	6699.887533736	20897.0298386443	-18.7000819259208
1513.548	20131.0896044337	6920.10534467523	21287.2879118769	-18.9705180052225
1292.065	20458.1340748648	7265.89741946372	21710.1016841311	-19.5529697110187
1101.762	20777.0135353328	7677.39092591553	22150.0930669993	-20.2799614797925
939.101	21193.0889869065	8236.49972597623	22737.3469987803	-21.2381589076354
801.2801	21667.086734644	8919.38135643919	23431.1333773717	-22.3747983111939
684.3433	22141.2953120857	9733.91039873939	24186.4832033861	-23.7315852883755
582.9476	22561.035184505	10675.4352482002	24959.2713502415	-25.3225859530506
497.0677	23074.3109036682	11772.3862659778	25903.9167323114	-27.0304241713089
423.5089	23608.3847316501	13137.9080068788	27017.7803757973	-29.09564481428
361.5036	24463.2927689512	14278.9327471977	28325.6176190108	-30.2716005817404
308.1262	25153.2508067556	16037.7401410928	29831.1101868631	-32.5216287615309
262.7298	25853.5445779569	18043.1050451299	31527.1217670436	-34.9110633024547
224.2111	26801.3873330635	20339.1328172041	33645.1287221904	-37.1942657385834
191.2854	27745.9637081788	22808.164881683	35917.2783958586	-39.4214157136143
163.1722	28877.0796288597	25912.5459548272	38798.7856221369	-41.90288446517
139.1537	30044.6417859038	29109.7085090559	41833.6662214236	-44.0945167864808
118.6706	31364.3177353824	33016.428585355	45539.048996854	-46.4699768867814
101.1982	32972.7381964257	37422.070395793	49875.9743451465	-48.6165919141288
86.24196	34815.4206104608	42334.7972766302	54811.9382318914	-50.5666996064802
73.61024	36282.1648331614	46150.2023439486	58704.6562153982	-51.8264332627446
62.69291	39097.1689460595	54437.528906866	67022.6317976442	-54.3139982852404
53.57697	41880.355203202	61481.3521820618	74390.3274497504	-55.7377812174067
45.65746	45094.4470352887	69727.2019405482	83038.4961561591	-57.1081702126447
38.96512	48816.4526513315	78825.6693905607	92717.4859685576	-58.2302163811612
33.18414	52940.280868392	89418.4097708173	103914.990951094	-59.3722931541955
28.30617	57671.8173180952	101023.636087035	116326.323594522	-60.2790561607695
24.17237	62957.1880193538	114105.758124315	130321.646553552	-61.1125378653463
20.61345	69310.103667458	129004.19077411	146444.432149798	-61.7521879478304
17.55618	76992.3835052613	145350.926909661	164483.187807505	-62.0898319765009
14.98558	85542.3099268263	163944.881837305	184920.01262239	-62.4455814714977
12.76553	94816.3038142664	185158.940365528	208023.952145623	-62.8838941847728
10.8809	105852.912569734	208233.5381064	233593.761671422	-63.0540626499266
9.278505	117619.879025556	235324.634822139	263081.963836671	-63.4432155843795
7.923394	131386.306394622	263313.685849934	294272.762354757	-63.4820621228893
6.75822	147616.271781269	295765.677685997	330556.95393027	-63.4762752491585
5.761429	164874.763169993	332173.582955008	370840.904895251	-63.6024405556463
4.919708	186042.296401539	372406.000240858	416290.721810794	-63.4547320360616
4.191257	209624.132474682	416559.31964883	466330.294643248	-63.2871991767653
3.564097	238824.080520294	471227.003478553	528291.425487619	-63.1235051346965
3.051758	265869.895657929	524291.082701585	587850.270747201	-63.1102698096289
2.604164	301424.473788407	583211.331335336	656499.939372848	-62.6684620538036
2.214424	337745.001590564	653414.037073638	735541.698304236	-62.6658837437255
1.892567	375677.408459536	729730.889060574	820756.167004555	-62.7598488221269
1.607507	424596.986404967	817377.106095273	921079.765510492	-62.549802494432
1.376413	473486.335964693	909474.89002424	1025345.73970436	-62.4978352224136
1.17375	544468.742539086	1012502.11897787	1149611.56593729	-61.73104580519
1.001604	597342.458738019	1127598.73430231	1276047.38102132	-62.087712032659
