EC-Lab ASCII FILE
freq/Hz	Re(Z)/Ohm	-Im(Z)/Ohm	|Z|/Ohm	Phase(Z)/deg
6999984	2.246644941927	1.62134368929648	2.7705899830014	-35.816978331492
5969734	4.89738921401276	1.84505708505794	5.23341731191494	-20.6435490374266
5091109	7.08041251591526	-2.83358618990541	7.62636558861114	21.8113229675725
4341796	3.31324509232727	-5.63693665097015	6.53855089824047	59.5540926625905
3702781	2.12488267173726	-6.09605836728346	6.4557767918335	70.7831487146824
3157797	1.16008013092462	-5.74097626309901	5.85701240938009	78.5760622778157
2693047	1.09393405476982	-7.40633011663589	7.4866826774462	81.5980135766742
2296687	0.853447611923082	-9.70811440701553	9.74555581616563	84.976000849427
1958656	-7.28651256930787	-15.2843687092815	16.9323711353119	115.488524454442
1670375	1.6305709869167	-16.0779019603619	16.1603741661628	84.2090395448649
1424531	17.5116686850239	-5.92365743310034	18.4864344187508	18.6890925954102
1214875	28.4442687489558	-46.7285564128308	54.7049760907537	58.6705917424987
1036062	21.0653597378403	-48.6141678137418	52.9819468602964	66.5720808078094
883578.1	17.7341336574414	-57.1130361584037	59.8029965454167	72.749940938028
753531.2	10.4508198381733	-4.33538427874855	11.3143798828914	22.5304709441309
642624.9	-8.52118703335343	-8.63618587907596	12.1323672461454	134.615975599751
548046.8	18.7293979294465	-6.51389006866875	19.8298035952516	19.1771437748806
467390.6	27.0973888027113	-6.26179921587194	27.8114834078514	13.0117913133297
398593.7	9.80032414336264	-13.7082818093118	16.8512119290716	54.4382671014264
339937.5	20.5893501572607	-2.77363731769198	20.7753316187344	7.67225438105675
289906.2	16.1132311969005	-6.05447596868805	17.2131606295935	20.593489714866
247234.4	7.90960186671248	10.4004762610321	13.0664344082919	-52.7468727718884
210843.7	10.695560678904	4.02450982713998	11.4276724482662	-20.6202411143207
179812.5	2.81621559029417	1.52736896975834	3.20373629076998	-28.4731032515586
153343.8	2.86585655041324	4.34410477726138	5.20426556618431	-56.5866984049843
130781.2	7.11892959650376	-2.45760375009694	7.53120008979098	19.0457473637232
111531.3	-26.8580472111626	-319.55319945679	320.679905798707	94.8043469797626
95109.37	-31.7915867707732	-372.722354480065	374.075739013595	94.8752791547998
81109.37	-37.3493199622516	-432.931439530329	434.539529888186	94.9307414693685
69171.88	-43.2733633619961	-505.685661908635	507.533814279042	94.8910927899454
59000	-159.173318905352	-597.674616657227	618.507148582543	104.912926767697
50312.5	-166.233341088043	-691.366243027423	711.07018337654	103.519665297277
42906.25	-178.741689742122	-801.627811859619	821.313423973278	102.569815864509
36593.75	-191.4593801914	-928.265454507713	947.80454118752	101.654114716331
31203.13	-207.089353067928	-1076.37484362061	1096.11532428545	100.890361975422
26609.38	-222.13615622017	-1247.95852378165	1267.57443528163	100.092919316159
22703.13	-241.962937320984	-1446.65648924545	1466.75187435127	99.4952097442782
19359.37	-265.135774724098	-1679.71882281103	1700.51530506027	98.9698647419227
16500	-291.401428612374	-1951.13799761029	1972.77831453918	98.4943097719642
14112.02	-317.963909220433	-2253.39916955059	2275.72161410354	98.031646352396
12011.13	2.40986560965036	-0.142708524545104	2.41408740097647	3.38900983481552
10236.38	3.91668589386671	-0.469093186722824	3.9446770221457	6.82966264753736
8750.684	47.9754487692597	-26.9128855553747	55.0086092673552	29.2912067689141
7449.463	-577.562223537219	-3759.04805830844	3803.15926917736	98.7349520459191
6363.206	10.8164404683057	7.37179458002923	13.0896424601495	-34.275842183727
5414.761	26.5709675929894	-3.60366338936032	26.8142258633642	7.72356275161072
4620.567	4.3441115600914	2.84308039243985	5.19176380090578	-33.2034485377366
3941.215	3.14869055477117	-0.256513499817881	3.15912193264109	4.65741406139362
3361.769	2.14206450886456	1.20135248285231	2.45594954105181	-29.2853912472935
2867.244	3.57720297992305	-1.73113633216643	3.97406770955365	25.8239985083035
2442.658	0.221671748807435	-4.63858510125682	4.64387877811438	87.263993212723
2083.003	5.98797843797084	3.22291846815635	6.80022714517588	-28.2905359797181
1777.843	1.94625862988553	-6.07731825428882	6.38135720817414	72.2423576273216
1513.548	4.87792929034142	4.88200637294368	6.9013172936066	-45.0239345442743
1292.065	5.20959744872532	-1.7632070449911	5.49989133176935	18.6985750469196
1101.762	1.89746300608565	4.56278662750805	4.94159768370817	-67.4197145699259
939.101	9.08259499847118	29.5643500473084	30.9280507893084	-72.9222866428033
801.2801	10.3583729187627	-2.33950779434119	10.6192836973093	12.7270943145071
684.3433	78.6170300640922	-17.0871774346886	80.452526677432	12.2623510581427
582.9476	73.1367185147866	-74.3128062613228	104.265875383771	45.4569932345681
497.0677	-5614.522091161	-39038.4944459559	39440.1686979032	98.1841677174599
423.5089	15.8985499458583	-5.305207979923	16.7603437342791	18.4534064063831
361.5036	-8879.63853837027	-77310.5304496702	77818.802991189	96.5520974380297
308.1262	1323.18859734967	830.941570901176	1562.46342626248	-32.1281729140366
262.7298	343.030338611053	-716.996964916796	794.829831415197	64.4323126261138
224.2111	1569.78948253983	-649.65604999264	1698.90906254122	22.4821763315793
191.2854	982.866418042443	330.855741255696	1037.05926409123	-18.6044323516016
163.1722	605445.685144231	491642.989475303	779921.346521545	-39.0778014647185
139.1537	609203.702634822	-402192.078111291	729991.519813385	33.4325170642299
118.6706	-12567.4762983086	-490490.201168342	490651.178438073	91.4677272598183
101.1982	385597.053334813	819764.484854849	905924.333578598	-64.8088604890738
86.24196	370590.584543999	-231790.755553006	437109.066152255	32.02446182354
73.61024	-106820.377697125	-235475.242528976	258571.427144293	114.400821376166
62.69291	-96384.5345857117	-154599.437868602	182183.876060951	121.941347030544
53.57697	-110893.666069451	-161935.475706724	196266.40942017	124.403403972
45.65746	369338.485608568	251003.631153931	446557.655632606	-34.2001544589903
38.96512	395387.047094638	238775.417300055	461892.43002785	-31.1279031952972
33.18414	158900.387625504	766726.373621462	783018.943062205	-78.2914741409743
28.30617	1183233.75820939	-43301.5090611365	1184025.82203822	2.09585555036116
24.17237	1043258.00748944	483564.102098205	1149878.91146367	-24.8683564722268
20.61345	1855166.55835853	1486.3260005459	1855167.15376723	-0.0459043357626944
17.55618	2017834.65221655	-81202.9790028461	2019467.90206847	2.30448953709112
14.98558	6727378.16262584	5138506.02576478	8465332.90070721	-37.3733150495617
12.76553	4967662.14789564	4115695.28549681	6451094.085401	-39.6416606900626
10.8809	6777538.73111235	-7573529.4929988	10163335.0940058	48.1746924850562
9.278505	4823383.24638351	2091883.62136422	5257471.1627193	-23.4462007401988
7.923394	2862554.26126628	-715507.59178063	2950621.63155316	14.0337761325045
6.75822	2205815.54675675	-1089004.22435794	2459990.33066865	26.2754090367753
5.761429	755241.492209667	1065187.99065803	1305762.29345052	-54.6625285120185
4.919708	2239916.86226149	1034389.62878319	2467223.02477453	-24.7874089949308
4.191257	1464527.88392291	-620451.332212872	1590535.06042226	22.960080428498
3.564097	2849556.23950256	-1303970.42738632	3133737.32747115	24.5890567358344
3.051758	920516.358028844	1496920.95067253	1757305.52208802	-58.410984565525
2.604164	6170931.81543568	-2130607.15523552	6528390.79105235	19.048004817436
2.214424	2775141.2654214	1141650.060017	3000795.54494829	-22.3615056903468
1.892567	1214093.41974434	-1901133.87849489	2255733.32994562	57.4370709053616
1.607507	1365230.78409822	-557180.028614872	1474552.36534234	22.2014270119652
1.376413	-607095.639698007	1432019.24184492	1555391.98427742	-112.974213762069
1.17375	1764369.63132085	998363.141684518	2027246.69406598	-29.5032183418463
1.001604	6347527.11997775	-6473792.17697848	9066481.43932147	45.5642337450827
