EC-Lab ASCII FILE
freq/Hz	Re(Z)/Ohm	-Im(Z)/Ohm	|Z|/Ohm	Phase(Z)/deg
6999984	40.6987629479558	77.8745023517129	87.8682389832688	-62.407537073901
5969734	41.5138026099261	71.91272552414	83.0351485784557	-60.0030050950755
5091109	42.733434187006	71.2618250961431	83.0926838743849	-59.0502335775524
4341796	46.554703647874	73.1576968310913	86.714410782587	-57.5289160399211
3702781	55.3063332107266	73.7213765696459	92.1609019950404	-53.1224924432202
3157797	59.9397638076428	75.0679483058176	96.0623347007604	-51.3935636485232
2693047	67.4695872587015	77.6106597962895	102.837540416304	-48.9984568254276
2296687	77.0889615099302	80.6595196307198	111.573590485105	-46.2966399650205
1958656	87.9442554750873	81.1602455396218	119.671122360907	-42.7026819809711
1670375	99.0133541789903	81.1097695257553	127.993902269973	-39.3236519250312
1424531	110.000222286287	78.7303785506992	135.272027447543	-35.5924075236905
1214875	120.284000198854	75.2478363239137	141.8819141937	-32.0294694746694
1036062	129.391543983427	71.0256975612671	147.60359537789	-28.7632949156364
883578.1	137.552078192297	66.0731582554154	152.598284580348	-25.6573078969661
753531.2	144.622031000235	60.9434057654911	156.938301752409	-22.8504506839776
642624.9	151.080716781678	55.5294910879107	160.962440848006	-20.1808283220789
548046.8	156.949280258041	52.7812438953859	165.586642820794	-18.5875300966453
467390.6	156.147742512171	44.1484551438332	162.268923652172	-15.7874624335291
398593.7	163.662596795146	40.2620179123207	168.542207402486	-13.8206759397615
339937.5	165.049760125259	38.2229214094549	169.417871071735	-13.0389437832409
289906.2	167.323960157556	35.1506463869622	170.976242748016	-11.8639162074087
247234.4	168.976275521748	32.6403566772915	172.099897074991	-10.9329056269447
210843.7	170.45559561942	30.6726737198127	173.193311046049	-10.2009348549312
179812.5	171.745572687913	29.4253077355955	174.248071648537	-9.7221369438522
153343.8	172.814836444301	28.5731181411758	175.161042402641	-9.38832027325308
130781.2	173.844461822889	28.3327563456964	176.1381332609	-9.25654570995094
111531.3	174.931735663137	28.5635823145728	177.248386104807	-9.27365422971355
95109.37	175.500281231965	29.4419502351636	177.952738518261	-9.52326902274024
81109.37	176.803848535425	30.7946155216095	179.465621226075	-9.88031340235397
69171.88	177.763999813187	32.8593947907133	180.775494621353	-10.4728205174547
59000	178.45041984922	35.4133129613293	181.930357772583	-11.224460930575
50312.5	178.664654391675	39.6350829453391	183.008192518752	-12.5079723353373
42906.25	184.320142116458	43.8082800221902	189.454691650362	-13.369706588792
36593.75	184.41613861493	47.1218404940013	190.341220005502	-14.3334731664036
31203.13	185.723907042746	52.4937286058786	192.999899456374	-15.7826209401603
26609.38	187.423236891379	59.0602976548409	196.508494691503	-17.4905393725099
22703.13	189.384115334547	66.4718653580507	200.710866734284	-19.3405456084739
19359.37	191.749934562236	75.1429560892346	205.947811968106	-21.3992173438467
16500	194.450948293182	85.4214520509857	212.386430269489	-23.7156742504047
14112.02	197.383374671795	96.7947362639663	219.839526849102	-26.1228475646658
12011.13	200.874679770236	110.332427863534	229.180892770442	-28.7782319253555
10236.38	204.739226647804	125.887349487752	240.345117881334	-31.5859772229264
8750.684	209.25394555596	143.037938745333	253.470048824808	-34.3550077622803
7449.463	214.567825245757	163.609620104072	269.8285741379	-37.3257996596115
6363.206	220.571947975226	186.613302841841	288.92301575182	-40.2326494670062
5414.761	227.550824853737	213.723188650468	312.181004000147	-43.2051831560347
4620.567	235.191878383366	244.307950095908	339.118849575721	-46.0891547586698
3941.215	239.495701547388	282.045498659122	370.010613866073	-49.6641306509665
3361.769	429.289375251071	317.801894426807	534.123030588199	-36.5124574215336
2867.244	446.328802147176	360.708490183522	573.864108057482	-38.9440215491334
2442.658	459.078905537741	414.459259731579	618.49003184124	-42.0759177192995
2083.003	478.218502449952	471.687922650149	671.701148174907	-44.6060993425972
1777.843	497.05707139244	538.280871826602	732.674572505172	-47.2801277499405
1513.548	520.647993710598	618.918070704577	808.785454616703	-49.9286881832902
1292.065	550.104592407788	702.596275259434	892.332106671372	-51.9404862414433
1101.762	579.247442469097	799.536185481316	987.312367744375	-54.0774469299427
939.101	618.873724048379	911.171145104575	1101.4706269296	-55.8153826211792
801.2801	660.616177392954	1033.668931858	1226.7376225264	-57.4174184529886
684.3433	720.407765049398	1162.73037747274	1367.81916883826	-58.218356154802
582.9476	789.877575884382	1339.69305253683	1555.21190192862	-59.4765714729093
497.0677	859.014450637326	1507.37293405064	1734.95792130881	-60.3222571785224
423.5089	939.652146300283	1655.71390733757	1903.76855184599	-60.4241863702761
361.5036	985.830234859674	1859.64468010604	2104.78967790375	-62.0711535523797
308.1262	1112.45555882783	2149.92047851785	2420.68491016847	-62.6411319669758
262.7298	2356.10383478738	2380.20587541377	3349.1200769238	-45.29156313038
224.2111	2419.51600478735	2718.11264208152	3638.9825545701	-48.3262627401801
191.2854	2497.68402746629	3106.5911641659	3986.14276742992	-51.2008894011766
163.1722	2756.97522759659	3421.42644912478	4393.98126445162	-51.1382364662791
139.1537	2999.4886624712	3999.93385565481	4999.64029565196	-53.1343354808456
118.6706	4374.10951367923	4758.52846026568	6463.46866201249	-47.4103209497281
101.1982	3142.39056859769	4610.67847696047	5579.69304742817	-55.7237609401598
86.24196	4028.78660665191	5060.71873671809	6468.53891184921	-51.4770607880076
73.61024	4589.38185809695	5499.17181416313	7162.63334822575	-50.1530183488178
62.69291	1179.58059792211	8806.33037855002	8884.97974804486	-82.3708190507467
53.57697	5320.36145871268	6542.11204546966	8432.40630347202	-50.8803252443789
45.65746	2802.78381606447	10017.9430165251	10402.6332917169	-74.3696353290833
38.96512	4951.17619012511	7862.85211323267	9291.85605894911	-57.8017012461828
33.18414	17999.6099927763	10330.107595652	20753.2427063772	-29.8518287827157
28.30617	15792.2743174697	13674.2204245403	20889.7159467794	-40.8886460353853
24.17237	19520.1970367245	14453.5564340276	24288.7501931279	-36.5177687402944
20.61345	24070.8202798658	8214.48311205347	25433.8774421795	-18.8428801972012
17.55618	15971.9508180047	16278.4464255189	22805.5044005005	-45.5445010786184
14.98558	13241.1306574826	15360.1028714105	20279.5537748945	-49.2371166654114
12.76553	26119.8936283681	9929.59186587059	27943.6153312349	-20.8145196434936
10.8809	17309.3315804785	16456.7440005321	23883.8309921587	-43.5535987912537
9.278505	24918.5969506648	9555.34093624612	26687.8439443425	-20.9799325589479
7.923394	24420.4221654224	16526.3133384635	29486.8793075587	-34.0878432719887
6.75822	26686.4099326058	447.29703773091	26690.1582934805	-0.960257784074225
5.761429	24952.6190359281	21719.696269289	33081.3905811459	-41.037534848028
4.919708	30651.7555245162	30291.0695281252	43093.8395816899	-44.6609027557015
4.191257	43896.253670198	7813.42757679797	44586.2168924011	-10.0928062598341
3.564097	18332.5430403402	44880.1538880957	48479.9994569418	-67.7810790513149
3.051758	21139.8176287388	75838.4607894261	78729.6895985603	-74.4242955027388
2.604164	141884.984769614	51202.5554588054	150841.143553693	-19.8431785638304
2.214424	166258.729710948	80289.9564198578	184630.556265751	-25.7769071071217
1.892567	180228.895812249	75335.8316613613	195340.58057099	-22.6849690135879
1.607507	151135.059768079	103538.962778878	183199.680961586	-34.4140968996921
1.376413	152262.550412823	100518.465009424	182449.571295929	-33.4314112556853
1.17375	165486.804102473	156705.20016396	227908.758257503	-43.4387436716418
1.001604	180391.978681022	150208.188436034	234741.913270063	-39.7833588823764
