EC-Lab ASCII FILE
freq/Hz	Re(Z)/Ohm	-Im(Z)/Ohm	|Z|/Ohm	Phase(Z)/deg
6999984	30.0577093496185	79.5971300202761	85.0833062287243	-69.312308758802
5969734	24.1361505698763	85.8536985123758	89.1819001400265	-74.2976718300149
5091109	22.3246067342408	90.5038504216297	93.2166026358998	-76.1434553670288
4341796	23.3943187935561	98.5192546328077	101.258765967291	-76.6419859445721
3702781	27.7316604566858	107.913638938256	111.419919496386	-75.5879727846495
3157797	31.3939520720668	119.003173108023	123.074511725545	-75.2216235704428
2693047	34.663250681327	134.484582178205	138.879961806745	-75.5466625276205
2296687	40.4897465481051	153.151666870276	158.413549422623	-75.1911422157419
1958656	49.4550416699471	173.70954168808	180.612308606194	-74.1083665745036
1670375	60.4326758253992	196.840722256394	205.908664814856	-72.9328290662337
1424531	75.0018418759871	225.224894034495	237.384770315284	-71.5817945853153
1214875	94.1424527891849	253.052226838556	269.996723915524	-69.5934018530932
1036062	118.386967542311	286.160816134542	309.682880984163	-67.5247377337734
883578.1	146.265220331743	320.990001647729	352.743668740493	-65.5027123789772
753531.2	184.951700611007	354.482075468118	399.830805950577	-62.4466127955289
642624.9	229.538239124011	389.757114635545	452.32555933661	-59.5050474753273
548046.8	280.795277997104	419.521990269607	504.821442160734	-56.2047360908604
467390.6	421.1781307935	469.333202143392	630.60659090504	-48.0952977233849
398593.7	476.292257678083	471.824920800629	670.427528232997	-44.730035843262
339937.5	545.949709708326	473.584209396164	722.733068926554	-40.9400117017188
289906.2	610.635378274687	460.355866574957	764.724191516556	-37.012512066812
247234.4	677.399237264251	450.624996390544	813.592412709317	-33.6329663488564
210843.7	730.412174972446	416.075408536722	840.607334572438	-29.6677718206079
179812.5	791.690796881434	396.389331647452	885.380607485094	-26.5965346922122
153343.8	833.170576749604	368.007018408992	910.825107009872	-23.8307929306024
130781.2	861.891870015869	334.756963493853	924.618743162325	-21.2260637685802
111531.3	891.720432743892	309.142059797348	943.78712817494	-19.1204324123185
95109.37	911.136474316286	290.059198742661	956.192456362602	-17.6588113473618
81109.37	943.245479646073	268.382542596528	980.684059237902	-15.8826937486578
69171.88	960.002599758084	250.280035996216	992.091269974969	-14.612188485845
59000	976.816787999483	240.270069923039	1005.93277301142	-13.818853933973
50312.5	989.539666264648	229.61139878631	1015.82978178618	-13.063649723367
42906.25	1001.52087418579	216.029272751959	1024.55488292019	-12.1722763631701
36593.75	1010.97137244982	212.017849581138	1032.96402863512	-11.8442465663018
31203.13	1021.29849002673	213.017873961546	1043.27715414361	-11.7815879018263
26609.38	1032.65832402978	212.82441611905	1054.36115552708	-11.645252594475
22703.13	1045.18369547411	217.914891914569	1067.65905484994	-11.7771302901802
19359.37	1056.20122205797	225.701624041101	1080.0473344125	-12.0622226298814
16500	1067.07957018889	236.974217817384	1093.07620458259	-12.5208982631954
14112.02	1080.20814604086	250.117401004083	1108.78688351643	-13.0368410281328
12011.13	1094.29183454563	268.408596795097	1126.72880232412	-13.7814684378407
10236.38	1108.13265172982	288.155235507099	1144.98533334708	-14.5761895475769
8750.684	1122.40344654122	313.795148219415	1165.44278789379	-15.6196259066015
7449.463	1130.38493078775	324.469985449517	1176.0318291652	-16.0157975740447
6363.206	1158.76643020447	377.118157732839	1218.58842299631	-18.0273721786577
5414.761	1179.75777381277	417.591981797025	1251.4837066989	-19.4921387819096
4620.567	1203.16786245681	461.071090563738	1288.48727421054	-20.9675452114172
3941.215	1226.59911079768	513.660646406624	1329.80924883103	-22.72238315761
3361.769	1253.02028457049	570.542254900337	1376.80002112575	-24.4813693182396
2867.244	1284.87504073422	636.233895972014	1433.77035842059	-26.3433159946542
2442.658	1318.22969611964	712.316136575258	1498.37372179213	-28.3849307764659
2083.003	1356.43283329618	796.953519843069	1573.22755634211	-30.4357816379351
1777.843	1399.49514399436	891.929928046547	1659.55586064733	-32.5102841971873
1513.548	1446.85508184562	1002.60286962459	1760.28467642082	-34.7201480355392
1292.065	1499.93076801951	1121.16040191509	1872.64330711271	-36.7771868411958
1101.762	1561.59054034051	1260.1685385887	2006.63642978238	-38.9027513991501
939.101	1635.84964839246	1416.03626816804	2163.59949734534	-40.8803610656677
801.2801	1709.18959096939	1592.09013380048	2335.82534707177	-42.9685172091779
684.3433	1795.08254804169	1794.40785522244	2538.15304998888	-44.9892304906233
582.9476	1897.51453102563	2012.51117164092	2766.001195125	-46.6846240655713
497.0677	2015.38402051401	2255.44938414765	3024.70241091504	-48.2172346013447
423.5089	2145.48629582219	2538.58544755764	3323.78211080574	-49.7971657214179
361.5036	2290.13214773263	2849.80930087902	3655.97022764888	-51.2143309910504
308.1262	2459.99521463857	3202.66463959963	4038.3953805672	-52.4718129231799
262.7298	2651.02955321335	3599.43557188182	4470.33490111634	-53.6278870551492
224.2111	2860.58660945381	4034.47095053874	4945.69627058996	-54.6619727429572
191.2854	3111.77010647336	4522.45060871528	5489.59677060259	-55.4692416284068
163.1722	3412.61935358479	5100.14626750999	6136.56767276769	-56.2126543675891
139.1537	3719.58251352879	5687.11852807607	6795.48462049141	-56.8138532524419
118.6706	4077.13902263586	6361.7669447256	7556.13269264797	-57.3449392919046
101.1982	4489.36905411269	7113.56975529792	8411.73639431919	-57.7440043962132
86.24196	4964.52213901934	7944.15432881889	9367.82088155538	-57.9975955163381
73.61024	5488.94132048567	8876.74818885993	10436.7205207461	-58.2694066943481
62.69291	6102.34348131084	9898.81643384539	11628.6354640114	-58.3473289544859
53.57697	6777.36751560745	11026.6234397215	12942.9183310035	-58.4235896370178
45.65746	7573.08217723966	12257.2324174885	14408.0297126136	-58.2903196538704
38.96512	8423.88606697932	13626.3869152035	16019.9961558134	-58.2754800469765
33.18414	9424.29580124608	15133.7032455703	17828.245154091	-58.0880082564097
28.30617	10567.7179123309	16720.6974981273	19780.2524427389	-57.7065329564116
24.17237	11752.9293692142	18570.9377751915	21977.5130214447	-57.6716398266881
20.61345	13126.5352744014	20513.9099562658	24354.1871144139	-57.3854474080203
17.55618	14664.9593612309	22687.9674203301	27014.9014200037	-57.1223394589183
14.98558	16423.4920532108	25016.517161521	29925.8620947594	-56.7148633341771
12.76553	18331.9377835721	27596.5740483352	33130.5122523937	-56.404583769802
10.8809	20511.8883574802	30369.8537856514	36647.8591864733	-55.9647928254155
9.278505	22734.9577723491	33373.4761468713	40381.5207122798	-55.7361998538921
7.923394	25521.4520876924	36622.7147644242	44638.1871650356	-55.128326010726
6.75822	28394.3745024634	40220.1070555249	49233.0936966592	-54.7788790514757
5.761429	31706.2788625533	44065.6648604586	54286.9315664852	-54.2640993908625
4.919708	35185.478627388	48113.4092730213	59606.3592086585	-53.8218848350026
4.191257	39041.3555823355	52675.9090978203	65566.598546731	-53.4555814574195
3.564097	43423.6235249661	57546.7870585907	72091.9120346019	-52.9625455451315
3.051758	47945.8479628944	62723.9561302137	78949.9778942715	-52.6059022359744
2.604164	53070.3185619269	68297.2608394149	86492.6271449277	-52.1510425015759
2.214424	58753.7757304295	74388.1598575078	94792.4284400802	-51.6973687898134
1.892567	64819.9698023045	81009.2202895061	103750.287985554	-51.3347609900089
1.607507	71485.2811956577	88624.039545256	113861.169030277	-51.1099094328878
1.376413	78475.2168173871	95960.1935063691	123962.568512901	-50.7240681944908
1.17375	86318.1702223317	104217.730555888	135322.436693813	-50.366800361337
1.001604	94639.0651789951	113278.925866736	147609.849615381	-50.1228750392159
