EC-Lab ASCII FILE
freq/Hz	Re(Z)/Ohm	-Im(Z)/Ohm	|Z|/Ohm	Phase(Z)/deg
6999984	2.4955980246929	1.68904724409172	3.01345152501661	-34.0905590919376
5969734	6.21538453689913	1.00626383473253	6.29631414770701	-9.19632784568269
5091109	7.85016984913058	-2.65526651343544	8.28707468999589	18.6877576037475
4341796	3.77315211841757	-4.48517454953889	5.86118312702737	49.9277829099739
3702781	2.58687314956628	-5.77771014704478	6.33039076481154	65.8803488617479
3157797	3.77531164378597	-5.5758195116173	6.73370189671611	55.898604740922
2693047	0.39713440284341	-10.2423547853033	10.2500510867969	87.7795406367817
2296687	1.78992848129305	-9.41100824903244	9.57971399528716	79.2312395165478
1958656	1.40686841392251	-9.35728281704546	9.46245319419161	81.4496175077354
1670375	-5.6543077111738	-8.87796012896868	10.5256530317219	122.492761612578
1424531	-8.28754186164444	-6.75792038276848	10.6935886403184	140.805122998533
1214875	-11.2081607960004	-11.6756853708649	16.1846994815607	133.829591025934
1036062	15.956699196395	-0.961672429797771	15.985651788603	3.44890913454968
883578.1	13.3036466269881	-5.2971762305108	14.3194654087665	21.7111985928734
753531.2	13.3944636621888	-1.45421653403031	13.4731734393032	6.19624634586434
642624.9	-3.78615192277887	-10.0306943262558	10.7214632886161	110.679345905232
548046.8	6.73158367379656	-6.04159065821824	9.04516646827433	41.907949412079
467390.6	6.62152649963056	0.801560025131979	6.66986594012199	-6.90227931849225
398593.7	8.10259226522819	6.22618288378858	10.218481037753	-37.5393467594347
339937.5	8.02832119188739	-1.77954573674797	8.22318212064442	12.4980257880138
289906.2	3.15982730577341	2.8101716574451	4.22866094013447	-41.6480844040974
247234.4	3.02799600438728	-6.50726332922658	7.17727217252365	65.0462369035965
210843.7	8.67059691012124	8.74899145046479	12.3176337897386	-45.2578502937145
179812.5	24.2476459665373	-13.7489476864217	27.8743950141074	29.5541886673011
153343.8	14.9214458414576	-4.9886042734401	15.7332678931154	18.4860420823938
130781.2	1.63950168585014	30.015655935697	30.0603986505177	-86.8735224753413
111531.3	16.9113400864645	5.7317158291704	17.8562591229637	-18.7229257532126
95109.37	14.4819724387629	-12.4134063246341	19.0740709419241	40.6019494138578
81109.37	33.3180996301113	16.7210506081009	37.2785366719335	-26.6502838629734
69171.88	163.368865339593	-36.8029081127517	167.46295174725	12.6953753709687
59000	21.9305371898482	-295.6557500736	296.467993235388	85.757801760883
50312.5	-85.1915440528238	-413.196560504757	421.887421939865	101.649817532868
42906.25	-61.2750922178353	-784.907051347901	787.295189990362	94.4638381621164
36593.75	-139.274040923495	-852.826963781725	864.12446362102	99.2750220636094
31203.13	-191.203341892217	-1018.56052573691	1036.35141845814	100.631786122479
26609.38	-96.2920009947511	-1109.59075647168	1113.76110378436	94.9597904295816
22703.13	-154.110471170167	-1316.06376717661	1325.05617865786	96.6788929980922
19359.37	-133.480316698404	-1462.7061578369	1468.78395249944	95.2141263948402
16500	9.69554566298487	4.56774239710728	10.7176432255117	-25.2259508913239
14112.02	6.74635023960743	0.381253561909911	6.75711446062002	-3.23449113887787
12011.13	5.98848676759215	0.737117734618398	6.03368182126927	-7.01719173388368
10236.38	-62.0050619736545	-571.494123063991	574.847945466484	96.1921653511285
8750.684	61.0252687783413	28.3847459402584	67.3036197508114	-24.9445999660249
7449.463	6.94474940302354	-3.54056678883234	7.79520092473429	27.0133614881699
6363.206	46.7756569512251	-95.9635548330594	106.756573284348	64.0139388441093
5414.761	90.4000692145539	285.518537138457	299.487908877271	-72.4313191081557
4620.567	8.59958238252162	-2.76497430182062	9.03315559721544	17.8238575698272
3941.215	4.5263866110698	4.64861436475503	6.48828107167675	-45.7632391760655
3361.769	8.101337045017	-1.83345728488845	8.30621619827435	12.7520981926866
2867.244	-1.15812234858855	-8.41344881579194	8.4927833099786	97.8375855471852
2442.658	5.56870884617992	2.53196646444043	6.1173010707806	-24.4502233324963
2083.003	28.5419609806276	-6.79369996504777	29.3393574543608	13.3886886805447
1777.843	14.7939702172053	19.5498087265276	24.5164552093359	-52.8840331384647
1513.548	149.035284866304	56.9339058288987	159.539919042585	-20.907671121826
1292.065	6.04435497455786	-7.84942341428357	9.90695084247245	52.4023589792542
1101.762	12.7901366472175	17.2083287541025	21.4409462002909	-53.3783238283241
939.101	9599.47399574514	1694.75831507723	9747.9283307537	-10.0122254755269
801.2801	10.411497427858	29.6946977504188	31.4670359770192	-70.6784120297325
684.3433	41.0768598250177	60.8968498036978	73.4556650578993	-55.9990843494541
582.9476	27.1822894016104	0.259222817735909	27.1835254075357	-0.54638235101505
497.0677	-4245.67453895628	-50189.674197883	50368.9303874956	94.8352867006997
423.5089	-1304.83886095653	-53857.9553320708	53873.7594474749	91.3878569431771
361.5036	-6027.2917516833	-61489.2888441089	61783.9856954386	95.5983518922549
308.1262	301.443229096456	-21.4702171019779	302.206867212683	4.07399749467048
262.7298	18693.6931185689	-49321.4325213694	52745.2165449269	69.2424079077961
224.2111	2667.14790360738	-7310.8072205375	7782.13210859212	69.9568862783242
191.2854	298766.715706102	-398689.407754033	498211.595879775	53.1531342261038
163.1722	639829.730934308	-643406.680340892	907388.693391512	45.1597083529865
139.1537	947509.755171512	375909.671981803	1019354.11787791	-21.639928372737
118.6706	363376.413220835	899997.337484224	970586.227577917	-68.01347073302
101.1982	821053.678150482	-7576.36222223299	821088.633260111	0.528688039202702
86.24196	468603.213458067	-333177.853144945	574975.176411557	35.4129055760539
73.61024	269207.683116742	88495.5234072644	283380.017489254	-18.1970307113739
62.69291	-111254.386600829	-163223.671057914	197533.554950922	124.278613764221
53.57697	-108015.743493256	-198234.436194161	225752.72431494	118.585475928683
45.65746	352619.693273403	4897.624142584	352653.703803704	-0.795744412358312
38.96512	326554.336549656	-549278.954276314	639018.860699954	59.2679002439226
33.18414	472615.740438347	-720663.032667123	861812.534582238	56.7428637816252
28.30617	181929.462002431	-1276037.49864631	1288941.43664328	81.8858102771684
24.17237	997872.413100551	294165.248240617	1040328.09541009	-16.4251186228861
20.61345	-432211.134655034	-1320906.32764279	1389820.12912699	108.118511039895
17.55618	2205164.99457722	147813.514926898	2210113.45602523	-3.83483345182697
14.98558	-8587761.00261021	-11921118.8787539	14692267.1619916	125.768304031561
12.76553	6332234.45646986	-5001282.97689121	8069078.30093661	38.3021483904042
10.8809	12750237.2409609	-5034536.50761944	13708213.1420306	21.5469946183668
9.278505	9310007.61551489	624574.537498797	9330934.31301694	-3.83801451350554
7.923394	3131187.47708241	1500179.45132724	3472012.87480651	-25.5994907258594
6.75822	2802823.68675015	-481463.138458303	2843875.41441284	9.74702050089473
5.761429	1206995.91031869	-263993.045805009	1235528.81624002	12.3373970701489
4.919708	2387340.33208871	737342.209255317	2498613.09425188	-17.1635695475626
4.191257	1940988.51600433	422343.543560997	1986406.42569651	-12.2757525409708
3.564097	4321940.87455035	1482773.13299865	4569221.93453674	-18.9360889713131
3.051758	1985380.49715671	1199541.38291162	2319619.63429519	-31.1398321765918
2.604164	14306011.186163	7375133.035656	16095171.4297253	-27.2723212228352
2.214424	3971757.8567891	-814497.601395857	4054413.25171048	11.5891027305521
1.892567	944413.373704239	2326673.58204144	2511040.93511057	-67.9074162451413
1.607507	1838013.60667722	724571.086664682	1975676.4102355	-21.5150636804442
1.376413	10646588.5564891	24607116.1645863	26811564.9268857	-66.6036507823211
1.17375	92255628.4824905	31973035.4231453	97639008.5000304	-19.1147830484585
1.001604	52877496.8065437	33134979.9200789	62401575.0028	-32.0727678952475
