EC-Lab ASCII FILE
freq/Hz	Re(Z)/Ohm	-Im(Z)/Ohm	|Z|/Ohm	Phase(Z)/deg
6999984	19.2776890404179	92.5352535452461	94.5219680467035	-78.2320011218397
5969734	16.73480303191	92.7124645264139	94.2106931886098	-79.7681582663649
5091109	13.9324318809363	98.5060694047662	99.4864732900586	-81.949637775546
4341796	13.2153539116944	108.825644194747	109.625117620977	-83.0761300965527
3702781	16.8865853048875	119.714746523602	120.899864757863	-81.9710091013044
3157797	15.9019167382471	133.067798988074	134.014589069551	-83.1853358523047
2693047	16.5521592910195	151.552248218296	152.453461479939	-83.7670026059215
2296687	17.9914395961866	174.154234836542	175.081093811538	-84.1018391413959
1958656	20.7878938619843	199.96548209163	201.043106221912	-84.064997955169
1670375	23.9494828022127	230.826699071343	232.065815515052	-84.0764571110716
1424531	28.0701675352072	266.898885210328	268.370917261857	-83.9961857239738
1214875	33.1100611337958	308.920340323334	310.689640660528	-83.8823963058608
1036062	38.8731890809988	357.371409486593	359.479414080641	-83.7920408615687
883578.1	46.6645865587461	414.157467574643	416.778108334088	-83.5713948146638
753531.2	55.9423525043778	480.567605201664	483.812742673224	-83.3601452755991
642624.9	119.612194382391	629.06658363051	640.337289001299	-79.234161601303
548046.8	146.539301127547	718.049104978962	732.849427874539	-78.4654814233555
467390.6	177.237712224235	818.531662352999	837.500620243857	-77.7822865484415
398593.7	211.069314937337	932.485238041945	956.074774729602	-77.2459407564195
339937.5	249.994679857031	1062.54096699262	1091.5542343349	-76.7602444334871
289906.2	292.805433462803	1210.9825906251	1245.87874878032	-76.407245135907
247234.4	343.083822130284	1383.10709054601	1425.02341486944	-76.0687989663233
210843.7	404.451420136167	1579.1349312516	1630.10677022984	-75.6340958871575
179812.5	473.533880668235	1808.06837315549	1869.04937819894	-75.3238392410942
153343.8	560.151597888283	2067.13830844151	2141.68872594577	-74.8381429181618
130781.2	662.65688888681	2364.16741618199	2455.28037586867	-74.342247946476
111531.3	790.204956442431	2702.93577677645	2816.07629274569	-73.7036864838027
95109.37	943.825868512264	3089.37639043707	3230.33338091642	-73.0117253546232
81109.37	1145.68066704568	3523.09258463372	3704.69506852364	-71.985901718221
69171.88	1381.98462240017	4005.78142437887	4237.47168916198	-70.9656930682111
59000	1676.82984524205	4541.99871737421	4841.64338613693	-69.7366985976555
50312.5	2641.13905501617	5345.71875061133	5962.57699896356	-63.7075783110528
42906.25	3332.85774430027	5955.14908480589	6824.34915328977	-60.7660129908512
36593.75	3831.46646697	6499.189362587	7544.50778104705	-59.4793789661054
31203.13	4452.47228119565	7144.79547827662	8418.58728298386	-58.0697881985245
26609.38	5236.92475660653	7792.48564676798	9388.72800018423	-56.0970028366419
22703.13	6131.86019485855	8457.42435345192	10446.4221695111	-54.0568777450975
19359.37	7171.18439015523	9110.18162292998	11594.0197843706	-51.7915401330211
16500	8344.5226188725	9674.61160948244	12776.1170756692	-49.2216525345208
14112.02	9593.1116510087	10155.1474367049	13969.7820530577	-46.6301988046118
12011.13	10992.405494813	10507.2361364217	15206.4127850365	-43.7072603423299
10236.38	12442.6142268605	10707.0350191748	16415.2139096725	-40.7124328654929
8750.684	13857.5717405246	10786.2966866031	17560.6517747836	-37.8960645531052
7449.463	15294.4712153039	10679.865020378	18654.2318686472	-34.9259315572384
6363.206	16661.1597255946	10491.6590050647	19689.3156833936	-32.1989332017353
5414.761	17982.1863579199	10173.2635003673	20660.4529587051	-29.4986289499073
4620.567	19120.566091462	9779.56342715135	21476.4035276776	-27.088304367773
3941.215	19988.4970206463	9440.82445857534	22105.8630141875	-25.2819689749538
3361.769	21080.3331885974	8973.00630611525	22910.5933906537	-23.0574030395789
2867.244	21873.534704843	8588.32642026362	23499.1674572732	-21.4367346202718
2442.658	22550.8978388825	8213.52424573091	24000.1036221705	-20.0127167754096
2083.003	23203.8993933519	7964.949953323	24532.8631597646	-18.9452505664573
1777.843	23766.0184459406	7749.29169326051	24997.5029656969	-18.0593890602496
1513.548	24275.5643908273	7647.21573502913	25451.5802061734	-17.4853139974183
1292.065	24781.3223489352	7712.38815846135	25953.7062568838	-17.287070600303
1101.762	25181.9324845933	7695.8557927723	26331.6524365973	-16.9936875613063
939.101	25549.0993270912	7857.05705972279	26729.9424254021	-17.0941156036368
801.2801	25982.1123271068	8129.14857631048	27224.1293259147	-17.3735872273678
684.3433	26448.2605605323	8470.8717785124	27771.6790159652	-17.7592680375821
582.9476	26895.6893542836	8973.1451560353	28353.0499211884	-18.450123358217
497.0677	27453.6575060407	9708.22980600255	29119.6331780663	-19.4747380536715
423.5089	28158.3082294086	10148.2560968246	29931.2115382775	-19.8191659026365
361.5036	28632.4425174503	11178.434899768	30737.1789747116	-21.3262454390588
308.1262	29192.6581506461	12340.2969517649	31693.7567788709	-22.9147136302795
262.7298	29868.0150340958	13631.7763102529	32831.7475540024	-24.5319786802835
224.2111	30594.2878568151	15307.6847691049	34210.1689919233	-26.5808413782036
191.2854	31275.1016949071	16872.8783676198	35536.2633155946	-28.3468061647779
163.1722	32136.5356304967	18833.4183278878	37248.5512234155	-30.3721718635197
139.1537	32985.9153951032	21086.1746704974	39149.6791390126	-32.5886590939833
118.6706	33987.076404593	23642.5230957507	41401.57316896	-34.8237388048988
101.1982	34923.7990810487	26379.6847683948	43767.1053501753	-37.0655679586411
86.24196	36359.668426619	29876.0265443766	47059.5627919976	-39.4092747379355
73.61024	37749.2052560715	33711.6681173812	50611.0567437736	-41.7662283014534
62.69291	39302.7581418708	38037.2266764249	54694.9486771138	-44.0625400119346
53.57697	40935.469695285	42921.3898563478	59312.3797058775	-46.3566401053266
45.65746	42857.9398406092	48594.7804453679	64793.9479728994	-48.5894680921073
38.96512	44931.3657677552	54963.5564859526	70991.6908612572	-50.7348398010393
33.18414	47350.8510423972	62370.8315164818	78308.5162577906	-52.7948637168085
28.30617	49949.2210364193	70505.292626553	86405.5609929184	-54.684472795572
24.17237	52908.2962079231	80135.0740189501	96025.6106236661	-56.5656536651692
20.61345	56271.900662937	90892.2669049338	106901.501333411	-58.238123198734
17.55618	60320.3670160724	103638.647417424	119914.619273326	-59.799490486245
14.98558	64582.6941488468	117454.199251766	134038.849985357	-61.1956167456403
12.76553	70299.662471056	133624.017063107	150988.146818305	-62.2511195958303
10.8809	76042.086399897	152000.670494926	169960.591711597	-63.4223599206367
9.278505	84141.3797072647	173202.077708827	192558.384656957	-64.0895692730665
7.923394	90382.5422464726	196732.153233493	216500.679118617	-65.3250381667071
6.75822	99312.2630593183	223494.143572126	244566.060206647	-66.0414645937387
5.761429	109713.0024661	254315.472696364	276971.663826648	-66.664384308605
4.919708	121130.007627192	289201.258010344	313544.010280103	-67.2739541068446
4.191257	134866.883868737	329250.22801132	355801.614681509	-67.7251010747306
3.564097	151828.210526504	373990.873090717	403634.709442631	-67.9044368646066
3.051758	168300.186448771	425594.672759746	457663.389665556	-68.4238231058927
2.604164	189187.786880318	480924.828580588	516798.519202543	-68.5261533681031
2.214424	211816.145771519	547610.252408171	587148.250573943	-68.8534841564613
1.892567	240799.192990878	619608.688802129	664754.976351551	-68.762326571256
1.607507	273449.176227184	702996.777743572	754306.914655547	-68.7451378374021
1.376413	312091.711023643	795233.653141334	854282.037255951	-68.5723337663906
1.17375	353501.433606451	898779.280063728	965798.870279775	-68.5296484106533
1.001604	401578.984796152	1017660.07859957	1094028.20649433	-68.4653052502602
