EC-Lab ASCII FILE
freq/Hz	Re(Z)/Ohm	-Im(Z)/Ohm	|Z|/Ohm	Phase(Z)/deg
6999984	22.2186189396668	88.6462594459028	91.3883271612761	-75.9290545600909
5969734	20.0800797045995	88.157451580764	90.4154072609189	-77.1683622709588
5091109	18.1224940920056	93.2485243284023	94.9932212399359	-79.001884511157
4341796	18.9112067827048	102.442891145696	104.173795593072	-79.540808613257
3702781	23.9846125575718	111.746554413271	114.291531019473	-77.8861637966987
3157797	24.9969813169147	123.370797580976	125.877729446969	-78.5459819935714
2693047	28.4645698145314	139.266529999367	142.145693261494	-78.4484645768401
2296687	33.5037520275408	159.072513198095	162.562498304748	-78.1062368858085
1958656	40.6141416737011	180.877290723842	185.380966669959	-77.3447186803001
1670375	49.4559527247992	206.679914040808	212.514653913167	-76.5428642460145
1424531	60.8530059890114	235.885290968546	243.608207647473	-75.5344012308047
1214875	75.3374114827496	268.636255137182	279.000292370905	-74.3341692415647
1036062	93.0323650245157	306.270882081776	320.088853528523	-73.1033986018442
883578.1	115.942264304369	347.786481212404	366.603389463504	-71.5630588654145
753531.2	145.16557429766	395.842997584675	421.621539651368	-69.8607439603013
642624.9	170.853209890402	439.823659806137	471.842845717849	-68.7709209381829
548046.8	302.223283965151	533.808864721439	613.425478298605	-60.4830291358361
467390.6	353.049127790742	584.362811838668	682.732438436756	-58.8612720967183
398593.7	423.800866372286	629.213769657746	758.628461280494	-56.0381428823481
339937.5	502.111442194885	671.050276167495	838.107614526618	-53.1944330239769
289906.2	588.513122765324	708.756844926185	921.240446841493	-50.295604625714
247234.4	682.385631205946	739.027092803658	1005.88826097841	-47.281955485307
210843.7	783.486911120795	767.312781321074	1096.64061764841	-44.4024529534739
179812.5	886.560711965498	773.815613844509	1176.76696938278	-41.1153883532304
153343.8	991.022785033292	776.876070591264	1259.23095161788	-38.0933740290144
130781.2	1095.29694386452	767.236314550582	1337.28342456044	-35.0105688827351
111531.3	1194.21568958434	748.02058661248	1409.14368012828	-32.0617842943148
95109.37	1283.93139187598	720.954679210234	1472.49973464165	-29.3151334864387
81109.37	1369.45649228536	689.38283939415	1533.18615422709	-26.7206316210596
69171.88	1443.93449080714	654.229321376743	1585.2327332892	-24.374707495098
59000	1511.01743534453	618.417238001765	1632.67068638256	-22.2579149209872
50312.5	1567.57190748101	588.084131019065	1674.25345461197	-20.5638849855916
42906.25	1621.79716153656	545.211504843776	1710.98849153992	-18.5814796623287
36593.75	1660.36864985412	518.76484192065	1739.52321474344	-17.3508694507908
31203.13	1705.21467243832	503.860976870083	1778.09813090037	-16.4614842541431
26609.38	1730.06753376929	480.108549712191	1795.44921702322	-15.5097898972749
22703.13	1763.42431414076	468.120699287534	1824.50056201807	-14.8669140624043
19359.37	1795.11579076637	461.152303871348	1853.40285680816	-14.4073331557739
16500	1820.78596107003	464.954405466573	1879.21369598896	-14.3248730698987
14112.02	1836.92823315354	465.696578274074	1895.04053697349	-14.2258602333221
12011.13	1834.69351662579	528.995022671888	1909.43343271252	-16.0837962051708
10236.38	1885.38891051036	513.580732189979	1954.08713018439	-15.2376865107893
8750.684	1911.92831531361	541.894743546081	1987.23923974463	-15.8242348648206
7449.463	1939.69340367433	581.315031101425	2024.92905200211	-16.6831730842351
6363.206	1966.05953047355	628.977703682693	2064.21971434628	-17.7404062669664
5414.761	1999.65601882466	686.332425912023	2114.16091924905	-18.943514504338
4620.567	2032.32124216314	750.638386444655	2166.51508615836	-20.2717223466985
3941.215	2072.42452423848	830.928090356019	2232.79755016164	-21.8480667509742
3361.769	2108.38983110806	922.980665851906	2301.56490011824	-23.6421523061335
2867.244	2154.51340924664	1028.1737199222	2387.27234076095	-25.5113411690785
2442.658	2200.80739471442	1148.88864395202	2482.63938276013	-27.56593344495
2083.003	2256.89847492902	1288.56220688281	2598.8426822614	-29.7239388732646
1777.843	2315.48394159712	1446.45527609009	2730.14628720202	-31.9925308856173
1513.548	2384.58245791902	1626.65663942051	2886.56289056482	-34.3000782984611
1292.065	2459.13821097651	1832.29728055165	3066.70410457249	-36.6896961858793
1101.762	2552.55807730303	2061.66167775872	3281.15857762832	-38.9272739927817
939.101	2641.97277144941	2334.23643987945	3525.43329001432	-41.4612485966832
801.2801	2742.93443523481	2636.9601390778	3804.89790810241	-43.8715216126159
684.3433	2858.21926295427	2974.22815259974	4124.97884344147	-46.1394776418161
582.9476	2986.09852650017	3384.09306088539	4513.18847985536	-48.5750582035598
497.0677	3125.50075813154	3836.09395734908	4948.16853378004	-50.828186085022
423.5089	3288.41987091198	4354.47713325318	5456.6634816006	-52.9405783432662
361.5036	3459.16309332655	4951.58496434958	6040.19891770175	-55.061960309316
308.1262	3656.90533860963	5635.4566604585	6717.98544412368	-57.0200493037536
262.7298	3879.71304013582	6411.97476806271	7494.37080081262	-58.8229985160035
224.2111	4128.06443125843	7277.31325601338	8366.61246710813	-60.4358747092968
191.2854	4428.69006029944	8312.92088288472	9419.02061019594	-61.9536399085983
163.1722	4736.05623128747	9434.13971502139	10556.19348006	-63.342776082893
139.1537	5128.3548005313	10808.7497157313	11963.6571907362	-64.6173779939411
118.6706	5572.68443113106	12350.941852627	13549.9290188526	-65.7153370167503
101.1982	6065.91686396133	14086.002106404	15336.5838028587	-66.7016265652885
86.24196	6611.62494485007	16063.0863549761	17370.5592212451	-67.6277555453379
73.61024	7244.8188071857	18396.4926205404	19771.6549708554	-68.5047247465652
62.69291	8110.33179941537	20911.7599153948	22429.4267571804	-68.8019179548995
53.57697	9010.27885015921	23795.8335603428	25444.5833094033	-69.2608571487993
45.65746	10115.1906070595	27137.7630093843	28961.6170503418	-69.5578211740156
38.96512	11240.4609518812	30949.5845014223	32927.5681340339	-70.0396786797206
33.18414	12674.0753741965	35281.9405017124	37489.298635173	-70.2405576826935
28.30617	14315.1387203902	40155.8553413304	42631.1613116259	-70.3793853564537
24.17237	16203.7930353073	45770.0093607989	48553.6472947058	-70.5046912262488
20.61345	18428.6929750648	51976.2429009332	55146.5914709695	-70.4775330267596
17.55618	20967.0427192398	59136.3374040241	62743.3126472695	-70.4778195056572
14.98558	23950.1329197784	67064.7367271437	71212.97479502	-70.3473570157059
12.76553	27422.8850943895	76160.1637547967	80946.8045697762	-70.1976431438382
10.8809	31469.018773213	86436.6226157068	91986.8951088085	-69.9949306759209
9.278505	36038.9707588486	97382.1537726734	103836.849368429	-69.6916068191787
7.923394	41464.4359418451	110423.464813483	117951.858948429	-69.4186497255783
6.75822	47724.7123819684	124702.25123888	133522.655890251	-69.0576863146459
5.761429	55151.7942978687	141035.896536943	151435.941989521	-68.6421200258375
4.919708	62727.4672746135	158757.383881345	170700.445481365	-68.4402669946129
4.191257	72281.2615726894	179355.681955118	193372.804251593	-68.0503119192469
3.564097	83028.0457346816	201799.849148975	218212.821564338	-67.6358915460288
3.051758	94415.4267194727	226736.74169129	245609.085408913	-67.3926709619957
2.604164	108494.986675465	254136.663140789	276326.990513131	-66.881592608739
2.214424	124774.746128212	286683.950683482	312660.238679063	-66.4796627154548
1.892567	141919.825233915	319831.364229794	349904.756097307	-66.0715448779831
1.607507	163039.348157972	359680.188572434	394907.162633547	-65.615699656177
1.376413	184193.762701336	401929.245209894	442124.937515484	-65.3792399741265
1.17375	210040.019460618	448747.544711842	495470.653681854	-64.9176651743691
1.001604	238857.692130994	501416.270510685	555401.902610163	-64.5284549441368
