EC-Lab ASCII FILE
freq/Hz	Re(Z)/Ohm	-Im(Z)/Ohm	|Z|/Ohm	Phase(Z)/deg
6999984	20.5082257330402	99.4481792818954	101.540768586816	-78.3477958922356
5969734	21.2429725617425	89.2533038255436	91.7464774638991	-76.6122494350049
5091109	18.5000542294463	94.1461640358816	95.9466112437723	-78.8828238813288
4341796	18.4646390547181	103.15489939875	104.794447206841	-79.851580921336
3702781	21.2447479285991	113.80072123117	115.766763223665	-79.4255295048767
3157797	21.933117372521	126.53100594659	128.41790024577	-80.1659628635243
2693047	23.9657963907757	143.128620894461	145.121195956326	-80.4944395674728
2296687	26.3614585700431	164.104694183331	166.20853513266	-80.8740814025264
1958656	30.6690013426966	187.937572438226	190.423524747684	-80.731758686216
1670375	36.0646980978505	216.183348641718	219.170943965745	-80.5288743309601
1424531	42.6947356387299	248.868730845924	252.504426979255	-80.2653710409795
1214875	51.1280839496366	286.280096873629	290.809860277012	-79.8740408669051
1036062	61.9226433289097	330.494252005659	336.245244376213	-79.3878861777366
883578.1	74.9538822228138	381.651646984536	388.942237493282	-78.8888972339572
753531.2	92.1761038818513	440.108456821109	449.657522890806	-78.1709811166583
642624.9	115.007153430796	507.073801369839	519.952387604782	-77.2211889796699
548046.8	202.119543804603	648.852605382254	679.604306563106	-72.6980309617891
467390.6	256.170860398401	728.383943646592	772.118306400916	-70.6233507856204
398593.7	315.277897272393	819.3495980865	877.914526815117	-68.9537517706092
339937.5	387.086128463659	917.979467001372	996.253969972068	-67.1362150528952
289906.2	472.034461827493	1025.34997364599	1128.78656158221	-65.2803474586869
247234.4	575.932486748083	1138.46295128872	1275.85113581047	-63.1657894199771
210843.7	698.765011374267	1257.3895158625	1438.50649484868	-60.9379003293904
179812.5	848.430753198314	1376.13556639354	1616.6582323008	-58.3448652359669
153343.8	1024.51206032463	1491.50096427921	1809.47508637076	-55.5148261505874
130781.2	1225.14711289398	1592.74529468079	2009.43350772307	-52.4323475902513
111531.3	1450.92619985956	1674.50818295034	2215.66344290069	-49.0917572727867
95109.37	1693.56714711742	1731.63308977668	2422.13187902826	-45.6367300949006
81109.37	1945.75212448697	1753.14024379979	2619.05556343807	-42.0191376018021
69171.88	2197.20379797229	1746.44170242551	2806.73531879919	-38.4793413181264
59000	2437.35525876939	1711.12350512798	2978.02691513228	-35.0704315131704
50312.5	2667.69888457305	1661.98151478738	3143.05582105174	-31.9229852684444
42906.25	2883.53480422702	1545.13536631149	3271.4241955783	-28.184527328463
36593.75	3051.49669602425	1453.90192081879	3380.15722729099	-25.4757146533773
31203.13	3190.82081741405	1359.41539000681	3468.33500276865	-23.0759153059396
26609.38	3327.27229317518	1257.10886198952	3556.83336745255	-20.6975503096177
22703.13	3439.31441604906	1168.02450407136	3632.23965268731	-18.7579850406967
19359.37	3531.43544265237	1090.5292817482	3695.98300861511	-17.1610141557963
16500	3605.54209745157	1025.07384085619	3748.4276964753	-15.8707189307396
14112.02	3671.57949819823	968.145869622623	3797.07814463396	-14.7718832825039
12011.13	3731.05954185529	925.581489188747	3844.15223397803	-13.9323740619223
10236.38	3778.04063383062	886.955107968278	3880.75770880202	-13.2118395274996
8750.684	3831.47196146641	878.100183153524	3930.8061925205	-12.9081833552362
7449.463	3879.31446263987	871.663296706817	3976.03792774575	-12.6637595598334
6363.206	3925.77844343952	880.835492501463	4023.382600726	-12.6461411076331
5414.761	3989.84755880547	842.888239669963	4077.90928382178	-11.9288094072852
4620.567	4038.74643314851	887.951744465495	4135.20628890133	-12.3996718529017
3941.215	4079.23034713465	941.004472544756	4186.35995135792	-12.98986421851
3361.769	4124.1762718506	1010.55883025748	4246.18170486225	-13.7680784141685
2867.244	4181.078078297	1092.12507913539	4321.35986528457	-14.6389513444556
2442.658	4238.0704014208	1193.97048631392	4403.04511100985	-15.7338565022167
2083.003	4301.27542994636	1306.06656880689	4495.19523562828	-16.8907213159433
1777.843	4372.52253853255	1440.26342542565	4603.61945479792	-18.2313451537243
1513.548	4450.74616557436	1598.74176669041	4729.1771659492	-19.7586730186265
1292.065	4537.43078322193	1769.70583105693	4870.3323132007	-21.3069654092527
1101.762	4624.09573404412	1972.3414749518	5027.16542908826	-23.0999738037571
939.101	4722.91554793074	2198.18561969273	5209.40987939227	-24.9586718094733
801.2801	4842.26393941612	2465.53876950391	5433.82015555324	-26.9838598912986
684.3433	4959.24507085531	2755.86627868364	5673.5271761743	-29.06104962261
582.9476	5111.29900629462	3100.14540839723	5977.9828608783	-31.2379798468978
497.0677	5268.02014201055	3484.53370678209	6316.17062549211	-33.4826566008818
423.5089	5460.64755717932	3916.77455823205	6720.10377031057	-35.6508492187938
361.5036	5646.4142752396	4410.9920807963	7165.11306990177	-37.9970369053411
308.1262	5869.76254950307	4974.79730159754	7694.33041788114	-40.2822618824866
262.7298	6124.80695439987	5606.29334005765	8303.23944273799	-42.4691787611435
224.2111	6440.94506644015	6325.27404026091	9027.45063865199	-44.4808736868935
191.2854	6742.55412017677	7130.44482572812	9813.52533375574	-46.601579562745
163.1722	7125.16936722921	8025.18479481606	10731.8045781056	-48.3996930112041
139.1537	7541.49523667109	9081.37595181724	11804.4711691366	-50.2925622198219
118.6706	8012.60320340586	10251.3676964751	13011.2393623191	-51.9883511356485
101.1982	8576.05817196327	11561.0516954259	14394.6757543617	-53.4317521427201
86.24196	9210.0678306654	13049.2475008888	15972.1072430944	-54.7858232999527
73.61024	9932.01088030759	14690.5794854732	17732.9626894536	-55.9381502879419
62.69291	10780.2510961294	16583.0053700145	19779.0262853743	-56.9729808208836
53.57697	11747.6899223855	18617.0374435871	22013.6844187529	-57.7473275514249
45.65746	12854.5922252016	20978.5014429522	24603.6189221863	-58.5020848549508
38.96512	14066.619676531	23601.8614587915	27475.7648382016	-59.2052186611353
33.18414	15513.8367973999	26556.4573667393	30755.8865918023	-59.7072442812289
28.30617	17118.180075875	29799.9080780867	34366.6496850144	-60.1253315843359
24.17237	18970.7866517679	33517.9876249499	38514.2342597278	-60.4906494745113
20.61345	21130.5704031032	37476.0481855721	43022.7287973209	-60.5838697077791
17.55618	23535.7738119014	42018.9015049002	48161.4029343362	-60.7457875806831
14.98558	26314.7963474157	46983.2127150438	53850.6340151443	-60.7472772709504
12.76553	29425.9608969266	52539.8260481131	60218.9380168186	-60.7481367076431
10.8809	33021.7648676884	58698.0972876648	67349.1171446891	-60.6392174307887
9.278505	37060.3759978946	65398.4802642983	75169.3600477291	-60.4603973029284
7.923394	41618.9966502047	72649.2650169538	83726.0807017344	-60.1926541252638
6.75822	46829.2008604649	80997.4310105482	93560.4504239814	-59.9653617679354
5.761429	52905.7876191764	89885.8890703786	104300.025971127	-59.5194287159851
4.919708	59410.3601936408	99774.9906416956	116123.381176611	-59.2285953391766
4.191257	66758.6198818799	110367.137057145	128986.891856203	-58.8311918124739
3.564097	74951.0355550549	122347.799489246	143480.457800481	-58.5081009117996
3.051758	84015.6571275524	135028.170848475	159032.190342897	-58.1097806526247
2.604164	94323.3253075792	148474.615834225	175902.249116377	-57.5729191985871
2.214424	107186.01011382	163884.648191745	195823.948170422	-56.8139793031568
1.892567	119036.724101063	180761.5632361	216435.866778755	-56.6339387751929
1.607507	132542.00076135	198728.586693196	238873.257471189	-56.2987011692618
1.376413	149159.630312813	217291.591976187	263560.678513698	-55.5323815774302
1.17375	165690.296503163	237972.359315233	289972.616212919	-55.152103759224
1.001604	184524.330392839	261627.105807667	320153.043090679	-54.8048684170629
