EC-Lab ASCII FILE
freq/Hz	Re(Z)/Ohm	-Im(Z)/Ohm	|Z|/Ohm	Phase(Z)/deg
6999984	-4.68138711420741	2.46565612182609	5.29101553807638	-152.224515630168
5969734	-5.9230907615419	2.22612597142636	6.3276094230066	-159.401843338213
5091109	-6.79581547168601	1.87089937850929	7.04864330277206	-164.607680568992
4341796	-7.65581318236004	1.7202272343066	7.84669721735508	-167.336220180964
3702781	-9.25991099019645	2.0616229412632	9.48663484583989	-167.44840531725
3157797	-11.5557124730033	2.60790620693979	11.8463355322614	-167.282476739781
2693047	-14.903994619295	3.66512178502059	15.3480348354767	-166.184231238074
2296687	-19.3042025165573	5.21264872375087	19.9955980535086	-164.889002846401
1958656	-25.1393908945695	7.69896109642577	26.2918804294071	-162.972745500586
1670375	-32.6574639553344	11.3332719419587	34.5680922948368	-160.861453321308
1424531	-42.025695870655	17.1395627689161	45.3863825978939	-157.812630301858
1214875	-61.6762934649963	23.8790200617867	66.1375292454409	-158.835245374608
1036062	-75.7492840593402	35.2588910111966	83.5532371057044	-155.039514573425
883578.1	-92.9472110449169	52.5839986970398	106.790734429531	-150.501402357091
753531.2	-111.776379940382	75.9963323975225	135.164350516145	-145.788366125904
642624.9	-132.724944041681	108.015208190039	171.123335554227	-140.860356129984
548046.8	-154.309870579516	149.514662630394	214.863143651366	-135.904213906323
467390.6	-176.027626636645	201.118146032299	267.27183540882	-131.193870576773
398593.7	-196.88227773446	264.682734763279	329.87813108431	-126.643439767844
339937.5	-215.515466846354	342.028181259387	404.265003711187	-122.215450039734
289906.2	-230.65957888704	429.915203983586	487.884129633866	-118.214600347895
247234.4	-350.283485042772	458.712873925157	577.16204015717	-127.366168730622
210843.7	-370.668774693659	589.350673362152	696.225219828556	-122.167608063841
179812.5	-387.749167257876	738.459182627063	834.069170462142	-117.703006332623
153343.8	-397.142430326799	902.547957860675	986.060305561658	-113.750628870251
130781.2	-401.739606649402	1098.10280708983	1169.28374934803	-110.094986249978
111531.3	-413.289573258621	1325.30614185977	1388.25236935347	-107.319807873482
95109.37	-398.583209464255	1577.99254047184	1627.5530813622	-104.175759268481
81109.37	-392.832411083204	1871.03538428302	1911.82915356905	-101.857285550485
69171.88	-391.850283144455	2202.75117647132	2237.33309765135	-100.08690325931
59000	-369.284145930613	2608.91926801747	2634.92514646403	-98.0565127207047
50312.5	-348.80934646826	3067.61661286897	3087.3839482211	-96.4870667282824
42906.25	-320.933963501604	3614.24492887066	3628.46593132637	-95.0743819886078
36593.75	-278.884772931179	4220.82160756008	4230.02503059012	-93.7802422167458
31203.13	-1087.82906661877	4629.46079370063	4755.55247248855	-103.223446117194
26609.38	-1005.30652887105	5526.60552911566	5617.29560299639	-100.309554658498
22703.13	-966.920416932317	6549.46707346033	6620.45723791202	-98.3981101581617
19359.37	-988.803629103699	7707.40611522526	7770.57537393084	-97.3106935587829
16500	-858.023422914804	9043.26247622402	9083.87584724449	-95.4199901306307
14112.02	-757.589816723603	10563.4165708125	10590.5482378827	-94.1021299060503
12011.13	-660.333021153929	12363.6172702288	12381.2386982695	-93.0572267750702
10236.38	-411.783995316783	14549.0120998575	14554.8383412733	-91.6212226531338
8750.684	-289.470878674161	16939.6759618313	16942.1490691543	-90.9789942605717
7449.463	157.424215304778	19999.2921364695	19999.9117083905	-89.5490061954842
6363.206	389.889026355588	23684.4515964486	23687.6605192955	-89.0568927452463
5414.761	901.722295871848	27018.9415484646	27033.9842697709	-88.0885367756957
4620.567	1897.99077502472	31450.5416944656	31507.7600260221	-86.5464781658806
3941.215	-5171.23927520067	33618.1230065168	34013.5253997975	-98.7448642157749
3361.769	-4571.37867081049	40417.3716454032	40675.0714034355	-96.4529757394721
2867.244	-3851.2007572591	47959.1956647681	48113.5760059905	-94.5910920884149
2442.658	-2394.75942971302	56357.5974198166	56408.453796043	-92.4331611446137
2083.003	-397.54688994333	66549.030637041	66550.2180481742	-90.3422662628428
1777.843	2874.15202193238	77924.0040275891	77976.9911803277	-87.8876577727229
1513.548	6187.0191839335	91079.9731480583	91289.8719192517	-86.1138950305569
1292.065	10461.5174348579	105168.900760749	105687.94176378	-84.3192766246481
1101.762	16438.9842852502	122656.782730016	123753.491078067	-82.3664645715037
939.101	24195.1551202181	141046.041079033	143106.223608059	-80.2661731818926
801.2801	34451.6546941346	160613.67726923	164267.068632481	-77.8934976564764
684.3433	48937.9644690405	182530.222004903	188976.73484197	-74.9914664241388
582.9476	65192.5153915377	206923.177037104	216949.914169618	-72.5126218192848
497.0677	81524.6917465649	237685.850086618	251278.408733761	-71.0683671050985
423.5089	59232.7411515687	262952.247691962	269541.095550536	-77.3054137755541
361.5036	69359.2415252543	289280.655607666	297479.414571428	-76.5170238494541
308.1262	89220.1076283673	314485.212612776	326896.277980219	-74.1612505789942
262.7298	167824.446402828	352140.888875727	390087.490735864	-64.518313591163
224.2111	184626.600031169	371257.946903482	414631.697507629	-63.5588384674369
191.2854	247476.857593663	403003.212989341	472923.23343664	-58.4466798361616
163.1722	270724.558678069	419541.202680116	499306.125956525	-57.1663655358961
139.1537	413523.927601379	403731.623281408	577928.423194699	-44.3135184445137
118.6706	488731.0003957	472819.102296329	680011.686843755	-44.0519460223026
101.1982	293121.013057019	426376.94292548	517413.979086429	-55.4926756022277
86.24196	185444.733650072	379622.698232674	422496.322175711	-63.9646071779485
73.61024	387971.297938185	-49612.0446565688	391130.519135039	7.28718090610523
62.69291	89701.4663762715	1451.3115583551	89713.206247981	-0.926927683215875
53.57697	73469.3216139179	-157034.469554422	173371.179400291	64.9272335695478
45.65746	287856.679440179	304578.1697651	419081.530726163	-46.6167457555821
38.96512	346515.108505372	252326.413254035	428650.602761896	-36.0614708818302
33.18414	474303.274384545	-228192.848500679	526341.687688477	25.6927510661729
28.30617	398520.395382003	264999.757608051	478584.764767699	-33.6222806859772
24.17237	569925.850258629	38660.9562496459	571235.629430761	-3.88071763093443
20.61345	600988.391328976	1086632.61194725	1241755.80524494	-61.0541534660225
17.55618	2065679.1348912	934637.729367497	2267284.27275498	-24.3448621235497
14.98558	989121.447414141	460922.438334469	1091242.74654856	-24.9851310004524
12.76553	922006.120172004	68964.4505914978	924581.733044743	-4.2776587806965
10.8809	729164.58694417	146081.393418387	743653.661563311	-11.3287048718211
9.278505	806292.266241887	599601.865330884	1004803.27204371	-36.6364569475558
7.923394	1360229.39670452	1117096.54452701	1760150.19286802	-39.3947559874069
6.75822	1832203.93043785	-1289008.60952841	2240204.10635957	35.1274981095654
5.761429	1190151.67036646	-45487.0293768988	1191020.59945141	2.18875206247469
4.919708	109622.139067171	1440182.87288554	1444348.89162089	-85.6472209064228
4.191257	966750.816778634	-635823.986625117	1157099.51331336	33.3325874951811
3.564097	773976.984251261	1138905.56504736	1377006.26659668	-55.8007721974034
3.051758	3733000.40040626	-49128.8974353994	3733323.67174299	0.754009020645393
2.604164	1655198.83995439	1815738.64336326	2456947.29711261	-47.6481901079546
2.214424	1173405.97067713	1737179.57423213	2096347.88266406	-55.9623061885846
1.892567	1618889.65968201	1347313.27083287	2106194.85802897	-39.7687599177565
1.607507	2421724.7822705	1790574.9063008	3011795.04882673	-36.4784810242823
1.376413	998735.639706762	1495254.6499081	1798126.62126233	-56.2595796110103
1.17375	1384224.98961808	3884223.36981604	4123502.15332892	-70.3854014133026
1.001604	992080.929627681	3310152.97824777	3455624.01171388	-73.3160805353967
