EC-Lab ASCII FILE
freq/Hz	Re(Z)/Ohm	-Im(Z)/Ohm	|Z|/Ohm	Phase(Z)/deg
6999984	-4.02839993734655	5.6129298070388	6.90890635874871	-125.667005093382
5969734	-7.95470967091598	7.17784171797828	10.7144210145445	-137.938844332612
5091109	-21.0058297547777	20.0239431151893	29.0207370955157	-136.370888030457
4341796	13.4642789004479	86.3590196235144	87.4023287827252	-81.1383295376408
3702781	18.8948547258653	93.8466542740002	95.7298806723129	-78.6163985065929
3157797	19.613616098471	101.439307457174	103.318086673386	-79.056716572151
2693047	21.1330681874965	113.162971337309	115.119349602515	-79.4219198707674
2296687	21.9224678691799	129.856857362521	131.694335495287	-80.4176632229252
1958656	24.5385647963292	147.496377076749	149.523651684375	-80.5543709528435
1670375	26.1548142951257	168.994139396503	171.006121121956	-81.2022716275774
1424531	29.8030785661136	194.660251680279	196.928507525568	-81.2954345650657
1214875	33.618888238565	223.614675112031	226.127735078774	-81.4500185781919
1036062	37.4981673204505	257.925296558546	260.636856866419	-81.7280749961689
883578.1	41.7707293575781	297.721852200919	300.637813837531	-82.0134652739236
753531.2	47.3127952607873	344.736367310523	347.967905907779	-82.1853526124629
642624.9	53.9938087447195	399.283748766079	402.917911504881	-82.2987982558988
548046.8	62.3602025125961	463.519434571313	467.695479006075	-82.3376447944086
467390.6	175.397801828369	634.700681890672	658.490200746152	-74.5520077952734
398593.7	205.871747900889	716.846269261444	745.82286793703	-73.976414394285
339937.5	238.936685400497	808.965177897366	843.513721690817	-73.544919878772
289906.2	273.882087506073	914.676349160586	954.800618752639	-73.3306909591726
247234.4	313.793888885109	1036.45424646109	1082.91459021885	-73.1559388316577
210843.7	357.917089357144	1178.39258800432	1231.54932273028	-73.104716404773
179812.5	408.968024186639	1343.22407454288	1404.10318682022	-73.0662136409402
153343.8	469.720944924012	1534.48691447752	1604.77034394428	-72.9801553801115
130781.2	544.107016812388	1754.10061736312	1836.5515025662	-72.7665567140868
111531.3	639.337635574108	2009.8021450271	2109.04179058098	-72.353626031136
95109.37	754.066503685597	2295.9326592816	2416.5932773093	-71.8179677884682
81109.37	898.703585333763	2620.73210722274	2770.54234981527	-71.0720913307669
69171.88	1081.2719020064	2987.87864715626	3177.50967523324	-70.1055115303812
59000	1300.68392711771	3410.40562545816	3650.01989151004	-69.123805644204
50312.5	1559.29411678483	3832.06667705264	4137.16486981327	-67.858256466319
42906.25	2023.12661624444	4441.88072932165	4880.9164834973	-65.5123380699354
36593.75	3509.89122532589	4917.00905609266	6041.21796257318	-54.4797492457938
31203.13	4019.88995991254	5312.96460445254	6662.36505889397	-52.8881584345897
26609.38	4657.90299440278	5696.60631538602	7358.49059371297	-50.7284112145779
22703.13	5344.13393069047	6072.09980285429	8088.8913631585	-48.648574418253
19359.37	6148.07573341096	6386.66620884327	8865.00651364325	-46.0904553728647
16500	7010.06971613362	6638.55572823404	9654.61027602475	-43.4408005901263
14112.02	7895.85276774481	6795.17622351532	10417.2410377475	-40.7153091136244
12011.13	8833.94519694549	6843.39704799684	11174.5546174856	-37.7638889193465
10236.38	9745.88296941728	6789.09587357323	11877.4600666197	-34.8615196419098
8750.684	10601.5545477495	6641.34484246084	12510.0127955725	-32.0650902607927
7449.463	11411.9968813402	6430.8319567788	13099.2088492415	-29.4019136740892
6363.206	12122.0365601117	6196.91183268569	13614.1649257956	-27.0765931104405
5414.761	12789.8085444142	5921.91148267429	14094.2625990649	-24.8449855237634
4620.567	13304.1803337494	5677.21015108851	14464.8515185102	-23.1090952918556
3941.215	13779.4428943128	5463.05959489699	14822.8899548983	-21.6265669969546
3361.769	14227.8786428403	5286.74741072714	15178.347369204	-20.3838902942512
2867.244	14615.6639215126	5148.1940297105	15495.8553695545	-19.4042069490909
2442.658	14934.1416636213	5057.13248212628	15767.1549802393	-18.707587673037
2083.003	15241.8174281801	5038.7395744728	16053.096119233	-18.2931902181307
1777.843	15538.7839555795	5089.72601299005	16351.119769162	-18.1361997822648
1513.548	15820.6468960124	5224.86878583621	16661.0960635102	-18.2761332645696
1292.065	16087.2608680789	5401.37167281106	16969.8196273699	-18.5597129956917
1101.762	16414.1143079065	5644.86312146898	17357.6388997219	-18.9782472058788
939.101	16723.4047064489	5965.40010537018	17755.5136054362	-19.6318087036287
801.2801	17061.4109033892	6425.4155652485	18231.2288998966	-20.6366334368394
684.3433	17406.7106690074	6966.020633052	18748.8404914715	-21.8108760604923
582.9476	17837.6834517734	7544.04450295849	19367.3838808521	-22.9248320649415
497.0677	18273.3607705326	8253.2377569119	20050.7268527142	-24.3065083287436
423.5089	18820.4657729138	9065.64624126001	20890.0903224733	-25.7196915416999
361.5036	19362.8905751631	9943.63737119145	21766.8889737485	-27.1823553898437
308.1262	20067.5925342349	11000.2477270822	22884.7923341519	-28.7297826141992
262.7298	20970.9693495556	12148.2853883499	24235.5605121234	-30.0833094615265
224.2111	21803.7614832237	13226.7578378962	25501.9830154374	-31.2421452500684
191.2854	23201.7412524014	14458.2400492923	27337.9132792966	-31.9292305084113
163.1722	24472.271373216	16011.122686277	29244.6254180036	-33.1949458440568
139.1537	26076.9702210469	17511.2645004377	31411.0292781637	-33.882237367206
118.6706	27919.3507911308	19128.1580198844	33843.4126209501	-34.4158959871688
101.1982	30007.4641403388	20717.5736668357	36464.5823063213	-34.6217425342255
86.24196	32514.0412081856	22336.3401553784	39447.1160824763	-34.4881001285112
73.61024	35330.6855535572	23518.491483969	42442.6293173015	-33.6504186432961
62.69291	38450.9034717981	24741.6763478138	45723.325844666	-32.7597213732975
53.57697	41767.3792266258	25410.1239232677	48889.5527209709	-31.3151801802137
45.65746	45547.7152772949	25798.9397897909	52346.7254110396	-29.5278956340826
38.96512	49287.7329691752	25695.6040676969	55583.6728693288	-27.5347760000508
33.18414	52886.4271344003	25011.7690378229	58502.6731478454	-25.3110408534788
28.30617	56139.0564546452	23346.2984485653	60800.0272275212	-22.5807422610757
24.17237	59320.8595210786	21824.903267613	63208.3125621955	-20.1992145377247
20.61345	62061.1114605686	19743.8071581231	65126.0276450074	-17.6476845069804
17.55618	64220.1936902903	16887.7178293556	66403.5261947914	-14.73327165669
14.98558	65798.9923872993	14717.2558458864	67424.8101133192	-12.6078274198727
12.76553	66720.5635208046	12488.8448547551	67879.3403204529	-10.6020167706787
10.8809	67438.571935774	10692.9706825018	68281.0413420402	-9.00973841012039
9.278505	67551.8920728154	8087.49124372675	68034.2975067331	-6.82710725577108
7.923394	67499.8641926961	6209.58400861634	67784.8847427838	-5.25607531617181
6.75822	67038.180217573	4879.06346379711	67215.4957369769	-4.16266844304493
5.761429	66457.1345505493	3568.65341241348	66552.8813790038	-3.0737495483273
4.919708	65975.4361331965	2449.85483417824	66020.9054896556	-2.12657754733607
4.191257	64976.961754521	1103.43500696823	64986.3303138674	-0.972900097823787
3.564097	63956.9234229159	425.632125827698	63958.3396941421	-0.38129670905336
3.051758	63525.0533126966	-90.5932034693654	63525.1179102366	0.0817095684593862
2.604164	63012.0068035154	-597.247386088987	63014.8371881294	0.543050945211041
2.214424	61970.0237615976	-1017.26298977632	61978.3725907944	0.940448914223167
1.892567	61785.5208320587	-1640.07205665741	61807.2845289274	1.5205365961566
1.607507	61665.3816966012	-2004.02338696504	61697.9368336011	1.86136340537914
1.376413	62233.3315803104	-2195.51196202894	62272.0469581679	2.02048352536949
1.17375	63153.9543990356	-2470.99305206995	63202.2765642097	2.24064026631733
1.001604	27134.3616706881	74058.585895323	78872.9847799019	-69.8776462152576
