EC-Lab ASCII FILE
freq/Hz	Re(Z)/Ohm	-Im(Z)/Ohm	|Z|/Ohm	Phase(Z)/deg
6999984	30.1441226083995	91.9744179773661	96.7882311549574	-71.8537203548843
5969734	19.4340329974382	91.4637495759181	93.50561012598	-78.0043076940547
5091109	16.5625431958705	96.7024843512767	98.1105922763898	-80.2810700845661
4341796	15.6606255012546	106.17133524867	107.320117497029	-81.6091862536793
3702781	17.9168419355014	117.50775731181	118.86583299415	-81.3306714694662
3157797	17.8446825237302	131.065013760262	132.274224724057	-82.2467736881009
2693047	18.5573148991683	149.057570734761	150.208299802691	-82.9033260255413
2296687	19.656036245833	171.048192817617	172.173877307419	-83.4445992546014
1958656	21.9015334393649	196.474520365954	197.691462435855	-83.6393476091663
1670375	24.4119570035719	227.007701361743	228.31653492966	-83.8621135999132
1424531	28.2096209886781	262.277912268328	263.790610106117	-83.861082275882
1214875	32.2967929277706	303.474545215658	305.188273738146	-83.9252535489366
1036062	37.3394876157528	351.820712572421	353.796623966895	-83.9417547334364
883578.1	43.5887047824361	407.872701564564	410.195216776337	-83.9000434059509
753531.2	51.6027959210982	473.424753043474	476.228774163373	-83.7793784942963
642624.9	106.379061244826	627.817827840283	636.766621004448	-80.3829992763198
548046.8	130.924851096775	713.031798840106	724.952179658679	-79.595411491133
467390.6	159.69708140186	815.062302291112	830.559880095566	-78.914336560061
398593.7	190.503099644992	930.827036806493	950.121257221575	-78.4335676741667
339937.5	226.376873966551	1064.11516963382	1087.92811495599	-77.9900983407354
289906.2	263.14182638654	1215.24245503142	1243.40574443938	-77.782114661103
247234.4	309.368386254801	1392.26042641133	1426.21803850777	-77.4720871981577
210843.7	362.189118998373	1597.26271256136	1637.8123002529	-77.223881881307
179812.5	428.333042546732	1834.69823498758	1884.03471539245	-76.8589650615882
153343.8	506.445323983776	2108.36454010754	2168.33758906862	-76.4930169178381
130781.2	604.900155314047	2425.3033689517	2499.6000938845	-75.9954603685465
111531.3	732.199103990133	2789.11417076319	2883.62157458915	-75.2906076889766
95109.37	885.104145273544	3191.46727458523	3311.92885079509	-74.4994675654599
81109.37	1086.21130627054	3670.35719449358	3827.71171028341	-73.514323932512
69171.88	1343.93059565254	4202.67303424104	4412.32479297113	-72.2667656293941
59000	2338.97809364793	5032.14437637677	5549.17070806668	-65.0706449056691
50312.5	1792.01516304001	6166.06249327497	6421.18719673688	-73.7947867732285
42906.25	2120.20740121301	5667.55864728081	6051.15695090831	-69.489410013277
36593.75	5061.52278187536	6521.28682811009	8255.07085165993	-52.1830307352781
31203.13	4563.05045859759	6752.12510282849	8149.39401992285	-55.9493802607265
26609.38	5145.13039341128	8605.09422691753	10025.9669568244	-59.1240878373448
22703.13	7145.5844036975	8403.64609113296	11030.8949816132	-49.6256278871337
19359.37	8105.06301285152	8739.39363125895	11919.2721037982	-47.156632426778
16500	9961.76139413334	9067.43994179775	13470.5292090457	-42.3092318630547
14112.02	11181.5190273423	10166.2721201624	15112.2287098895	-42.2772092518849
12011.13	11772.3302421195	8791.32571171996	14692.6909413854	-36.7515928164873
10236.38	13831.3117645765	9703.6813050476	16895.7573372384	-35.0524807454489
8750.684	14972.5012869274	9472.47800016527	17717.3258210899	-32.3198330260858
7449.463	15847.2520122865	8861.24868492173	18156.4623370564	-29.2124479903954
6363.206	16905.0600666142	8351.56238231162	18855.493896514	-26.2906325253919
5414.761	17856.7164293901	7997.97413580724	19566.0397606847	-24.1274762064991
4620.567	18843.6214827037	7348.79584947397	20225.8960498826	-21.3052121583996
3941.215	19317.5989981273	7023.59496480565	20554.8173740875	-19.9805222769012
3361.769	20076.4726400137	6467.99651783808	21092.6464110122	-17.8572781980172
2867.244	20344.9882757149	5977.8955031849	21205.0414426847	-16.374182674899
2442.658	20868.7824353261	5712.59533465723	21636.5391361586	-15.3090484041729
2083.003	21140.895965875	5447.99334461052	21831.58523156	-14.4506716833976
1777.843	21477.8618330552	5307.53302017772	22123.9340009883	-13.8806417025999
1513.548	21799.8469209399	5226.11487651709	22417.5289110768	-13.4811984461465
1292.065	22117.1615989034	5297.07052601704	22742.6426201883	-13.468667859167
1101.762	22390.6173349808	5372.32071447243	23026.1063686566	-13.4922794499043
939.101	22621.8172194652	5519.20853423966	23285.3661589273	-13.7110060881955
801.2801	22910.7926139092	5671.26630746234	23602.2812399081	-13.903342290443
684.3433	23198.4903258237	6044.19413967787	23972.9480080247	-14.6033305583323
582.9476	23526.0475556121	6396.00500894157	24379.9875648723	-15.2093422886642
497.0677	23852.3238704498	6921.54879379529	24836.2878008312	-16.1818522022295
423.5089	24245.5892232398	7671.1327174449	25430.1961052356	-17.557002476745
361.5036	24663.5837044692	8187.47533474053	25987.0566533485	-18.3644203312213
308.1262	25021.1295905362	9073.04178926548	26615.3529620812	-19.9314140642805
262.7298	25609.757663945	9800.11123258805	27420.8290862456	-20.9403984710839
224.2111	26062.0618093145	10889.7698742208	28245.6749550443	-22.6771194917947
191.2854	26677.6908593345	12099.5321147636	29293.3075459637	-24.3964283251114
163.1722	27181.5777707709	13650.674818832	30416.7567817142	-26.6659485290923
139.1537	27992.000887676	15246.5928595424	31874.9228629703	-28.5761038743892
118.6706	28630.3351663341	17115.9844947974	33356.4539026974	-30.872117646817
101.1982	29509.7099592867	19409.1071686002	35320.4816354963	-33.3336933037257
86.24196	30527.0697901601	21765.4408289395	37491.8178333802	-35.4884214134522
73.61024	30904.8676745527	25302.1956995509	39941.3564266411	-39.3076091067675
62.69291	32700.70351394	27673.3203456379	42838.6352403867	-40.2399260310044
53.57697	34046.6956921562	31217.3246768697	46191.9781730052	-42.5176280722997
45.65746	35662.9663249075	35260.67860033	50151.3970139144	-44.6750147061956
38.96512	37450.4905059721	39884.7586944878	54711.3627618197	-46.8028940136422
33.18414	39431.8949765881	45135.3386677185	59933.9064144356	-48.8583399966284
28.30617	41538.5804586194	51119.2809295972	65868.3121787425	-50.9033294998534
24.17237	44286.6598500961	57580.18744431	72641.4910832645	-52.4350290327325
20.61345	47278.8586936438	65208.3856722942	80544.5469374569	-54.0562875985686
17.55618	50686.139409553	73900.3994532011	89612.2411704301	-55.5549045483568
14.98558	54431.7589360233	83270.594609458	99482.7035593728	-56.82842929875
12.76553	58971.4731176393	94125.7107797088	111073.327452858	-57.9321064403546
10.8809	64634.6692716834	106311.517292453	124417.760713185	-58.7014741676563
9.278505	70768.82411004	120364.761187359	139627.727194879	-59.5464723239152
7.923394	76998.8408072081	135690.650923871	156015.301280988	-60.4268792719133
6.75822	85076.7261055016	152106.778587093	174282.877578302	-60.780738006186
5.761429	94421.2566878506	171670.493010368	195923.791013076	-61.1885693647602
4.919708	104156.036232996	193254.381259197	219535.272244904	-61.6771877724477
4.191257	115830.924645554	217187.167882268	246144.406796019	-61.9279713993765
3.564097	130002.667646598	243577.814771231	276099.3398108	-61.9102097077274
3.051758	144335.721928222	272996.416362688	308803.892416225	-62.1341789098441
2.604164	161603.080772536	307626.763993779	347490.692883218	-62.2860700213333
2.214424	183172.853083209	345228.81375744	390813.546278801	-62.0502978886369
1.892567	206176.505928357	383716.990674504	435600.138348375	-61.7502398913269
1.607507	231275.923745389	429970.731105959	488224.725420657	-61.7247432694436
1.376413	260888.463388209	478463.262073655	544967.782059842	-61.3979854388805
1.17375	297180.439404312	534508.187856395	611567.83470852	-60.9264411734878
1.001604	330654.829501391	592719.251675541	678711.078132225	-60.8445655045636
