EC-Lab ASCII FILE
freq/Hz	Re(Z)/Ohm	-Im(Z)/Ohm	|Z|/Ohm	Phase(Z)/deg
6999984	16.1963910327409	85.1627130093222	86.6891617769697	-79.2319843616815
5969734	20.8599849918236	90.8732277245289	93.2367014159832	-77.0717042909203
5091109	17.9363362568581	96.0968228533605	97.7563886445752	-79.4274775613801
4341796	17.5629509631344	105.369486466142	106.823152568495	-80.5369530358715
3702781	20.3509555929245	116.3640481479	118.130237851754	-80.0798473069161
3157797	20.6827994852383	129.572240051489	131.212589283602	-80.9307469284649
2693047	22.1934952496165	147.012112332109	148.677881353426	-81.4152400400275
2296687	24.2427076176014	168.878279178189	170.609443029449	-81.8309209203949
1958656	27.9252042811959	193.692370482825	195.695046992515	-81.7960277906715
1670375	32.3307073192816	223.676111045324	226.000613468471	-81.7752867184877
1424531	38.2496606654593	257.737210411534	260.55998574559	-81.5585940803692
1214875	45.9975640687633	297.905752098853	301.43591861927	-81.222668925084
1036062	55.4708852894594	345.029536908404	349.460155746008	-80.8666329511897
883578.1	67.4860427119725	399.164768415526	404.829443476067	-80.4038549400626
753531.2	83.6250012761228	462.523426189182	470.022404372612	-79.7515424903061
642624.9	155.096157149396	604.067387630714	623.660345670226	-75.6001767856858
548046.8	195.966543812188	685.051204660766	712.529325221679	-74.0362311880967
467390.6	245.776063130553	776.682703290651	814.642188202175	-72.4403718413188
398593.7	305.570629267028	876.719577040221	928.445273689425	-70.7845811091702
339937.5	378.232436160441	988.420595928144	1058.31708396813	-69.0599781458264
289906.2	464.408393779691	1108.34001413906	1201.7040996663	-67.2657035145947
247234.4	572.089654877529	1239.28475682542	1364.95907693884	-65.2205879606548
210843.7	700.14652919512	1376.6581641878	1544.47171012256	-63.0428326771421
179812.5	859.409880277614	1517.48887435533	1743.94891728829	-60.4755233887199
153343.8	1047.56972902502	1657.38874274052	1960.69879933981	-57.7046421956877
130781.2	1266.79530077352	1783.17352125283	2187.34499815623	-54.609398135676
111531.3	1517.76967058148	1893.19193804141	2426.47903085973	-51.2808914981107
95109.37	1793.31087038866	1967.21037513625	2661.93173051036	-47.647668716361
81109.37	2081.50791842592	2015.10476497084	2897.12312963705	-44.0713578324016
69171.88	2375.82016049768	2021.79375211808	3119.64283390438	-40.3973748331063
59000	2659.14176782248	1993.4431908523	3323.37940905541	-36.857303529689
50312.5	2933.46672326239	1946.15622548473	3520.33394303449	-33.5615758075831
42906.25	3199.54351639055	1812.60588818729	3677.31135738708	-29.5324277302421
36593.75	3399.78518435346	1709.33404972505	3805.30710893335	-26.6922014552652
31203.13	3598.27914881557	1598.02091147139	3937.16695941393	-23.9463413291464
26609.38	3741.15436031139	1481.00052171591	4023.63001442724	-21.5969909155699
22703.13	3874.73935893771	1372.21047088906	4110.54335533863	-19.5012258925404
19359.37	3973.28234565541	1275.31059189784	4172.93538221044	-17.7951523842912
16500	4071.05062135644	1189.41403469056	4241.24497141647	-16.2864571068865
14112.02	4151.89580777927	1121.52801528367	4300.70504542235	-15.1162137286436
12011.13	4276.71345751502	925.55368396261	4375.72024009612	-12.2114609467791
10236.38	4320.02061089442	903.829651799441	4413.55708222115	-11.8169050203182
8750.684	4361.13548591398	892.922190054783	4451.60788524667	-11.5711233149409
7449.463	4403.52057237619	894.227358149274	4493.39915869967	-11.4790203493737
6363.206	4431.64658986899	899.98877246066	4522.10916365944	-11.4796391437924
5414.761	4502.09869512883	942.506527114253	4599.69686113484	-11.8240096969778
4620.567	4509.04808832308	992.394746464954	4616.9645867844	-12.4123170314402
3941.215	4557.71023838077	1062.28194897445	4679.86811311578	-13.1199084492709
3361.769	4605.19946393	1136.98957235021	4743.48051437068	-13.8685522931227
2867.244	4663.3456904822	1231.01842553694	4823.09023271909	-14.7874734641094
2442.658	4734.25088478833	1341.5285068277	4920.65342965245	-15.8209575462325
2083.003	4783.85121274942	1481.74300749939	5008.07295933251	-17.2097671345839
1777.843	4866.84956943949	1627.43149430405	5131.74025065631	-18.4894798291645
1513.548	4947.23670204777	1808.66141919614	5267.48584387059	-20.0819186179055
1292.065	5028.77823129826	2020.35436664502	5419.45036571061	-21.888213903679
1101.762	5129.2557986018	2259.47944994076	5604.86506815238	-23.77388676239
939.101	5250.64474796157	2520.47955000879	5824.26711538104	-25.6425141266958
801.2801	5364.84732269568	2841.18846882189	6070.74449398106	-27.905405208987
684.3433	5512.55788951538	3188.00358555269	6368.01863586745	-30.0415064607938
582.9476	5669.88993228706	3582.02968099638	6706.60782212507	-32.2832038342431
497.0677	5852.44991269605	4024.36308865113	7102.58180170518	-34.5138660405582
423.5089	6056.30525949918	4536.64439203967	7567.03216169077	-36.8360697138014
361.5036	6299.41803910823	5096.7273426657	8103.0424679202	-38.975597253223
308.1262	6576.20400939363	5743.83759209735	8731.44486654732	-41.134857459109
262.7298	6887.57814869714	6463.2040138477	9445.19660351374	-43.1793828665199
224.2111	7227.25994997929	7306.60308183353	10277.1462468933	-45.3127854871116
191.2854	7633.01998243532	8194.38147218922	11198.7000033046	-47.0312979090931
163.1722	8088.39884668128	9183.71403096901	12237.7612047961	-48.628566732047
139.1537	8608.82071440629	10369.7963661245	13477.5543318393	-50.3011451275929
118.6706	9145.64031606008	11689.5357752256	14842.1017187939	-51.9611413699578
101.1982	9881.78391904571	13129.603788276	16432.7766692006	-53.0336438779293
86.24196	10692.7415507609	14757.6957674888	18224.2779345883	-54.0746566254804
73.61024	11517.6263859156	16547.2770926463	20161.0539592145	-55.1604001880975
62.69291	12583.4869647923	18562.5823252831	22425.735367564	-55.8668399607599
53.57697	13686.7728533693	20802.4400069314	24901.1899591507	-56.657452963105
45.65746	14995.2952817134	23351.051089159	27751.2246135966	-57.2927256480343
38.96512	16445.598960276	26127.6062788498	30872.4721236383	-57.8123009653928
33.18414	18107.5513939418	29270.2881195584	34418.5006077575	-58.2577183553275
28.30617	19860.4441256678	32584.5354387149	38160.0470469526	-58.6374747819402
24.17237	22093.4918518398	36460.8080269929	42632.2988377186	-58.7861573297766
20.61345	24461.931893513	40867.5687313746	47629.2377219759	-59.0967004547375
17.55618	27183.3791260437	45687.5566593824	53162.8529540553	-59.2480186084316
14.98558	30209.6040856511	50890.7990211238	59181.8688790765	-59.3059446415193
12.76553	33629.6586967309	56758.0396579039	65972.9414977595	-59.3528698849405
10.8809	37457.2301243689	63204.571809225	73470.1435018158	-59.3475413774458
9.278505	41954.0406412985	69916.1384382656	81537.7700225512	-59.0336178014936
7.923394	46537.0125740842	78154.5125858865	90960.5484639245	-59.2283661560586
6.75822	52177.5813405077	86777.474544108	101256.259474655	-58.9823380788294
5.761429	58162.1082982333	96156.6739539238	112378.542380548	-58.8315928829305
4.919708	65229.4989572642	106944.113637137	125267.437811462	-58.6193120198345
4.191257	72451.5186455767	118152.514887011	138597.40014941	-58.483234543491
3.564097	81034.6020995231	131400.410982203	154378.349336038	-58.3378751508663
3.051758	90137.3619078859	144704.524289445	170482.091028788	-58.0809608755296
2.604164	100370.764538416	160440.747727897	189249.898033032	-57.9701508379513
2.214424	111752.394772791	176906.391112185	209247.386970043	-57.7192526194635
1.892567	124856.684396435	195780.749430312	232205.283070747	-57.4728234717778
1.607507	138783.063436561	217193.694806378	257747.628040458	-57.4221167069087
1.376413	153844.588948125	238737.253111241	284013.439068855	-57.2018774600383
1.17375	171146.958988688	264222.213805899	314808.925921052	-57.067306862696
1.001604	189744.102370807	291847.187504081	348105.738588931	-56.9701389502197
