EC-Lab ASCII FILE
freq/Hz	Re(Z)/Ohm	-Im(Z)/Ohm	|Z|/Ohm	Phase(Z)/deg
6999984	31.8847950520344	41.0039449854382	51.9419258391435	-52.1312525393321
5969734	45.8537048023775	55.6834997801737	72.1333098635588	-50.5295604821998
5091109	6.87112489052563	-1.31900269309798	6.99657954757899	10.8664883593331
4341796	2.96258084325912	-5.31345666563275	6.08356038766798	60.8576289422926
3702781	2.68944396018986	-5.513229643223	6.13423262632862	63.9961198566807
3157797	2.92581673335251	-6.42257537449899	7.05761135217053	65.50827006959
2693047	2.19615125875562	-8.28881616635467	8.5748209188855	75.1602597905843
2296687	1.08503148250437	-10.8737427779869	10.9277433772873	84.3016295245581
1958656	6.32194056509141	-11.9954012115666	13.5593725052084	62.2094082683447
1670375	-1.86780533001501	-13.4904065329991	13.6190956078742	97.8827346214415
1424531	-0.949585882971516	-14.4476286017101	14.4788012474131	93.7604178770343
1214875	13.7914623467344	-8.08787923039893	15.9880650519977	30.3891084959437
1036062	16.3513841610778	0.843139616525701	16.3731074752505	-2.95177428219529
883578.1	18.6233867512955	14.6425118201719	23.6903711767503	-38.1759601656046
753531.2	8.96750524685767	-5.60630564023088	10.5757653758064	32.0128021324091
642624.9	12.8157245522459	-20.601246332006	24.2621958245957	58.1148799770014
548046.8	20.2016639810009	-2.67143632825804	20.3775317361354	7.53299698895021
467390.6	16.5035490492502	32.6199000264659	36.5571471665615	-63.1635548845761
398593.7	-4.34491870678309	-88.0631860805946	88.1703071404086	92.8246059102471
339937.5	-15.5933064609208	-101.931326899678	103.117149931101	98.6975951976766
289906.2	-13.3039832986509	-115.821871577779	116.583454689721	96.5526131000453
247234.4	-17.5193827745735	-137.310717596865	138.423848883666	97.2710448793599
210843.7	-5.36940078103178	-162.081496086026	162.170409872553	91.8973883103869
179812.5	-19.1450387845576	-201.932237439475	202.837770218899	95.4159794260648
153343.8	-19.3828354338233	-235.175687313513	235.973087899527	94.711585112731
130781.2	-22.7150737023469	-273.806839776517	274.747447816547	94.742410242109
111531.3	-25.9989152943858	-320.213723442159	321.267446650258	94.641798853284
95109.37	-28.1240247971716	-370.207316720852	371.274047200239	94.3443191660521
81109.37	-35.4056369396754	-432.255134603526	433.702732892262	94.6825934482973
69171.88	-42.6049923896389	-504.039291557879	505.836725446749	94.8315624750313
59000	-158.088941010428	-597.5708444607	618.128649570034	104.818274139941
50312.5	-165.599860466314	-689.830119470777	709.428578163812	103.498924225093
42906.25	-177.673315383877	-799.980481932034	819.473354339059	102.521973888616
36593.75	-190.726975340342	-925.575285711947	945.021898499304	101.643572292901
31203.13	-205.404483979349	-1075.84380941847	1095.27663368797	100.809059264293
26609.38	-220.941176643509	-1244.42568268904	1263.88697408934	100.067651877393
22703.13	-241.874486196141	-1445.50575251386	1465.60231564477	99.4992204488441
19359.37	-263.644041098943	-1676.1884779774	1696.79580212563	98.9386958378676
16500	-291.412606597238	-1947.69303810247	1969.3728641262	98.5094358577556
14112.02	-318.646984507082	-2250.10755916807	2272.55801434435	98.0602942421526
12011.13	-376.545977805683	-2610.52063389011	2637.5376496588	98.2078308743988
10236.38	-403.17988349834	-3055.30176488709	3081.78891116506	97.5173594354866
8750.684	-471.768091315094	-3523.00781036914	3554.45483357224	97.6271381490337
7449.463	13.2935056665764	3.16833341365509	13.6658563407999	-13.4056023946569
6363.206	22.7495055405793	25.1219300632182	33.8917596539642	-47.8371573183667
5414.761	1.88583479346829	-1.27795753840665	2.27805801906492	34.1239797201276
4620.567	3.44751318155517	2.37984997023542	4.18915659982128	-34.61767453388
3941.215	3.11889760691802	-0.504244812113366	3.1593963209737	9.18377434039138
3361.769	3.769411251438	0.029125576449303	3.7695237738567	-0.442705580690348
2867.244	7.89637186723329	-2.22385809791552	8.20355005502482	15.7288316623534
2442.658	0.587738447737842	-2.70103803687829	2.7642436505512	77.7239594448972
2083.003	3.19453714210362	3.77394294070713	4.94446284969285	-49.7530193233031
1777.843	4.87240769966928	-3.86170508537344	6.21716357820796	38.3991501451199
1513.548	7.75980919963611	2.35671487756869	8.10979308175682	-16.8939470683299
1292.065	7.92322184924675	1.55476275038334	8.07432546299446	-11.1020083905996
1101.762	5.90903099204762	-2.32327203504519	6.34934958982432	21.4634172647911
939.101	15.5363733112928	-8.44915539017183	17.6852232803298	28.5387011895231
801.2801	62.3444312513473	-50.6428603673183	80.3214007238275	39.0872208908704
684.3433	13236.8818132884	-2223.85475754441	13422.3906261745	9.53688249995255
582.9476	86.8212646816477	-19.2008824493495	88.9190974299361	12.4704779772239
497.0677	24223.5436432964	-14342.3176633678	28151.0593512151	30.6290001951871
423.5089	12.3097745901048	9.92244012693082	15.810925606419	-38.8709637006762
361.5036	23528.0873056117	-16924.7925458822	28983.0898108127	35.7291324423425
308.1262	8855.79407465444	-65975.3286827205	66567.0269990007	82.3549481198216
262.7298	3187.95221255879	1435.64616253206	3496.30078991375	-24.2437006952414
224.2111	1642.01445033812	625.584301893422	1757.1474536574	-20.856133568154
191.2854	543577.776313673	244325.5684771	595962.903471161	-24.2028086974029
163.1722	493706.357153929	-142410.255175142	513835.234168748	16.0902763578337
139.1537	812533.706055023	-812454.141129149	1149039.92746702	44.9971946039756
118.6706	372955.405299332	55501.4263348324	377062.518247558	-8.46436280324716
101.1982	175712.935331096	770993.475467022	790762.906853494	-77.1613148900787
86.24196	478379.497069753	-177645.444215955	510298.782153548	20.3723967608809
73.61024	-206017.55260378	-222639.996370899	303334.468804462	132.779302091679
62.69291	-103059.937193547	-163620.602857522	193372.8324605	122.205652461438
53.57697	-61389.7166988683	-168253.26033777	179102.922730637	110.045253513361
45.65746	366018.478409164	-155831.055978954	397810.060888957	23.0617059526203
38.96512	242587.322386499	-511727.815166902	566316.135915393	64.6364574885189
33.18414	586748.637412745	-467739.99589118	750369.687062313	38.5608961306853
28.30617	542185.036104874	1024496.17944432	1159119.07717544	-62.1112605980388
24.17237	993640.062552895	52528.5776433337	995027.550060476	-3.02611269132454
20.61345	-823271.088111575	1243039.84593629	1490947.12954743	-123.516694488256
17.55618	996554.038243099	-2026021.77520078	2257849.46015592	63.8084761787754
14.98558	5217447.76712674	-6782370.52294484	8557003.62937909	52.4301359731621
12.76553	7017530.03612263	4480159.1680545	8325716.4243677	-32.5551353333902
10.8809	13962877.6600771	-5860048.15838241	15142724.8858599	22.7671941867672
9.278505	7800365.54374913	-2331070.28992146	8141227.87499915	16.6383104888764
7.923394	3487165.30849319	-3653796.58700234	5050797.10421517	46.3367298219458
6.75822	1802871.89183185	-2053169.34368325	2732371.0238908	48.71388587732
5.761429	9847512.91666842	2880360.78584837	10260116.4174976	-16.3040010745734
4.919708	11871144.0166507	8215705.37804515	14436823.5814843	-34.6860856946187
4.191257	8656845.33354677	2038891.37757893	8893708.4041763	-13.25297789719
3.564097	11101418.4215878	4365345.64356019	11928861.3689203	-21.4659497382456
3.051758	6041173.07748155	-2327526.69315398	6474036.81325896	21.0705401046699
2.604164	48936004.1070276	-352925.337756634	48937276.7351949	0.413208682072982
2.214424	8798432.48692452	1759849.74193802	8972707.80429008	-11.3109546393279
1.892567	190040.224382759	-6781420.754815	6784083.04347162	88.3947827171932
1.607507	4040389.12198239	-1337545.04655557	4256027.60900338	18.3167960792901
1.376413	-402147.991434647	2773097.55443296	2802105.11105793	-98.2513756668287
1.17375	8741316.3436497	1686168.10674602	8902458.89088879	-10.918048831317
1.001604	9473246.83888466	-263935.794419874	9476922.90640872	1.59591492368401
