EC-Lab ASCII FILE
freq/Hz	Re(Z)/Ohm	-Im(Z)/Ohm	|Z|/Ohm	Phase(Z)/deg
6999984	35.3531160968406	96.6844710682111	102.945275576378	-69.9148311761616
5969734	29.1683295427575	92.6659351730023	97.1481702854046	-72.5276333135172
5091109	28.4208833191612	98.1259542371997	102.158942357497	-73.8470405241445
4341796	30.9952546540449	106.594854728428	111.009769235162	-73.7868226598762
3702781	36.4869078317984	117.09014634687	122.643372485665	-72.6922440880583
3157797	42.3305704699266	130.454941457374	137.150898454791	-72.0225710171094
2693047	50.8177311426151	146.492492526306	155.056416071871	-70.8685194261569
2296687	62.4172897916252	165.214955661419	176.612286206641	-69.3037143918751
1958656	78.1704107482223	184.420110261369	200.303245568716	-67.0293011283238
1670375	97.8673124809999	205.191342419324	227.335650209328	-64.500895674191
1424531	122.536142669952	225.951502281004	257.039272570309	-61.5285052246113
1214875	152.255484069338	245.072587100675	288.517426470927	-58.1486844869141
1036062	186.010453810212	262.162161713588	321.448110837538	-54.6433688033493
883578.1	224.784272258097	275.368736581223	355.465765075825	-50.7751416523488
753531.2	266.773764695533	283.403952072613	389.212077896104	-46.7313487737642
642624.9	309.892058600649	285.629736909308	421.446834832851	-42.6669867103344
548046.8	352.746149371826	281.256315315478	451.148490855827	-38.5665283058114
467390.6	394.208014343392	270.913732247938	478.324376227124	-34.4982300223291
398593.7	431.065948302513	255.694569419658	501.196133880389	-30.6750660019156
339937.5	463.125100428113	237.536003868252	520.488435779555	-27.1532032972275
289906.2	533.021410684403	194.687068949303	567.463548665517	-20.0648158277208
247234.4	548.579563895295	171.292708004311	574.700556584908	-17.3408541485319
210843.7	560.207862716224	150.937592856296	580.185320726346	-15.0792063846561
179812.5	568.967434818228	131.803091303438	584.034242798123	-13.0426909272211
153343.8	575.452637846343	116.66074855826	587.158810423967	-11.4601814970697
130781.2	581.012560957136	104.039473497422	590.254019923279	-10.1521188507861
111531.3	586.26439659248	93.2161163830346	593.628829375293	-9.03440997277872
95109.37	590.197636786418	84.6709548458015	596.24023770857	-8.1640641636632
81109.37	594.400811233817	77.6549303510045	599.451926849217	-7.44319731371935
69171.88	597.798963296616	72.2870229993131	602.15364668215	-6.89484232631145
59000	600.944496284868	68.5673509930141	604.843590721827	-6.50925891892226
50312.5	604.038571341502	66.7082188570942	607.710936326942	-6.30203727315729
42906.25	606.633092975766	62.2606981530271	609.819730762991	-5.85993157927845
36593.75	608.168527701374	62.61907303831	611.383763600763	-5.87865011044537
31203.13	610.432198614287	63.9181016403682	613.76949486137	-5.97763429913217
26609.38	613.006703528757	66.2927191367411	616.580848860663	-6.17218211846884
22703.13	615.75472055443	69.666165638034	619.683185603555	-6.45496543825566
19359.37	618.861389679096	73.9954306213572	623.26939872609	-6.81831808319377
16500	622.263856929659	79.6043370649351	627.334964847746	-7.29008007254859
14112.02	625.627408613241	86.4407261637272	631.570782690137	-7.86655009896357
12011.13	629.843465024246	94.772885246083	636.933819334172	-8.5571303998568
10236.38	634.834177814595	104.31173450936	643.347006892768	-9.33108178951951
8750.684	639.78851008063	114.884047812052	650.02129355343	-10.1798671968043
7449.463	645.476676100816	127.940726892319	658.034170076215	-11.2113516562224
6363.206	651.854981139302	142.857297432125	667.325350834007	-12.3612321144263
5414.761	658.93496213696	159.190604197766	677.891534680355	-13.5817181617243
4620.567	667.308739409973	178.063727256118	690.657400349311	-14.9406136235919
3941.215	676.349649076011	200.722593394499	705.505781198323	-16.5294886148472
3361.769	686.21264648636	225.113319040181	722.193743123755	-18.1621719591181
2867.244	697.537501393024	253.102111751059	742.037226035506	-19.9433487751531
2442.658	709.942834452757	285.135693343077	765.062867880184	-21.8819686637121
2083.003	724.76500860655	321.112777829977	792.715417906159	-23.8961101192473
1777.843	740.396874774814	362.399507941836	824.330598445064	-26.0802023159742
1513.548	759.147556051575	408.824770650288	862.231236360838	-28.3038572484549
1292.065	778.736786242014	461.166067915466	905.044266565537	-30.6339161730693
1101.762	802.037585144771	520.230510722667	955.983301251451	-32.9688968051439
939.101	827.464595873594	585.798925917231	1013.83333888269	-35.2963716901023
801.2801	857.593653320699	663.323945284415	1084.18888142409	-37.7209170847117
684.3433	887.642498187901	748.092020889655	1160.84059039475	-40.1236958126841
582.9476	927.263678811604	844.851556327682	1254.4289865403	-42.3373812795295
497.0677	968.329003654679	953.639375851276	1359.07656829661	-44.5620961839312
423.5089	1015.04835808521	1077.65612770329	1480.42760675013	-46.7136157300049
361.5036	1066.82305187468	1218.71737803723	1619.68622626148	-48.8022187805953
308.1262	1125.27508459487	1380.23197775763	1780.81002030951	-50.8103384497037
262.7298	1193.62668556899	1561.86500335281	1965.74844606341	-52.6117922421083
224.2111	1271.47342322755	1768.51202201909	2178.13668946648	-54.2857170884728
191.2854	1359.63115556789	2002.24031889462	2420.24031323299	-55.8213413822486
163.1722	1463.57536614678	2268.55434725853	2699.7021463223	-57.1716023701436
139.1537	1589.34007796494	2572.76263415233	3024.08820227123	-58.2940438795388
118.6706	1731.89995216898	2913.10641291693	3389.05096115426	-59.2676710608046
101.1982	1905.27847471293	3295.86251747083	3806.94047763734	-59.9685703315881
86.24196	2107.59102315288	3724.50100926756	4279.46815491244	-60.4956915031085
73.61024	2342.32225500132	4201.45316450874	4810.26841660993	-60.8602072523707
62.69291	2621.44070878807	4730.62274490355	5408.39559798376	-61.0072855183808
53.57697	2943.77651665235	5304.29621305756	6066.41397333306	-60.9706162194924
45.65746	3320.0647828114	5939.68910196334	6804.61143564029	-60.7964370497726
38.96512	3751.35812712931	6627.59245809874	7615.62010532474	-60.4892170800235
33.18414	4242.30673989502	7385.45914611759	8517.16932286371	-60.1263629083671
28.30617	4790.05859137155	8199.41320069011	9496.05381958335	-59.7067286192133
24.17237	5405.06383361727	9052.64633252423	10543.4871208363	-59.1598404037609
20.61345	6076.53949422635	9999.70884513104	11701.2182789778	-58.7141365349287
17.55618	6826.64969962208	11022.5209297532	12965.3042296815	-58.2285548035553
14.98558	7622.27398315631	12114.1101731783	14312.6072384526	-57.8216401774534
12.76553	8491.48083632684	13337.3028099868	15811.0370639939	-57.5162536726487
10.8809	9411.06314347384	14665.6348276998	17425.5259429921	-57.3113639651099
9.278505	10390.2859469778	16122.5844021579	19180.6092151597	-57.2000268063601
7.923394	11445.4866332623	17755.6590817121	21124.9282530893	-57.1937414593475
6.75822	12582.6803776714	19566.1862154664	23262.8349197802	-57.2556209012216
5.761429	13832.394675948	21591.8941255785	25642.6409404607	-57.3551952364374
4.919708	15079.6877298482	23822.367166386	28194.0092828217	-57.6659675445163
4.191257	16469.2295530544	26480.799928663	31184.4237870941	-58.1212398085273
3.564097	18033.0536636004	29380.055115076	34472.8685055247	-58.4589984287569
3.051758	19564.5007310049	32651.1640911356	38064.0014365247	-59.0700579172639
2.604164	21369.1184627922	36307.703873762	42129.4265859582	-59.5208038146934
2.214424	23287.3338552418	40644.331395218	46842.9460287223	-60.1892736742725
1.892567	25358.4524728201	45381.15407127	51985.577390817	-60.8040573884479
1.607507	27812.1996232683	51089.5415838678	58169.2333380309	-61.4369465689494
1.376413	30248.0824726876	57228.9147827486	64730.9445357134	-62.1415127696217
1.17375	33166.7129984989	64292.2253663454	72343.0791000891	-62.711949550454
1.001604	36457.307169327	72420.8060251968	81079.6422746046	-63.2788912887359
