EC-Lab ASCII FILE
freq/Hz	Re(Z)/Ohm	-Im(Z)/Ohm	|Z|/Ohm	Phase(Z)/deg
6999984	21.3468290964451	-8.86254611486776	23.1134557371024	22.5467200272008
5969734	4.75332599212351	5.45674835734017	7.23672651291533	-48.9411610459145
5091109	9.69216560910607	7.11222242527437	12.0217212586598	-36.271648989818
4341796	19.6785962370964	10.0835157469215	22.111635843625	-27.1310699376016
3702781	1.59375404842499	-0.190659564289383	1.60511776400552	6.82183031447793
3157797	15.3705478664689	-7.06619822409437	16.9170002972633	24.6893415387162
2693047	6.34866427223481	-20.1650795007244	21.1408601838262	72.5241955667464
2296687	1.23600194199684	-19.0635283055521	19.1035549638596	86.2903660314572
1958656	5.55289979442033	-31.7234462368099	32.2057718005118	80.0714821231072
1670375	1.85739711068675	-20.1370975331918	20.2225770140224	84.7300873637569
1424531	6.6019853526564	-23.2706618257733	24.1890452975348	74.1611359874352
1214875	43.0837661957935	1.91798861790867	43.1264372508584	-2.54899125475407
1036062	10.239638127907	-35.3248234377076	36.7789795929102	73.8346646357696
883578.1	33.1410743950251	11.0345889273073	34.9298291557695	-18.4155969214824
753531.2	13.2530196479386	-14.5617874065704	19.6897989391156	47.6939465174737
642624.9	-0.302218951039549	-1.43887689093361	1.47027310443679	101.861869212846
548046.8	-0.105188544694022	-0.924582096922081	0.930546443700517	96.4905617708327
467390.6	-0.147829382634353	-0.738313329005072	0.75296752795629	101.32237215295
398593.7	-0.14685893151679	-0.59186594190781	0.609813773997171	103.935288881865
339937.5	-0.137805519567285	-0.46804728301063	0.487912513015236	106.40582559869
289906.2	-0.116536028087039	-0.382948311100419	0.400287465225888	106.925670206212
247234.4	-0.0973585185528324	-0.308878642813635	0.323859069845505	107.494846479895
210843.7	-0.0866921515510782	-0.241620857961455	0.25670248955276	109.737689768934
179812.5	-0.0617966146380669	-0.201832553000018	0.211081029538969	107.023416806061
153343.8	-0.0520453849872887	-0.16092555078598	0.169132359394192	107.921871924606
130781.2	-0.0386348302892409	-0.132926717143579	0.138427462022706	106.206378990205
111531.3	-0.0278781488423316	-0.109953763439203	0.113432893277565	104.227210878484
95109.37	-0.0228227978006965	-0.0918727552897308	0.0946651111232551	103.950873333893
81109.37	-0.0165643258352324	-0.077577567214875	0.0793262618894537	102.052778750183
69171.88	-0.0127042143857572	-0.064453598997874	0.0656937096451253	101.150427518632
59000	-0.0110928308758362	-0.0574150625842562	0.0584768356564714	100.935052683442
50312.5	-0.00359646439676117	-0.0461107290643356	0.0462507717881738	94.4598274575505
42906.25	-0.00365701102953465	-0.0437206530017276	0.0438733316328679	94.7813713721779
36593.75	-0.00285394304676886	-0.0378668278897498	0.0379742234330886	94.3101135856828
31203.13	-0.00198217728466915	-0.0335420340640997	0.0336005517208436	93.3819792533504
26609.38	-0.000885870914851836	-0.0297877509345927	0.029800920674018	91.7034420967351
22703.13	-0.000311403384568886	-0.0257650705575924	0.0257669523402679	90.6924580672268
19359.37	0.000268661797929201	-0.0223662949372647	0.0223679084489895	89.3118016683
16500	0.000530361588224599	-0.0192878020029	0.0192950923687174	88.424920297217
14112.02	0.000563067358098981	-0.0163706735704635	0.0163803540254913	88.0300950805924
12011.13	0.000661408562122182	-0.0138900991653056	0.0139058374831605	87.2737907910197
10236.38	0.000780159959964014	-0.0116979644267496	0.0117239507544441	86.184483430917
8750.684	0.00088907804286249	-0.00984961150210466	0.00988965654149286	84.8421579084845
7449.463	0.000985786622643137	-0.0083079706633604	0.00836625076175936	83.2331778281981
6363.206	0.000876076133727294	-0.00721002397051097	0.00726305411293551	83.0720620962073
5414.761	0.00100882522952614	-0.0061896839306509	0.00627135675154001	80.74304595478
4620.567	0.00113941739446274	-0.00523971352574793	0.00536217025379744	77.7315797835724
3941.215	0.00113862155809801	-0.00444399229794026	0.00458754036458731	75.6290538585604
3361.769	0.00104381832342301	-0.00391054972191428	0.00404746288678198	75.0548355562802
2867.244	0.00104077444108014	-0.00327563547202225	0.00343700439085784	72.373278483509
2442.658	0.00107070235126453	-0.00285426290647381	0.00304847835227277	69.4377292201562
2083.003	0.000995630813191326	-0.00246155164352886	0.00265528100394961	67.9780046455014
1777.843	0.00110740766263383	-0.00204548722542643	0.00232602014622463	61.5692998196246
1513.548	0.000990817151705993	-0.00187525103869404	0.00212091609599197	62.1495914745331
1292.065	0.00118564859458296	-0.00153913650155454	0.00194285968619818	52.3917306121545
1101.762	0.00100035215203804	-0.00138388100744301	0.00170758047272995	54.1383408844092
939.101	0.0011082829198743	-0.000948860957808454	0.00145898188739212	40.568620458915
801.2801	0.00101652587551614	-0.00114656899604769	0.00153230066184534	48.4404245808599
684.3433	0.000969604173334785	-0.00109039884872481	0.00145914423627297	48.3558731990325
582.9476	0.000977649372254623	-0.000797997769647483	0.00126198206620863	39.2227425981527
497.0677	0.000860001837785835	-0.000752256111501179	0.00114258147118089	41.1766604598417
423.5089	0.000947698766291581	-0.00075026962370598	0.00120873382507751	38.3677864354144
361.5036	0.000891785880565365	-0.000489199022660544	0.00101715177852068	28.747458362179
308.1262	0.000907843591722754	-0.0005119098781464	0.0010422244049992	29.4175439627404
262.7298	0.000917338441731108	-0.000539821435629514	0.00106438573789899	30.4753157257991
224.2111	0.000845211307359322	-0.000416734621935126	0.000942363995071685	26.2457756596111
191.2854	0.000781834040605626	-0.000361858352777982	0.000861513745987209	24.8362421878097
163.1722	0.000689761619900925	-0.000481526015416364	0.000841212455810723	34.9190847115866
139.1537	0.000864191111949971	-0.000344308753223376	0.000930255231385216	21.7231963291034
118.6706	0.000761253426359903	-0.000500137065251071	0.000910847881472338	33.3045755885772
101.1982	0.000755096568496966	-0.000340103290511604	0.000828155224564039	24.2472931406168
86.24196	0.000627241616358646	-0.000342056820453503	0.000714447278468444	28.6051814824921
73.61024	0.000736318567278892	-0.000330632948008666	0.000807145079170121	24.1817582280098
62.69291	0.000691431351836109	-0.000303552082831456	0.000755129910209644	23.7024274661813
53.57697	0.000760029181023966	-0.000243730048032767	0.000798153301266126	17.7802726703516
45.65746	0.000686342092583876	-0.000261962649974121	0.000734635894871655	20.8908261626491
38.96512	0.000702947557255288	-0.000272974631507113	0.000754089131136115	21.2226145626535
33.18414	0.00073733266051586	-0.000304524001397813	0.000797743266778687	22.4409978548433
28.30617	0.000534018479976673	-0.00111133509339034	0.00123298070818546	64.3347952093825
24.17237	0.000586039996394494	-8.249292991988E-05	0.00059181750638252	8.01249963811724
20.61345	0.000591830721989894	-0.000212549724310555	0.00062884098848244	19.755212353544
17.55618	0.000580718320632286	-0.000182418200041771	0.00060869546377845	17.4388127427654
14.98558	0.000535327231054735	-0.000127535074169671	0.0005503094033834	13.4002165913827
12.76553	0.000565014854974965	-0.00017163702417655	0.000590509148456281	16.8974363813022
10.8809	0.000534868352874271	-0.000188745659537189	0.000567194039902187	19.4370431603299
9.278505	0.000564017599484042	-0.000164970594346788	0.000587648831809332	16.3037718914554
7.923394	0.000493184505118397	-0.000157838862212824	0.000517826286039553	17.7467603689144
6.75822	0.000542866379977873	-0.000239620252823932	0.000593398493487879	23.8165778477052
5.761429	0.000518739108618561	-0.000196988008908101	0.000554882454636977	20.7939676473823
4.919708	0.000493508425901625	-0.000175365499463003	0.000523740035549898	19.5623891371706
4.191257	0.000388502287945453	-0.000284090616802378	0.000481291498256521	36.1759764971871
3.564097	0.000453219244777832	-0.000143026490036573	0.00047525178662386	17.5146035999054
3.051758	0.000369781034937109	-6.53409291047041E-05	0.000375509588180415	10.0208198424539
2.604164	0.000277977381815068	-9.73145754884686E-05	0.000294519186816854	19.294176134114
2.214424	0.000242382403854711	0.0006091281713616	0.00065558093233766	-68.3015539124118
1.892567	0.000381678222364926	-0.000211589406782928	0.00043640387543009	29.0024933359476
1.607507	0.000440505451744103	-9.93378221577537E-05	0.000451567332661832	12.7081236819103
1.376413	0.000464252461494994	-0.000108067608276143	0.000476664406016105	13.1038255239615
1.17375	0.000216935864844635	3.50296936540397E-05	0.00021974587343881	-9.17265322958789
1.001604	0.000104514119144086	-9.12406542010342E-05	0.000138737370882891	41.1209059367975
