EC-Lab ASCII FILE
freq/Hz	Re(Z)/Ohm	-Im(Z)/Ohm	|Z|/Ohm	Phase(Z)/deg
6999984	34.1606947956976	96.8739077864883	102.720529003456	-70.5757952886245
5969734	35.5959833555682	89.9832081729947	96.7680307960971	-68.4170049081306
5091109	36.0712435311928	93.451636089902	100.171567312118	-68.893992272577
4341796	40.7637237392127	100.336105248707	108.300577974295	-67.8894826661537
3702781	49.9737370939593	107.038486031199	118.129640188174	-64.9732420804968
3157797	58.3026840865398	115.301035869219	129.203451363382	-63.176274547628
2693047	69.7136591352256	124.897053901029	143.035898791803	-60.831100996378
2296687	84.6461757950667	135.047449723211	159.382523362734	-57.9209910591291
1958656	102.229389166609	143.048502886214	175.822985378378	-54.4485631530049
1670375	122.464182249524	149.703424704594	193.413007066042	-50.7152790219135
1424531	144.370472616613	153.254364756289	210.546274439606	-46.7097310761539
1214875	165.877664362943	152.716005183578	225.471900186555	-42.6343567639017
1036062	189.250163974259	150.397855797039	241.733612872995	-38.4743050191072
883578.1	210.691575355066	147.069293304967	256.944190358182	-34.9162428409227
753531.2	229.803336607032	138.89306917128	268.516029651011	-31.148753129462
642624.9	247.082477838062	128.151757935701	278.33904490137	-27.4139563897915
548046.8	261.262660220905	117.832787523019	286.605553751404	-24.275981137419
467390.6	274.225544533681	107.841189552752	294.66823961694	-21.4675941271176
398593.7	284.904926342239	96.9279073504246	300.941582831966	-18.7888903841661
339937.5	292.153783054426	86.6676189340619	304.737771083127	-16.5230256509181
289906.2	298.52530226757	78.6763148662072	308.718834240593	-14.76456661146
247234.4	302.895620146251	70.1380935279036	310.910129888865	-13.0375514957988
210843.7	306.791610159492	64.1380053746757	313.424274423178	-11.8082132505661
179812.5	309.705623507026	58.7477611425262	315.228286597404	-10.7407699599255
153343.8	312.036096871269	54.4727158870546	316.755114444531	-9.90244103240192
130781.2	313.904063981915	50.9844392848117	318.01756937872	-9.22544556083124
111531.3	315.485142678555	48.7800239417692	319.234030120017	-8.78941894915873
95109.37	316.940451856238	47.8025774399934	320.52509485646	-8.57699484661398
81109.37	317.917859147878	47.790423216595	321.489797219742	-8.54887407802896
69171.88	319.143215201919	48.6921563223508	322.836363962827	-8.67480447182077
59000	320.359212921373	50.6829945096597	324.343631409756	-8.99006876901355
50312.5	322.023168566597	54.0316546440254	326.524640413618	-9.524827467943
42906.25	323.127501964811	57.6890174069445	328.236812766937	-10.1225542285573
36593.75	324.747772930645	63.2704401698225	330.853841783191	-11.0247965981278
31203.13	326.232716843602	69.6182833253476	333.578313012592	-12.046265755287
26609.38	328.383615011327	78.0503623757662	337.531713583918	-13.3700045268455
22703.13	330.545628369465	87.61998105346	341.961508819301	-14.8463391479811
19359.37	333.440209437186	99.1812799455142	347.87828268109	-16.5650291868791
16500	336.566137184157	112.889636836898	354.994133478613	-18.5422721604079
14112.02	340.278508491451	127.974045386354	363.547547968234	-20.6105867754727
12011.13	344.360688673743	145.881651327435	373.986283301773	-22.9589918086872
10236.38	349.252228187353	166.751283642156	387.018228886105	-25.5222502854978
8750.684	354.834871778078	190.163513852874	402.579120460361	-28.1877989174732
7449.463	362.45998504257	216.551919361279	422.22265990365	-30.856229527158
6363.206	370.639055621374	247.774696694293	445.831369324605	-33.7629933908834
5414.761	380.326965490133	284.211484672	474.78918342607	-36.7700993532701
4620.567	390.948892772074	325.260762798807	508.562287803738	-39.7597014550155
3941.215	403.050765427158	371.636746846254	548.236984449139	-42.6778958267537
3361.769	418.80043188871	425.47655334095	597.012645756406	-45.4530570145155
2867.244	436.354144993768	486.561500886519	653.564865945365	-48.1138672855251
2442.658	457.100142088703	556.683114032383	720.303151004009	-50.6101126186172
2083.003	481.560778374878	636.091021272859	797.817379237233	-52.871995295189
1777.843	509.436097376317	725.599490771182	886.577553470316	-54.9276933796051
1513.548	543.480864083437	828.585434344337	990.921425559298	-56.7385665981617
1292.065	582.412431457955	943.70050658466	1108.95215696842	-58.3188529520679
1101.762	628.017051908392	1074.8838414791	1244.90187973213	-59.7037492386786
939.101	680.994288449758	1223.68518280003	1400.41374154409	-60.9035801574621
801.2801	744.681164930619	1390.16117474545	1577.05362279539	-61.822948235529
684.3433	819.430858318081	1578.7663463054	1778.75521300442	-62.5692257636869
582.9476	905.941707478773	1784.28995312278	2001.10494831342	-63.0816219198724
497.0677	1006.17849727355	2028.52027351173	2264.35193122089	-63.6178531203353
423.5089	1122.15843291133	2294.67820920195	2554.36638568947	-63.9401418800964
361.5036	1260.8637390363	2588.50532276044	2879.25983099402	-64.0292368172393
308.1262	1417.72688857358	2919.76722316684	3245.76495884467	-64.1005700627331
262.7298	1599.11091644466	3284.09003148192	3652.72542876842	-64.0373155221506
224.2111	1807.10363453122	3697.74408633054	4115.69372936428	-63.9550387827698
191.2854	2048.24024177019	4151.29152624877	4629.09380158921	-63.7383461446514
163.1722	2328.45512948144	4643.7526482656	5194.81875990705	-63.3700488739413
139.1537	2632.47479248732	5198.64422458618	5827.16271498441	-63.1433867701875
118.6706	2988.24784892748	5821.21853795881	6543.40969780244	-62.8268848841572
101.1982	3383.65127996348	6473.14061249618	7304.1526116002	-62.4029534115399
86.24196	3841.03033818046	7205.54097003904	8165.37413286947	-61.9394305552791
73.61024	4341.59622437501	8007.59366324574	9108.84262961879	-61.5341202110036
62.69291	4913.55894466466	8878.53123809806	10147.4813844903	-61.0389700844515
53.57697	5526.25447529988	9827.62913922967	11274.8296228372	-60.6501609246757
45.65746	6213.95137268131	10869.2867921587	12520.1672126311	-60.2434754816919
38.96512	6955.80349924933	12005.7202534439	13875.1764357835	-59.9131080170194
33.18414	7773.70183513091	13263.6183246843	15373.8092639533	-59.6257696827613
28.30617	8626.36521475418	14659.914118068	17009.6225345376	-59.5260750264086
24.17237	9548.50483787388	16102.7003499875	18720.8681209069	-59.3331028410085
20.61345	10529.1393624391	17789.2409192326	20671.7166243194	-59.3794551266346
17.55618	11526.8809246452	19656.2234389567	22786.7528123939	-59.6116176252216
14.98558	12537.8449189577	21785.3298442382	25135.5953109149	-60.0788074113713
12.76553	13629.4631348012	24214.6912108549	27786.9310248534	-60.6266123592958
10.8809	14733.6705357215	26995.3772518655	30754.3727041494	-61.3749525355162
9.278505	15881.5924310871	30206.7242771714	34127.2789671872	-62.2662456816217
7.923394	17122.1898502698	33874.2799658431	37955.71404246	-63.185098097673
6.75822	18331.3643158256	38164.9669158077	42339.149936722	-64.3441344214432
5.761429	19765.2917168313	43172.4723895613	47481.8821117999	-65.4006685956644
4.919708	21351.3844575866	48931.3128035873	53386.8428635574	-66.425747386933
4.191257	23085.3261843082	55538.4533500148	60145.2582133262	-67.4291110777661
3.564097	24957.2486031867	63486.1798811154	68215.5355746666	-68.5395605805091
3.051758	27163.9272497487	72127.9318666352	77073.4552163558	-69.3632447067892
2.604164	29560.5073311599	82417.6141322154	87558.4759627662	-70.2687472062139
2.214424	32634.8200743728	94407.5318013724	99889.0061123537	-70.9307426427081
1.892567	35871.912393039	107783.216198126	113595.844082193	-71.5917640509505
1.607507	39944.6134265877	123754.511142566	130041.344079239	-72.1113221795752
1.376413	44319.998365395	141243.098432522	148033.35809853	-72.5789130361814
1.17375	49531.7174078251	161713.407966624	169128.996170226	-72.9705296891533
1.001604	55774.1711768727	184966.904034369	193192.944380809	-73.2200528089328
