EC-Lab ASCII FILE
freq/Hz	Re(Z)/Ohm	-Im(Z)/Ohm	|Z|/Ohm	Phase(Z)/deg
6999984	42.1725874014713	88.4445793842389	97.9845434269592	-64.5070263225989
5969734	45.8882922582031	75.0550234892728	87.9715403829532	-58.5585784935507
5091109	49.4638131809268	74.195024781928	89.1715790865483	-56.3096847701945
4341796	55.8853560098726	74.4666943063886	93.1045733424053	-53.1127063240794
3702781	64.6698175764117	72.0460047120832	96.8132847306602	-48.0882675312387
3157797	71.7590931625113	71.3171202627584	101.170643440075	-44.8230097046779
2693047	80.2420893738667	69.9817595718784	106.471778325807	-41.0927507907448
2296687	89.6893667779753	67.7835050400608	112.422355732969	-37.0804763204704
1958656	97.8510039681963	64.0204839800793	116.933491124774	-33.1953182666237
1670375	105.308576506505	59.7716441960336	121.088999234958	-29.5786253172635
1424531	111.870855703309	54.7892319604572	124.567043372665	-26.0935006663992
1214875	117.368531030447	50.1571039512916	127.636621519945	-23.1393016268149
1036062	121.719537352148	44.995656695889	129.770007685579	-20.2876734917149
883578.1	125.285804622938	40.4080641500642	131.640968123046	-17.8759165150928
753531.2	128.176956913998	36.18734196558	133.187296700049	-15.7656098232229
642624.9	130.553483748597	32.4465881854801	134.525065336439	-13.956999787957
548046.8	132.38240118679	29.2519510647009	135.575723435546	-12.4601761960675
467390.6	133.820312885568	26.4744855232548	136.413982144472	-11.1906678798182
398593.7	135.032123408619	24.1411858751799	137.173143172053	-10.1363109452184
339937.5	136.028627976033	22.2643792512925	137.838638314833	-9.29542089635057
289906.2	136.925479236784	20.9603277210068	138.520475751403	-8.70318307141359
247234.4	137.646782089286	19.8501123107328	139.070714308528	-8.20607915878014
210843.7	138.384932402678	19.2331738624751	139.715083269194	-7.9124612070874
179812.5	138.941652883473	19.23351017717	140.26657057092	-7.88129230303228
153343.8	139.725481723187	19.1643689749844	141.033624646699	-7.80980435893381
130781.2	140.45617679353	19.7195701935345	141.833702088302	-7.99189607580434
111531.3	141.2458118447	20.5772445282033	142.736829010742	-8.28876269819547
95109.37	142.17649444896	21.6868714305399	143.820985833917	-8.6727532829142
81109.37	143.064532533153	23.2726266854487	144.945077949442	-9.2395002155458
69171.88	144.14697793107	25.2311337941766	146.338516321575	-9.92833299516388
59000	145.460642543732	27.5064928024615	148.038527672789	-10.7081457430708
50312.5	146.733134781403	30.3296794754078	149.834916824679	-11.67854717195
42906.25	148.376171183872	33.4054123702452	152.090136928112	-12.6880185928792
36593.75	150.10559386961	36.9976943265078	154.597925912433	-13.846149643333
31203.13	152.34018109529	41.0014906140702	157.761379965825	-15.0638683044805
26609.38	154.196200728883	45.7828592858545	160.849428110921	-16.5368396633587
22703.13	156.649460932472	51.0673605392214	164.763251129847	-18.0558481810757
19359.37	159.308514061327	57.0985932813841	169.231947359655	-19.7184513814084
16500	162.215275374774	63.8065533205859	174.313142968528	-21.4719428767826
14112.02	165.416544887354	71.411422774982	180.172763272414	-23.3501787433128
12011.13	168.935295530205	80.1165032024324	186.970019418256	-25.3723530671357
10236.38	172.681990370483	90.0571509281372	194.754615430816	-27.5429521077873
8750.684	176.875114211018	101.252446701355	203.805946895991	-29.7890497971032
7449.463	181.488806170648	114.105996689847	214.379022401518	-32.1584766518211
6363.206	186.640373254841	128.847415716291	226.795691020515	-34.6193074635962
5414.761	192.286524854906	145.958210424086	241.408174739336	-37.2009063194289
4620.567	198.882669332076	164.955108840792	258.388281648625	-39.6726233293115
3941.215	206.435582826966	186.908756762061	278.478963678495	-42.157993923452
3361.769	214.791385208758	211.903697768726	301.725895951866	-44.612252909317
2867.244	224.27092792504	240.280470098689	328.682450738102	-46.9737672168841
2442.658	235.606943802733	272.780506608426	360.443943982436	-49.1820554212993
2083.003	248.342662892812	308.979112791223	396.411617329694	-51.2093405286548
1777.843	263.042757045093	350.396808139672	438.143144632384	-53.1044557318295
1513.548	280.034309038725	398.123409710469	486.745789502371	-54.8779950204554
1292.065	298.868479239072	450.756491969557	540.836188633284	-56.454127430347
1101.762	321.263609410553	510.805343612776	603.433845417095	-57.8327555586789
939.101	346.529123728212	577.796266548708	673.743986414327	-59.0470823096792
801.2801	374.441409730898	655.185445830936	754.635234898255	-60.2518406655008
684.3433	406.447918209901	740.162976467948	844.417634793977	-61.2273586074905
582.9476	443.449038517256	839.254821941407	949.207936078171	-62.1487320378404
497.0677	485.139248705305	949.61569707844	1066.36300703471	-62.9384397668692
423.5089	531.661015377661	1074.64180279189	1198.96557064005	-63.6768677732338
361.5036	586.049528523877	1214.38864206326	1348.40417674201	-64.2385955955801
308.1262	646.237531545851	1373.77623213966	1518.18446941415	-64.8072562072474
262.7298	714.813178889688	1552.33214325613	1709.00350020137	-65.2750189511922
224.2111	793.668776749338	1752.6697871818	1923.99623442633	-65.637357460833
191.2854	880.445442981067	1981.3279059989	2168.14308779566	-66.0410062275026
163.1722	985.145838463228	2240.16820144509	2447.21594752224	-66.261824161746
139.1537	1094.40505326792	2530.96297581981	2757.44374477323	-66.6160266706959
118.6706	1220.46192641494	2860.56189154252	3110.03885010683	-66.89442686335
101.1982	1363.48074597739	3228.63125249756	3504.73101810325	-67.1052180361786
86.24196	1524.84482292008	3648.91135590365	3954.70679282659	-67.3204209840297
73.61024	1705.754957273	4120.75765699927	4459.84793933376	-67.5132785778708
62.69291	1913.20391632742	4656.83419522525	5034.5261889546	-67.665284280919
53.57697	2137.17332488747	5247.76230510719	5666.2614686859	-67.8411823240242
45.65746	2395.7855581624	5929.07929160407	6394.82366346623	-67.9976570978744
38.96512	2683.05026295406	6688.5327156636	7206.61006313233	-68.1422143495859
33.18414	3004.57655160394	7559.80679832274	8134.99594851865	-68.3251024777916
28.30617	3365.61063285657	8523.03471913337	9163.48491326034	-68.4517261505156
24.17237	3745.38202611747	9617.85337102713	10321.385080896	-68.7230789622895
20.61345	4183.13683609996	10877.5682212899	11654.189126591	-68.9649817433937
17.55618	4652.6238415112	12293.6912548216	13144.6473242714	-69.270540135537
14.98558	5164.65533465313	13894.6048773503	14823.4176026801	-69.609788446034
12.76553	5730.98681379844	15751.3693797693	16761.5586148146	-70.0065617191621
10.8809	6351.55987221914	17862.469848617	18958.1154628601	-70.4255657547412
9.278505	7023.05419762893	20273.6699314717	21455.6515341085	-70.8932712029065
7.923394	7775.37616517863	23036.6711355037	24313.4672869868	-71.3493456078307
6.75822	8585.57764596862	26226.5053366182	27596.04547189	-71.8734873988164
5.761429	9536.54485196026	29914.5727930243	31397.8877172111	-72.3181026478379
4.919708	10577.6997178476	34083.4471572529	35687.0999303979	-72.7584207133959
4.191257	11717.3507818668	38964.1643399563	40687.8656611088	-73.2628527562291
3.564097	13124.7542619695	44706.2511001161	46593.0044305335	-73.6389422529529
3.051758	14607.0912686752	50924.7117944626	52978.2350279856	-73.9951501141858
2.604164	16403.0954239464	58336.4694753419	60598.7228440879	-74.2950362241573
2.214424	18452.3243863737	67018.3250262337	69512.1871658623	-74.6060377153543
1.892567	20941.6943206041	76558.3786219621	79370.9008279566	-74.7016070755821
1.607507	23855.3425288903	87994.095010831	91170.3796413387	-74.8316111992973
1.376413	27102.2982898436	100485.291085319	104076.069761944	-74.9056946422077
1.17375	31040.5846271056	115182.741177147	119292.002075051	-74.9176694601259
1.001604	35563.2020778295	131785.999469003	136500.150176007	-74.898131599312
