EC-Lab ASCII FILE
freq/Hz	Re(Z)/Ohm	-Im(Z)/Ohm	|Z|/Ohm	Phase(Z)/deg
6999984	19.0639283982679	105.684970378119	107.390624962322	-79.7746899852294
5969734	25.5700021662324	95.7974874403813	99.1513167369508	-75.0551793309573
5091109	24.1907667892602	100.226991261526	103.105009457302	-76.4306218139484
4341796	25.9967286926051	109.445536364069	112.490689982485	-76.6380898315653
3702781	31.9931422905424	120.185249535579	124.370637047304	-75.0936247990106
3157797	36.7105932972126	133.153376262952	138.121284639467	-74.5863852629813
2693047	43.736760016103	149.220865627924	155.498459527588	-73.6640951001592
2296687	54.0115632294122	169.411926088734	177.813524973719	-72.3167848449091
1958656	67.9123981219466	190.323312371478	202.076859265788	-70.3622539183793
1670375	85.9400568521818	214.121454204543	230.724273804089	-68.1313854472579
1424531	108.466667247263	238.424213245563	261.937250816859	-65.5377201002597
1214875	137.266754105479	262.582142721395	296.296377734884	-62.4013491297136
1036062	170.150607439481	287.287481821932	333.894184471086	-59.3631831252529
883578.1	209.771087757728	308.66704087421	373.201355009734	-55.7998497353532
753531.2	255.246102220411	325.909641547279	413.965780170522	-51.932642449228
642624.9	304.39634978554	337.030592576315	454.143983880776	-47.9125585642059
548046.8	355.694616308499	340.719636886029	492.553074328643	-43.7681600263743
467390.6	480.074302644093	339.343904187061	587.899329280217	-35.2548494386891
398593.7	526.204362520727	317.065449190557	614.346425240885	-31.0711459961116
339937.5	567.975077567045	291.01169358865	638.187664047673	-27.1291046923643
289906.2	599.060137744085	262.01562714766	653.854140847593	-23.623502529902
247234.4	625.309856397346	234.036775451406	667.671797196318	-20.5195323226705
210843.7	644.365349866759	206.763456776414	676.725816832078	-17.7903567275459
179812.5	659.592684752673	182.39071621974	684.345587508526	-15.4571981012598
153343.8	672.310950802684	160.847617677365	691.284290781797	-13.4548710354602
130781.2	681.205962829882	141.73703466896	695.795193136412	-11.7537077755153
111531.3	688.155388426096	124.915995774614	699.40106135195	-10.2884713468713
95109.37	693.099564029679	110.874987357065	701.911866604034	-9.0885888618863
81109.37	697.136067955231	99.5394681050385	704.206505902008	-8.125962470287
69171.88	700.279383124349	90.2775217598251	706.074532442655	-7.34585178432663
59000	703.40372308465	82.8532598824472	708.266517860682	-6.71786139297349
50312.5	706.849192440481	78.7955428248282	711.227473051217	-6.36074825842435
42906.25	707.782780623568	69.9879276782897	711.234683186872	-5.64723990544337
36593.75	708.613858739905	68.4294297376531	711.91023847988	-5.51583604583468
31203.13	709.9310540609	66.575028382182	713.045816146557	-5.35734446054559
26609.38	711.011689480259	68.1155794932134	714.267005220925	-5.47228838861576
22703.13	712.466672243995	70.2485717523481	715.921518667847	-5.63111114351043
19359.37	713.954321623288	73.5101233369635	717.72871727247	-5.87856989635405
16500	715.563399789902	78.8491974636365	719.89455829277	-6.28815450578127
14112.02	717.25860541344	85.6104132414945	722.349672869734	-6.80649796388022
12011.13	718.953499257104	94.2891240035102	725.110041993203	-7.47157018373423
10236.38	720.311598748285	105.207213166647	727.954227265426	-8.30974441265316
8750.684	723.107461599615	117.330548325264	732.564576396747	-9.21642147555793
7449.463	725.703351466095	132.990277370615	737.788430516659	-10.3846308536281
6363.206	727.464015494629	151.677827919263	743.108375219843	-11.7775600085266
5414.761	732.116839709313	172.203395505975	752.096454193037	-13.2361157492793
4620.567	736.344990424289	197.677505051933	762.417432202664	-15.0271818168583
3941.215	740.663861724756	226.997773072628	774.668280649828	-17.0391918693956
3361.769	746.525650414788	260.475504530536	790.663035172164	-19.234748951603
2867.244	753.230220813015	299.923977725919	810.746666944096	-21.7116397703756
2442.658	761.261060886271	345.151113348331	835.851478354428	-24.3892491639384
2083.003	770.221067031151	397.327940604427	866.666016688989	-27.2874988748282
1777.843	781.978284178886	457.411042265293	905.933164484873	-30.3251091102276
1513.548	795.740349519123	528.276343193457	955.132764923634	-33.5794005245896
1292.065	808.42268451159	608.044123485015	1011.56556531823	-36.9481574472629
1101.762	828.210300162816	700.06708826579	1084.44743043115	-40.2070669014536
939.101	849.892951113003	807.449311070479	1172.30218727927	-43.5330066880967
801.2801	873.215682189988	929.030958373236	1274.99182320453	-46.7738737013188
684.3433	903.285758852869	1068.93713369259	1399.4826751101	-49.8011305893602
582.9476	936.530988833511	1230.30417572821	1546.20136394318	-52.7209177837689
497.0677	978.684716919226	1417.49846220912	1722.53466307546	-55.3776027586536
423.5089	1027.07784107118	1631.90439257898	1928.21182398044	-57.8147646839118
361.5036	1083.64767511923	1876.52739035813	2166.94423798943	-59.9946399112666
308.1262	1155.47789426899	2159.27690630487	2449.00100494994	-61.8477573080582
262.7298	1240.88433589008	2480.49903607665	2773.56618868823	-63.4232193573294
224.2111	1341.55865894668	2845.10357734764	3145.53556667719	-64.7546013858749
191.2854	1461.09245618276	3262.92493618274	3575.11822247563	-65.8778278474494
163.1722	1609.66054271475	3737.32648644553	4069.22797703201	-66.6985325931948
139.1537	1780.28017937089	4281.85716926302	4637.20803232181	-67.4237825702713
118.6706	1991.26119668382	4894.438963474	5283.99980323534	-67.8614650299718
101.1982	2234.35585043625	5592.71744136978	6022.52724737551	-68.2227149198018
86.24196	2535.36767530279	6374.56945948426	6860.26421085659	-68.3107212371339
73.61024	2882.18599220105	7241.30923540544	7793.81521056332	-68.2964545880351
62.69291	3309.59953539529	8237.54722490802	8877.53532053117	-68.1112173328693
53.57697	3789.51782579951	9321.71677648453	10062.5468452597	-67.8769921862198
45.65746	4380.70305423101	10543.9016088674	11417.7239582513	-67.4384502898267
38.96512	5056.32915545954	11892.2338806351	12922.5265022006	-66.9658174046233
33.18414	5849.50108514766	13403.4581453955	14624.2727409096	-66.4227107106188
28.30617	6794.96525417719	15024.8438085219	16489.9206873761	-65.6652032096763
24.17237	7862.53020798508	16826.3122248659	18572.6725152884	-64.9544490648165
20.61345	9067.39700485235	18834.8889612427	20903.8448766237	-64.2931411776765
17.55618	10487.6644934599	21029.7827658569	23499.8482911382	-63.4943234197051
14.98558	12084.248303215	23380.6421525538	26318.8807611481	-62.6678890960084
12.76553	13937.1510061116	25977.5497883213	29480.1165393196	-61.7861070493021
10.8809	16058.0703590404	28752.1649426958	32932.485672173	-60.8166624599407
9.278505	18418.9649547789	31721.5574908484	36681.2687846342	-59.8586197307025
7.923394	21063.6473230222	34917.6917215427	40778.9459612353	-58.9000613394486
6.75822	24053.6087755315	38305.1042547588	45231.1519540932	-57.8733209705742
5.761429	27318.0346668891	41951.8508644739	50062.2892906069	-56.9287943157231
4.919708	31006.3377728235	45692.5290642363	55219.5635112095	-55.8397104091605
4.191257	34964.1279755587	49636.040956579	60714.3047965999	-54.838747411489
3.564097	39270.5849065539	54011.9116505471	66779.2290989449	-53.9801243188618
3.051758	43818.7844959333	58266.6827389242	72904.6788080127	-53.0554277333002
2.604164	48598.8384243289	63080.8503527192	79630.6522478384	-52.3885736147033
2.214424	53597.8337277821	68076.8539504217	86644.0178206091	-51.7861600593248
1.892567	59168.8481298303	73527.0454122707	94377.8522539533	-51.1755933145216
1.607507	64891.5751520117	79624.3886426582	102717.86501104	-50.8209610872254
1.376413	70775.8178922853	86035.5173323804	111406.133767276	-50.5580937803973
1.17375	76682.5758822206	93498.9782702247	120922.604923598	-50.6433327115789
1.001604	82953.0345989838	101452.580267057	131048.967916668	-50.7287378005211
