EC-Lab ASCII FILE
freq/Hz	Re(Z)/Ohm	-Im(Z)/Ohm	|Z|/Ohm	Phase(Z)/deg
6999984	27.6743412466681	79.2554322035815	83.9481548172057	-70.7518652190683
5969734	26.7797694034523	80.4262201552466	84.7675228950467	-71.5836280502597
5091109	26.324479355853	82.5624381133821	86.6575697823496	-72.3154670419803
4341796	28.7461644770052	88.5852001904585	93.1325918512023	-72.0215969888577
3702781	34.240986905933	96.6618842686874	102.547379560208	-70.4940915070389
3157797	40.6160444578465	107.250989218315	114.684078039233	-69.2582788387212
2693047	50.3803734058595	119.558142254811	129.739475118159	-67.1500233357578
2296687	63.6831719249524	132.665673722383	147.15885080632	-64.3577135211878
1958656	80.5746704298508	144.240421612099	165.219783142683	-60.8116777271231
1670375	100.793675091669	154.797594374503	184.720491994305	-56.9305590257321
1424531	123.521271611692	162.789255034686	204.347366254908	-52.8094913293182
1214875	148.158900711963	167.121067226856	223.339452339305	-48.4418455161919
1036062	173.492484506703	168.196676911628	241.639740739025	-44.1120492950118
883578.1	198.708013953341	165.414473365113	258.547525240406	-39.7756869774996
753531.2	222.525493925677	159.527540338718	273.800349841609	-35.6365711105391
642624.9	244.151662072131	150.45629820518	286.787607406927	-31.6430839263671
548046.8	262.623564404563	139.887969343718	297.556348525227	-28.042256178354
467390.6	278.79824833395	128.183748630868	306.854259685507	-24.6916677473644
398593.7	291.769760308764	116.491492716213	314.1653400773	-21.7647644171401
339937.5	302.463740949841	104.982904674568	320.165152481156	-19.1415058000234
289906.2	310.935513487445	94.5215200429678	324.984940110976	-16.9087866752238
247234.4	317.318373977123	85.0609177902058	328.521399909956	-15.0060167559061
210843.7	322.442493197293	76.8451512900068	331.472983357725	-13.4047945241658
179812.5	326.544332694636	69.779598957743	333.916746578677	-12.0621767932578
153343.8	329.884983816554	63.8605278283337	336.009329576072	-10.9560416627121
130781.2	332.644200417892	59.4047468790947	337.906922130086	-10.1253388034417
111531.3	335.027932101905	55.7553939712601	339.635656616571	-9.44857824456699
95109.37	336.848270238139	53.4011685011882	341.054895815496	-9.00823726069715
81109.37	338.587465786068	52.531090263694	342.638274907699	-8.81900076012134
69171.88	339.991148292877	52.214720657476	343.977263741148	-8.73108038645851
59000	341.536451172598	53.2691242818586	345.665657943234	-8.86494624571288
50312.5	343.157137457765	55.1883995296227	347.566656097573	-9.13638500115611
42906.25	344.870585679212	57.9544662188256	349.70622102192	-9.5392545452244
36593.75	346.302503478132	62.4565384698049	351.889532542319	-10.2235380399491
31203.13	347.298806211614	68.3286174857967	353.956580336533	-11.1303869901924
26609.38	350.212512006351	74.7356245143335	358.098055199056	-12.046271484865
22703.13	352.313520742856	82.9668443663789	361.950706812878	-13.2512361054928
19359.37	354.751605044928	93.1078375532651	366.766643379408	-14.7061191867787
16500	357.747503832742	104.60384944093	372.726765629218	-16.2986954853905
14112.02	361.173807229958	118.356170577611	380.071969688346	-18.1439003350314
12011.13	364.959398607917	134.58396428254	388.983555017762	-20.2421691836256
10236.38	369.47400852308	153.256071954806	399.99808320182	-22.5284426735362
8750.684	374.445397560804	174.663053194263	413.178578710962	-25.007075284006
7449.463	381.042753549824	198.206235064188	429.510525658164	-27.4820065871192
6363.206	387.632321285596	226.532310942307	448.971830303552	-30.3020131815059
5414.761	395.989195624507	258.950400257737	473.141366660099	-33.1819969978869
4620.567	405.261724108595	296.304772177989	502.029464317505	-36.1721892461613
3941.215	415.695284898707	338.776025431717	536.257182044519	-39.1787394394867
3361.769	427.47302103168	387.516459829584	576.976767598839	-42.1932021799628
2867.244	441.805697574293	443.237110951434	625.820590052518	-45.0926665613782
2442.658	457.203365355995	508.082592028011	683.507745102241	-48.0172093054866
2083.003	475.387967698352	581.375426202038	750.993412770026	-50.7272939468774
1777.843	496.021066983001	665.345845691016	829.892760101718	-53.2951532747829
1513.548	520.134586600723	762.233673593766	922.789337464706	-55.6910736979476
1292.065	548.631846563157	872.939801877496	1031.02900093316	-57.8511475039026
1101.762	580.4213440067	1000.90048996578	1157.01803244041	-59.8905907756708
939.101	620.585732265771	1148.38377182507	1305.33977893996	-61.6132456825111
801.2801	663.968444802808	1314.5644769002	1472.73007018319	-63.202286831527
684.3433	717.155786956292	1503.85655683646	1666.10232768126	-64.5045626040798
582.9476	778.124164738993	1725.71240722896	1893.02945783068	-65.729374482731
497.0677	858.025884799397	1975.9664849312	2154.21725194028	-66.5280203533638
423.5089	948.701410148207	2264.1931092286	2454.91441836482	-67.2662191766104
361.5036	1064.48743287555	2583.95593956094	2794.63088660063	-67.6102803325864
308.1262	1197.69489938883	2952.88223953695	3186.53206363827	-67.9224277393737
262.7298	1358.73854649662	3368.43637378084	3632.15281092984	-68.0321491571412
224.2111	1551.48524396743	3831.2236162548	4133.44660785611	-67.9541123054444
191.2854	1785.14870397451	4352.20959905995	4704.09229176591	-67.698000171021
163.1722	2066.42397820093	4923.76188805106	5339.80703657987	-67.2329876244928
139.1537	2394.21446528396	5572.54257972428	6065.10459172924	-66.7494685411819
118.6706	2794.77975363783	6286.49279643492	6879.73731700361	-66.031552423883
101.1982	3261.84606653066	7059.43606582007	7776.58519718923	-65.2004771420457
86.24196	3814.41123271551	7910.8211193285	8782.41560359563	-64.2577323859374
73.61024	4458.52852105676	8813.83166267029	9877.35314499618	-63.1671645186854
62.69291	5200.30589633304	9808.46641583563	11101.7653932161	-62.0681168760655
53.57697	6048.1452988376	10834.034222773	12407.9151792744	-60.8273767707097
45.65746	7035.4923188772	11940.0756312382	13858.6997315285	-59.4919840375983
38.96512	8125.17162430843	13081.5431048288	15399.5189511868	-58.1548724311015
33.18414	9363.73340999723	14275.9156080743	17072.8225499581	-56.7386811897207
28.30617	10740.4881472236	15433.4351118252	18802.8988454326	-55.165041146238
24.17237	12209.6730591654	16706.0819739929	20692.2519589696	-53.8387240646015
20.61345	13801.3849300637	17950.8507952594	22643.1285440297	-52.4453709209346
17.55618	15506.0080579896	19257.4049536479	24724.1568398848	-51.1590806708659
14.98558	17242.0723344473	20553.8891802492	26828.1832933256	-50.007670415349
12.76553	19061.7272930333	21897.6018043974	29031.955018185	-48.9606301517931
10.8809	20927.1207722388	23322.5466253231	31335.0532934961	-48.0986437969085
9.278505	22773.5875031884	24855.3651139253	33710.9101436303	-47.502704664615
7.923394	24601.5717793703	26492.8272551178	36153.9379595781	-47.1198313475968
6.75822	26431.8072488599	28439.8041666109	38826.059489421	-47.0957728497792
5.761429	28284.2120157134	30650.2592613897	41706.5347654325	-47.2990238980239
4.919708	30265.6581467356	33211.4136697653	44933.3735768787	-47.6569964692658
4.191257	32054.0692234175	35987.3242700488	48192.8507342872	-48.3084036457059
3.564097	33955.2513932061	39622.9308132679	52181.7568064629	-49.4047583866887
3.051758	36016.5734086616	43429.9567070142	56421.2256130141	-50.3309962287193
2.604164	38099.7510222618	48237.2943246664	61468.9156543601	-51.6969046939993
2.214424	40569.1018960762	53631.7926337743	67247.4624782704	-52.8947703675455
1.892567	43196.1605971177	60041.5207209312	73965.4818196569	-54.2673194136711
1.607507	46136.8150566139	67493.22961964	81755.3774870965	-55.6443890968004
1.376413	49604.2932858455	75619.1304822482	90436.9327613418	-56.7361086092206
1.17375	53545.8148602885	85252.9404153341	100673.820522084	-57.8678205757409
1.001604	58167.6708162089	96060.6348008004	112299.258619617	-58.8038044298666
