EC-Lab ASCII FILE
freq/Hz	Re(Z)/Ohm	-Im(Z)/Ohm	|Z|/Ohm	Phase(Z)/deg
6999984	27.137093633609	89.1341789118743	93.1736212732621	-73.0670157818534
5969734	24.3924456550969	88.840826823368	92.1286270151494	-74.6470041977061
5091109	21.8931824809803	94.5478451505666	97.0495052113148	-76.9625558309478
4341796	22.0461408762978	103.683852709923	106.001762439644	-77.9960571018048
3702781	26.434717835522	115.06263126492	118.060168645698	-77.0612764590489
3157797	31.2203407414789	128.601128745342	132.336540647661	-76.3543611314165
2693047	38.1242243414043	144.193038729992	149.147875948076	-75.1900535959311
2296687	47.0517676487528	163.463475770684	170.100490151867	-73.9419223350181
1958656	60.0366882562541	184.785834676207	194.294129179862	-72.001085099792
1670375	76.8892413656513	208.682039261849	222.396378001687	-69.7735970796619
1424531	99.4079431676788	233.37853225939	253.668047819144	-66.9283459648217
1214875	126.351007670179	258.445863909587	287.678365038531	-63.9465590074019
1036062	160.232651887683	282.716493610841	324.966334395685	-60.4571314434961
883578.1	199.482259620014	304.471359985478	363.999973838616	-56.7681541387023
753531.2	244.292408811375	321.698619206688	403.94155839967	-52.7875871528104
642624.9	293.547680301784	333.315529403941	444.150292977937	-48.6299475603333
548046.8	344.871756919412	337.524073807506	482.554690289398	-44.3830927095764
467390.6	396.46334592309	334.589046607515	518.780314555455	-40.1621699286272
398593.7	511.068817366912	309.325340989112	597.388904033917	-31.1844999663002
339937.5	550.266116335615	284.429403599311	619.429483007502	-27.3341834759755
289906.2	582.882934575112	257.177844721577	637.097291812271	-23.807886077953
247234.4	609.116264521188	230.195889496086	651.162630412051	-20.7024720170778
210843.7	629.002930803186	203.935014579665	661.236854032355	-17.9637051084627
179812.5	644.790033745333	181.615349479337	669.879334495258	-15.7307166934994
153343.8	657.190803358914	158.693841456051	676.079497792688	-13.575507299225
130781.2	666.351231733644	139.590104071307	680.815218093414	-11.8314753370484
111531.3	673.928575432007	122.876913119024	685.03902119622	-10.3331907027813
95109.37	679.742658241003	108.729641538996	688.383771149309	-9.08787839422033
81109.37	683.967216187006	95.8652200026257	690.65280222754	-7.97863210284706
69171.88	687.217888398586	86.4663847430822	692.63616843589	-7.17132311035183
59000	689.924657253294	78.2435181479598	694.347233607397	-6.47020038602819
50312.5	694.282020221239	72.6338290723048	698.071054211668	-5.97239746488467
42906.25	694.647684634839	64.0728956733285	697.596403179165	-5.26993516523602
36593.75	695.511937572858	61.1233810794686	698.192611691743	-5.02239734421668
31203.13	695.543104375198	60.2706325108927	698.149524949456	-4.95245867799624
26609.38	698.262106535606	58.4546716532794	700.704586870698	-4.78533032690335
22703.13	699.543760114972	58.7433987041339	702.005882601497	-4.80008685491694
19359.37	700.737318196166	60.0509701858338	703.305700341619	-4.898099880141
16500	701.612715849503	62.8712648497864	704.424019313316	-5.12057767311691
14112.02	703.593833964567	67.1613740533469	706.792001481124	-5.45263364441159
12011.13	705.295014936061	72.6517596382754	709.027034937453	-5.88123987967936
10236.38	706.506036859875	79.9677822437006	711.017317873779	-6.45769271736048
8750.684	708.984103785783	88.6910635611377	714.510016848285	-7.13043111251334
7449.463	710.471326890028	99.5256466801181	717.408433655454	-7.97432918980563
6363.206	712.833130315803	111.949580708325	721.570357135461	-8.92533026774172
5414.761	716.426963414388	127.53373286162	727.689801306009	-10.0936943444166
4620.567	719.799317457995	144.817002612191	734.222733003122	-11.3755212532612
3941.215	723.596787686748	165.871956406058	742.365016061879	-12.9109965780103
3361.769	728.361238572328	189.890524448374	752.707449896634	-14.6122744295143
2867.244	734.001217115945	218.071901348054	765.710872905201	-16.546694537435
2442.658	740.012506684874	249.885659125332	781.064243635908	-18.6586742660667
2083.003	747.406100644343	287.231027329502	800.69815932169	-21.0219590132207
1777.843	755.209611121686	329.739188783698	824.056727022054	-23.5870165775081
1513.548	765.539744501844	380.478474727026	854.877166698557	-26.4276897595651
1292.065	777.731854670099	436.055391198299	891.633973086319	-29.2782923002118
1101.762	791.449668128306	501.664518628857	937.048486702544	-32.3687808105239
939.101	807.598680947869	578.788726493579	993.585436379176	-35.6283606253349
801.2801	826.258250897035	662.767245148302	1059.22760463316	-38.7341757566667
684.3433	846.037517498765	762.668756189443	1139.05360395507	-42.033387062167
582.9476	873.158621172869	874.570850864993	1235.83176480912	-45.0462970870183
497.0677	904.479906161981	1005.36090838383	1352.34406005171	-48.0236493511038
423.5089	940.731452829306	1155.77306153894	1490.23053120027	-50.8564329043219
361.5036	983.443908880863	1327.7780012526	1652.31847490889	-53.4738015153047
308.1262	1032.83728818976	1524.09616556871	1841.09260651832	-55.8756062150254
262.7298	1094.76985216215	1749.46281058021	2063.76867763961	-57.9627023866146
224.2111	1164.10849619285	2005.40347221039	2318.79099473451	-59.8654379284645
191.2854	1250.83916025536	2295.26526004453	2613.9703936341	-61.4111634681685
163.1722	1349.90611119173	2628.12781233522	2954.53927152825	-62.8132484886331
139.1537	1473.12079099546	3007.01067489564	3348.46204455111	-63.8999775386578
118.6706	1617.7397603114	3428.74202773628	3791.22062466134	-64.7412514692483
101.1982	1787.08479642255	3918.13205655652	4306.44062796882	-65.4819713067935
86.24196	1992.47148460528	4467.93194608035	4892.07098188185	-65.9655476858839
73.61024	2233.20896001187	5080.34660385318	5549.51744518024	-66.2707623033501
62.69291	2523.2216161938	5775.98305713834	6303.06493705855	-66.4020269342145
53.57697	2854.82849144075	6538.21101283211	7134.30087421753	-66.4121109914089
45.65746	3252.82185718315	7409.10241083142	8091.70245181793	-66.2970610661466
38.96512	3722.25943491684	8357.71537906625	9149.13228991187	-65.9933361389477
33.18414	4278.27793227689	9435.42418971896	10360.0623408231	-65.6091679373125
28.30617	4922.44674547147	10606.6049134382	11693.1839013921	-65.1043348240227
24.17237	5656.69515945594	11892.2579734717	13169.0546294946	-64.5613427215773
20.61345	6513.92790262396	13287.5195980131	14798.2915834283	-63.8845649739687
17.55618	7523.55525178789	14830.3345138736	16629.5732182187	-63.1009305975683
14.98558	8631.64554835909	16479.5169014838	18603.2196723793	-62.3553406187646
12.76553	9907.0791373514	18288.08941645	20799.1449713159	-61.5545748042897
10.8809	11332.96688956	20217.5650575286	23177.2749773407	-60.7271664523413
9.278505	12906.6119585231	22304.7312692742	25769.7820953618	-59.944219625295
7.923394	14639.0282516281	24550.1135539319	28583.3732030164	-59.1927281812014
6.75822	16510.6289008574	26948.3648436601	31604.0382617292	-58.5051788270445
5.761429	18572.0484589416	29616.9974321714	34958.3683952573	-57.9092454243289
4.919708	20875.0026671081	32481.7909171945	38611.2998685632	-57.2724486716646
4.191257	23262.4386509331	35498.6674595114	42441.6828529383	-56.7629917889681
3.564097	25904.312465442	39063.50800546	46872.0712365038	-56.4503172610093
3.051758	28685.9672880017	42636.5938702322	51388.3630416793	-56.0672720566526
2.604164	31697.4951153291	46816.2632461413	56537.5424025338	-55.8995787691737
2.214424	35118.8915054195	51297.5540051101	62167.3192881647	-55.6040127609775
1.892567	38565.8168430095	56357.719450785	68289.9316917358	-55.6160047676296
1.607507	42328.6123185305	62080.0929783131	75137.5363251181	-55.7123189729911
1.376413	46369.2562393157	68007.5801046711	82311.2317723443	-55.7128632828964
1.17375	50723.3968816722	75113.4601059704	90636.057285756	-55.9692217891718
1.001604	55261.088836781	82774.3046646321	99525.7426605797	-56.2724654318228
