EC-Lab ASCII FILE
freq/Hz	Re(Z)/Ohm	-Im(Z)/Ohm	|Z|/Ohm	Phase(Z)/deg
6999984	23.055591249324	95.4375358978796	98.182908625254	-76.4188188833687
5969734	23.3774003088972	94.3582529515924	97.2110217273696	-76.085070967705
5091109	21.8090152872181	100.179747565503	102.526167245664	-77.7184017542844
4341796	24.6077849714824	110.58860161157	113.29334441001	-77.4551276474218
3702781	31.5348296391233	120.580869296917	124.636236788378	-75.3440073554828
3157797	35.3459242258242	133.643338973394	138.238476595104	-75.1856418209086
2693047	42.0719800908888	150.750105262028	156.510848650439	-74.4064192195307
2296687	52.4913003631456	171.102820571286	178.97349474507	-72.944918475711
1958656	66.2273122597794	192.760806003153	203.820473015199	-71.0386878913107
1670375	84.3020446817032	217.182894085782	232.970479290815	-68.7857032492973
1424531	106.684989828535	242.742763337482	265.152288708642	-66.2746011205774
1214875	134.694021326173	267.983196294776	299.929113087376	-63.3149303340497
1036062	168.619924374998	294.068062003308	338.981863801903	-60.1698504050176
883578.1	209.074265395353	316.888277976385	379.64487243929	-56.5842576047771
753531.2	255.318681720116	336.023764600943	422.018482547729	-52.7715844415924
642624.9	306.467267723359	348.83174498902	464.33368658531	-48.6989717859127
548046.8	360.683264966215	353.888863123672	505.301637707274	-44.4552280959834
467390.6	487.470371685585	351.206726912225	600.810725852727	-35.7715370487602
398593.7	536.645336266173	329.40590106258	629.679652355929	-31.5426100474129
339937.5	578.609485250008	303.031097220458	653.159078865106	-27.6420852655008
289906.2	612.825323859998	275.067917651549	671.727055347089	-24.173026351212
247234.4	641.052147567795	245.946729194691	686.61317312068	-20.9898619175375
210843.7	662.49505600937	218.85468651425	697.708444155658	-18.2809289213149
179812.5	679.745139224234	194.001932040422	706.887688345461	-15.9289543610367
153343.8	692.974398449155	170.380040561486	713.612552529524	-13.8131931109571
130781.2	703.428899509769	151.197207882615	719.494831348373	-12.1307655709129
111531.3	711.122383199221	132.473746275796	723.356300407541	-10.5525705129589
95109.37	716.908078162364	117.876280529972	726.534245611337	-9.33720670834946
81109.37	721.490376033238	105.62455544467	729.180985367465	-8.32880671849716
69171.88	725.594058855252	95.1146271733661	731.801565008143	-7.46804649329418
59000	726.950087139094	87.2977786037351	732.1730200852	-6.84772800681784
50312.5	731.585514095979	81.0821929998237	736.065001515992	-6.32432533138788
42906.25	734.030358182351	72.8079685533239	737.632406431668	-5.66460052663583
36593.75	734.432135172113	70.6367182036848	737.82118913193	-5.4937347718453
31203.13	734.482387000977	68.931380236148	737.709910463397	-5.3615207499143
26609.38	738.004830648129	69.377839036029	741.258669162987	-5.37043826503772
22703.13	739.550932829053	71.0140201315387	742.952605018358	-5.48490549222234
19359.37	741.123664782074	74.062871813002	744.815141817888	-5.70680459782517
16500	742.992681995547	78.4474976355349	747.122570522544	-6.02713785263147
14112.02	744.489251379477	85.0064957613502	749.326597513526	-6.51387695875101
12011.13	746.716051086002	92.2684064206058	752.39505565419	-7.04408064320917
10236.38	749.032555122829	102.848375567816	756.060551140431	-7.81829559345765
8750.684	751.835079411219	115.40202081569	760.640265198746	-8.72643942831795
7449.463	754.412739365727	129.492637690266	765.445572547966	-9.73973247774067
6363.206	758.707261022488	146.079370730492	772.64214904525	-10.8982073028716
5414.761	763.016583076758	166.170064082037	780.901271766899	-12.2860600517052
4620.567	767.331951347904	190.003877869502	790.506038664367	-13.9076280147506
3941.215	772.892204426378	217.247955304836	802.844339674384	-15.6998457274977
3361.769	779.107044468239	248.68076402439	817.832445636507	-17.7024019764154
2867.244	786.831889676562	284.910759051388	836.826483349581	-19.9052528113549
2442.658	796.474180279541	327.517252697815	861.184457980224	-22.352899864264
2083.003	808.551554056643	375.138695843811	891.338687978261	-24.8895960176923
1777.843	820.035048252429	431.326282452504	926.552665689685	-27.7437050600452
1513.548	835.0823446216	495.897531675787	971.224425259603	-30.703140933877
1292.065	852.051653249276	567.364781586889	1023.66733619373	-33.6588812299302
1101.762	873.623335719334	651.85629336568	1090.0157613144	-36.7285541835451
939.101	897.889691376267	748.008241146189	1168.64118817642	-39.7967890130943
801.2801	927.075732744138	856.867980372599	1262.41520508543	-42.7462668804467
684.3433	956.721746410749	978.84240740175	1368.73991634031	-45.6547782654472
582.9476	999.143846639692	1124.84373345439	1504.51382544979	-48.386875945327
497.0677	1046.79241455252	1287.5236980283	1659.36482792337	-50.8879341238982
423.5089	1116.31200099611	1475.45187747742	1850.16505380455	-52.8892184065107
361.5036	1170.36587084613	1684.35107929588	2051.04725200729	-55.2066206934307
308.1262	1248.94403195328	1928.43787050796	2297.54952402794	-57.07107119541
262.7298	1343.20716857405	2199.38921210342	2577.11435602412	-58.5868253128506
224.2111	1461.16384585445	2508.63843680683	2903.14770396837	-59.7812131325803
191.2854	1596.7342508052	2854.65829895331	3270.87668240144	-60.7798212737138
163.1722	1769.71479594427	3254.35135478468	3704.41536539478	-61.4626723739508
139.1537	1942.69342122511	3679.23273667525	4160.62630615803	-62.1652332223402
118.6706	2168.55663062634	4167.72445520972	4698.14484608411	-62.5110705474811
101.1982	2425.64414534564	4705.66580943716	5294.05706712304	-62.7301123125596
86.24196	2732.0527703842	5303.90323478131	5966.19659951695	-62.746899975957
73.61024	3086.62679846313	5958.86110382974	6710.83382656177	-62.6163228944467
62.69291	3497.25914865575	6694.1969481838	7552.68788802567	-62.4160168492689
53.57697	3959.52219397676	7475.58822507656	8459.44651354317	-62.0916081456659
45.65746	4492.24257413407	8355.22272250179	9486.30539712236	-61.7349992139764
38.96512	5102.56305834388	9307.09597058787	10614.0560187945	-61.266491624898
33.18414	5791.69816686884	10358.2027105292	11867.4399534409	-60.7886448237588
28.30617	6592.37788686747	11513.4178059262	13267.1864303279	-60.2053164925362
24.17237	7445.69537576396	12731.3571902729	14748.7570844118	-59.6795704197241
20.61345	8431.8343743028	14083.7232575571	16414.8436395577	-59.0913146514633
17.55618	9540.77645193394	15557.0956475199	18249.6476758282	-58.4802551629563
14.98558	10773.9551179587	17157.403609612	20259.6793535069	-57.8733209705742
12.76553	12160.6489943856	18891.1198660727	22466.7708796565	-57.229683101836
10.8809	13702.6720496331	20748.6772537185	24865.0523642877	-56.5587552533158
9.278505	15413.998551344	22739.6925696099	27471.5301630835	-55.8687937468413
7.923394	17319.2012956232	24675.5429909428	30146.9261354484	-54.9358580281857
6.75822	19353.6826481023	27143.1415372064	33336.3939944361	-54.5102592483846
5.761429	21634.3115153183	29573.6316770607	36642.0949907655	-53.813015448334
4.919708	24057.9031119661	32086.1527471544	40103.66442432	-53.1377732276164
4.191257	26616.3317091394	34943.9880003336	43926.2041498966	-52.7039983400787
3.564097	29487.3305630072	37932.029706072	48045.203104518	-52.1394744836922
3.051758	32241.1940175888	41105.7666821746	52241.5413843158	-51.8912347893739
2.604164	35390.734106486	44605.4539839833	56939.8857191797	-51.5709112748501
2.214424	38491.7659193766	48644.4453131441	62031.4283522115	-51.6458541544532
1.892567	41956.6836929641	52854.5161600671	67483.0585037922	-51.5569425638048
1.607507	45680.2645887601	57957.3706330114	73795.2802257122	-51.7558792398521
1.376413	49239.4887607324	63340.6673962911	80228.22071831	-52.1393770808671
1.17375	53304.7128710534	69507.8457875371	87594.1381616914	-52.5158447297357
1.001604	57547.5981519141	76660.21647887	95856.7412529833	-53.1050286896246
