EC-Lab ASCII FILE
freq/Hz	Re(Z)/Ohm	-Im(Z)/Ohm	|Z|/Ohm	Phase(Z)/deg
6999984	19.70560844117	-10.7776511434108	22.4603821918902	28.6757125870727
5969734	10.8206236319275	-8.78198765684679	13.9358962032887	39.0626868380829
5091109	6.47277756958212	-11.8893860340378	13.5371470307321	61.4353995829025
4341796	6.44656313783333	-8.09814607907456	10.350755827866	51.478309836001
3702781	5.0224317212322	-6.57184353657474	8.27127244525645	52.6116776505493
3157797	4.27189629226269	-5.40917977388051	6.89262821846686	51.7001075280741
2693047	3.73554015233556	-4.41747886572597	5.78518623372202	49.7812317651353
2296687	3.50280366709409	-3.69323023302469	5.09014568399918	46.5158478878596
1958656	3.25647889982566	-3.077267381778	4.48042736398712	43.3792649229293
1670375	3.06550059570534	-2.65249182099229	4.0537645174209	40.8687185632707
1424531	2.90740664134115	-2.25082508160697	3.67685013647628	37.7459381516251
1214875	2.79612538082858	-1.94698974866343	3.40721091608874	34.8501521592544
1036062	1.30932996020907	-1.64791101769714	2.10474598632441	51.5314803193892
883578.1	1.19401489117948	-1.4464708875781	1.87561978795526	50.4614300707808
753531.2	1.18630812906237	-1.24082496754654	1.7166751519045	46.2867277951647
642624.9	1.11548660334109	-1.06682186933669	1.5435087505837	43.7225353971481
548046.8	1.05003280035595	-0.987526232513177	1.44144959735852	43.2428780493763
467390.6	1.02670596497614	-0.853659761063123	1.33523785378334	39.7419970591459
398593.7	0.994925493370086	-0.745076816696108	1.24298680609881	36.8286957469781
339937.5	0.971460672774418	-0.610635929983835	1.14743717812112	32.1524434062384
289906.2	0.962790779137491	-0.532378474585733	1.10017858759131	28.940550868716
247234.4	0.963734262383794	-0.442618243758423	1.06051621307749	24.6680962636727
210843.7	0.996411573312739	-0.423620154439481	1.08272344515065	23.03256531916
179812.5	0.936733820677796	-0.373308829253812	1.00837975624289	21.7283586788375
153343.8	0.942571789314177	-0.329500961146324	0.998505113360608	19.2684274108008
130781.2	0.970868449567688	-0.253533439986341	1.00342650530932	14.6354276540155
111531.3	0.989279108308017	-0.263858739713581	1.0238625828977	14.9341735779747
95109.37	0.930659162868568	-0.225790307221573	0.957657423229432	13.6372263129165
81109.37	0.93293705728217	-0.16556462390039	0.947514220229751	10.063281744651
69171.88	0.931224389475209	-0.15810957250964	0.944551481112944	9.63617035627077
59000	0.976637185654445	-0.120128672454521	0.983997505255334	7.01229294473531
50312.5	0.948180518210886	-0.137868775515674	0.958151394288427	8.27302927714118
42906.25	1.00012749126395	-0.140164038692081	1.00990145881883	7.97782423235592
36593.75	0.987086835961299	-0.1234195444419	0.994772740719374	7.12694179954099
31203.13	0.943828238529736	-0.108460753201181	0.950039724870025	6.55543358763185
26609.38	0.965086951804054	-0.0590945095653775	0.966894505932892	3.50397840007088
22703.13	0.924881953640971	-0.0853119433680663	0.928808244931092	5.27010132299661
19359.37	0.959309906377625	-0.0918587881093045	0.963697843427678	5.46968486839469
16500	0.923900341074474	-0.0868752210848506	0.927975831730585	5.3717812781095
14112.02	0.912633331264121	-0.0286120730125357	0.91308173131233	1.79569843135259
12011.13	0.910055204113486	-0.0250834297920443	0.910400819960182	1.57881729011951
10236.38	0.929897378834752	-0.0787028559252083	0.933221985753939	4.83775997586238
8750.684	0.913552643001103	-0.0113918975758036	0.913623668073829	0.714434825735707
7449.463	0.933435649961032	0.00288308479050914	0.933440102414763	-0.176967812604451
6363.206	0.919434596469162	-0.066737208150082	0.921853476500511	4.15153644604333
5414.761	0.910643579220209	-0.0587859751942321	0.91253905081072	3.69356497785952
4620.567	0.951036558786735	0.00712514608794881	0.951063249135246	-0.429250755491511
3941.215	0.927725158223425	0.00623638212491064	0.927746119184924	-0.385149621042497
3361.769	0.949042826300826	-0.00636124081794565	0.949064145112333	0.384036192159219
2867.244	0.934873142354259	-0.0488780669543063	0.9361500188135	2.99287598258679
2442.658	0.936543158011625	-0.00554729053953424	0.936559586599121	0.339367829493025
2083.003	0.921956898337876	-0.0306612186882698	0.922466602498023	1.9047649583603
1777.843	0.925708367713722	-0.020576413822767	0.925937023161408	1.2733465605189
1513.548	0.93789197352876	-0.0116938022151681	0.937964870887988	0.714336849952739
1292.065	0.945172935523895	-0.00884365521528621	0.945214308125106	0.536081085520613
1101.762	0.937445465737185	-0.0333903274897502	0.938039932626048	2.03992283744269
939.101	0.919366789518733	-0.0174361068319446	0.919532115530196	1.08650387761115
801.2801	0.920421727292703	-0.0113917761424153	0.920492220845001	0.709096005000678
684.3433	0.917507535515951	-0.0175522799337562	0.917675411166403	1.09595710827301
582.9476	0.92712986299724	-0.027107308986456	0.927526058427346	1.67472985206662
497.0677	0.934504496248838	-0.0137362895238782	0.934605445714489	0.842130502494308
423.5089	0.933587299053984	-0.0229141877994439	0.933868462342219	1.40599889516318
361.5036	0.923734903377659	-0.0259255768186335	0.924098645844431	1.60764336975034
308.1262	0.926123859176182	-0.00639365783242282	0.92614592878005	0.395545138094232
262.7298	0.936287414000254	-0.0166705329169967	0.936435811085319	1.02003962746038
224.2111	0.932191798775526	-0.0112089626621186	0.932259186357695	0.688908983004833
191.2854	0.920641315854239	-0.0141202648054733	0.920749593720248	0.878700679684123
163.1722	0.929031958390683	-0.0204943217600496	0.929257981905796	1.2637323287166
139.1537	0.942204582631563	-0.014482721245237	0.94231588373888	0.880629828580329
118.6706	0.938407907942305	-0.0111122637000384	0.938473699201631	0.678442762961179
101.1982	0.918343025615676	-0.0151390345551949	0.918467801865812	0.94444472188641
86.24196	0.9372572022349	-0.0194138035525843	0.937458243821862	1.18662194977451
73.61024	0.933364204532789	-0.0164776431255793	0.933509641635318	1.01139655912083
62.69291	0.898885086598178	-0.0151785867596295	0.899013230383532	0.967405432568482
53.57697	0.908473463370672	-0.0116437151779518	0.908548077842801	0.734307866859819
45.65746	0.908610361634548	-0.0133825721086976	0.908708909665745	0.843826457567896
38.96512	0.928721797793542	0.000254433373066415	0.928721832645927	-0.0156967975920276
33.18414	0.910470106511731	-0.0268618415852024	0.910866276346221	1.6899224009623
28.30617	0.925992003955998	-0.0157646013260596	0.926126186891082	0.975340898031044
24.17237	0.910911613395382	-0.00927673485032087	0.910958849360421	0.583480737996196
20.61345	0.90727160463245	-0.012834158372573	0.907362375345966	0.810445363465779
17.55618	0.904894709243824	-0.0135026011668831	0.90499544477071	0.854889126676282
14.98558	0.903573305068745	-0.00719670513237291	0.903601964471978	0.456334986129361
12.76553	0.907786519752844	-0.00926221306792901	0.90783377004598	0.584572795553715
10.8809	0.897907304590909	-0.00832666510267504	0.897945912062326	0.531312185904401
9.278505	0.904537280428054	-0.0121657558783575	0.904619089617432	0.770564636135698
7.923394	0.900132234948308	-0.00330298075048397	0.900138294971875	0.210242451148233
6.75822	0.898525842912257	-0.00509895886947612	0.898540310594207	0.325138881017187
5.761429	0.904124163968385	-0.0178092994773263	0.904299549385824	1.12845756624401
4.919708	0.888983685414368	-0.0125637582346849	0.889072461025474	0.809691351007387
4.191257	0.895114824655752	-0.0117147679472153	0.895191479576607	0.749812677753854
3.564097	0.904043983921142	-0.0102478407384651	0.904102064539072	0.649451671485354
3.051758	0.900941768721958	0.00955279128026353	0.900992411981974	-0.607491107358948
2.604164	0.880739577050417	-0.0135971009795085	0.88084452869845	0.884477813132428
2.214424	0.915730539774628	0.000139423730253242	0.915730550388545	-0.00872351734356279
1.892567	0.870736108617971	-0.0275565855435056	0.871172047449862	1.81266084687743
1.607507	0.883558700459895	0.0241494201824896	0.883888664738681	-1.56561806139308
1.376413	0.926376026000711	-0.011521914178001	0.926447675832367	0.712586463888615
1.17375	0.875901786453411	-0.046366423516069	0.877128146134844	3.03016063814714
1.001604	0.859202364166556	0.00487818242933085	0.859216212168517	-0.32529736114332
