EC-Lab ASCII FILE
freq/Hz	Re(Z)/Ohm	-Im(Z)/Ohm	|Z|/Ohm	Phase(Z)/deg
6999984	35.2131423785872	86.3098111515128	93.2166771408661	-67.8052578702694
5969734	32.9741924133175	84.4578192243468	90.6665351353129	-68.6732316341131
5091109	32.5025841355654	88.4817137272186	94.2625675419198	-69.8298615351437
4341796	35.8113383542984	95.5283818748994	102.020212205046	-69.4501624043105
3702781	44.0029166083855	103.074763165448	112.07436580975	-66.8822228623137
3157797	52.8457977368757	111.448934487018	123.343193313366	-64.6310716852447
2693047	63.9998305054727	119.814079275631	135.835900620552	-61.8906718469135
2296687	78.0208505018573	129.294271166466	151.010799843921	-58.8916961556397
1958656	95.0762214325306	137.074309586548	166.819825651859	-55.2544053735446
1670375	114.853192979578	143.433689148773	183.75113365754	-51.3143235854566
1424531	136.167495229473	146.523692413198	200.026946173424	-47.0980532218038
1214875	158.196358616758	145.586607513369	214.991972331187	-42.6230694953377
1036062	179.65461483464	143.517580771791	229.941463468358	-38.6197045187775
883578.1	199.909471876269	137.841512959339	242.825203882892	-34.5870270214185
753531.2	218.448783302583	129.739766259925	254.071403104637	-30.706664624317
642624.9	234.43011587122	120.17032074682	263.435732610037	-27.1399565130041
548046.8	247.805811641883	110.105461822454	271.165877290319	-23.9566087328352
467390.6	259.39042322531	99.1355686271969	277.689129474027	-20.9161910042396
398593.7	268.435548899498	88.9066201927191	282.775584213113	-18.3250180236502
339937.5	275.448989219928	79.3815764578187	286.659345466372	-16.0764394270813
289906.2	281.1367558426	70.5277861542193	289.848312235067	-14.0829588296386
247234.4	285.710754961474	62.6712445987932	292.503539124259	-12.3720037209748
210843.7	289.326058464138	55.806372530123	294.658988190357	-10.9173670115408
179812.5	292.055813445178	49.7590388311786	296.264341614929	-9.66893208299635
153343.8	294.008652172848	45.250300487507	297.47046449472	-8.7496270302869
130781.2	295.750657325112	41.3185087449708	298.622957043064	-7.95315839927554
111531.3	297.028338744664	38.4153447192171	299.502208217755	-7.36928575814748
95109.37	298.103935804586	35.8592854948796	300.252968175817	-6.85922154018816
81109.37	299.34648196575	34.3083125394307	301.306117718467	-6.53818182842046
69171.88	300.275289864798	33.7929925767494	302.170839179893	-6.42105206636187
59000	301.216016787718	33.6963670420189	303.094925594754	-6.38301339834313
50312.5	302.503716262517	34.4070804696934	304.45417641918	-6.48899340170848
42906.25	303.188460487658	35.279142146452	305.234107601798	-6.6371144509057
36593.75	304.259746949162	37.6171014455474	306.576319918439	-7.04798821537196
31203.13	305.144845238682	40.3360408374713	307.799241009755	-7.53007490419504
26609.38	306.450737896445	44.0887193503994	309.605991433037	-8.18690226137711
22703.13	307.728748390684	48.1463475969165	311.472395844351	-8.89224195507291
19359.37	309.283543393658	53.773844195151	313.923456488458	-9.86318196427956
16500	310.965845901585	60.3255255940271	316.763202338093	-10.9786734956198
14112.02	312.988071260324	67.594652055253	320.20395022193	-12.1867492770751
12011.13	315.233050447975	76.3101260507641	324.337958667528	-13.608108597768
10236.38	317.863697007047	86.6998495588149	329.475634590039	-15.2567545462113
8750.684	320.780879647911	98.9321642734624	335.690252875354	-17.1403074610802
7449.463	324.024459652508	112.797067778798	343.096238616215	-19.1936621481142
6363.206	327.751930560046	127.911705497286	351.827702702703	-21.3192037877567
5414.761	332.97377607217	146.466861782353	363.763765584384	-23.7434970809362
4620.567	337.972407899519	167.459631436292	377.184406706028	-26.3576399395324
3941.215	344.1109754266	190.727462076313	393.432749271228	-28.9979154031645
3361.769	351.152038705038	218.447346829706	413.554104832297	-31.8852330793232
2867.244	359.433392529327	249.684121088199	437.646574291091	-34.7861756918501
2442.658	368.451989789496	286.046144630653	466.45392659715	-37.8238260342951
2083.003	379.571116736306	327.550280310149	501.361564932638	-40.7924979877844
1777.843	391.904975492148	374.194232312306	541.858683893962	-43.6756674495063
1513.548	406.795998845478	428.950848413751	591.16986986108	-46.518500682451
1292.065	424.105766945846	490.007828836442	648.053527015885	-49.1235449712606
1101.762	443.082069749399	560.181225565517	714.230163189358	-51.6573419582455
939.101	465.556963701202	640.406359366321	791.747176545334	-53.9839287586215
801.2801	492.00376042946	731.731416414852	881.758791305885	-56.0837847003082
684.3433	522.947196069806	833.596231555504	984.051038890163	-57.8983592262214
582.9476	558.503858827486	954.441894538195	1105.84171126561	-59.6654183621844
497.0677	601.747841178796	1088.49659286936	1243.75451639443	-61.0650969599095
423.5089	651.29430440754	1242.00776994251	1402.41490706256	-62.3280105319368
361.5036	706.904040698473	1414.82406993665	1581.59428161205	-63.4514088808498
308.1262	774.671622871667	1612.9425825252	1789.32945479743	-64.3457387032695
262.7298	852.764134094193	1835.61674167911	2024.02951824573	-65.0820467657922
224.2111	944.517410460401	2087.31270576543	2291.06688473136	-65.6530565044195
191.2854	1049.33511582386	2371.91797029851	2593.66517560114	-66.1354296721402
163.1722	1174.91977930374	2690.43917740591	2935.79622166113	-66.4090170193151
139.1537	1322.00916855805	3053.43900788831	3327.34098292398	-66.5894414290018
118.6706	1489.77273518834	3457.79900617221	3765.07593145159	-66.6914852123146
101.1982	1694.0012045162	3914.67796825082	4265.482818628	-66.6003849228888
86.24196	1927.96537328056	4421.81105315278	4823.84322613753	-66.4421912756532
73.61024	2194.96285479111	4979.10157046006	5441.44414497388	-66.2104298475228
62.69291	2511.70280808238	5604.31871429932	6141.41996997229	-65.8593786064461
53.57697	2862.26600287151	6277.89665508976	6899.60528459283	-65.4904510821614
45.65746	3265.72793314736	7024.08760269982	7746.14649898517	-65.0647434403792
38.96512	3710.8409500595	7840.07409038651	8673.93234348691	-64.6710068435653
33.18414	4207.68155800417	8750.46837915629	9709.54586724748	-64.319325348914
28.30617	4674.47476137625	9749.74919074469	10812.4152517914	-64.3848144248975
24.17237	5307.58695101184	10817.8527746245	12049.7476278967	-63.865943845627
20.61345	5912.69976466225	12059.1744083064	13430.7001275804	-63.8809553398594
17.55618	6578.37849705768	13418.5146675562	14944.2831723028	-63.8837628330555
14.98558	7245.52539978718	14958.5166025444	16620.9162583643	-64.1556313068451
12.76553	7981.16655200722	16715.9812686005	18523.5808984948	-64.4775189961496
10.8809	8744.19928226297	18742.9904841888	20682.3768793221	-64.989456786099
9.278505	9549.67324028301	21028.3222986423	23095.1639459813	-65.5755926105178
7.923394	10414.0358503735	23641.4859539166	25833.5441006862	-66.2265872573455
6.75822	11352.0389329098	26652.5633755757	28969.4308267073	-66.9295491761915
5.761429	12314.6745784763	30099.9088156756	32521.619281422	-67.7492225979057
4.919708	13332.470913071	34136.1736658706	36647.4164600229	-68.6660123658945
4.191257	14549.1475642576	38772.645517064	41412.5069905028	-69.4317704590868
3.564097	15743.6493549522	44232.507776962	46950.7959384151	-70.4078613588717
3.051758	17171.8031063799	50342.7380812633	53190.8084112561	-71.1655980429322
2.604164	18599.9119411139	57453.5388069342	60389.2858515241	-72.0612456682807
2.214424	20448.3965018181	65934.6724789927	69032.7310368611	-72.76970798196
1.892567	22355.3001235793	75463.8546613488	78705.4814099023	-73.4986821847049
1.607507	24782.4063498004	86855.2468503533	90321.6561513485	-74.0749631350475
1.376413	27396.7784788845	99366.0997731951	103073.785489608	-74.5856404178476
1.17375	30548.609718996	114140.471099944	118157.795759234	-75.016504679786
1.001604	34262.9660138033	131053.767186552	135458.631079197	-75.3484191305053
