EC-Lab ASCII FILE
freq/Hz	Re(Z)/Ohm	-Im(Z)/Ohm	|Z|/Ohm	Phase(Z)/deg
6999984	44.0623137062674	95.8796516776541	105.519643171202	-65.3184491520631
5969734	40.9676036305563	82.1224189719284	91.7738320276065	-63.4872187430455
5091109	42.8013601464872	83.959755830744	94.2401030854034	-62.9882297992661
4341796	49.3273714546784	87.5191576059551	100.462891271772	-60.5936099902963
3702781	59.785349065679	88.9194964822483	107.149264195148	-56.0849420750544
3157797	68.2583112197903	91.6840352867352	114.302928121011	-53.3324986638695
2693047	79.57648459971	94.510337594364	123.550074113489	-49.903054051536
2296687	92.9718825503009	96.234239788799	133.808818291901	-45.987815713445
1958656	106.075977956276	95.4275497607317	142.683321915062	-41.9750255811549
1670375	119.599002979666	93.2013825335814	151.625918694335	-37.9286543924923
1424531	132.061159961944	88.3979492920064	158.916164720667	-33.7972161599866
1214875	143.134057642619	82.917781509997	165.416797659065	-30.0837792869185
1036062	152.923331022647	76.748955054351	171.102154495485	-26.6510974630425
883578.1	161.294131262101	69.9042720574002	175.79079620808	-23.4317278262938
753531.2	168.103818459306	63.1214581380478	179.563950329883	-20.5807012968787
642624.9	173.6022700527	56.5602337932984	182.583701940242	-18.0457927717711
548046.8	178.026192966989	50.3566031295751	185.011115506796	-15.7941202031086
467390.6	181.480960323876	44.9859288848775	186.97345468732	-13.9219920666745
398593.7	184.122083548083	40.1542684878491	188.449746425623	-12.3027216643876
339937.5	186.331192747502	35.8747969999796	189.753298918613	-10.8979437422858
289906.2	188.003717005398	32.2694303698315	190.753017654346	-9.73948610588876
247234.4	189.342548831435	29.2665689773141	191.591056309234	-8.78664010385235
210843.7	190.365979753233	26.7977491541368	192.242881811359	-8.01285487195022
179812.5	191.559869264521	25.1605824078952	193.205171824527	-7.48272567200543
153343.8	192.113523208694	23.740648561216	193.574854239296	-7.04467651931611
130781.2	192.840435154404	22.9167199445144	194.19734674695	-6.77711668814592
111531.3	193.546492997621	22.4712317138951	194.84660943013	-6.62253267501962
95109.37	194.305746982845	22.6743161998879	195.624251885327	-6.65597049194345
81109.37	195.008979132211	23.090379767754	196.371249372219	-6.75276598185286
69171.88	195.864847191536	24.1035482590459	197.342391300095	-7.01566766614863
59000	196.72144665759	25.4380679685737	198.359327678405	-7.36803671015409
50312.5	197.633258060387	27.3721509880421	199.519771805392	-7.88528581886434
42906.25	198.710458324864	29.5461913371829	200.895056360805	-8.45732688152296
36593.75	199.845250883403	32.4453769349522	202.461914406392	-9.22165258022748
31203.13	201.555097540439	36.1508069645846	204.771429131915	-10.1684195000576
26609.38	202.709883599725	39.8966842170462	206.598747141721	-11.1344492609599
22703.13	204.33503693212	44.3272010126047	209.087799901531	-12.2397478731247
19359.37	206.212683738068	49.6792776538085	212.112473849749	-13.5451749135508
16500	208.300531652391	55.7254057805169	215.625676430411	-14.9772714633244
14112.02	210.757995059656	62.6925794462253	219.884724342523	-16.5657625728569
12011.13	213.513443307385	70.8418358539488	224.959009999897	-18.3553790572142
10236.38	216.452355601772	80.1553424035965	230.817029617387	-20.3202977085697
8750.684	219.751072985249	90.365390165222	237.605635071816	-22.3533009347206
7449.463	223.904829037802	102.814289728117	246.382123212592	-24.6639938858596
6363.206	228.092397260404	117.311048228232	256.491761513707	-27.2173802998601
5414.761	233.529272099153	132.519753271911	268.509601195951	-29.5734056717498
4620.567	239.636594322232	150.741601869863	283.10550660955	-32.1716374923752
3941.215	246.917603043262	171.390430241465	300.571093538591	-34.7652856506396
3361.769	255.235359852515	194.561174911432	320.934790420047	-37.3176006335632
2867.244	265.267149583542	220.820139522889	345.149525085991	-39.7754979014272
2442.658	276.957624403437	249.826136694747	372.986091283599	-42.0516414975198
2083.003	291.054089060604	283.221651923443	406.112037345782	-44.2186022561723
1777.843	306.961930328743	319.953500229737	443.391327137111	-46.1871706486828
1513.548	325.842720877504	361.300524673259	486.530109939793	-47.9539433057482
1292.065	346.367662180857	406.66083216134	534.175617020082	-49.5777687225064
1101.762	370.426815968564	457.478383314197	588.644627248376	-51.0024110913654
939.101	397.491972021347	513.551894006429	649.411591872989	-52.2599331305405
801.2801	427.324169146448	576.379984191501	717.509464546146	-53.4470157383823
684.3433	460.590279014109	645.619494208696	793.074987894958	-54.4956259062969
582.9476	497.851657367137	724.473893129707	879.04419375235	-55.5035159637116
497.0677	539.259195791969	811.583255979004	974.406415019771	-56.3978171382415
423.5089	586.095445105133	910.081090628782	1082.47654122067	-57.2183213487586
361.5036	637.398087812442	1019.34695022365	1202.22482393154	-57.9822402474286
308.1262	695.22396951533	1142.55883533563	1337.451703798	-58.680332025016
262.7298	757.755714368952	1281.95147342146	1489.15858889047	-59.4128585660907
224.2111	830.947481609234	1434.56630408811	1657.84625282858	-59.9191813696478
191.2854	909.14687902918	1605.87286620704	1845.36600978465	-60.4841177556468
163.1722	997.791538722355	1799.78409962677	2057.86558356353	-60.9962274329347
139.1537	1094.04327372745	2015.4312653439	2293.22782778205	-61.5054150254675
118.6706	1203.50484314553	2261.26922005464	2561.59372130735	-61.9769592908602
101.1982	1316.99641208148	2535.15591867994	2856.83305102931	-62.5484273957237
86.24196	1441.62823624103	2848.09728729899	3192.170128525	-63.1527259822481
73.61024	1577.50540866525	3195.87176365985	3564.00331707567	-63.7287204536932
62.69291	1723.19251058052	3596.10919019931	3987.65516768397	-64.3970757217133
53.57697	1878.0751453812	4044.70251549886	4459.46013443124	-65.0931621470177
45.65746	2047.43664692375	4562.6136846872	5000.94395678069	-65.8322204069569
38.96512	2227.76924818513	5149.74825127031	5610.95917598952	-66.6068020501943
33.18414	2424.7859326631	5833.87208545792	6317.72509125919	-67.4303142891358
28.30617	2633.82063922515	6606.53695847429	7112.19668901916	-68.2643689515078
24.17237	2860.49298745431	7506.14573420434	8032.72331867526	-69.1388171384365
20.61345	3105.76826908431	8533.41380746513	9081.02129447385	-70.0008321412108
17.55618	3390.31085122433	9742.5125225578	10315.5590212128	-70.8125414495726
14.98558	3690.01305509796	11125.1640483427	11721.1548684134	-71.6502630418334
12.76553	4041.32310391881	12740.6435625089	13366.2369729542	-72.4010096407933
10.8809	4437.17373756823	14602.0601604715	15261.3456715781	-73.0973825449953
9.278505	4888.19296511766	16744.6158871934	17443.525781042	-73.7260891335924
7.923394	5397.482085024	19197.9803257868	19942.2982990289	-74.2967550975427
6.75822	5975.1579606863	22025.5477583831	22821.6403159801	-74.8219282125596
5.761429	6684.13060647028	25335.1817080903	26202.0807216967	-75.2205349506321
4.919708	7516.07222049637	29097.2323811338	30052.2923229729	-75.5165822433762
4.191257	8493.86282837994	33431.7855959104	34493.9124176753	-75.7447340373973
3.564097	9644.3870417669	38527.9850748576	39716.7450244837	-75.9464151812833
3.051758	10983.1818858521	44067.613162989	45415.6890756989	-76.0050287637252
2.604164	12522.127167991	50588.3826229802	52115.1429550029	-76.0970457856232
2.214424	14407.2196034747	58121.0164348376	59880.0511699966	-76.0779662910454
1.892567	16551.0053189135	66585.4561876408	68611.6517275524	-76.0410105132594
1.607507	19085.9856134081	76519.9665603507	78864.3146754755	-75.9947728191924
1.376413	21942.1210702131	87356.760613139	90070.3075484988	-75.9002347829958
1.17375	25325.6738081113	100076.589115394	103231.358815072	-75.7987066616986
1.001604	29200.0743999204	114457.344631287	118123.359607684	-75.6881258072383
