EC-Lab ASCII FILE
freq/Hz	Re(Z)/Ohm	-Im(Z)/Ohm	|Z|/Ohm	Phase(Z)/deg
6999984	-13.5665619542718	115.814844240429	116.606731150881	-96.6811848292727
5969734	5.43310523672168	99.1604386116575	99.3091698594323	-86.8638394886036
5091109	8.22146530752786	91.0323347420643	91.4028361725944	-84.8394077110679
4341796	6.872694491127	89.4018049257204	89.6655823242392	-85.6040771844495
3702781	4.1691372469886	100.059900871192	100.146719705326	-87.6140704255479
3157797	9.08375199783146	106.066815515751	106.455079277649	-85.1050309448905
2693047	9.71221630780278	115.923111357583	116.329252092636	-85.2108562496512
2296687	7.48719875754146	130.964942787923	131.178787860991	-86.7279911953781
1958656	9.23705354038564	150.150195156041	150.434052872032	-86.4796712869684
1670375	9.07081744568432	172.469527765858	172.707897146919	-86.9893745415168
1424531	11.4832679163449	200.58900506271	200.917431782527	-86.7235221245761
1214875	13.9149687964309	229.847038343416	230.267860093078	-86.5355346719936
1036062	17.5595093585527	265.637175912246	266.21691455568	-86.2180587577116
883578.1	19.4372491337839	307.457285459617	308.071077896133	-86.3826122364732
753531.2	22.5527017584734	356.765664602919	357.477780842626	-86.3828987153708
642624.9	25.3005224538746	414.375254401746	415.146923265669	-86.5060273455444
548046.8	28.5723436289538	482.368329273375	483.213807652925	-86.6101337769197
467390.6	137.082797303739	671.81811454858	685.661193558617	-78.4672575925204
398593.7	158.810128634401	761.206077101838	777.595877544142	-78.2154426415604
339937.5	180.787713776954	864.287495772805	882.993246181376	-78.1854769488751
289906.2	202.000282372782	983.938096228919	1004.45920339717	-78.3985026571047
247234.4	221.468071363151	1120.61588094191	1142.29070697985	-78.8206579605571
210843.7	241.469905623192	1284.43277077081	1306.93353233883	-79.3528211606746
179812.5	260.850161940292	1475.46842423259	1498.34905075275	-79.974193889494
153343.8	280.497931426905	1700.38223079351	1723.36264910584	-80.6327515792174
130781.2	300.631481609097	1964.63971007379	1987.50810768996	-81.3000182274267
111531.3	321.938860129979	2272.0984211793	2294.7932074998	-81.9353138306678
95109.37	345.881770764426	2633.10007577148	2655.72028052182	-82.5165222180485
81109.37	373.160793620683	3056.01903587445	3078.7174806277	-83.0382575862946
69171.88	399.823484571803	3540.23954177407	3562.74540655879	-83.5564979119904
59000	414.461980144881	4096.91792053285	4117.82894017816	-84.2233634897432
50312.5	274.755866834164	4750.29919130381	4758.23845485506	-86.6897176146633
42906.25	1703.51538237587	6397.56280043639	6620.48143593188	-75.0894995028857
36593.75	1803.00497141785	7117.24813330363	7342.07381588959	-75.7843827168203
31203.13	1904.65103050495	8100.55603740513	8321.46042850318	-76.7686096172961
26609.38	2010.89080501718	9285.26603419136	9500.51825720105	-77.7802811961585
22703.13	2139.53014923349	10679.059520844	10891.2763948587	-78.6708867929099
19359.37	2248.55210979307	12327.400838679	12530.7939903232	-79.6627340320609
16500	2429.06474049061	14309.4726154305	14514.1779665695	-80.3657532466864
14112.02	2530.46926195845	16507.5780963003	16700.4014709578	-81.2848921416353
12011.13	2720.24244954608	19159.0632325399	19351.2124408982	-81.919041829286
10236.38	2896.18571889537	22360.8493240026	22547.626797716	-82.6201129874081
8750.684	3197.66559002319	25875.9630009756	26072.7928395382	-82.9552932975596
7449.463	3443.79380614757	30136.583218186	30332.7111192836	-83.4809247788127
6363.206	3720.38474135307	35007.5684352192	35204.7029581312	-83.9337333243046
5414.761	13493.2240481243	46976.5558264364	48876.0052840571	-73.974179858884
4620.567	14777.7173417055	53160.1026215383	55175.877342946	-74.464860914634
3941.215	15937.5200133039	60446.4864295727	62512.2569249822	-75.2293585006771
3361.769	17073.2744812521	68953.3642433765	71035.6469808781	-76.0929204894983
2867.244	18201.8878868926	79094.8519476014	81162.2099702811	-77.0403062037471
2442.658	19335.6444998189	90844.2880312891	92879.2324264967	-77.9842541712251
2083.003	20823.6517882593	105033.467946176	107077.793508267	-78.7861086055107
1777.843	21851.8249670481	121042.576450415	122999.2177542	-79.7666112803181
1513.548	23596.8584811049	140590.314902511	142556.825071844	-80.4722088050217
1292.065	24992.8733868019	163448.658407169	165348.443159384	-81.3062634673936
1101.762	27030.9027924062	189332.254122794	191252.116738588	-81.8748094875019
939.101	28468.9405110952	221188.287923051	223012.867987824	-82.6658350194596
801.2801	32076.6392395834	256418.663088931	258417.185119761	-82.8696361071876
684.3433	35206.8586662531	295860.187382213	297947.601727189	-83.2138118547227
582.9476	128893.096980335	404839.601443788	424862.958312851	-72.3395312693758
497.0677	139493.217135926	457620.944187941	478409.120091155	-73.0475925125984
423.5089	148773.993654797	515678.965985287	536710.813332144	-73.9070865010742
361.5036	166156.044960069	583986.854051244	607164.291589551	-74.1178776739028
308.1262	178659.681159855	672496.266805162	695823.620279608	-75.1221008014286
262.7298	194959.716248088	774197.904802747	798368.139870635	-75.8655708363903
224.2111	202845.401079926	878173.125315012	901295.897452558	-76.9936101434439
191.2854	221770.156849784	1025051.87121011	1048767.53436619	-77.7921987182973
163.1722	271169.395048922	1177154.58190592	1207984.16815508	-77.0276438364747
139.1537	271805.11046776	1398987.46539045	1425146.99115424	-79.0051503705892
118.6706	264299.669182076	1615250.86244441	1636731.39633758	-80.7071787968048
101.1982	332878.007446145	1891246.62131613	1920318.08575585	-80.0176240903649
86.24196	382120.079723996	2160195.22870873	2193731.79342057	-79.9686361988812
73.61024	413008.962018241	2351675.96497449	2387667.5327495	-80.0391100076823
62.69291	218251.475293618	2392660.61916264	2402594.12822049	-84.7880706926241
53.57697	334485.685354018	3148056.78441889	3165776.7122197	-83.9349938314538
45.65746	1045810.24450562	3473718.17495443	3627731.66407352	-73.244861881462
38.96512	1034333.86654313	4418313.43396282	4537768.19022462	-76.8242438192032
33.18414	1195851.41974325	4668425.96201838	4819155.69171086	-75.6322051264336
28.30617	1962666.76265824	6614822.4964328	6899850.54045063	-73.4739877037348
24.17237	1851140.29455695	6266715.3486897	6534404.4603648	-73.5432583011661
20.61345	2498084.50172667	7059754.47402877	7488695.44121913	-70.5137439594119
17.55618	3459672.14237039	6627239.47760191	7475937.02663278	-62.4337212451385
14.98558	4712239.25582914	8566102.71653062	9776671.95697648	-61.1846732517533
12.76553	8792667.45868525	9984697.9726154	13304329.9208706	-48.6323940901185
10.8809	10321024.238777	7905902.68029777	13001032.2100886	-37.4521082055481
9.278505	8001748.62511904	12795137.9761756	15091174.1388457	-57.9792035711144
7.923394	4457587.79730334	11879216.3432739	12688020.7243278	-69.4317704590868
6.75822	9546182.62762924	4952062.28997915	10754186.3329535	-27.4179327168897
5.761429	13745320.3445009	4780345.60278284	14552853.1723163	-19.1766453015988
4.919708	-2448994.05402662	17800509.7153361	17968186.2747032	-97.8335748426193
4.191257	12382147.8754028	-3670367.95444849	12914688.8049765	16.5110966696235
3.564097	14901185.4791061	2813785.14353358	15164521.6052698	-10.6932316516635
3.051758	15809434.9133895	1212483.42825382	15855861.6399264	-4.38563783380906
2.604164	23585216.0650255	11059385.9949726	26049422.938325	-25.1224346064776
2.214424	25139404.8778898	5908761.30097582	25824467.8110969	-13.2267135118612
1.892567	19068315.0456049	19170471.6068183	27039001.8363524	-45.1530677721409
1.607507	28734587.4566981	10903331.9455231	30733681.260482	-20.7792369024695
1.376413	29396416.4770276	1317270.67706625	29425915.5121385	-2.56574110293692
1.17375	27751184.9650852	17666687.675309	32897418.1416002	-32.4812466961301
1.001604	28862220.2381827	3760303.87398272	29106144.4080464	-7.42294898523943
