EC-Lab ASCII FILE
freq/Hz	Re(Z)/Ohm	-Im(Z)/Ohm	|Z|/Ohm	Phase(Z)/deg
6999984	-15.7090984843592	-13.096489624516	20.4522325352601	140.182432466785
5969734	-18.5334469738933	15.81756550738	24.3656322576364	-139.52055162185
5091109	16.8981928393526	81.0829242311275	82.8250537162924	-78.2277039383762
4341796	26.6259985668668	61.3738599541002	66.900631427127	-66.5472144395007
3702781	10.7143558352601	34.6038309631538	36.2246123276853	-72.795949448977
3157797	16.8663755491708	-44.567869050059	47.6525925404786	69.2712276848912
2693047	1.17079766342434	0.627433532963382	1.32832225268073	-28.1869738582482
2296687	12.5604288782786	31.1413174059918	33.578952088876	-68.0339826220857
1958656	14.2937590771751	42.7138058052913	45.0419887985473	-71.49768438099
1670375	54.8885712709535	32.8279847706404	63.9564839579846	-30.8829751970347
1424531	41.5120774467998	42.925898566491	59.7150344694682	-45.9592652265136
1214875	39.4602248677697	43.0056640291733	58.3660559332655	-47.4617897484647
1036062	49.5625358860562	-27.8845468433485	56.8682065491387	29.3626889834346
883578.1	99.1555876957366	-30.5928867235824	103.767795049181	17.1467818841652
753531.2	141.240275707306	66.0487880758781	155.920678193009	-25.0624000887038
642624.9	103.539233874231	80.8990650767127	131.396467538321	-38.0018382916643
548046.8	29.2498171827976	102.471852232918	106.564686014046	-74.0690043739781
467390.6	24.2504053998657	46.2482817730522	52.2205489153214	-62.3296148137632
398593.7	6.00984681333731	11.0432158682115	12.5726240471788	-61.4444523160656
339937.5	11.8560343661858	-2.74134123394151	12.1688332494569	13.0190850660617
289906.2	-1.71484735737608	28.3571323463408	28.4089362061832	-93.4606463586218
247234.4	13.2286214246742	-1.52744903081456	13.3165132575718	6.5865165480177
210843.7	8.60627592576517	2.08761077509625	8.8558514022483	-13.6347969718652
179812.5	1.94702695166649	-2.78695580392218	3.39971125296417	55.06102638811
153343.8	44.567291301932	-10.1127377083575	45.7002288610167	12.7844703081115
130781.2	8.92101187075584	3.9735685228263	9.76594591443976	-24.008994264044
111531.3	2.8163864583938	-1.63308189713746	3.25560887788783	30.1073049339866
95109.37	2.22454282259606	-4.1843911215406	4.73895767311667	62.0036018283338
81109.37	3.54453986401106	1.13847101556687	3.7228858565432	-17.8065026782127
69171.88	10.9668453689966	-2.21906866182121	11.189100190514	11.438976329072
59000	10.4670177928078	0.641227158826085	10.4866407273336	-3.50565487457943
50312.5	1.84248527335891	-1.89452249558338	2.6427197106042	45.7977828015339
42906.25	4.36560248653468	-5.90383500949641	7.34259851073128	53.5188531867358
36593.75	4.5374970017428	2.79712774196703	5.33036608927628	-31.6516439158263
31203.13	32.2800742583339	-0.017829716833356	32.2800791824053	0.0316469972281078
26609.38	2.56292495572769	3.16257019927425	4.07067986877246	-50.9789312809209
22703.13	24.4817954082416	3.2529692905105	24.696965716784	-7.56872663705456
19359.37	-0.182682551497499	2.70098517618527	2.70715604215831	-93.8693371538887
16500	0.125771619774871	0.734196579332148	0.744891346065868	-80.2792939154011
14112.02	-0.540556515981313	0.12463040650859	0.554737852680302	-167.016796210178
12011.13	-0.0847562720009018	0.506600542004376	0.513641640448493	-99.4978453501358
10236.38	-0.118670102839927	-0.542764955114772	0.555586527742331	102.333069703561
8750.684	-0.545446079247917	0.0624669095014463	0.549011420782471	-173.466696701525
7449.463	0.447699869271512	0.252558438218174	0.514024257852616	-29.4284072425361
6363.206	-0.124932462804943	0.540072785539162	0.554334496439233	-103.024858945402
5414.761	-0.544889660996896	0.048069318062286	0.547005851888519	-174.958506912707
4620.567	-0.532034210320315	0.0428902638704192	0.53376022302719	-175.391032752251
3941.215	0.41680022226237	-0.302634483851968	0.515082572112771	35.9830272300988
3361.769	-0.444945544116256	0.126432631373911	0.462559993411712	-164.137339514969
2867.244	-0.522915216040602	0.030467367789063	0.523802046260592	-176.665462775961
2442.658	-0.532256940753022	0.0279444545514563	0.532990003208264	-176.994627029264
2083.003	-0.52268068814317	0.0309981206196111	0.523599069173892	-176.605989756826
1777.843	-0.518301841721255	0.0298964266215096	0.519163361049661	-176.698751623858
1513.548	-0.528283948998437	0.0216694866920279	0.528728188602498	-177.651122070925
1292.065	-0.512433263926233	0.0240916639752322	0.512999277047432	-177.308264126318
1101.762	-0.516506065571667	0.0290860404326567	0.517324379398819	-176.776903067114
939.101	0.428867309450151	0.278930742738981	0.511595082423523	-33.0395482308615
801.2801	-0.132305518090309	0.496153103445835	0.513490654419414	-104.931204121361
684.3433	-0.531432242127502	0.0408108510263361	0.532996954526156	-175.608642122842
582.9476	-0.13716181162221	0.473254371533917	0.492730212939545	-106.163006085113
497.0677	0.437593739828961	0.289902617357159	0.52491123886618	-33.5241788522949
423.5089	-0.144491637249785	0.524618725814661	0.544153140862498	-105.398737682188
361.5036	-0.131563321633196	0.432724004074192	0.45228195995547	-106.911117078215
308.1262	-0.133151758105465	0.479623768415136	0.497763347300011	-105.515563776615
262.7298	-0.112601423920027	0.445011615525801	0.45903640228385	-104.199537016979
224.2111	0.43123726332434	0.306009527006435	0.528779167420738	-35.359826765913
191.2854	0.395345494528828	-0.274476829522398	0.481285351936781	34.771118360994
163.1722	-0.108746569176042	0.439711274885324	0.452958962345196	-103.891285723199
139.1537	-0.125748354800221	-0.474917288603461	0.491283095322264	104.830420845198
118.6706	0.410939475157434	-0.318911075217397	0.520168747753057	37.8133810136899
101.1982	-0.139656281892076	0.454543037798883	0.475513669922701	-107.079337486866
86.24196	0.465132837013137	0.28527028421826	0.545644289923258	-31.5211756962971
73.61024	0.400770104172709	0.259405288456264	0.477396878998681	-32.9136522145374
62.69291	0.0373592321849002	-0.447623350273018	0.449179669997526	85.2290763075363
53.57697	1191.27823348639	1008.17632013118	1560.62914302268	-40.2411693494198
45.65746	1303.35871362004	7640.12459442958	7750.49983902826	-80.3188852990447
38.96512	3358.73464343628	4538.83916585756	5646.42890493997	-53.4986105878339
33.18414	-724.679139163055	6066.13067340198	6109.26355639748	-96.8124494601372
28.30617	9599.08243337809	-5058.24584660538	10850.264264408	27.787032128513
24.17237	6583.1345777966	-2309.08313989809	6976.3547656597	19.3286968412706
20.61345	5399.74631374835	3077.80797821513	6215.31674201755	-29.6827603965285
17.55618	3541.54398754809	-279.517103722363	3552.55733620322	4.51272674826262
14.98558	205.382350539613	-4760.71626366698	4765.14441051438	87.5297310381046
12.76553	4247.89017709582	-5181.50167106425	6700.18884240652	50.6544710111163
10.8809	1299.41594215977	1361.83406009192	1882.30544757364	-46.3435938563315
9.278505	134.377272964568	-1482.20311342048	1488.28200315759	84.8196979629153
7.923394	3339.32950895003	2081.87979240575	3935.14231500868	-31.9411652192839
6.75822	9414.29212264703	-3020.99928605606	9887.12965712927	17.7911760571929
5.761429	5236.26545322024	86.7157693422612	5236.98343717454	-0.948766542535082
4.919708	4374.75226964446	-7092.78022905657	8333.42599405881	58.3341509251979
4.191257	-16.2402473649494	-8818.19258646681	8818.20754108524	90.1055201018948
3.564097	10141.7309662909	946.632873584199	10185.8146846471	-5.33255830632823
3.051758	-3805.09254980993	-3979.77130830982	5506.11559804778	133.714598396451
2.604164	7244.94022061607	1379.31363439263	7375.07050151535	-10.7791466730434
2.214424	6032.41033447245	961.758062901644	6108.59664857701	-9.05853149595373
1.892567	4705.22117575396	76.7378557078458	4705.84689628361	-0.934358945818722
1.607507	5795.60380141994	-2023.46757238844	6138.6842596391	19.2460534089009
1.376413	1149.14747664397	3430.49002621234	3617.84490311837	-71.480151872459
1.17375	4069.33451177871	781.40187920641	4143.67859100831	-10.8697427596095
1.001604	1906.39317171131	-67.5225587840637	1907.5885880064	2.02851180999486
