EC-Lab ASCII FILE
freq/Hz	Re(Z)/Ohm	-Im(Z)/Ohm	|Z|/Ohm	Phase(Z)/deg
6999984	2.60647230192937	1.08670157413297	2.82393664446426	-22.6324402429304
5969734	4.09939175045792	0.819571136902293	4.18051546727981	-11.3058037487497
5091109	6.6461302370465	-0.446604273795036	6.66111871273555	3.84436173996
4341796	8.1052692782257	-12.1056593697898	14.5685407247922	56.1959583774389
3702781	1.90135295747669	-8.18844728485957	8.40629597419871	76.9276054054449
3157797	-3.40663404875535	-4.78650939375558	5.87501725262571	125.440056510731
2693047	0.746405157804725	0.508261109043351	0.903022709882466	-34.2527233366935
2296687	0.855329300581219	0.619306114089437	1.05599634250376	-35.906634767274
1958656	1.00600479031201	0.652100017484437	1.19886616055918	-32.9516163980427
1670375	1.2033613929861	0.651610724227382	1.36845722551257	-28.4351963638327
1424531	1.56763824170583	0.611561021120826	1.6827051255086	-21.3115605307696
1214875	2.06102336554996	0.435539322981304	2.10654024770615	-11.9322987202575
1036062	2.80938814343159	0.0804366868747035	2.8105394146052	-1.64000975559728
883578.1	3.78511872888999	-0.342775288774808	3.8006076738317	5.17451477403494
753531.2	4.97848390191428	-1.17331187547949	5.11487660836122	13.2612800556414
642624.9	3.86197820114683	-1.42422865758304	4.11622434947539	20.2430744569419
548046.8	3.5501028908427	-2.04061585408672	4.09479469564956	29.8904919747311
467390.6	3.08966557483354	-2.50938626796188	3.98033325315194	39.0830554876998
398593.7	2.73629720282115	-3.17985248890513	4.1950904916775	49.2876515429419
339937.5	2.13781488834749	-4.26616836091685	4.77183874209178	63.3841436357015
289906.2	-11.6640877893363	-3.03405251168835	12.0522370786932	165.419389877354
247234.4	-16.2396247021093	15.4755066490164	22.4324924274836	-136.380169946738
210843.7	-24.9548861611581	57.0714061828227	62.2887770549486	-113.617702661781
179812.5	-13.5845598175213	67.1617793303718	68.5218568652176	-101.434729176576
153343.8	-2.78945120155499	60.2933738752959	60.3578658608145	-92.6488797544805
130781.2	5.80771986224606	47.7555083948191	48.1073611004175	-83.066103335138
111531.3	11.1461522308772	33.3337810184889	35.1479397197398	-71.5110915933961
95109.37	4.19351984918771	104.261962832492	104.346262522476	-87.6967482353853
81109.37	12.4069170661384	84.106966904692	85.0171363490502	-81.6086132958842
69171.88	17.2479513228315	61.09932639939	63.4871602081394	-74.2359642754793
59000	19.7888898969894	38.5583232913808	43.339871462636	-62.832213391652
50312.5	15.8124939942223	1.24909511707756	15.8617528958442	-4.51665437394824
42906.25	16.1027882978785	-0.92342384555181	16.1292437071558	3.28206554348097
36593.75	15.4447362422375	-2.52760063801078	15.6501962472538	9.29432081738392
31203.13	14.7161017555171	-3.70677010470912	15.1757634235612	14.1378653751459
26609.38	13.8327464506855	-4.59227717016408	14.5751117997963	18.3654401960967
22703.13	12.8473259205017	-5.23059205353449	13.8712968585527	22.1529433233413
19359.37	11.7673269507673	-5.60195733563267	13.0327245638241	25.4572654123741
16500	10.6265650719412	-5.72522144873308	12.0707102469256	28.3142335141247
14112.02	9.16792540343715	-5.99017114498368	10.9513929045206	33.1599381227743
12011.13	7.88372827523413	-5.83084061701962	9.80570618664519	36.4867946418897
10236.38	7.49061986978098	-5.18761166677764	9.11156961444323	34.7044489919526
8750.684	8.50783379909956	3.20953353125566	9.09309306239386	-20.6687076142108
7449.463	10.2080762395962	8.36565831706236	13.1980702980111	-39.335088162622
6363.206	11.0416910875664	12.6328489108323	16.7781945893222	-48.8450473757813
5414.761	11.6877920166065	17.1167364479815	20.7264842376392	-55.6736328626638
4620.567	12.2427332183905	21.9748238604594	25.1550670910435	-60.8767084368705
3941.215	12.7102407575139	27.9397694397534	30.6949659791397	-65.5384649453934
3361.769	13.0951932004192	34.8559705480068	37.2346984384166	-69.4090813303996
2867.244	15.0576026422233	37.7971638337396	40.6860785921381	-68.278692896386
2442.658	15.7175154814208	48.7646506220292	51.2350606830642	-72.1351572238526
2083.003	16.9009479275997	60.9148669292229	63.2160031468011	-74.493222325493
1777.843	18.0436006210683	75.2316123347472	77.3651537700165	-76.5128985533292
1513.548	19.7132110718625	92.6846568987574	94.757882601946	-77.992619355034
1292.065	21.7828842467257	111.832078286371	113.933786823555	-78.9778202837615
1101.762	23.1779346457154	134.964676268877	136.940426809631	-80.2554588711237
939.101	26.5273704670853	161.711390896933	163.87274126504	-80.6840885976611
801.2801	32.1568528477491	194.032610347758	196.679223771695	-80.5899516319211
684.3433	34.6668727203258	227.552330729125	230.177877487096	-81.3377761461258
582.9476	35.9036780584402	268.117478967212	270.510732921741	-82.3728816988092
497.0677	40.0537728805594	320.52046541047	323.013426143422	-82.8769699669653
423.5089	47.0637642903522	375.404891169503	378.343534665473	-82.8542235424986
361.5036	54.0290090681815	435.528553853789	438.867012935425	-82.9283642811885
308.1262	61.5292802565264	510.098801357054	513.796301538644	-83.1220813117222
262.7298	72.2166174749631	596.103173971794	600.461683922273	-83.0924020979345
224.2111	83.1177805307679	703.695789590573	708.587559676192	-83.2636591828991
191.2854	98.947513427455	811.820049595986	817.827856788644	-83.0508626577875
163.1722	117.961891826432	949.912686195764	957.209025928466	-82.9211450129698
139.1537	140.061597604273	1110.68801389021	1119.48430776087	-82.8127413981311
118.6706	171.132468300307	1291.04367210304	1302.33639470909	-82.4492569729001
101.1982	210.513854295522	1510.32025274037	1524.9207680034	-82.0650314754854
86.24196	251.128206621602	1761.32847888405	1779.14119357879	-81.8855237982709
73.61024	319.789528587191	2046.24266420233	2071.08048694295	-81.117588465457
62.69291	417.702294361301	2386.18642710511	2422.46999395562	-80.0709664610916
53.57697	522.236807848838	2763.1923165558	2812.1100728359	-79.297473437665
45.65746	669.365872596183	3199.82980405113	3269.0918381548	-78.1847893995209
38.96512	838.385236061677	3708.61231918165	3802.19609410563	-77.2615825042266
33.18414	1095.8664393743	4262.4917955554	4401.10890118888	-75.5817848404621
28.30617	1392.76823090149	4908.83345058274	5102.59239902311	-74.1599327760654
24.17237	1794.67734518422	5628.82961844327	5908.01063360432	-72.3158108166573
20.61345	2299.06729738216	6402.85299982424	6803.10495106833	-70.2483499087073
17.55618	2916.69666110161	7221.17958405574	7787.9749613147	-68.0057930985652
14.98558	3707.1318552046	8133.94065326982	8938.89350774402	-65.4983578997342
12.76553	4692.50647302347	9015.94278683098	10163.9973108407	-62.5044815328371
10.8809	5862.62329190295	9884.01908764802	11491.9182553546	-59.3260554601284
9.278505	11546.7375813896	7331.11341125459	13677.4402803357	-32.4117812930484
7.923394	13298.621565128	7334.62142636942	15187.1658646584	-28.8781614944042
6.75822	15131.6616882435	7108.45270736626	16718.1723086083	-25.1628911563918
5.761429	16944.3848054376	6550.89102871763	18166.6273618654	-21.1370662342625
4.919708	18717.976511306	5951.86991462349	19641.4714356741	-17.6394224555746
4.191257	20374.0048137293	4915.12158829219	20958.4945160086	-13.5631485995841
3.564097	21750.9883689269	3798.88080209503	22080.2398169431	-9.90696739898345
3.051758	22918.3546027708	2658.55788724023	23072.0373555989	-6.61680882664626
2.604164	23859.1576268469	1380.50350306451	23899.0625879908	-3.31147202935826
2.214424	24609.9921446176	164.951410025785	24610.544941667	-0.384026050806245
1.892567	25198.3574920591	-1001.24089417464	25218.2414855949	2.2754147937772
1.607507	25640.9726853617	-2034.33107242978	25721.5470600763	4.53629192941855
1.376413	26084.19843809	-2975.20866565794	26253.3288320141	6.50713324550232
1.17375	27023.7535734472	-5089.16691097177	27498.7795555754	10.6651452605462
1.001604	27129.4957860676	-5692.8917108021	27720.3635913596	11.8510762232198
