EC-Lab ASCII FILE
freq/Hz	Re(Z)/Ohm	-Im(Z)/Ohm	|Z|/Ohm	Phase(Z)/deg
6999984	3.07602114602174	1.29233385588335	3.33647012362395	-22.7888176139554
5969734	3.953945370896	0.859182400671651	4.04621778870759	-12.2596409677717
5091109	6.05611207152022	-2.12843355370283	6.41924628093836	19.3641342808995
4341796	2.60471160458197	-5.9918364578535	6.53350033907601	66.50493015422
3702781	3.16812127892748	-6.1275878216029	6.89813923818947	62.6598676868766
3157797	2.62993460438621	-7.5688549749633	8.01274744737251	70.8392985786052
2693047	0.344840609772564	-6.09781580203914	6.1075586449699	86.7632853955581
2296687	1.409838892338	-9.76939445121822	9.87059844415941	81.7882355646577
1958656	6.37706387571035	-6.8922894013888	9.38991996064856	47.2235768155611
1670375	-8.70862731434243	-10.9177814060913	13.9656056270863	128.577802579985
1424531	9.63635014142364	-3.37427354719558	10.2100424102655	19.2982613231933
1214875	-6.85327792338463	-5.59614003971561	8.84783598623186	140.766161868465
1036062	3.41145275348949	-17.5147627476116	17.8439043932211	78.9781640584386
883578.1	2.19745104214372	-12.9014154153732	13.0872193686302	80.3337822017181
753531.2	1.9505364559574	-5.8556539322851	6.17197500324692	71.5769244440566
642624.9	2.53129584003768	8.2473812658754	8.6270943181644	-72.9376419117128
548046.8	2.83654028809856	-4.11760895119727	5.00006642765735	55.437803434188
467390.6	0.117300126405808	-0.0734582101664071	0.138403136870775	32.0565073530217
398593.7	0.0334120442947314	-0.105372206720293	0.110542601077852	72.4069111060831
339937.5	0.0394407305860178	-0.104187396768265	0.111402804607903	69.2655554027194
289906.2	0.0422006002121817	-0.102709317210306	0.111040958659747	67.6635081117541
247234.4	0.0431186675576466	-0.0978561265920662	0.106934751150173	66.2201128342605
210843.7	0.042941566034873	-0.0942297482119574	0.103552998708952	65.5007070266942
179812.5	0.0422454349152454	-0.0875205359397749	0.0971829253643029	64.233782750101
153343.8	0.0399614730149572	-0.0811192318754946	0.090428143327149	63.773926823729
130781.2	0.0387924710865558	-0.0745826775242145	0.0840680176980654	62.5198368017466
111531.3	0.0371392107622153	-0.067425508133262	0.0769774000799509	61.1532178688006
95109.37	0.0352061643141059	-0.0627415194623515	0.0719442302770448	60.701899013576
81109.37	0.034929275855412	-0.0587607592105041	0.0683584752227426	59.2713952864729
69171.88	0.043840231235055	-0.0620667160576335	0.0759884406796323	54.7648931516966
59000	0.0418450350865958	-0.0586878184281893	0.0720782005412076	54.5107290737766
50312.5	0.0393536693746224	-0.0549591352373613	0.0675959898165983	54.3953181851034
42906.25	0.0361841010119115	-0.0528180926167996	0.064023746170597	55.5861192890356
36593.75	0.0318069291789567	-0.0500034989200425	0.0592623881398806	57.5398022380285
31203.13	0.109584380426097	-0.12405696175938	0.165526028751794	48.5445768488588
26609.38	0.0703571316263623	-0.108156035617362	0.129026563199806	56.9553910165731
22703.13	0.0402475263902881	-0.0872264590173556	0.0960641376021424	65.2307293136286
19359.37	0.0211016195468902	-0.0693504517048663	0.0724897475452267	73.0762976981345
16500	0.0275052883623577	-0.036974175956439	0.0460828663990659	53.3542424121948
14112.02	0.00246930844583061	-0.0428819631998372	0.0429530005013951	86.7043280384392
12011.13	-0.00154302550559734	-0.0325098887522227	0.0325464866674242	92.7174055067781
10236.38	-0.00370120593349201	-0.0243309902796066	0.0246108921688838	98.6494667428856
8750.684	-0.00430544232887319	-0.0178474806914627	0.0183594499013284	103.562637131912
7449.463	-0.00404096607608636	-0.0128241742571071	0.0134457745111514	107.489919042857
6363.206	-0.00358924929156275	-0.00970667562026144	0.0103490222762327	110.292943168196
5414.761	-0.0027970169393073	-0.00795971011338731	0.00843684116526631	109.361313793313
4620.567	0.0321015396498213	-0.00599919754382179	0.0326572996290087	10.5854411016656
3941.215	0.0289551474731959	-0.00540791845440024	0.0294558338399029	10.5791786729648
3361.769	0.0357217396536743	-0.00557431883801414	0.0361540552966431	8.86938093904719
2867.244	0.0433074680879149	-0.00648384367634799	0.043790147533493	8.51488049204385
2442.658	0.0502839433795516	-0.00704669196940045	0.0507752974339842	7.97736586611982
2083.003	0.0553900307934205	-0.0076514471807482	0.0559160098295279	7.86492862840335
1777.843	0.0588838575829256	-0.00840126939801498	0.059480164856398	8.11988911765861
1513.548	0.0619863516877624	-0.00889220112375177	0.0626209153269435	8.16362298616095
1292.065	0.0650506262896229	-0.00954977724964756	0.0657478686056823	8.35166773452288
1101.762	0.0673232787548296	-0.00899061216187446	0.0679209464697433	7.60649601490959
939.101	0.06950177100543	-0.00984296521942993	0.0701952999651838	8.0607254957334
801.2801	0.073525175607676	-0.00915079649563095	0.0740924323034684	7.09443790382322
684.3433	0.0749099587824538	-0.0096927979735106	0.0755344441784291	7.37268912745055
582.9476	0.0774844530588654	-0.00862939289201426	0.077963497147808	6.35480668608884
497.0677	0.0814554004912378	-0.0067312864273493	0.081733056263393	4.72405707437647
423.5089	0.0876507161318132	-0.00471034104840884	0.0877771915204174	3.07611070740104
361.5036	0.0962121605990178	-0.00323874247313876	0.0962666572596062	1.92799152145932
308.1262	0.102197091294217	-0.000662249078179133	0.102199236997348	0.371278140935041
262.7298	0.110976052620553	0.00160604212638403	0.110987673309028	-0.829124933502634
224.2111	0.1222394321832	0.00306494990568317	0.122277850399798	-1.43629518449631
191.2854	0.135748140732394	0.0041218778001669	0.135810704986394	-1.7392036468371
163.1722	0.147518421710825	0.00413295825142124	0.147576305984263	-1.60481066641121
139.1537	0.151537858144866	0.0019646604979081	0.151550593340988	-0.742787642227755
118.6706	0.161795447519237	-0.000256836736056917	0.161795651372524	0.0909521798357596
101.1982	0.165266686716995	-0.00394496409327548	0.165313763734635	1.36740732287214
86.24196	0.16430441188261	-0.00722718352852213	0.164463284491844	2.51861990794977
73.61024	0.178130852253924	-0.0107464171205566	0.178454716961022	3.45240016639541
62.69291	0.194960772933987	-0.0149769336681748	0.195535192548857	4.39284793470299
53.57697	0.206125574847319	-0.0185150951987761	0.206955457421053	5.1327811011954
45.65746	0.212042111878384	-0.0219913686802544	0.213179449071143	5.92110628306456
38.96512	0.218519353330698	-0.026364748058044	0.220104083833605	6.87958446022711
33.18414	0.224240235932166	-0.0289063141414257	0.226095684187373	7.34536477020076
28.30617	0.233765300987927	-0.0327935145079641	0.236054295745195	7.98556489216814
24.17237	0.243991334556234	-0.0367153788280097	0.246738303433043	8.55756011820315
20.61345	0.241012637269936	-0.0382668527253345	0.244031644139263	9.0218450083315
17.55618	0.25717554354854	-0.042651962005291	0.260688415665883	9.41665876580025
14.98558	0.269204319652135	-0.0475233281262562	0.2733668458968	10.0114233346138
12.76553	0.270768790678405	-0.0494092272058157	0.275239913054996	10.3414126471414
10.8809	0.2792042931202	-0.0513769135500252	0.283891924053287	10.4264682318286
9.278505	0.279552588489495	-0.0528015025948247	0.284495427744363	10.6959417420345
7.923394	0.302035121171229	-0.0608692071461985	0.308107570175622	11.3942111365384
6.75822	0.297871228308898	-0.0587968978561562	0.30361874753012	11.166087990407
5.761429	0.282805730812672	-0.055913999968086	0.288280170620389	11.1838095750104
4.919708	0.289990988794719	-0.0573967455938629	0.295616575967765	11.195623964746
4.191257	0.291706343164402	-0.0590212063675871	0.297617360789711	11.4382887797178
3.564097	0.307692903229299	-0.0627969993807286	0.314035644201256	11.5350728104713
3.051758	0.323578200961563	-0.0693627116952578	0.330929052685377	12.0989091175036
2.604164	0.310427127129134	-0.0655829852429682	0.317279260606531	11.9292849622552
2.214424	0.309658806530232	-0.0647210048403354	0.316350098671188	11.8053026249668
1.892567	0.308215312357854	-0.0645144302590355	0.314894887992005	11.8222449869688
1.607507	0.323094226880253	-0.0689134975326969	0.330361846443468	12.0403241829515
1.376413	0.238417023022233	-0.125351868179005	0.269361778511263	27.7339246704823
1.17375	0.317036771814497	-0.202363168485024	0.376115895226266	32.5499099582986
1.001604	0.323898574016389	-0.203471579896132	0.382506169983281	32.1368474950549
