EC-Lab ASCII FILE
freq/Hz	Re(Z)/Ohm	-Im(Z)/Ohm	|Z|/Ohm	Phase(Z)/deg
6999984	2.61626084063293	1.11077327527386	2.84229450537624	-23.0043872547954
5969734	3.98067545306721	0.700264876119592	4.04180008899236	-9.97716618804288
5091109	6.36243886653623	0.571707864556637	6.38807312206167	-5.13462086867557
4341796	5.79235011218568	-10.7930063071387	12.2490940468295	61.7786013021859
3702781	-2.91130657544478	-7.43041449352354	7.98039883225097	111.395715036484
3157797	-3.88389764115325	-4.02650191603616	5.59440600661042	133.967215488324
2693047	0.653232336430245	0.48345316521443	0.812674257199013	-36.5049115673717
2296687	0.765936382921449	0.622533460757624	0.987018972687788	-39.1033267344915
1958656	0.931182856690999	0.645714202836431	1.13315856981267	-34.7387691638809
1670375	1.13129800959329	0.689092970724359	1.3246449746296	-31.3463089772231
1424531	1.52173099701437	0.584832374988316	1.63024358121994	-21.0227898020237
1214875	2.07019433919576	0.491474987451441	2.12773406828216	-13.3550789762823
1036062	2.89215296892376	0.217028805398837	2.90028452018545	-4.29146477172797
883578.1	3.82295984736854	-0.415265674708954	3.84544764301682	6.19939761373756
753531.2	4.97082599953505	-1.38366742292848	5.15981071890502	15.5549504306871
642624.9	3.90230549284436	-1.38561945511023	4.14100584808368	19.5487871191142
548046.8	3.58165938158976	-2.04448791424029	4.12410169093884	29.7186504728155
467390.6	2.99018122770346	-2.57471907565928	3.94592981350073	40.7303549853245
398593.7	2.58966649733493	-3.2007161349756	4.11715391309484	51.0240345185536
339937.5	1.97184832443434	-4.19057203941488	4.63131512986325	64.800953671501
289906.2	-10.6832731832299	-3.03543060168074	11.1061318579035	164.138600022118
247234.4	-15.9167991844301	14.5703585580259	21.5786895984653	-137.528778438637
210843.7	-25.1962018985446	55.5897308265635	61.0333250239736	-114.382544022501
179812.5	-14.5475366018754	65.5987368797689	67.1924482468383	-102.50386842229
153343.8	-4.43673825710931	58.9275082856018	59.0942965023847	-94.3057591064398
130781.2	3.74324672560681	46.6004395121747	46.7505385934389	-85.4074953649401
111531.3	8.77564356887322	32.3923699091922	33.5600588256613	-74.8414660733735
95109.37	2.38825365531842	103.090961762711	103.118621755156	-88.6728964309496
81109.37	10.1502806890094	83.2604839498888	83.8769121131398	-83.0493729675201
69171.88	14.7820632490771	60.4400513317753	62.2214528831282	-76.2567291231262
59000	17.0523671706828	38.2079388960317	41.8405284479854	-65.948588135148
50312.5	13.127907383025	1.13512216866865	13.17689093053	-4.94186526132206
42906.25	13.3964669721703	-0.88498894418563	13.4256669394031	3.77954588938582
36593.75	12.7520189973398	-2.42092101383529	12.9797860946837	10.7494560000997
31203.13	12.0834174208517	-3.57097360883354	12.6000329000176	16.4638219219472
26609.38	11.2245144428426	-4.42560755197666	12.0654766454415	21.5183524581882
22703.13	10.2519759258756	-5.01911643442129	11.4146633838678	26.0852386149934
19359.37	9.20231893232744	-5.40712591938129	10.6733164686669	30.4377698014842
16500	8.12905948357865	-5.66451603104266	9.90799424472478	34.8696728313345
14112.02	6.68082822453203	-5.82073676073915	8.86083755654757	41.0643263545283
12011.13	5.3457757609779	-5.85227530205743	7.92631343675799	47.589782790319
10236.38	4.68923421398844	-5.08571350131019	6.91761514765375	47.3226870549628
8750.684	6.21847844047223	3.41668187232836	7.09529344927433	-28.7861616612401
7449.463	7.88330169700236	8.46902644986499	11.5702573287924	-47.0514029981243
6363.206	8.95324072785621	12.6204021962429	15.4736896416425	-54.6471216769075
5414.761	9.7928278567481	17.1220942921208	19.7247456353733	-60.232990354041
4620.567	10.5006221222378	21.9483021844824	24.3308658648923	-64.4323699218933
3941.215	11.0931859962574	27.7493842356527	29.8845629214391	-68.2102817356474
3361.769	11.8840012612878	34.6608826649986	36.6415921200907	-71.0749561197425
2867.244	14.2221693533242	38.0824689469919	40.651501106518	-69.5214956498043
2442.658	15.5151265881276	48.1639417015755	50.6012295629107	-72.1446110274723
2083.003	17.4508866235655	59.7970801098702	62.291445910452	-73.7309019790714
1777.843	19.5475421978994	73.5540761409784	76.107217285429	-75.11723066017
1513.548	22.6786037479897	89.7092473936682	92.5314440387521	-75.8128014234588
1292.065	26.4654582690027	108.047029507231	111.241094325455	-76.2367328960761
1101.762	31.8644169227583	129.408023816093	133.273319512249	-76.1671185239677
939.101	38.5302262728187	153.152875627186	157.925240697967	-75.8785769783398
801.2801	46.1497436767952	182.628063542188	188.368809611898	-75.8183591140716
684.3433	54.7099959816465	214.191718160201	221.06848664776	-75.6715673269591
582.9476	71.5601181920648	247.38415198278	257.526249473528	-73.8665783849584
497.0677	85.486839971871	298.042946805584	310.060635922931	-73.9956657762014
423.5089	106.37214996154	341.876396613204	358.042602002429	-72.7168812732489
361.5036	132.891232078122	391.693285953725	413.622665994585	-71.2592766424361
308.1262	165.998441709372	447.561260355417	477.353709968687	-69.6504111537088
262.7298	207.56151979508	507.53826675166	548.340110439609	-67.7575304859351
224.2111	261.244819659497	572.677716001411	629.451048298051	-65.4784189684637
191.2854	323.388492524754	641.446172679513	718.354584827458	-63.2448002999257
163.1722	399.152442909666	705.138869117464	810.273717592401	-60.4874409108586
139.1537	489.087710290206	770.056394236392	912.246479116949	-57.579049846995
118.6706	595.981381580729	831.702155269084	1023.19220201784	-54.375362065099
101.1982	704.512143866711	884.972381870247	1131.15581487643	-51.4772727823918
86.24196	835.2783041332	925.424906144286	1246.63591407748	-47.9309390502737
73.61024	958.334137959023	957.573784191921	1354.75159056902	-44.977261402283
62.69291	1101.58776411878	972.060025223224	1469.1481527379	-41.425736672541
53.57697	1232.85301222669	970.342580859351	1568.91404289247	-38.2052497680917
45.65746	1358.28696446805	965.204668674381	1666.30235259831	-35.3977680311066
38.96512	1496.68378638562	943.449140749233	1769.2254343667	-32.225678871612
33.18414	1605.94273111792	922.080958216847	1851.83297009654	-29.8630644850782
28.30617	1715.27668850718	896.912660406148	1935.62042728759	-27.6049232229086
24.17237	1820.18083950852	871.500513868769	2018.06130585457	-25.5850464598442
20.61345	1916.30385082321	840.639743599808	2092.5810921442	-23.685989307039
17.55618	2008.04884067384	815.407554274265	2167.29084944755	-22.1005749808663
14.98558	2087.92045857387	794.071449467961	2233.82212993593	-20.8226556441845
12.76553	2166.16531023703	770.572307966727	2299.14197758195	-19.5820530486995
10.8809	2234.25740277334	752.474004270411	2357.56723529791	-18.612975152327
9.278505	2312.81917431006	723.00030066201	2423.19251563173	-17.3595383022311
7.923394	2355.46629944638	723.687820734989	2464.13180445117	-17.0789264924879
6.75822	2405.64616529785	710.179889114349	2508.28406435848	-16.4473264670254
5.761429	2452.26638790253	707.751587573888	2552.35631269419	-16.0987332148899
4.919708	2484.66929562041	699.084716687849	2581.143341565	-15.7144389625397
4.191257	2505.52503137676	693.853887790285	2599.8247826454	-15.4789819566307
3.564097	2520.93497471289	689.888014670243	2613.62939597723	-15.3050376996069
3.051758	2537.80213031825	695.414856926255	2631.35734477126	-15.3241687603864
2.604164	2538.9571220781	703.152406308935	2634.52587276139	-15.4798242045896
2.214424	2550.74722813854	711.82463939046	2648.20802413628	-15.5925651099374
1.892567	2562.07609846951	731.163406406458	2664.36368786558	-15.9276480172638
1.607507	2568.84883038036	743.554925140759	2674.29584003857	-16.1431202552787
1.376413	2577.24258330181	757.101873807736	2686.14641829282	-16.3709053563109
1.17375	2911.84593600125	-232.389878731392	2921.10455320309	4.56301525394125
1.001604	2959.42195085665	-185.925271545599	2965.25656391002	3.59487471652162
