EC-Lab ASCII FILE
freq/Hz	Re(Z)/Ohm	-Im(Z)/Ohm	|Z|/Ohm	Phase(Z)/deg
6999984	3.79438361540815	0.880287914645555	3.89515774180569	-13.0614209175439
5969734	5.90699234477076	2.1590030041348	6.28918536322817	-20.0773349555445
5091109	9.47145087707227	0.0985289956823639	9.47196334873522	-0.596011324975707
4341796	5.70243508519993	-6.85423053954497	8.91617867643701	50.2409501816365
3702781	3.42461782708422	-6.42279795800243	7.27875956952166	61.9335863857688
3157797	4.35577062722629	-9.10724482195615	10.095278401513	64.4393600069939
2693047	2.3577987194547	0.816438599571302	2.49515265832217	-19.0995137232183
2296687	0.466094962578493	0.614015430144399	0.770882262473627	-52.7981123875069
1958656	12.3402158253678	-8.71592310735861	15.1078867559314	35.2336500002693
1670375	6.79289395009316	-8.39489651308443	10.798967343344	51.0212728619811
1424531	14.548758550715	-17.2624018224289	22.5755817653942	49.8757984492217
1214875	7.41388195666348	4.66969924303438	8.76194822443822	-32.2051383346565
1036062	8.86222878933756	-5.40803286718208	10.3819997402757	31.3929592009027
883578.1	0.90443510254272	14.1425610818351	14.1714514714671	-86.3408436132082
753531.2	8.29799337302742	1.06738322768517	8.36636127438629	-7.32979177732911
642624.9	7.90832329958329	-0.507285989318615	7.92457673858301	3.67025705475359
548046.8	5.14597915728327	1.21500568414279	5.28747012281801	-13.2846853815725
467390.6	3.28045311642382	2.91955690119877	4.39149008292084	-41.6686306706308
398593.7	2.79923794203139	2.99297352181148	4.09800238633078	-46.9156922147696
339937.5	-1.46907298221322	-3.04873068415301	3.38421840482628	115.727734333909
289906.2	2.98530201480164	-1.13279668376552	3.19300116603939	20.779649432082
247234.4	2.60079422336109	-2.97366192983681	3.95054374298389	48.8267356446489
210843.7	1.60482907004437	0.890655624349333	1.83541379128647	-29.0296056988132
179812.5	-0.594704911664707	-3.60505649496149	3.65377972294748	99.3673828601845
153343.8	3.19195123079159	-4.83767630376023	5.79583166419757	56.58273926662
130781.2	2.22199283667283	-2.14764946973023	3.0902508653923	44.0252862960952
111531.3	2.09093511859066	-1.54634882252513	2.60061614835419	36.4847377234051
95109.37	-0.265876924323162	-2.55536110612983	2.56915568263362	95.9400639212709
81109.37	2.03165543593305	-1.25638705774394	2.38875119031321	31.73287787202
69171.88	1.10270878001779	0.966243449780972	1.46614905714697	-41.2263129823677
59000	-0.857894178742934	0.507226251102425	0.996624749706946	-149.406480010596
50312.5	0.149919387470841	0.96925790029147	0.980783717247111	-81.2074855435131
42906.25	-0.559253251541676	0.55810738684663	0.79009369989433	-135.058757383828
36593.75	-0.339454180416936	0.556211162207806	0.651613380438962	-121.395604730682
31203.13	-0.0409778649994689	0.141168270091006	0.146995462176224	-106.186783833611
26609.38	-0.17731709429801	0.0258995172263992	0.179198596319419	-171.689954578824
22703.13	-0.171131439549882	0.0315632013193461	0.17401783035063	-169.549899918231
19359.37	-0.173099427391656	0.0260770870469895	0.175052638461051	-171.432925711929
16500	-0.172387060570429	0.024127107284288	0.174067274230455	-172.032697931872
14112.02	-0.170084189875253	0.0223167367418261	0.171542030955463	-172.524925973669
12011.13	-0.169169183787488	0.0198242081512636	0.170326779961783	-173.316237984524
10236.38	-0.168687596247127	0.0174497667037164	0.169587733889123	-174.094085487193
8750.684	-0.167600626083217	0.0152715307768452	0.168294947980485	-174.793666955048
7449.463	-0.0429888998948125	0.164058913929342	0.169597679093322	-104.683285283408
6363.206	-0.0438558224081179	0.156409262065018	0.162441344548781	-105.663043113082
5414.761	0.131771059924318	0.0938673617703708	0.1617859506858	-35.4642425944976
4620.567	-0.173956243218804	0.013816306099407	0.174504054018903	-175.458870955195
3941.215	-0.155876827048976	0.0205604202014421	0.157226957261521	-172.4859648436
3361.769	-0.154446108256842	0.0124663127632308	0.154948408541665	-175.3853031743
2867.244	0.133300943724838	0.0946058828915303	0.163460743530728	-35.3639520620379
2442.658	-0.16843123717435	0.00748945078598248	0.168597667626684	-177.45396729362
2083.003	-0.164675551299563	0.0125762070972389	0.165155073130581	-175.632820941797
1777.843	-0.153476827775873	0.00737695853801971	0.153654014530752	-177.248160853609
1513.548	-0.15329213290955	0.0110058598034257	0.153686716934067	-175.893402147022
1292.065	-0.154952880741087	0.0069784679592779	0.155109942508596	-177.421365995077
1101.762	-0.0458729202011939	0.152750504466962	0.159489941446778	-106.715681174296
939.101	-0.0439737525135543	0.148003677122817	0.154398119651758	-106.547346174087
801.2801	-0.153627401697702	0.00575475336056119	0.153735148026168	-177.854751271314
684.3433	0.122273739743344	0.0914503883168526	0.15268936097229	-36.7933728989083
582.9476	-0.156663872549061	0.00210782864573198	0.156678051761146	-179.229162430274
497.0677	-0.0399199470255729	0.147924636268136	0.153216514075947	-105.102461206326
423.5089	-0.151568017338976	0.0085255287644902	0.151807603632962	-176.780569997003
361.5036	-0.15383348124974	-0.00259244007741957	0.153855323921434	179.034528667268
308.1262	-0.0445462190215723	0.1486797540137	0.155209648162387	-106.678839988069
262.7298	-0.0467179170934371	0.150633714374755	0.157712015027025	-107.230884823678
224.2111	-0.150500258033445	0.00530185556885237	0.150593616533393	-177.982406268069
191.2854	0.124645292160351	0.0891552379626269	0.153248508357869	-35.5750640912318
163.1722	-0.0448239359962023	0.142041981355847	0.148946667319838	-107.514040566032
139.1537	0.121838955428385	-0.088244758342012	0.150438919281947	35.9148280637444
118.6706	0.121286948370269	0.0901859027903208	0.151142386202803	-36.6335577811124
101.1982	0.119486215675842	-0.0871755017075309	0.147907145988601	36.113976734176
86.24196	0.12429838814241	-0.0879097960615277	0.152243954028988	35.2697864484082
73.61024	0.124670070646371	-0.0861231632107553	0.151525000433584	34.6370519665114
62.69291	0.117582035615152	-0.0843476512014845	0.14470681173535	35.6538228697505
53.57697	0.116939878104464	0.0934546431482819	0.149695375403048	-38.6307396859117
45.65746	0.128739391180944	-0.0776428506072872	0.150340424011859	31.0942190065215
38.96512	0.133544153368148	-0.0859558476115139	0.158815769485997	32.7674047373302
33.18414	-0.041426240974426	-0.152574218855689	0.158098152110311	105.190467523658
28.30617	-0.0355194398155181	-0.147957441856502	0.15216121452436	103.49926799977
24.17237	0.133757637075582	-0.0698203955017051	0.150884038599375	27.5641916532528
20.61345	0.145176040950172	-0.0847594053016106	0.168107821510627	30.2780406273576
17.55618	-0.0138217942730595	-0.184295963731255	0.184813539126761	94.289028738822
14.98558	0.176867256829211	0.0274711713415901	0.178987965498156	-8.82868374685905
12.76553	0.178291009024951	0.138608796303742	0.225831978054276	-37.8625694404019
10.8809	0.227767305347112	-0.113317385645562	0.254398850773012	26.4509804939372
9.278505	0.00905038595555328	-0.304900912352147	0.305035204261928	88.2997863147605
7.923394	0.326878040398645	0.0788736594133371	0.336259286034021	-13.5658071237535
6.75822	0.320810100697131	-0.147016814426014	0.352892426148927	24.6204433638517
5.761429	0.216553430584702	0.292052330063399	0.363579361066417	-53.4434920479423
4.919708	0.383633824021913	0.000653576094805823	0.383634380752544	-0.0976116109927856
4.191257	0.463577564735155	-0.19488180943534	0.502874813621212	22.8012336093759
3.564097	0.464265787274859	0.078154339152887	0.470798069199916	-9.55556092407382
3.051758	0.171724627646904	-0.845050649169804	0.86232241499498	78.5132088076899
2.604164	0.517520014754876	0.246127398783105	0.573066891473957	-25.4352982105088
2.214424	0.15266512927699	-0.77274097090916	0.787677122823046	78.8243821862254
1.892567	-0.0426516713772017	0.606300833778758	0.607799198841267	-94.0239784627945
1.607507	0.493947347940382	0.513778872426003	0.712708013346751	-46.1274054210727
1.376413	-0.0771211938470953	-0.56340911111094	0.568662909836066	97.7943845294323
1.17375	-0.297104838961812	-0.488268078645538	0.571556648075	121.319974301724
1.001604	-0.484351913099419	-0.392442836859274	0.623384436704368	140.984115013732
