EC-Lab ASCII FILE
freq/Hz	Re(Z)/Ohm	-Im(Z)/Ohm	|Z|/Ohm	Phase(Z)/deg
6999984	16.619750281354	122.64799583721	123.768925753998	-82.2829846207531
5969734	21.9333078604259	99.1030344218209	101.501140019769	-77.5205594276257
5091109	22.846976370536	87.2460325495256	90.1878845794085	-75.3255581144795
4341796	18.5711972153555	85.2801550585021	87.2788302672176	-77.7146775286161
3702781	18.5670683051638	106.197185490141	107.808061996661	-80.0828839832303
3157797	26.5909797086758	109.120313058598	112.313502856396	-76.3048002821376
2693047	29.4400459685411	120.272698122074	123.823415476207	-76.2457283334597
2296687	32.6910005231013	136.379956702722	140.243338898637	-76.5202324131068
1958656	42.8466642309431	153.06528824061	158.949108521879	-74.36178580729
1670375	50.6325712320101	174.908943560282	182.090076080324	-73.8553484121739
1424531	61.0175044388203	199.759755066328	208.871002276766	-73.0144755520399
1214875	78.8981177442495	223.303642018631	236.832070299549	-70.540558384224
1036062	96.0265224103725	252.346928520249	270.000120999665	-69.1664909999412
883578.1	119.214689351035	284.220706830218	308.210240498483	-67.2446759635134
753531.2	148.154685887693	318.386811547093	351.169435910367	-65.0460650162579
642624.9	183.427848745126	352.993301911431	397.806544553505	-62.5420102684182
548046.8	232.102441816769	393.703166573231	457.027052664387	-59.4790924872078
467390.6	284.535669364543	357.35215165847	456.794382009747	-51.4720302185664
398593.7	336.80913215641	348.906015707923	484.949274977426	-46.0106652703148
339937.5	546.59123900021	550.307586590345	775.629049488655	-45.1941201981621
289906.2	626.130646819713	529.748457553934	820.166455768367	-40.2334573374973
247234.4	692.569574680553	495.049941974152	851.309027804718	-35.5572508333812
210843.7	756.229729174313	455.17509832484	882.648159473571	-31.0437586135043
179812.5	816.065321385007	423.584707986217	919.449081573842	-27.431901427935
153343.8	860.042341569194	374.286109925655	937.956780121079	-23.5184335294309
130781.2	891.438739169353	325.675247067101	949.066589994645	-20.0691015520284
111531.3	945.789533459276	305.750105871922	993.982378536866	-17.914722946557
95109.37	978.358583321379	273.27519540837	1015.80748667457	-15.6061155617923
81109.37	987.736280504545	231.992788187262	1014.61500757472	-13.2176665082761
69171.88	1020.88960130564	209.275988836567	1042.11900354879	-11.5847826287768
59000	1029.30863663437	181.918031867156	1045.26094338616	-10.0228423834707
50312.5	1037.96371701331	187.61407945541	1054.78325766291	-10.2457057770427
42906.25	1102.00546750125	135.295445152029	1110.27965300708	-6.9992925323638
36593.75	1216.54319872606	141.784009480873	1224.77755519568	-6.64763968560225
31203.13	1272.48181861664	132.626414815807	1279.37474752975	-5.95025837568082
26609.38	1337.1966477087	125.162758250154	1343.04154466501	-5.34735436842969
22703.13	1319.99827635517	99.6506139022675	1323.75439354577	-4.31724042405752
19359.37	1391.26537977673	95.8628508873548	1394.56410506851	-3.94164137920628
16500	1382.82361975622	79.1693216487725	1385.08806393168	-3.27671698246342
14112.02	1378.51622013343	65.9655788245648	1380.09362970801	-2.73966186869109
12011.13	1381.40238971118	52.9351737563907	1382.41625240749	-2.1944936725397
10236.38	1388.3326429886	45.5923686324377	1389.0810601492	-1.88089782844633
8750.684	1367.60578000214	33.5127051738542	1368.01632698712	-1.40373227412564
7449.463	1460.42068124588	40.1318108539303	1460.97198072143	-1.57407033478685
6363.206	1352.89760335204	24.1948232542473	1353.11393261174	-1.02455167009704
5414.761	1363.78334187677	75.7262264778384	1365.88413306442	-3.17817511719446
4620.567	1377.19558243862	-48.7611711402658	1378.05853435165	2.02777498627033
3941.215	1352.53697787023	141.313062924006	1359.8991353256	-5.96462242760475
3361.769	1307.96999948184	11.4356834230401	1308.01999006127	-0.500928692394849
2867.244	1317.39392446228	5.46955327002096	1317.40527865311	-0.237879127692148
2442.658	1320.18211057793	5.58465051331517	1320.19392265354	-0.242371861651107
2083.003	1311.56807546837	2.80845320826073	1311.57108232731	-0.122686937009348
1777.843	1300.8200567921	1.73758963578136	1300.82121729712	-0.0765336396255129
1513.548	1290.82516584791	-0.554223693046739	1290.82528482757	0.0246002924381969
1292.065	1291.66766422529	-6.75384818205014	1291.68532130332	0.299584390396557
1101.762	1280.14655486561	-2.02123659641295	1280.14815054026	0.0904648219352213
939.101	1273.52537853094	-3.20185331199566	1273.52940351882	0.144050757020611
801.2801	1256.80917418733	-7.02392589239864	1256.8288013315	0.320205427922213
684.3433	1220.60366685951	-5.19942834338266	1220.61474086052	0.24406243092142
582.9476	1216.15950629995	-5.08956603414026	1216.17015604156	0.239778540078786
497.0677	1241.20401428987	-4.69313638150228	1241.21288690473	0.216640957325357
423.5089	1196.18784137633	-22.3899993989696	1196.39736874069	1.07232546401284
361.5036	1244.56437209614	-0.817810087258713	1244.56464078986	0.0376493661152558
308.1262	1235.85699583291	-14.3803888850716	1235.9406578528	0.666661604777699
262.7298	1176.89239548845	9.4841055735703	1176.93060917672	-0.46171379931849
224.2111	1195.28634795212	-47.0536136899562	1196.21214513229	2.2543402601567
191.2854	1208.37388811405	-16.5016853006003	1208.48655726641	0.782388766153813
163.1722	1205.11380304984	9.80619972287246	1205.15369968078	-0.466214440095022
139.1537	1142.67345221506	-47.1091627575853	1143.64412804543	2.36080441285894
118.6706	1199.69061506039	-9.8422402712497	1199.73098716234	0.470043001377866
101.1982	1143.83675627612	3.18044286549437	1143.84117788489	-0.159310743048787
86.24196	1192.05287065154	40.1024617453784	1192.72723364004	-1.92679002896293
73.61024	1166.14377500711	-25.6539826949654	1166.42592170097	1.26024588053323
62.69291	836.374660374716	315.567711399058	893.927040084682	-20.6717041834793
53.57697	1039.84536592552	-24.3927252475715	1040.13142923468	1.34379974283936
45.65746	1135.98935359811	-127.561530351998	1143.12893214808	6.40696876375755
38.96512	1043.73826599148	72.7975594975099	1046.27388984133	-3.98974462385429
33.18414	1050.18647394085	68.4840485938514	1052.4170727236	-3.73105074160595
28.30617	1245.1234093674	75.0854857845859	1247.38531926996	-3.4509654800764
24.17237	956.996872895198	9.98549547063729	957.048966798973	-0.597813850199189
20.61345	1031.75893789353	-53.9967963838474	1033.17092484395	2.99582442340054
17.55618	939.884031160396	24.8757295670251	940.213164102592	-1.51608242225725
14.98558	641.722514471742	-195.295888084686	670.781834490709	16.9266171218082
12.76553	676.152235034418	47.0710929053774	677.788708027322	-3.98228471336168
10.8809	646.278328629762	138.475550524775	660.947165929031	-12.093683742412
9.278505	703.510266590742	150.220852584878	719.369862970298	-12.0533761615246
7.923394	612.288675661446	-4.28144384980095	612.303644529972	0.400635638920851
6.75822	594.946162635607	146.338251333403	612.679214792009	-13.8186591283227
5.761429	511.877411976393	-384.871731880151	640.425432733645	36.9388698014038
4.919708	444.443397634253	81.4302650650563	451.841589242562	-10.3824937210523
4.191257	721.307970834153	-232.978089230742	757.999986049137	17.9001411706709
3.564097	426.613262853551	156.537398347495	454.425827967509	-20.1496250405561
3.051758	260.620945120788	-560.540165836466	618.165475056336	65.0641131868046
2.604164	-101.942484381537	518.337143547843	528.26666041235	-101.126477882795
2.214424	0.0843080811550859	-0.134379898433606	0.158637352635118	57.896411169718
1.892567	0.11352802281095	0.0895452016981022	0.144592375699818	-38.2646024660893
1.607507	0.219483496099401	-0.0169240915101262	0.220135026593813	4.40927921835175
1.376413	0.116386099811128	0.049234392324737	0.126371474695961	-22.9296449104206
1.17375	0.138603303245988	-0.11386022142778	0.179373982768634	39.402513835953
1.001604	0.136370962945005	0.194583600848172	0.237612746403868	-54.9758905893315
