EC-Lab ASCII FILE
freq/Hz	Re(Z)/Ohm	-Im(Z)/Ohm	|Z|/Ohm	Phase(Z)/deg
6999984	-0.363571122377639	103.14987961523	103.15052035059	-90.2019488988153
5969734	13.0133022868821	97.6632868269158	98.526461573763	-82.4102385470517
5091109	13.2083351923896	91.7470180179233	92.6929092958877	-81.8077161296921
4341796	13.8981646441199	93.6885410293625	94.7137883345694	-81.56203182714
3702781	14.6912752481925	103.687341606421	104.722960127303	-81.9355430137858
3157797	17.0443067410405	110.0708723872	111.382697670518	-81.1977452609958
2693047	11.5558635647173	125.331645625269	125.863256663191	-84.7320927160398
2296687	23.1622186478135	136.936831821434	138.881907684121	-80.3995577565991
1958656	25.1253790402771	160.541819744086	162.496032439749	-81.1051552813027
1670375	23.1369635820996	174.750564905868	176.275576920682	-82.4579086356066
1424531	14.6173042776486	214.745101354211	215.242012952806	-86.105988212984
1214875	32.7267949261278	237.205907083213	239.452887769821	-82.1446153132291
1036062	21.5757374481189	287.339462641292	288.148363239177	-85.7058344888647
883578.1	18.6710856837453	315.463007079196	316.015060204508	-86.6128266785568
753531.2	22.4578815234093	385.257171461062	385.911187457293	-86.6638199223234
642624.9	52.475020449642	426.151212040006	429.369867706569	-82.9801023700888
548046.8	125.078711183828	626.949252267594	639.304347639137	-78.7174109658745
467390.6	149.419562018853	710.532041964884	726.072990940094	-78.1241704647961
398593.7	174.258988622824	804.191876442165	822.855254131259	-77.7736921815145
339937.5	198.987434048748	911.583976424738	933.049486888901	-77.6862015261981
289906.2	221.839104661658	1034.18909599424	1057.71436344151	-77.8932111775788
247234.4	246.931937258554	1179.34813905724	1204.92216127684	-78.1742469760905
210843.7	267.766324794391	1348.60631648968	1374.93192615844	-78.769951195688
179812.5	289.733242152577	1546.53850773829	1573.44421811694	-79.3890320933269
153343.8	309.415741020167	1779.13511180505	1805.84048211591	-80.1341637058945
130781.2	446.756120540946	2040.24533697809	2088.5861405031	-77.648787382176
111531.3	-74.1160436973978	2236.26376798515	2237.49163751208	-91.8982477470796
95109.37	-130.222155318619	2806.03140826231	2809.05145447541	-92.6570730509508
81109.37	309.564438853625	2605.57146835408	2623.89649538689	-83.2245261654916
69171.88	-299.781435414641	3826.35945277943	3838.08488323197	-94.479766388821
59000	457.444528524538	4274.58076768954	4298.98781530936	-83.8917355179215
50312.5	349.484773815638	4919.86437366967	4932.26165794487	-85.9367937760819
42906.25	1858.57049540704	6781.79891604728	7031.86183198288	-74.6742196929748
36593.75	1968.88856861767	7498.75692781529	7752.9270380993	-75.2883731535756
31203.13	2072.18265330531	8480.19100803536	8729.69532580738	-76.2685320537059
26609.38	2198.7648594799	9747.03053179478	9991.95531890647	-77.2878239712436
22703.13	2268.29451826873	11195.2915306942	11422.7716636043	-78.5462684724689
19359.37	2475.13710415745	12880.850753433	13116.5018132348	-79.1228359017091
16500	2619.12529026349	14933.1265677703	15161.0714125072	-80.0520588538523
14112.02	2780.7896563448	17242.4091058739	17465.2072099691	-80.8384434276693
12011.13	3004.96022894797	20044.0835909987	20268.0801503374	-81.4738536224694
10236.38	3234.76418062253	23232.7882571363	23456.8998272399	-82.0735112508533
8750.684	3502.40411416699	27128.861875321	27354.0121596299	-82.643661552788
7449.463	3782.17024280472	31517.1793036855	31743.3048532477	-83.1570317372252
6363.206	4220.98071798311	36544.693078556	36787.6510588464	-83.4114249982633
5414.761	14841.2548508211	49763.3376956632	51929.3040985496	-73.3934871335189
4620.567	16450.3613520796	56108.4247039408	58470.2463768692	-73.6594541420186
3941.215	15405.1050301486	68600.0926643005	70308.5341515561	-77.3434008773713
3361.769	17755.6362177343	63167.0488656915	65615.079668451	-74.2998490696364
2867.244	20830.7227811073	82947.1175196995	85522.7649015757	-75.9026985015148
2442.658	22496.9335224022	95073.7929676088	97699.2227561669	-76.687192314608
2083.003	23683.7850144702	109049.084468033	111591.328049844	-77.7465339820253
1777.843	25055.1661441656	126036.715953495	128502.977081676	-78.7566012790615
1513.548	28302.1504821877	144293.331978667	147042.773965341	-78.9027055168198
1292.065	29767.680606813	171183.925511909	173752.845048293	-80.1353096214848
1101.762	31543.9928257793	194915.292975997	197451.246942914	-80.8072745236142
939.101	33647.9831856395	231361.153893576	233795.146021957	-81.7252102071933
801.2801	43204.3334443653	263846.860402878	267360.767826597	-80.7004751906018
684.3433	151803.270845085	360741.661045866	391380.606383858	-67.1782128592783
582.9476	151807.619869422	442860.317582705	468156.826650935	-71.0788522327494
497.0677	158748.47457746	454767.792709224	481679.170679292	-70.7571364307834
423.5089	102046.707359348	580935.330565755	589829.965992258	-80.0371046553993
361.5036	195758.113306413	581256.408712801	613335.350028831	-71.3872754138683
308.1262	129048.826246313	829629.362525542	839606.144999003	-81.1584976520294
262.7298	60712.8611013697	786362.788539278	788703.040885721	-85.5851122814306
224.2111	43465.3243157606	963885.751310814	964865.263131536	-87.4180615638336
191.2854	342090.498870415	899126.929027156	962005.792040367	-69.169699563594
163.1722	1430426.18296226	349515.258398805	1472508.05796015	-13.7308075095953
139.1537	388982.870129213	1169693.73515685	1232676.40008201	-71.6054004464746
118.6706	208160.899428705	1420605.20194519	1435775.08678926	-81.6637891315553
101.1982	532727.230112838	1860321.33378914	1935095.28619516	-74.0202456656125
86.24196	833176.789140095	1776695.89364305	1962353.65325669	-64.8758965511041
73.61024	1705425.68657917	1214824.62548723	2093866.19513621	-35.4633831578049
62.69291	379909.719149566	-507014.049525773	633557.133272782	53.1554833530639
53.57697	-546802.057326129	557649.76890373	781003.043946994	-134.437270063449
45.65746	-73327.4529009807	-1108605.23915202	1111027.67365365	93.7842529213117
38.96512	220887.565670338	804807.171372442	834569.28996955	-74.6525045925394
33.18414	636354.273529355	686952.983800329	936403.312355978	-47.1897264690248
28.30617	-291753.622990544	1111676.21062117	1149323.35475668	-104.705344158521
24.17237	1135538.50955786	-763172.328658835	1368166.55050452	33.904244676117
20.61345	337284.801419698	-1579058.78055728	1614678.81317733	77.9428866184167
17.55618	-723090.797996754	1333854.01250755	1517243.16733676	-118.462404594289
14.98558	727206.410980106	-1750395.00740944	1895445.02588032	67.4394243180784
12.76553	1396555.29642786	-1436136.34337822	2003210.99556499	45.8005387285285
10.8809	1718845.58115812	-289016.156180339	1742974.60406056	9.54474348090175
9.278505	-1594398.6218509	1478443.67106938	2174374.08324445	-137.161054125722
7.923394	1979696.06114885	-459260.75479888	2032268.91316742	13.0607620160795
6.75822	1352746.45629752	-1843111.72406614	2286259.78454233	53.7233017167724
5.761429	1340664.27029243	1609893.58581321	2095026.97912968	-50.2136258243867
4.919708	2270165.67493134	-207017.559985037	2279585.15124542	5.2104203201824
4.191257	2485929.17822738	-1808372.36855717	3074094.09461118	36.0337626428577
3.564097	1098305.21456988	-2995966.14321669	3190938.33780161	69.8673329749453
3.051758	-1925620.84311462	-2912348.6880817	3491388.04953111	123.472347554913
2.604164	-2560667.70001353	-2617419.16438471	3661680.23617313	134.372067466364
2.214424	4848650.54688494	-1651023.25672301	5122039.62499782	18.8043201375889
1.892567	-3539100.7006832	2005694.47156128	4067928.72145368	-150.458717001354
1.607507	-4828451.01906702	1804827.95567208	5154739.87637638	-159.504746558218
1.376413	-1447976.88789555	3073933.69281697	3397897.20499533	-115.22278662906
1.17375	-2670627.70073671	5676762.17949453	6273585.98876924	-115.19459710554
1.001604	-2276758.97089945	3745786.70521902	4383440.36717356	-121.292013961322
