EC-Lab ASCII FILE
freq/Hz	Re(Z)/Ohm	-Im(Z)/Ohm	|Z|/Ohm	Phase(Z)/deg
6999984	21.7042131282381	7.24998802912135	22.8830765837636	-18.4711738276101
5969734	20.8886245633117	-2.51813464492797	21.039858322645	6.87386634143171
5091109	12.1360279039438	-6.8179334515703	13.920035554385	29.3269650649082
4341796	7.30777743795549	-5.1195190826135	8.9226165848329	35.0134565900226
3702781	5.99375828359046	-4.87648700957947	7.72691813834641	39.1316022016813
3157797	3.94501226977282	-4.88964107980612	6.28265164544285	51.103056857658
2693047	2.75010389115522	-4.51649736990215	5.28789371153393	58.6626849249259
2296687	2.41706654789568	-3.62569783438774	4.35751023902874	56.3106473392903
1958656	1.77434400784338	-3.2002024518228	3.65917919632564	60.9939356017542
1670375	1.56691702085273	-2.74985411591805	3.16495286048141	60.3247208970414
1424531	1.20238501315069	-2.43190601862407	2.7129129369129	63.6912490138916
1214875	0.877747758722093	-2.12293498290336	2.29723618062587	67.5368844390302
1036062	0.807262138796982	-1.84358448977864	2.01257942245454	66.3525233807152
883578.1	0.719773498891915	-1.55778709911578	1.71603453807861	65.2007636209433
753531.2	0.658588768707183	-1.3515427168001	1.50346495855495	64.0206424503123
642624.9	0.615843927805778	-1.17333160499007	1.32513048364447	62.3064673188399
548046.8	0.55788226516604	-0.997956901041807	1.14330686962152	60.7937441481355
467390.6	0.530218932979888	-0.864820053777157	1.014418967836	58.4876463185135
398593.7	0.501422103390614	-0.744920011228244	0.897958767926988	56.054632607692
339937.5	0.483858481390909	-0.644938751054554	0.806266099142042	53.1213236093182
289906.2	0.465733588256155	-0.558645074129845	0.727318426880203	50.1825657823127
247234.4	0.452113904215537	-0.483295472285176	0.661801704377049	46.9092292508405
210843.7	0.444898334443217	-0.416242880968732	0.609255827996335	43.0941210170265
179812.5	0.440487988114954	-0.358133885949093	0.567705511633063	39.112453952168
153343.8	0.437148944867037	-0.309066915099226	0.535370486679379	35.2605389095948
130781.2	0.459408930481924	-0.213758219671935	0.506704195644619	24.9520713356734
111531.3	1.40003674303946	-1.00490257377244	1.72334908380021	35.6696021274284
95109.37	0.466452131331048	-0.273156703521753	0.540548032557837	30.3534533323527
81109.37	0.418684550176512	-0.206498538030959	0.46683872886194	26.2528803362707
69171.88	0.406435763360225	-0.170061113016419	0.440580085680904	22.705440795608
59000	0.385398897059102	-0.137551977647876	0.409210039477545	19.641892760823
50312.5	0.360144758582159	-0.0953552154958229	0.372554511791841	14.8298666113711
42906.25	0.40997287418833	-0.117274022949804	0.426416409193023	15.9633432879005
36593.75	0.381359699623108	-0.104874405162943	0.395517207406843	15.3763193788992
31203.13	0.368380904208999	-0.0857089491126873	0.378220193199466	13.0976433093521
26609.38	0.364501455093172	-0.0772242438735314	0.372592129018956	11.9619550157335
22703.13	0.35812656968209	-0.0697490434185862	0.364855545346468	11.021009347102
19359.37	0.356307476069043	-0.0629462397927101	0.361824883896524	10.0186540619883
16500	0.353356790591166	-0.0556598801461558	0.357713633671927	8.951537357291
14112.02	0.350472624195387	-0.0497236530263834	0.353982346990198	8.07500360398806
12011.13	0.348027739926572	-0.0441390735277078	0.350815572017951	7.22802301375797
10236.38	0.345708838339322	-0.0403523818009111	0.348055908760259	6.65764352870524
8750.684	0.344046585370432	-0.0369686687685528	0.346027073182971	6.13304337148346
7449.463	0.346483033137592	-0.056248298521914	0.351019035579035	9.22099367876308
6363.206	0.332229333416968	-0.0429688469682154	0.334996495194294	7.36943472717421
5414.761	0.344326198601795	-0.0564849604012771	0.348928476618198	9.31610467275479
4620.567	0.31762131771209	-0.0214366873904984	0.318343891148303	3.86111330701624
3941.215	0.352396390810059	-0.0203811899079398	0.352985281786676	3.31007000163358
3361.769	0.326068462771182	-0.00769158454442211	0.326159168025009	1.35129173896849
2867.244	0.340447211044317	-0.0331241503944088	0.342054838947215	5.55715833497731
2442.658	0.339942422386007	-0.0117631198505289	0.340145882712527	1.98183064659438
2083.003	0.31841457011014	-0.0175620044404558	0.318898514355887	3.15692296665747
1777.843	0.320767351182874	-0.0260559856391337	0.321823877256651	4.64394955320805
1513.548	0.324316624746486	-0.0128645653428166	0.32457167178978	2.27154274499771
1292.065	0.320522787071398	-0.0185250330284765	0.321057679990252	3.30780452651163
1101.762	0.324770519434076	-0.0154798542717101	0.325139225842951	2.72887937594452
939.101	0.324379556212421	-0.0141286117370941	0.324687101927664	2.49398730642151
801.2801	0.325184187351798	-0.0122516302011394	0.325414901542991	2.15765363222838
684.3433	0.324057190382414	-0.0116307850520626	0.324265844330653	2.05552906186646
582.9476	0.317234982621387	-0.0115679322109487	0.317445824125045	2.08835782465407
497.0677	0.316958744339927	-0.0184567082202438	0.317495662477254	3.33260615058946
423.5089	0.316738326808626	-0.0168994442278743	0.317188837894304	3.05409709595432
361.5036	0.315894090019415	-0.0150320410662581	0.316251542870248	2.72440457556455
308.1262	0.312142092897649	-0.00993654923112399	0.312300210004968	1.82330468383758
262.7298	0.311204508870519	-0.00884055385491696	0.311330052731506	1.62719440859359
224.2111	0.312282502214475	-0.0161624207028051	0.312700471749417	2.96274355918307
191.2854	0.305905441963259	-0.033614326542775	0.307746750383592	6.270770966277
163.1722	0.319675453378122	0.00115371819575527	0.319677535272942	-0.206781270403627
139.1537	0.316017878948556	-0.0172780377482526	0.316489858294977	3.12948745559542
118.6706	0.306581417011965	-0.0181981694125775	0.307121048817943	3.39699743943744
101.1982	0.302859242933379	-0.00832536163169511	0.302973650135582	1.57461922835459
86.24196	0.301834253377005	0.00762079362969013	0.301930443988678	-1.44631220562858
73.61024	0.281403476181633	-0.0219535109399769	0.282258521660017	4.46085802498502
62.69291	0.472858083098396	-0.0244649261055478	0.473490548333163	2.9617517692397
53.57697	0.310261893151488	0.0217044982787439	0.311020140163748	-4.00163063331428
45.65746	0.258515832020594	-0.0184837805452325	0.259175781176684	4.08966617149392
38.96512	0.32096356859002	0.012645144454729	0.32121256519682	-2.256140493549
33.18414	0.278512636505307	-0.0464750290071364	0.282363625515666	9.4735821227465
28.30617	0.2860500571303	-0.0368811193045555	0.288417842973358	7.34675132806498
24.17237	0.279879231256977	-0.00807091923120313	0.279995578226216	1.65178919490737
20.61345	0.277634876108561	0.0310473215307899	0.279365460653339	-6.38075594463032
17.55618	0.304254324944533	0.00425642141702487	0.304284096480136	-0.801497481579221
14.98558	0.373240791461077	0.048497845440853	0.376378439104707	-7.40337101737981
12.76553	0.266308587754999	-0.0698983952829406	0.275328984262812	14.7067723586652
10.8809	0.422907729216563	0.023809319785941	0.42357742047916	-3.22229859699749
9.278505	0.34825861424156	0.0206344934177852	0.348869380588294	-3.39083871609758
7.923394	0.197174524565748	-0.0233449155441879	0.198551701628302	6.75222740152543
6.75822	0.543898349106232	-0.133160157952361	0.559961643174229	13.7568656301178
5.761429	0.707172645159326	0.165522642764099	0.726285684375818	-13.1736404312982
4.919708	0.309295077712102	0.446229537943375	0.542940370234239	-55.2730093131525
4.191257	0.860273424365833	-0.317556185809418	0.917012702101744	20.2608189598571
3.564097	0.857767520301879	0.0374663810935562	0.858585376416977	-2.50102953068146
3.051758	1.11428571895442	0.149894861381381	1.12432252175891	-7.6614942336642
2.604164	0.630659343853276	-0.568241993103814	0.848899387864098	42.0197506666429
2.214424	1.19263691162566	-0.102869191153552	1.19706510827965	4.9297643926889
1.892567	0.980834299576608	-0.428394726941116	1.07030741625801	23.5940524992323
1.607507	0.98207456921056	0.30253059203278	1.02761627984662	-17.1215832003354
1.376413	1.01843557017965	0.0790667804025955	1.02150015485577	-4.43928329920937
1.17375	1.4649591240627	1.2338123714465	1.91530629485443	-40.1046277772622
1.001604	0.269297165944827	0.150124653439707	0.308315382613822	-29.1382843333936
