EC-Lab ASCII FILE
freq/Hz	Re(Z)/Ohm	-Im(Z)/Ohm	|Z|/Ohm	Phase(Z)/deg
6999984	-0.523085165894743	104.081730072289	104.083044502607	-90.2879498638644
5969734	9.19266880021889	101.323385293843	101.739537875278	-84.815973737247
5091109	13.9933061384995	92.7415538686154	93.7913025320102	-81.41965181505
4341796	14.3055918589956	94.5235437438192	95.5999491648708	-81.3939260100486
3702781	13.191534515702	104.380933268826	105.211196233814	-82.7972142418831
3157797	16.7501501433837	110.534648344638	111.796583196888	-81.3830971077207
2693047	17.318568449146	121.809150856255	123.034149915581	-81.9080410396195
2296687	15.1560115982725	138.069272520077	138.898627429468	-83.7356618145278
1958656	17.7548498388926	158.346295542794	159.338582913642	-83.6023345356009
1670375	17.8447983353705	181.600979791084	182.47562217653	-84.3879169685048
1424531	20.6092584434532	210.695199545518	211.70075258514	-84.4133562946086
1214875	27.3474950413723	242.642478379401	244.178741497158	-83.5695040539399
1036062	27.5696468981694	277.838325349067	279.202830327459	-84.3331422032903
883578.1	30.144324187412	320.981487950562	322.393852124498	-84.6349190739857
753531.2	33.0601070275925	372.067766955	373.533658300769	-84.9223147040233
642624.9	36.3208684601417	432.484295785391	434.006764448072	-85.1994543895281
548046.8	40.5704093307638	502.062249629295	503.69877964523	-85.3801079823328
467390.6	149.012057533826	707.371801632152	722.896575614231	-78.1042315335255
398593.7	174.001856099648	800.201747163153	818.901387279985	-77.7321527413675
339937.5	198.981704196144	907.107382437975	928.675143351149	-77.6276452395357
289906.2	220.90047639608	1025.79088474849	1049.30641840461	-77.8471453708503
247234.4	245.930944931726	1172.76065890602	1198.26941576287	-78.156542580221
210843.7	266.761129608396	1341.50689893567	1367.77273702979	-78.7533354196292
179812.5	289.313589105893	1538.7969726132	1565.75811534377	-79.3519617239819
153343.8	310.400145333702	1771.26715664212	1798.25904430431	-80.0603094461021
130781.2	330.85561255971	2042.73789784982	2069.35824730136	-80.799883368057
111531.3	355.986586205128	2361.54945559867	2388.22994721956	-81.4276159284023
95109.37	370.40728047953	2735.6359657037	2760.59879198044	-82.289000677602
81109.37	409.536646503829	3166.94455054027	3193.31458691847	-82.6316294390902
69171.88	435.274015343153	3674.06716962219	3699.76121328506	-83.24354836429
59000	453.429796211677	4249.19348498934	4273.31766347512	-83.9090388433344
50312.5	326.646660272257	4884.89429339713	4895.80333534047	-86.1743993737227
42906.25	1861.43884418518	6781.78189159009	7032.60408353412	-74.6516451558467
36593.75	1967.85703022258	7478.7193460876	7733.28548218294	-75.2580636862131
31203.13	2073.61960986654	8478.09265832257	8727.99824756662	-76.2560988695515
26609.38	2196.81986336276	9699.63123919701	9945.29354461052	-77.2386641924214
22703.13	2413.03219901786	11117.1037687061	11375.9711936026	-77.7535813629055
19359.37	1128.71709344787	8630.63093042481	8704.12502979173	-82.5491235165914
16500	2252.72615317845	8909.85872402469	9190.23164035015	-75.8109679585144
14112.02	1216.64242297247	8581.13554745276	8666.95483253108	-81.9303290978501
12011.13	8530.38322441693	3262.21013472626	9132.87758149229	-20.9279767460854
10236.38	11788.6191194233	2.12033642354163	11788.6193101084	-0.0103053907905615
8750.684	-4700.16937765157	7958.68439037306	9242.95674577034	-120.564873223522
7449.463	4400.63748650349	4170.31182841385	6062.76430630683	-43.4606707664615
6363.206	-3816.75788726292	8115.76898459666	8968.46402575852	-115.187091358424
5414.761	14957.2369711888	49547.0239917415	51755.4492227679	-73.2020046383862
4620.567	16168.8267800245	55752.093932959	58049.3491552827	-73.8271588886534
3941.215	17809.2256838432	63388.1122026096	65842.3973444822	-74.3070110420755
3361.769	19010.3934284752	71960.0181783898	74428.7530094358	-75.2016846391723
2867.244	5813.6476127827	21211.1965496625	21993.4844359421	-74.672558115369
2442.658	21837.1044628659	94162.1241331304	96661.0818922754	-76.943361744811
2083.003	22949.4526986387	109258.590789645	111642.810070806	-78.1376349729816
1777.843	23451.132525777	125570.829344799	127741.883495908	-79.4215188003108
1513.548	28254.2527890152	67943.7078618958	73584.3070137119	-67.4201156403825
1292.065	19717.184950584	78762.0622176533	81192.5478547941	-75.9454984488111
1101.762	-2238.96831584605	98327.1225989218	98352.6106298291	-91.304434288206
939.101	88289.8566125735	98290.8992037495	132121.912062119	-48.0682140084091
801.2801	114131.854646919	103345.173245714	153968.519764048	-42.1605034785947
684.3433	144154.733703476	101921.825292691	176546.440689451	-35.2614842899567
582.9476	72217.856222845	107685.93717199	129659.862031522	-56.1528490329333
497.0677	186806.645674034	76890.5750031295	202012.087243056	-22.372317403941
423.5089	200992.806867724	537550.462472488	573897.733151954	-69.4989784084557
361.5036	195218.711556332	614387.443505425	644656.711807801	-72.3725909341548
308.1262	229340.451332408	783156.051916046	816045.614086665	-73.6777887914628
262.7298	250391.888322406	762721.679262319	802770.488841233	-71.8256454229229
224.2111	380083.046119918	771332.154262593	859893.257414644	-63.7676815837621
191.2854	311025.760723927	1048772.85075723	1093920.25135261	-73.4816653381895
163.1722	518108.71348187	998252.139962991	1124697.28101678	-62.5699706088206
139.1537	110644.979486185	1405203.87006014	1409553.20152079	-85.4978508092322
118.6706	314583.249739356	1533237.39223242	1565177.15353766	-78.4052062633077
101.1982	420333.793167958	1489957.92973597	1548113.4099484	-74.245647262217
86.24196	1161750.07433553	1870390.80871534	2201823.11109349	-58.1544713606449
73.61024	964301.091616669	1894329.33766588	2125643.4872374	-63.0218051260607
62.69291	1747733.33847725	-307044.16391229	1774499.34939899	9.96411993904775
53.57697	1701244.76132563	2871326.78082361	3337476.7744829	-59.3535001385152
45.65746	3307747.88645091	1018629.94301769	3461040.74537308	-17.1163578252438
38.96512	1573875.52471581	2692378.84775076	3118651.63606247	-59.6908576882882
33.18414	2781940.99722694	1897509.97456665	3367453.01609866	-34.2971676728618
28.30617	2486640.91609342	3947017.71656973	4665011.45770353	-57.7888669915719
24.17237	1825191.48985448	3870233.65113349	4279022.37538007	-64.7515647095607
20.61345	2532088.36372529	2091363.27538437	3284093.76104573	-39.5548002883208
17.55618	3049226.00500886	-2306055.66160236	3823044.85247435	37.0993323615081
14.98558	2417762.03772593	2064289.71160236	3179129.64260598	-40.4907612241347
12.76553	1674265.96507704	3444393.15815528	3829753.35364593	-64.076333947999
10.8809	2736737.59611412	-611015.32880358	2804117.0449925	12.5856826010909
9.278505	3762180.50025472	583984.029578908	3807235.14683557	-8.82331513231867
7.923394	4290413.27152016	1615277.94505788	4584404.96468481	-20.6306231095684
6.75822	1924766.36782047	764333.014244565	2070973.32849966	-21.6582401038694
5.761429	2380928.29549465	2068281.92082514	3153824.60709203	-40.9804281445873
4.919708	5261203.32562911	899270.43173977	5337503.88693182	-9.69953948841224
4.191257	1775342.82554888	-3115499.69099369	3585830.51367597	60.3236895730102
3.564097	3614521.45892108	749508.063666335	3691412.69902213	-11.7148440482715
3.051758	4195075.3027728	-811928.038108385	4272924.51782159	10.9537727498434
2.604164	2677005.20805848	-2590105.98416487	3724916.89748629	44.0547936225444
2.214424	3695325.30484484	-1156895.60546174	3872187.56655244	17.3837744169652
1.892567	3907086.54591131	326363.939531373	3920693.65014248	-4.77490478686315
1.607507	3305790.84371358	2868669.41906588	4376930.12718552	-40.9504968293697
1.376413	3826933.3995151	1422148.4622126	4082637.07582463	-20.3858555394885
1.17375	5580797.01363892	-1444710.93453062	5764762.35345339	14.5136512042384
1.001604	396854.93541442	4439876.00051166	4457577.00322521	-84.8922344197789
