EC-Lab ASCII FILE
freq/Hz	Re(Z)/Ohm	-Im(Z)/Ohm	|Z|/Ohm	Phase(Z)/deg
6999984	3.33333496968343	2.88841871535814	4.41067848469435	-40.909753800558
5969734	23.8899437476325	8.93659626188802	25.5067082355414	-20.5094941020998
5091109	23.5686113143946	36.5627069376906	43.5007008897611	-57.1938503213286
4341796	66.2168656107769	105.93283971349	124.925737224479	-57.9911783890326
3702781	59.185738288509	110.360668260939	125.229504174363	-61.7956181487013
3157797	62.6540539809101	115.384371726609	131.297691217276	-61.4979092783513
2693047	65.34798464269	120.605403520997	137.171507447151	-61.5497046630311
2296687	72.1702249255077	137.29413883098	155.107130471616	-62.2708293439828
1958656	84.9393846903025	156.495424508428	178.060430651058	-61.5086808848998
1670375	97.4127558050859	179.836969891291	204.525256956745	-61.5568093396907
1424531	104.380316535957	213.862770554661	237.975912876623	-63.984316926101
1214875	100.129083961641	228.889611481159	249.832519298416	-66.3727487908834
1036062	113.922360925481	289.942691886906	311.520575399861	-68.5494727503649
883578.1	119.993012890645	351.223611098779	371.155423152944	-71.1376377025298
753531.2	116.306456556694	412.870447062403	428.939620336339	-74.2673623626524
642624.9	124.77147105899	491.525949546795	507.115055059601	-75.7565942637565
548046.8	85.3441647153236	103.009515103964	133.770649444899	-50.3579940000258
467390.6	15.5344673801392	135.736095364541	136.622133132214	-83.4711272005159
398593.7	28.2153193601943	757.080874065188	757.606463886038	-87.8656561933898
339937.5	157.155992820379	15.0744348640026	157.87730890102	-5.47906017679641
289906.2	78.1535089868269	-21.6206925011088	81.0889962398199	15.4637813863259
247234.4	1019.55711483804	1761.53028288849	2035.30971794223	-59.9381462726667
210843.7	1084.00863943666	1919.33521710306	2204.29635166993	-60.5429605212067
179812.5	1155.78864814483	2118.35319146082	2413.14476212114	-61.3828020573095
153343.8	1212.61723088063	2361.613326092	2654.7425582538	-62.8208688273084
130781.2	1113.92487963629	2661.12462407309	2884.85925173497	-67.2862154036604
111531.3	1332.48749422931	3030.02895435186	3310.07528411185	-66.2619960490846
95109.37	1493.38276993105	3433.28749880986	3744.01591169309	-66.4923250827272
81109.37	1504.01384926315	3915.27900033942	4194.21831921924	-68.9862384775931
69171.88	1726.81220551206	4444.00431672765	4767.70959268698	-68.7653059517907
59000	6496.5117858972	9132.81101736685	11207.7162019405	-54.5743273890361
50312.5	6886.71607721919	9527.84933575951	11756.1376009794	-54.1406499043236
42906.25	7458.03471243426	10196.7658726098	12633.1435530787	-53.8178225642351
36593.75	7890.36893070116	10950.6713808016	13497.2265874468	-54.2258372693037
31203.13	7864.45808568642	12130.0663874424	14456.4245768198	-57.0428759423116
26609.38	8632.10232122814	13048.8152385479	15645.5990493784	-56.5144140495506
22703.13	9017.89522006412	14780.4985342429	17314.3169406365	-58.6117489769388
19359.37	9161.28485927621	16441.2164172285	18821.3372944365	-60.8728123238636
16500	9499.18259874237	18575.162421371	20863.1524229816	-62.9151776803869
14112.02	9604.20014681626	21060.0005742653	23146.5825695319	-65.4851225746667
12011.13	10099.4909915754	24233.5764777767	26253.8748986348	-67.3757687070394
10236.38	10352.1833582031	27878.314056591	29738.327036331	-69.6282949828167
8750.684	10479.842670501	32084.659373311	33752.8142456277	-71.9113599090745
7449.463	6089.43352370983	42377.4098103129	42812.6857703518	-81.8228422154836
6363.206	0.00265393338028099	-0.000214993107794892	0.00266262735345541	4.63137370256272
5414.761	0.00154721814574829	0.000239013688723396	0.00156557067356601	-8.78161526398905
4620.567	0.00133314996295096	0.000600304635259142	0.00146207198141191	-24.2415807513994
3941.215	0.00106218654140624	0.000159187827154866	0.00107404888764843	-8.52337172656769
3361.769	0.000851884480625162	-0.000906498299007827	0.00124396396026335	46.7789844848514
2867.244	0.000539409595160722	-0.000281432547830497	0.000608413502751064	27.5529330325785
2442.658	0.000707951474761733	0.00104665565445013	0.00126359936277672	-55.9258202361907
2083.003	-0.000747259273361033	-0.00128301310472853	0.00148476228687599	120.217603503893
1777.843	0.00156556474078903	-0.000369531432825833	0.00160858522853101	13.2808522939231
1513.548	0.00149863345607173	0.000342693862817688	0.00153731627171198	-12.8804178204841
1292.065	0.000514308281592802	0.000948021252137731	0.00107854406633189	-61.5198535619048
1101.762	0.00158194970066111	6.95688271193077E-05	0.00158347866330069	-2.51805325269039
939.101	0.00119422125561415	-0.000100925996545887	0.00119847839535781	4.83070056286858
801.2801	0.00712061515671567	-0.00154178058332449	0.00728561923086605	12.2172879275556
684.3433	0.00316402873626972	-0.00195994514294375	0.0037218896823105	31.7759814869477
582.9476	0.00102488716505774	0.00194851749878585	0.00220161625724711	-62.2563908075455
497.0677	0.00410514370453488	0.000830922607666316	0.00418839315427926	-11.4426489885387
423.5089	0.00462498902317557	0.000747364369803568	0.00468498420122698	-9.17923078507599
361.5036	0.0012620363217207	-0.00409840427561809	0.00428831590297951	72.8846433156632
308.1262	0.00374980380320386	-0.00370589398189978	0.00527206589181159	44.6625643333074
262.7298	0.00415221543670337	-0.00103880801855514	0.00428018867951078	14.0460374293203
224.2111	0.00393420964033752	-0.000436791007792728	0.00395838248260742	6.33525163654103
191.2854	0.0121263170129915	-0.0070851453323436	0.0140444597147771	30.296822183882
163.1722	0.0058344180894358	-0.000687293296662289	0.0058747601242921	6.71846872823633
139.1537	0.00398239211798383	0.00267372854438261	0.00479669378952065	-33.8769203188672
118.6706	-0.00471358095820777	0.0071433637394466	0.00855835795953987	-123.419005184186
101.1982	0.00389176749349498	-0.00726531071595343	0.00824200182132787	61.8236357848832
86.24196	0.010126239332294	-0.00569174790760238	0.0116162264638132	29.3394326265302
73.61024	0.00980682805030491	0.00585757793071616	0.0114230072932945	-30.8496978082935
62.69291	0.00800480306811771	0.0164186653080795	0.0182660735424469	-64.0087822239531
53.57697	0.0198889789671448	-0.0122536438166026	0.0233607206896468	31.6373142413701
45.65746	0.0197808135934679	-0.000773346154048316	0.0197959251032506	2.23888243180187
38.96512	0.00447052139844754	-0.0250571494209217	0.0254528249645569	79.8841249240994
33.18414	0.00971285447421281	-0.0154135522687611	0.0182185931284242	57.7829082305025
28.30617	0.0481212689878396	0.00228681147997717	0.048175575095114	-2.72075426145177
24.17237	0.0211412158090167	0.0324540469844489	0.0387326241242733	-56.9189738191145
20.61345	0.0268105275405191	-0.0311958172262852	0.0411337258149164	49.3233468135786
17.55618	0.0322220892020085	-0.00116063242009648	0.0322429852860552	2.06288927770271
14.98558	0.0660256439595203	0.0186858612812122	0.06861885361976	-15.8019983727916
12.76553	0.025572054235919	-0.0397108191474903	0.0472321830451384	57.2202121094825
10.8809	0.0564758991161531	0.0419428263303544	0.0703471951221666	-36.6000798571429
9.278505	0.069516526150011	-0.0359755607088913	0.0782738038955837	27.3620578727086
7.923394	0.0971831179701927	-0.00390640643659913	0.0972615979184812	2.30184189911982
6.75822	0.0471419020573923	0.264599375631058	0.268766047918881	-79.8979905027416
5.761429	0.277071918354836	0.170225007860327	0.325185179923498	-31.5653679310355
4.919708	0.163879281734526	0.0686756996386212	0.177687283457985	-22.736741479956
4.191257	0.121452893634805	0.088504645102674	0.15027933183581	-36.0814155426787
3.564097	0.269313511661428	-0.140139662171338	0.303593301106772	27.4906124132021
3.051758	0.316517764575458	0.161234827158053	0.355218474717367	-26.9943908555731
2.604164	0.349751844744483	-0.213429249251413	0.409729663727427	31.3928159614539
2.214424	0.429452630876064	0.183549521506533	0.467033177634791	-23.1420289059197
1.892567	0.28436001364496	0.152256983050682	0.322556671373973	-28.1662614339542
1.607507	0.445752234163659	-0.376908071881636	0.583742022567697	40.2163602768906
1.376413	-0.00102949126708672	0.364076202787705	0.364077658321111	-90.1620137404947
1.17375	0.212237903155854	0.116335099888886	0.24203054146564	-28.7287054535444
1.001604	0.177091972541085	-0.431608086610778	0.466526641432523	67.6912965648179
