EC-Lab ASCII FILE
freq/Hz	Re(Z)/Ohm	-Im(Z)/Ohm	|Z|/Ohm	Phase(Z)/deg
6999984	2.50176014345634	1.49567112691037	2.91476172872845	-30.8729885426656
5969734	4.71055367059925	1.20164581892027	4.86140602683263	-14.3107439306708
5091109	6.83699858756442	-2.65423411065129	7.33413310490768	21.217022494573
4341796	4.01795951941029	-5.97488644069346	7.20022684912096	56.080169336621
3702781	2.46839108329743	-5.5490798024657	6.07332208879416	66.0191192397286
3157797	0.954557937217883	-6.58283811320953	6.65168688982198	81.7492171388093
2693047	1.59434824439028	-8.85640378048018	8.99876848503694	79.7948008038385
2296687	2.57502495131476	-8.56242745022777	8.94124808627451	73.2621079110954
1958656	-0.00538875656766999	-8.23121483481408	8.23121659875141	90.0375100116127
1670375	0.412715501979713	-8.47521396928042	8.48525697375515	87.2120832364841
1424531	4.90088548259762	-8.07475359329892	9.44565106840338	58.7447897769682
1214875	4.67583292227242	-8.77519473164342	9.94321155840853	61.9492281335758
1036062	4.11641900722446	-10.7009170395146	11.465362224091	68.9593094612219
883578.1	8.06251541354815	-3.31216131972197	8.71633910547105	22.3333448147162
753531.2	9.05845973650161	-8.69183799188161	12.5540328370981	43.8167583065573
642624.9	7.35828223724308	1.91118519650268	7.60243029157506	-14.5598602504157
548046.8	6.46668573491258	5.57777532714209	8.53988301993633	-40.7790850458004
467390.6	0.128559131245848	-0.0347419142953473	0.133170758185093	15.1224303207208
398593.7	0.0656191451841022	-0.180568277027385	0.192121770976979	70.0286778900541
339937.5	0.039427410230863	-0.123203279288929	0.129358295849392	72.2543324452398
289906.2	0.0422704709994733	-0.120711793509287	0.127898904650298	70.7009292710811
247234.4	0.0444103549410607	-0.116235562639569	0.124430645936314	69.0895427680552
210843.7	0.0443379911068473	-0.110370043357239	0.118942859920508	68.1136237556089
179812.5	0.0425758962872118	-0.103128640532234	0.111571606794408	67.5670793148336
153343.8	0.0407210594260442	-0.0952837109019546	0.103620414224354	66.8597629167446
130781.2	0.040262409788267	-0.0862340204501027	0.095170205027346	64.9722680522451
111531.3	0.0375380166901084	-0.0782440396586547	0.0867826736113378	64.3703758884602
95109.37	0.0361005240477242	-0.0723202073975712	0.0808298226804193	63.4727229108287
81109.37	0.034746719242784	-0.0660853913294853	0.0746633340087895	62.26527165337
69171.88	0.0339983617098418	-0.0625158548131782	0.0711626355749674	61.4610680921244
59000	0.0353519221250628	-0.0601754536539654	0.0697914294193566	59.5665831425243
50312.5	0.0357469609817003	-0.0581432027649025	0.0682530383733044	58.4164276645787
42906.25	0.0342722798905392	-0.0564975745954664	0.0660799901942014	58.7583688767128
36593.75	0.0309517501727929	-0.0531610001475192	0.0615150613707205	59.790896119318
31203.13	0.107089215797353	-0.1248472001751	0.164483809329835	49.378253359086
26609.38	0.0691726040574657	-0.109724397542673	0.129708490732848	57.771792849277
22703.13	0.0398533207078948	-0.0884718040904925	0.0970337430509243	65.7501728506942
19359.37	0.0210615439588149	-0.0705993423072956	0.0736739829800982	73.3888461753783
16500	0.0263034626001958	-0.0448799162448843	0.0520199868022641	59.6260561616589
14112.02	0.00289984482844362	-0.0441237646927597	0.0442189519402154	86.2398884497061
12011.13	-0.00137600440396127	-0.0338700424188592	0.033897981674062	92.3264191073809
10236.38	-0.00340751892189745	-0.0254688736801438	0.0256958111710491	97.6204345428306
8750.684	-0.00420146277084105	-0.0189064282519852	0.0193676358562997	102.528906677937
7449.463	-0.00395702432600417	-0.0137767471602201	0.0143337644683182	106.025381622723
6363.206	-0.00351688217233267	-0.0104262819217637	0.0110034455933661	108.639730746125
5414.761	-0.00274319168433	-0.00852391609141312	0.00895445398393608	107.839366002107
4620.567	0.0323238894677676	-0.00645760571448312	0.0329626228005021	11.2977078551045
3941.215	0.0285902948098384	-0.00623271908416332	0.0292617795852468	12.2981380020265
3361.769	0.0353111749491751	-0.00681632698717587	0.0359630559030702	10.9257608432394
2867.244	0.0430291960435989	-0.00707484546448049	0.0436069392471514	9.33701190269912
2442.658	0.0495626653550427	-0.00762485149713707	0.0501457491463568	8.74596582997601
2083.003	0.0545521851589907	-0.00834001753251854	0.0551860199512841	8.69215936343528
1777.843	0.0587627321585501	-0.00897703904848139	0.0594444776309411	8.68578234317547
1513.548	0.0626520522796764	-0.00946975825722339	0.063363680261689	8.59510604251807
1292.065	0.0657142796106338	-0.0100402944106765	0.0664768685829712	8.68687669256417
1101.762	0.0676684801442505	-0.0103012932030159	0.0684480813952248	8.65578227302242
939.101	0.0699308260143334	-0.0100821829237906	0.070653880569688	8.20401078113972
801.2801	0.0725052576642796	-0.00883716713451762	0.073041823032609	6.94911288866624
684.3433	0.0744138565743567	-0.00962988464701709	0.0750343703151015	7.37365742612432
582.9476	0.0776975827386146	-0.00862706161939205	0.0781750635152198	6.33581886475821
497.0677	0.0775024173073997	-0.00773899949097931	0.0778878475862038	5.7023641749129
423.5089	0.0841328115337648	-0.00552431125049199	0.0843139845539772	3.75675076350654
361.5036	0.0934884862625926	-0.00357240658822199	0.0935567162340713	2.18833666807322
308.1262	0.105177796810831	0.000615513488496265	0.10517959782598	-0.33529816756999
262.7298	0.116539678774726	0.00271499731342996	0.116571299809723	-1.33456480909745
224.2111	0.123137927869568	0.00331701840745883	0.123182595731403	-1.54302748144666
191.2854	0.13045786960001	0.00338739898501632	0.130501839881501	-1.4873772367212
163.1722	0.137456058713259	0.00260829565568593	0.137480803326175	-1.08708485681541
139.1537	0.15178605626773	0.00176221813986918	0.151796285495012	-0.665167330847997
118.6706	0.16284665643519	8.49146705196445E-05	0.162846678574118	-0.0298762768918339
101.1982	0.175014526395812	-0.00334493303980656	0.175046488186971	1.09492177353721
86.24196	0.183594354004629	-0.00743668052301296	0.183744907520123	2.31955718118747
73.61024	0.195845057474518	-0.0107804903220224	0.19614154457631	3.15072470922974
62.69291	0.205834554259194	-0.0149665818238296	0.206377959817831	4.15875514130418
53.57697	0.20813299850855	-0.0177433578320152	0.208887940808738	4.87268920192694
45.65746	0.218453138741949	-0.0221997477505167	0.219578238052854	5.80261861103151
38.96512	0.235626681472391	-0.0266510901563872	0.237129107509423	6.45314343246714
33.18414	0.237248477655988	-0.0305899553744368	0.239212427603363	7.34697478160508
28.30617	0.229638342888191	-0.0316254711027765	0.231805821641535	7.84136860386757
24.17237	0.242808401487583	-0.0360562949143802	0.24547092747596	8.44652089750679
20.61345	0.261641995910566	-0.041757144331308	0.264953190444596	9.06773319814353
17.55618	0.271344442149902	-0.0465309734444946	0.275305172082425	9.73061098964219
14.98558	0.278698169228784	-0.0496684470758515	0.283089427860531	10.1049300467791
12.76553	0.287779414178028	-0.0542572633041649	0.292849520822395	10.6770799714188
10.8809	0.291918172114552	-0.0570533590951786	0.297441263100372	11.05865840382
9.278505	0.278717521655392	-0.0529495871563465	0.283702512603874	10.7566294316948
7.923394	0.277199871418645	-0.0531736157589238	0.282253790279938	10.8588049953004
6.75822	0.290414487478082	-0.0564709553152846	0.295853922284931	11.003820613248
5.761429	0.298111182743599	-0.060126996733777	0.304114342004798	11.4031836556101
4.919708	0.304850597155955	-0.061876766402816	0.311066907283322	11.473686112301
4.191257	0.307688463780266	-0.0632869394919354	0.314129634790664	11.6227926489058
3.564097	0.300365351243983	-0.0602769061073096	0.306353798144875	11.3473145410069
3.051758	0.289643505045511	-0.058422138038231	0.295476743971513	11.4037566134053
2.604164	0.28927875796999	-0.057949032931908	0.295025914506511	11.3276964661016
2.214424	0.307604425209067	-0.0644016206108044	0.314273847377567	11.824932159028
1.892567	0.301026288935156	-0.0621293579353645	0.30737092209175	11.6616334578377
1.607507	0.316406608373907	-0.0668871393786792	0.323399182492692	11.9363724501809
1.376413	0.239493587746227	-0.13703980154534	0.275929494217538	29.7784729962051
1.17375	0.318407198428705	-0.201032137838574	0.376559509845608	32.2670063173748
1.001604	0.327849160607693	-0.210524746300205	0.389622562123825	32.7061039828292
