EC-Lab ASCII FILE
freq/Hz	Re(Z)/Ohm	-Im(Z)/Ohm	|Z|/Ohm	Phase(Z)/deg
6999984	6.26656653908399	2.28543528715519	6.67031263439288	-20.0370617521247
5969734	11.5283765676817	1.6046638306217	11.6395194185833	-7.92422976019939
5091109	3.81520618391195	8.55021051306864	9.36279328211135	-65.9529999101705
4341796	0.622288768769567	0.366853286077515	0.722374311034532	-30.5203101014507
3702781	4.68407961437434	-5.95466679095729	7.57619023158255	51.8105852501312
3157797	5.23365264732508	-8.00392836640731	9.56315791605641	56.8199094163364
2693047	16.0294829862961	-13.7848337204248	21.1415696084211	40.6944591794596
2296687	-0.159402442056394	-21.881506269004	21.8820868689208	90.4173810297845
1958656	-0.300008591931476	-8.52801676903004	8.53329216469764	92.0147873626092
1670375	5.23767560379014	-12.9184562860166	13.9398622139626	67.9303345569465
1424531	-6.55849895912553	-9.75588062348504	11.7554717190142	123.911405113322
1214875	26.3116167943393	10.917616570564	28.4867606075878	-22.53528378961
1036062	49.7124018882633	1.85668072559881	49.7470618712001	-2.13891390162303
883578.1	55.671138802885	27.16268357721	61.9442255155856	-26.0083591380427
753531.2	63.3010644326197	-2.29131790206393	63.3425204426773	2.07303865208566
642624.9	107.847249045632	18.2616743613444	109.382438614205	-9.6106794639654
548046.8	127.378346093998	-39.1899724285557	133.270765708738	17.1013463310113
467390.6	26.8310401834854	-41.7387750750955	49.6188478513681	57.2657737133513
398593.7	1.26981458443393	85.7959213764307	85.8053177484328	-89.1520610350176
339937.5	46.1772380456428	-8.19260899156679	46.8983598392594	10.0605372768124
289906.2	84.9297194113242	29.7100139703254	89.9763422761961	-19.2807975695977
247234.4	83.8936515724998	45.1023367352539	95.2489661526477	-28.2630626534415
210843.7	66.544432197992	-55.4649727068275	86.6286595412989	39.8113020340449
179812.5	17.4864255244508	-142.398697397436	143.468338312356	82.9991818646667
153343.8	246.424360170248	-201.56131087402	318.358174587318	39.2812415890356
130781.2	492.962092803566	-420.309557450808	647.820769214576	40.4515880996816
111531.3	-588.304256327826	-415.869466507073	720.450769439741	144.743692178042
95109.37	412.295284794087	-515.964354527299	660.459398453992	51.3724501537727
81109.37	503.144908974816	-35.3155881239848	504.382781418853	4.01498857134996
69171.88	1.00821070063547	-7.61834250262114	7.68476618408912	82.4612890865979
59000	2.10870782424823	3.6175297982573	4.18726289231106	-59.7615033844278
50312.5	1.62801625079536	4.07761916601315	4.3906053085983	-68.2353199912946
42906.25	2.65554036805714	-2.56242803294897	3.69024823967491	43.9776906920537
36593.75	3.0658166966558	2.97392244436766	4.27123480068787	-44.1283155668156
31203.13	59.810192766262	-12.383767496725	61.0787758239338	11.6978615792239
26609.38	4.56978842474354	0.926759695686142	4.66281564941917	-11.4641864720577
22703.13	21.2284799333343	18.6579411133295	28.2624685204327	-41.3125889671585
19359.37	10.9871840756922	-7.8883930893468	13.5257147480345	35.67695317594
16500	6.03113057359838	0.913799469413473	6.0999643823627	-8.61557209496014
14112.02	6.85615718659962	-12.3042532245885	14.0855081123174	60.872640436525
12011.13	5.18872826124282	-20.9770622356492	21.6092582243657	76.1066141808019
10236.38	26.3929653952836	-9.8526044340015	28.1720151300815	20.4708137213505
8750.684	0.891840393605195	1.47443105417881	1.72317329981424	-58.8314782913715
7449.463	0.243609161877954	-0.593902857522425	0.641923693225434	67.6973699174463
6363.206	-0.136247233202677	0.591422701951548	0.606913602532563	-102.973006264943
5414.761	-0.524682945419935	0.0710373187374714	0.529470012246159	-172.289554911429
4620.567	-0.528663353023847	0.0316701926754847	0.529611123310792	-176.571726880678
3941.215	0.461820108156486	0.36936320825965	0.591360289428983	-38.6527813722904
3361.769	-0.207747053185212	0.614800382592807	0.648951730518843	-108.670613171283
2867.244	-0.524077334434427	0.0366473118445521	0.525357095634318	-175.999972296916
2442.658	-0.520279177086657	0.0376408898154326	0.521639011861715	-175.862004059849
2083.003	-0.487078794951468	0.0382177022343869	0.488575833679328	-175.51358842463
1777.843	0.436799975327685	0.311607200963746	0.536556861980841	-35.5035474992436
1513.548	0.400126960600335	-0.273780293402641	0.48482701415546	34.3812434997193
1292.065	-0.508051417020077	0.0369247806715182	0.509391481832733	-175.84309645261
1101.762	-0.134466072396897	0.506895155222672	0.524427137945839	-104.856891495333
939.101	0.433792920423332	0.276872838477227	0.514621090216715	-32.5484775638107
801.2801	0.414522176249547	0.270630245989521	0.495044810746471	-33.1394262337087
684.3433	0.369427991287117	0.257690005340192	0.450423333763541	-34.8972321012803
582.9476	-0.507088119051563	0.0491804695228499	0.509467446522092	-174.4604347014
497.0677	0.40106888316951	0.252788967039961	0.474087028829063	-32.2227453277009
423.5089	0.366168882783149	0.246464585047877	0.441389218719127	-33.9440996203463
361.5036	-0.431234024746027	0.103489631742367	0.443478170800804	-166.505087603347
308.1262	-0.0998839870641924	0.471751401582416	0.482209701029348	-101.954688375657
262.7298	-0.142975433450763	0.558077394997402	0.576100992342072	-104.369705482133
224.2111	0.392303177421424	0.240593676749607	0.460203324962826	-31.5201672905776
191.2854	0.408949901720625	-0.341035450077952	0.532489624619278	39.8257291113263
163.1722	-0.556885593633448	0.0285947999137156	0.557619249110523	-177.060574471483
139.1537	0.409019987983221	-0.325305074226976	0.522609550130508	38.496214925193
118.6706	0.413430290793562	0.286854680621727	0.50319997331105	-34.7544796666234
101.1982	0.407074684435635	-0.325973142878544	0.521505789600161	38.6866947441842
86.24196	0.411065566174502	0.282997814616081	0.499061782519801	-34.5454417446479
73.61024	0.428855365487116	0.141291395582816	0.451530932465128	-18.2350693793926
62.69291	0.397351639260857	-0.21318596975228	0.450928578516055	28.2143211338098
53.57697	0.39582265274866	0.255103292796109	0.470906851112196	-32.8013295683799
45.65746	0.618437754368432	0.194850840248467	0.648407361134806	-17.488047006101
38.96512	0.427986273255757	-0.199207821684031	0.472076271714061	24.9598005363297
33.18414	0.484255886162403	-0.292834151850098	0.565911303803609	31.1617535418336
28.30617	0.08704789824858	-0.490057602097511	0.49772863084522	79.9277270123089
24.17237	0.501874215184163	-0.350014115426197	0.611872216123843	34.8924593628468
20.61345	0.160169799366074	0.429983098357379	0.458846193731603	-69.5695095130363
17.55618	0.102900612317393	-0.445192488757943	0.456929850263457	76.985359551194
14.98558	4381.83435488574	-14623.8309671879	15266.2013765881	73.3198620568446
12.76553	12147.7298683247	-10878.7026672065	16306.8547756848	41.8455199307215
10.8809	9073.36574311502	3445.8646169956	9705.66581265786	-20.7956750616118
9.278505	8708.69143857878	-4647.39392881448	9871.14871238181	28.0866145708531
7.923394	12061.6696735444	-3237.96829579444	12488.72747714	15.0268265830253
6.75822	3840.17216149049	-6151.74620192109	7251.95860183558	58.0258996314175
5.761429	-929.515354874528	6944.48003962364	7006.41147918666	-97.6237004022629
4.919708	-1343.37557241589	4966.86199148156	5145.32564285176	-105.134546842853
4.191257	1591.74695574922	5364.34856020884	5595.52444785577	-73.4729563797036
3.564097	6123.63054535383	2696.89627438986	6691.19575044762	-23.7690796464888
3.051758	4129.40654115771	380.023138569758	4146.85615472788	-5.25803483183115
2.604164	7624.13192563292	2112.41533375381	7911.36436790351	-15.4864361375454
2.214424	3244.60136978548	-4732.2026799217	5737.69816674526	55.5637911237593
1.892567	7792.04529070536	-3551.2384965177	8563.13404493664	24.501210846685
1.607507	5498.69326235957	3112.17734866951	6318.32853238022	-29.5092057508054
1.376413	328.485876467191	-4162.18098169532	4175.12317128784	85.4874802731403
1.17375	3475.67670278864	426.847471890268	3501.78915792582	-7.00142966493963
1.001604	2459.79979022422	463.358165953258	2503.061285295	-10.6679298354306
