EC-Lab ASCII FILE
freq/Hz	Re(Z)/Ohm	-Im(Z)/Ohm	|Z|/Ohm	Phase(Z)/deg
6999984	2.6789616331463	1.01707993011716	2.86553433343888	-20.7894928470023
5969734	5.17530732674959	0.487908459527	5.1982555334637	-5.38571160098252
5091109	5.0539146166854	-0.791954182281021	5.11558837081119	8.90588980975293
4341796	4.17825105753758	-4.99641781718179	6.51321525083162	50.0959689411566
3702781	2.03679437784091	-7.5121959996749	7.78341956180803	74.8300069174709
3157797	1.39306596990728	-7.41930617508184	7.54895601498122	79.3658273026241
2693047	1.55881692896704	-6.76133875580775	6.93870391275072	77.0173878919419
2296687	-3.55291009984231	-8.83330252152116	9.52105055202805	111.910861390086
1958656	-4.19848077453262	-8.48713548456822	9.46882830911708	116.321032130767
1670375	7.62036931901053	-16.4729651111267	18.1501682667273	65.1748086328238
1424531	2.58861045710765	-9.71794718866095	10.0568087214708	75.0842282911705
1214875	6.24554010048693	-0.828505373176996	6.3002533520624	7.55648252897262
1036062	2.02385717624891	-5.31915770667559	5.69117181065029	69.1689547184603
883578.1	0.167806461441313	0.351662986149528	0.389648385508086	-64.4904678423196
753531.2	6.9559107528776	1.93343114715749	7.21961566863479	-15.533544727461
642624.9	1.22099658396296	1.41892338673417	1.87194450651465	-49.2877031091435
548046.8	4.64399748934472	-2.05146934491957	5.07693206121421	23.8332738378553
467390.6	2.61037749534012	-3.22871215224269	4.15194566802334	51.0448500752507
398593.7	-1.21379520039305	-2.87979814814336	3.12514578260713	112.854752061785
339937.5	2.06255570774026	-4.23317636853568	4.70891900701859	64.0229915772724
289906.2	0.067948990986957	0.0294072241776368	0.074039517894023	-23.4021803927989
247234.4	0.00938564643022564	0.0100291310815763	0.0137358592437695	-46.8983201344212
210843.7	-0.011539138556239	0.0106401096443944	0.015695975658264	-137.321195829461
179812.5	-0.0109746921877442	0.013485197564055	0.0173866161732906	-129.139816881229
153343.8	-0.0107853266221865	0.0106242484350738	0.0151392841692536	-135.431065359104
130781.2	-0.00849655631531023	0.0124758765111254	0.0150943354918356	-124.25638300177
111531.3	-0.00820981407754967	0.0106631559798025	0.0134574864903343	-127.59351838373
95109.37	-0.00582569495295078	0.0100224463541692	0.0115925904183248	-120.167928063055
81109.37	-0.00511586356679767	0.0101214899187859	0.0113409266909796	-116.814119609257
69171.88	-0.00395324291697497	0.00809474398482965	0.00900849653052875	-116.029568500384
59000	-0.0163974504138146	0.0284610049292351	0.0328466920960917	-119.947854973945
50312.5	0.0333289954930011	0.0116063499589197	0.0352920571792209	-19.1999474951268
42906.25	-0.0222969256901553	0.0276805646408505	0.0355438680234525	-128.851733701837
36593.75	-0.000806830757924651	-0.0144506354566128	0.0144731420559549	93.1957106741533
31203.13	0.00449124558137176	0.00957721747936304	0.0105780140631032	-64.8757246637656
26609.38	0.000857874753138166	0.0034710720310258	0.00357551256977813	-76.1175576746889
22703.13	-0.000840926684530195	0.00385041510711443	0.00394117421409533	-102.319891674273
19359.37	-0.000608904927208216	0.002706064301842	0.0027737247909773	-102.681198859883
16500	-0.000458839439936549	0.00242804042462281	0.00247101475820032	-100.701285903029
14112.02	-0.00044112608893805	0.00208968384028841	0.00213573658926008	-101.919967133272
12011.13	-0.000363363662585831	0.00182062276400733	0.00185652912719124	-101.286906065432
10236.38	-0.00028112119945289	0.00151626028456212	0.00154210063851949	-100.503615463708
8750.684	-0.000201747422048964	0.00132316795437754	0.00133846010691206	-98.6692910825971
7449.463	-0.000140150905108697	0.00112987531391563	0.00113853436540086	-97.0709107215207
6363.206	-8.20087904322914E-05	0.00099802755184904	0.00100139125019043	-94.6974903509707
5414.761	-4.27258958367316E-05	0.00085389682219463	0.000854965078309716	-92.8644837727882
4620.567	-4.12726562319031E-05	0.000770503622314436	0.000771608232299335	-93.0661649166743
3941.215	4.0169757056518E-05	0.000694152307229726	0.000695313623492544	-86.6880560370575
3361.769	4.56958178098273E-05	0.000640860894500238	0.000642487971766752	-85.9214958029519
2867.244	6.41495165437882E-05	0.000572586799693183	0.000576169075580843	-83.6075484515366
2442.658	5.19837769435235E-05	0.000518598077798065	0.000521196967912479	-84.2758464237772
2083.003	9.82925196724052E-05	0.00042751742313294	0.000438671365039684	-77.0518799512087
1777.843	7.43271677923139E-05	0.000358135277078924	0.000365766871873909	-78.2753167311516
1513.548	0.000121967233245019	0.000280921748167845	0.000306256484958478	-66.531057029678
1292.065	0.000148409685450097	0.000297137449511776	0.000332138673806228	-63.4594875857612
1101.762	0.000151097523947292	0.000250888342880464	0.000292874413932504	-58.9415434838161
939.101	-9.44029026102322E-06	0.000361938438735721	0.000362061531393027	-91.4940833183943
801.2801	0.000140584104901773	0.000127563071833614	0.000189832104362409	-42.2199421202616
684.3433	0.000147329993300264	7.17919572301991E-05	0.000163890854073065	-25.9793617440312
582.9476	0.000136337728416053	1.67496138572484E-05	0.00013736275242589	-7.00391057219255
497.0677	0.000132446689167153	6.14285663358023E-06	0.000132589065005231	-2.65546629365441
423.5089	9.17284128012684E-05	-3.16583278501358E-05	9.70378866077914E-05	19.0411465126283
361.5036	7.76072274110978E-05	-7.43470551915485E-05	0.000107472630758221	43.7709102237909
308.1262	7.96073128369918E-05	-3.47650093609353E-05	8.68673133750123E-05	23.5911934398346
262.7298	4.23679624385687E-05	-6.20582278721762E-05	7.51416521499954E-05	55.6781363109336
224.2111	7.0899746955261E-05	-8.95336224460512E-05	0.000114206145485399	51.6250557864899
191.2854	5.14743829809973E-06	-5.41067931273312E-05	5.43510918340797E-05	84.5655338849953
163.1722	2.86870343587808E-05	-6.64609194955763E-05	7.23878426291276E-05	66.6531543358204
139.1537	1.0124909769687E-05	-6.33098782804436E-05	6.411438594987E-05	80.9138446735085
118.6706	-4.65700565184327E-05	-5.45298069441887E-05	7.1709622851473E-05	130.498299813484
101.1982	-5.95118523926315E-05	-6.30823750650762E-05	8.67239679618806E-05	133.331747997745
86.24196	8.27482095340496E-05	-1.44858603721802E-05	8.40065850502999E-05	9.92955339526751
73.61024	-3.44675042302511E-05	-7.91126513234169E-05	8.62949618881827E-05	113.541613866587
62.69291	1.94297428597607E-05	-7.75164424930196E-05	7.99144152476262E-05	75.9285388980752
53.57697	7.21872020208922E-05	-1.19900883762587E-05	7.31761870752747E-05	9.43057018106603
45.65746	6.57394987353094E-05	-5.33454327701508E-05	8.46605982225759E-05	39.0581891193911
38.96512	6.09188609753241E-05	-4.33340660017627E-05	7.47592729952344E-05	35.4257913968664
33.18414	7.57260981056763E-05	7.95801035971286E-05	0.000109851876737907	-46.4215333052031
28.30617	5.43100307433379E-05	3.45154372607566E-05	6.43497851483867E-05	-32.4370200839239
24.17237	1.5756277675897E-05	0.000106361498558794	0.000107522224037044	-81.5735482788222
20.61345	9.05504603680961E-05	1.95863688377761E-05	9.26445449938827E-05	-12.205238625124
17.55618	5.6682522377052E-05	-3.72771153516654E-05	6.78416661939133E-05	33.3308170555942
14.98558	7.28862936006061E-07	-8.28577830525077E-05	8.28609887314647E-05	89.4960075994346
12.76553	8.91008116086266E-05	-6.19765233965279E-05	0.000108535911483879	34.821607401901
10.8809	6.75488546773702E-05	-1.53700143989047E-05	6.92754293443716E-05	12.8187847504619
9.278505	0.000391566686535001	-0.000143131516123466	0.000416906585354323	20.079151231755
7.923394	0.000111117281186453	-9.64979076576856E-06	0.000111535503944226	4.96330190426909
6.75822	8.91768546112141E-05	5.91505054127808E-05	0.000107010717635838	-33.5560926014837
5.761429	5.51380026275392E-05	4.39586768097275E-05	7.05164136965047E-05	-38.5635431956988
4.919708	8.10624654735527E-05	-6.48540083138374E-05	0.000103813128760394	38.6615476265559
4.191257	-7.81368882779383E-05	3.89184431517232E-05	8.72927174918557E-05	-153.523009881273
3.564097	-1.49846046988525E-05	-7.43471526042968E-05	7.58421879849697E-05	101.395252384491
3.051758	7.9744796096641E-05	4.69695344419314E-05	9.25492823861246E-05	-30.4980048544863
2.604164	4.33111175148355E-05	3.00694384510697E-05	5.27259331747344E-05	-34.7709350144996
2.214424	6.20837937147832E-05	-3.37630192002855E-05	7.06706368128844E-05	28.5386668120554
1.892567	-9.44626394167466E-06	9.08416336602307E-05	9.13314530077965E-05	-95.9366261745002
1.607507	5.7113817153278E-05	3.81061206202598E-05	6.86590455697125E-05	-33.7110662259107
1.376413	4.52816367037522E-05	3.11814482182588E-05	5.49791718340551E-05	-34.5517385508164
1.17375	3.5342951786876E-05	5.44576702758835E-05	6.49211991023448E-05	-57.0164855062679
1.001604	-1.49621456868612E-05	-7.20961851680672E-05	7.36323686930082E-05	101.724187454676
