EC-Lab ASCII FILE
freq/Hz	Re(Z)/Ohm	-Im(Z)/Ohm	|Z|/Ohm	Phase(Z)/deg
6999984	96.0847520587544	-8.10850329014876	96.4262796326741	4.8237087588946
5969734	63.9828916279521	-61.0600113565525	88.4428369509741	43.6609538933274
5091109	212.825076087047	3.72089977268022	212.857600537486	-1.0016213261781
4341796	3.17365956518424	-6.73523557637729	7.44550289134211	64.7700712463434
3702781	1.54368983631607	-8.37960647548375	8.52060930888835	79.5620080516769
3157797	0.487413068460558	-8.25314691130544	8.26752716590014	86.6201605383344
2693047	-1.79072080955946	-8.42260149166994	8.61085924314583	102.002874126227
2296687	6.24396343442251	-8.58598145928864	10.6163156033369	53.9743145268192
1958656	9.4473744328778	-8.22730553731715	12.5276270729681	41.0511827027081
1670375	5.47151591320573	-7.26561833173855	9.09542171265076	53.0177099216467
1424531	-3.11972579692707	-6.8295354292833	7.5083449060261	114.55087902271
1214875	264.033347382439	84.9259295714597	277.355407453239	-17.8303090746004
1036062	108.008852896795	311.638362896403	329.824773982841	-70.884504948641
883578.1	109.172830020473	361.931368668487	378.038387522912	-73.2146097098791
753531.2	111.906657685475	418.174979898995	432.889609309185	-75.0182808489509
642624.9	115.328417320528	483.460610197384	497.025960543395	-76.5829712916737
548046.8	564.352293167178	1160.25257409644	1290.22461087225	-64.0614943411051
467390.6	665.331328944107	1258.62011260121	1423.65387827196	-62.13818961441
398593.7	763.890538749491	1358.08843592256	1558.18258075797	-60.6433427269137
339937.5	859.992698654418	1461.95661161106	1696.14403161177	-59.5339245482019
289906.2	946.443160483464	1577.02338235987	1839.22739337355	-59.0301227589433
247234.4	1025.91786998327	1709.15088027142	1993.41521201269	-59.0257109839208
210843.7	1092.10576605403	1865.92151211954	2162.02638597194	-59.6599752631306
179812.5	1150.54404972695	2054.62967389175	2354.83645020172	-60.7522047079885
153343.8	1201.19518767212	2285.02339373394	2581.51153179645	-62.2699126115106
130781.2	1243.23806883236	2564.06594284289	2849.57453930246	-64.1326556992604
111531.3	1264.47587116181	2896.46058535993	3160.44034135973	-66.4158925128567
95109.37	1317.67257055325	3305.65132966458	3558.59406458528	-68.2671764447039
81109.37	1361.06585379974	3797.51038216298	4034.05321742478	-70.2818106439429
69171.88	1410.74715118154	4375.27470243775	4597.08997588241	-72.1287973923266
59000	6169.04300717013	8778.17235313687	10729.0913634702	-54.9015722337251
50312.5	6723.68786163315	9325.74510865977	11496.8474066748	-54.2091011721079
42906.25	7227.40970040136	10024.216374349	12358.0081282229	-54.2085855100923
36593.75	7644.56603787408	10814.3769159932	13243.4941759562	-54.7439228963948
31203.13	7993.57596222459	11828.4493132928	14276.1854086094	-55.9494719339737
26609.38	8373.48405163316	13106.2714704552	15552.7999736454	-57.425840932577
22703.13	8600.31888793871	14510.4159071658	16867.6511338468	-59.3447911800292
19359.37	8821.71556305358	16313.089143493	18545.6071046211	-61.5965726106728
16500	9094.30983138391	18583.2940126941	20689.2553677371	-63.9237552871557
14112.02	9234.26915657884	21167.1165468135	23093.69069167	-66.4305029366326
12011.13	9443.14115726999	24158.2674630774	25938.2883346937	-68.6501414349694
10236.38	9728.38134634994	28017.4414757336	29658.3618978892	-70.85167446698
8750.684	10033.888020261	32298.0875988886	33820.7831273704	-72.7418049373371
7449.463	11663.0330036512	37809.4126435591	39567.385853695	-72.8566256794813
6363.206	59994.1516728535	83985.1816068117	103212.445782834	-54.4601827370901
5414.761	66211.0980159528	88744.6873226225	110722.757500291	-53.2739251884733
4620.567	72209.4981652736	94069.3562815645	118588.597329206	-52.4894428345361
3941.215	76438.4864866161	100317.604397224	126120.830826483	-52.6938741758388
3361.769	80545.9808383564	108232.476701912	134914.506418853	-53.3435911267833
2867.244	83944.995098161	117803.484333339	144652.767422907	-54.5268979427552
2442.658	87147.0015190972	130300.273048974	156757.012699294	-56.2247323179104
2083.003	89857.7326615088	145376.94698803	170906.023400662	-58.2797199346605
1777.843	93137.3383797769	163074.671229523	187797.529794952	-60.2678834837644
1513.548	95917.8426640228	185328.541243555	208678.941776079	-62.6359180510401
1292.065	98074.1616501164	212547.33396345	234083.127026156	-65.230328243172
1101.762	101231.946342488	246883.907061131	266832.47652049	-67.7044745941059
939.101	41000.750354136	32195.1428319859	52130.4973271324	-38.1401732217207
801.2801	0.000495766430743878	-0.00100556227736169	0.00112113328712752	63.7555921742848
684.3433	3.50595102602498E-05	3.3229296641484E-05	4.83048177201436E-05	-43.4647788738525
582.9476	7.3621359678652E-05	-1.97085663034544E-05	7.62137270225719E-05	14.9867711035677
497.0677	-3.86371244139763E-06	-0.000100958402204466	0.000101032307949034	92.1916594339661
423.5089	0.000117773587613511	-6.84502201435178E-05	0.00013622059527492	30.1652309670743
361.5036	1.47761566997069E-05	-0.000145809024708924	0.000146555813577565	84.2134513198874
308.1262	0.000103795566617683	0.000242559004614009	0.000263834020491719	-66.833005787712
262.7298	0.000259880768480964	0.000315268564404041	0.000408573471394854	-50.500712057215
224.2111	0.000438001803680464	-0.000109485203842044	0.000451478227479104	14.0343662790335
191.2854	0.000585829622247843	7.40753397741755E-05	0.000590494286395483	-7.20653136686261
163.1722	0.000786609671604546	0.000457014697852323	0.000909734691827712	-30.1562870958923
139.1537	0.00123106636398576	0.000701013941872944	0.00141666684129945	-29.6587591944905
118.6706	0.00136095353199842	-0.000569244601905482	0.0014752064035441	22.6980439104728
101.1982	0.000464648535163058	0.00105915700381203	0.00115659492474818	-66.3131038844102
86.24196	0.0012901287592875	0.00100715958280142	0.00163670481173895	-37.9779459516074
73.61024	0.00130593658056468	0.000348638662487544	0.00135167276714376	-14.9473458776847
62.69291	-0.000301278428132414	0.00236340317251957	0.0023825287505366	-97.2646850478339
53.57697	0.00300639677151115	0.00196246961787679	0.00359022402488231	-33.1350832136216
45.65746	0.000614742090236566	-0.00369436078384673	0.00374515813267385	80.552537487899
38.96512	0.00399231765462731	-0.00113837880171472	0.00415144632045777	15.9150945119725
33.18414	0.00330242411154273	0.000245951542666622	0.00331157019763116	-4.25930063998271
28.30617	0.00441841106670521	2.52892639749688E-05	0.0044184834390609	-0.327935144240543
24.17237	0.00482613401734263	-0.00154671030976472	0.00506792682816989	17.7699479708834
20.61345	0.00348520819791289	0.00365562244743998	0.00505076743287852	-46.3670908555098
17.55618	-0.00204940168679318	-0.00770933403311816	0.00797708458699196	104.886857188018
14.98558	0.0021791691670942	-0.00824296457020789	0.00852615054784494	75.1916578777575
12.76553	0.00790053951581703	-0.00642304601245651	0.0101820452129776	39.1107064308928
10.8809	0.0115251876982521	-0.0107999449682746	0.015794580171619	43.1393732236859
9.278505	0.00898817480798651	0.0143799594625316	0.0169579043670784	-57.9926107835204
7.923394	-0.00799175766303714	-0.0128436570069535	0.0151270524510553	121.891270519249
6.75822	0.0273367833095426	-0.000851811404701282	0.0273500512683626	1.7847532185922
5.761429	0.00836968553564291	-0.0254311358360628	0.0267730145086022	71.7830173629652
4.919708	0.0432231461201892	0.0105787726707641	0.0444988852865657	-13.7526715790574
4.191257	0.0238800935720132	-0.00625460922914059	0.0246856032054588	14.6770644969877
3.564097	0.0384778251964938	-0.0234504809973739	0.0450607156052822	31.3604037389834
3.051758	0.050274773400973	0.00627348671276418	0.0506646768079537	-7.11282984904692
2.604164	0.0509602287294449	0.0185525166206426	0.0542322854498735	-20.0044776423156
2.214424	0.0464698890438498	0.00466846469229063	0.0467038023112774	-5.73680867868278
1.892567	0.0711867365590889	0.000511918768752485	0.0711885771929664	-0.412018877915613
1.607507	0.0611035174957369	0.0271018893675615	0.0668442387767515	-23.9192289662808
1.376413	0.0943890319654486	0.0227958200245933	0.0971027227525991	-13.5774668148844
1.17375	0.0663354538298945	-0.00429842892311044	0.0664745735302235	3.70748957115458
1.001604	0.0663887126996325	0.00734410264888329	0.0667936899537051	-6.31255104869794
