EC-Lab ASCII FILE
freq/Hz	Re(Z)/Ohm	-Im(Z)/Ohm	|Z|/Ohm	Phase(Z)/deg
6999984	1.57054722037289	108.408251406622	108.419627335704	-89.1699946140051
5969734	10.4975552920052	91.7256926100473	92.3244352915391	-83.4711844962954
5091109	9.41146650040766	85.8844984143283	86.3986271278026	-83.7463188295173
4341796	5.92280515723355	87.2678779005207	87.4686351453522	-86.1173327773276
3702781	7.84614111105161	100.535874876179	100.841579060689	-85.5374994886552
3157797	10.1744956186449	105.352315180753	105.842480484155	-84.4837155118506
2693047	10.5820938861397	115.775819546584	116.258423792422	-84.7775855649732
2296687	8.83040894168258	131.843971356485	132.139354111964	-86.1682687253148
1958656	10.7989263661929	150.524401537393	150.911272835573	-85.8965148430842
1670375	11.1731553101398	172.803359307084	173.16420065186	-86.300507384431
1424531	13.2867961702401	199.698609172924	200.140134550943	-86.1934788683005
1214875	15.5056394886888	229.209809477253	229.733675408182	-86.1299378488205
1036062	18.2019632267293	265.538395153229	266.161512555552	-86.0786581261563
883578.1	20.1833446720583	307.483770126644	308.145479105967	-86.2444721120672
753531.2	22.9101592533727	356.74272701032	357.477619819444	-86.3254883442987
642624.9	25.1223266837106	414.159629232154	414.920871713774	-86.5287737700111
548046.8	29.2658150861112	482.747586259267	483.633869752526	-86.530779122294
467390.6	138.001091429098	672.807620583943	686.81467336644	-78.408701305858
398593.7	160.062753232711	763.106032301284	779.712063204773	-78.1538496785838
339937.5	182.493898316249	866.188161949575	885.203905789081	-78.1025699559196
289906.2	203.104369123888	986.012150560521	1006.71313978223	-78.3606874426261
247234.4	222.581341204508	1124.18015890134	1146.00326488184	-78.8006044377275
210843.7	243.799604353976	1286.92131069816	1309.81094323274	-79.2727789566948
179812.5	263.466569271107	1478.76677824068	1502.05386639488	-79.897818615403
153343.8	283.272045832779	1703.70157997974	1727.09065354884	-80.5598713476767
130781.2	303.282519312115	1967.22605724898	1990.46694191078	-81.2358469543721
111531.3	326.282671344105	2276.3642033839	2299.62918055652	-81.8430676256517
95109.37	351.453126434532	2638.31924853846	2661.62502191596	-82.4122438993347
81109.37	377.391943016171	3058.93521781488	3082.127405777	-82.9667524534623
69171.88	402.549533310728	3547.38925122437	3570.1563868367	-83.5259019657304
59000	420.50392418464	4107.49672438763	4128.96511139412	-84.1547231458865
50312.5	309.445312457571	4768.31166168462	4778.34202463151	-86.2869282846864
42906.25	1699.955246967	6365.50057400799	6588.58447615167	-75.0476735838411
36593.75	1799.37208453315	7109.41775223323	7333.59125356508	-75.7968731967542
31203.13	1900.16671486667	8097.83733192015	8317.78834778373	-76.7943927180769
26609.38	2011.03261254327	9284.30510536058	9499.60912133426	-77.7782185480961
22703.13	2147.31876545391	10709.9835267646	10923.1279871673	-78.6626934964395
19359.37	2258.09676476706	12333.8888287131	12538.8920817632	-79.6251480007003
16500	2394.18158353528	14277.4139169209	14476.7625389804	-80.4806312846101
14112.02	2531.96036675411	16508.0466559371	16701.0906138913	-81.2800792961561
12011.13	2731.80877316131	19192.2595406336	19385.706214842	-81.8989883064565
10236.38	2919.08833928414	22301.1136227431	22491.3482376456	-82.5427063892859
8750.684	3174.93055805559	25873.5030689313	26067.5726738504	-83.0042238932638
7449.463	3469.41500217562	29980.3946762278	30180.4722527615	-83.3989345183295
6363.206	3891.7624132347	34657.5936136535	34875.4155497855	-83.5929953235403
5414.761	12503.2429741625	47622.4820896822	49236.4893676738	-75.2890607029297
4620.567	14068.3389781188	54382.394786345	56172.6181008251	-75.4959557627515
3941.215	15958.3885961293	61875.311470496	63900.1121763958	-75.537896273355
3361.769	15563.4502399067	68532.5419676092	70277.5233763411	-77.2053753445243
2867.244	17475.2283228775	78549.3587873273	80469.779239395	-77.4574194786023
2442.658	20826.5369202145	91822.5365853707	94154.7814243164	-77.2207879092133
2083.003	18818.3152597137	103889.19353206	105579.796940304	-79.7328640661849
1777.843	22842.3219815135	120105.257624044	122258.106407899	-79.2317551785634
1513.548	22154.6603353526	139905.556246689	141648.839187867	-81.0016791035021
1292.065	23327.1397688371	162744.431512493	164407.741417852	-81.8430103298722
1101.762	24957.0582270302	189689.876731591	191324.603984415	-82.5047765832483
939.101	27944.9660265174	223773.663986197	225511.80417005	-82.8817255166648
801.2801	28413.2443347421	252513.611109403	254107.135376275	-83.5799891815908
684.3433	44114.0461051388	291036.970646494	294361.287106261	-81.3809771638787
582.9476	131373.96191006	401671.529122113	422609.908988469	-71.8887280761668
497.0677	134230.305469169	446870.029582794	466594.683044796	-73.2808436309962
423.5089	154224.90285478	510562.849635736	533347.676556981	-73.1920924685304
361.5036	154910.518376448	577251.934804644	597676.388139405	-74.9781165075122
308.1262	170151.839037669	690317.24332257	710977.879231396	-76.1535394242231
262.7298	167420.515216122	762349.974980382	780517.208822343	-77.613836956673
224.2111	195461.961392798	878826.062925831	900300.298361184	-77.4607999295936
191.2854	177963.60395289	1032064.91330153	1047296.05632792	-80.2164404452753
163.1722	228214.732478054	1201507.69184421	1222989.24675601	-79.2453342783081
139.1537	231935.212720853	1404691.04571158	1423710.2502975	-80.6242145080699
118.6706	264950.495274647	1611219.78282783	1632858.82841171	-80.6618005394305
101.1982	299920.32399425	1851963.06999878	1876091.52585478	-80.8009719878678
86.24196	259227.279462494	2198249.0394304	2213480.88353485	-83.274488085227
73.61024	159598.143929128	2566658.91042603	2571616.1319324	-86.4418560724897
62.69291	240244.086605648	2504000.40276781	2515499.0038182	-84.5195826698258
53.57697	288576.741448196	3339099.05441535	3351545.76738888	-85.0605694199884
45.65746	16099.1456946114	4018408.97779113	4018441.22705365	-89.7704543833023
38.96512	651892.139210818	4465557.05073252	4512888.55773237	-81.6944996693743
33.18414	233190.757107608	5281067.22986443	5286213.10727712	-87.4716904134579
28.30617	1102105.69707094	5587696.27488161	5695347.80569563	-78.842315765213
24.17237	1226864.12690726	7307161.80582496	7409440.54854339	-80.469000241369
20.61345	-321796.450925039	9256422.28000797	9262014.16440592	-91.9910669098908
17.55618	-312615.119106948	11485859.146893	11490112.6432668	-91.5590567323621
14.98558	1126850.56752493	12089129.8402436	12141534.1903648	-84.6747396407472
12.76553	883611.097585163	13740565.0183504	13768946.7859851	-86.3205609072605
10.8809	1715351.21568866	15656647.8261811	15750334.9471123	-83.7475793366665
9.278505	2478450.57091317	18562760.8535862	18727488.0253571	-82.3949978697012
7.923394	420671.641930639	21056761.3493548	21060963.0158264	-88.8554980802578
6.75822	3179904.97718777	23404329.3216997	23619365.5008452	-82.2627019148055
5.761429	-4884921.0816745	29088843.0196062	29496156.3969524	-99.5327957756388
4.919708	2220752.115086	32413955.0405509	32489940.3096945	-86.0806634784393
4.191257	6549045.01285086	37391698.2843008	37960888.9669951	-80.0655806578173
3.564097	8542308.90790094	42556668.1405433	43405541.6358596	-78.6499738333876
3.051758	11203650.7254926	37712076.9311646	39341104.916371	-73.4541633640233
2.604164	10174271.899367	58902379.5559434	59774627.778303	-80.1999392607755
2.214424	13911344.5242443	73379097.9286198	74686126.6855511	-79.2651586180196
1.892567	-20812434.7604284	83073182.8851711	85640592.9179042	-104.064891935124
1.607507	24671979.5367395	84994158.6419499	88502619.0432478	-73.8131214226727
1.376413	42834727.7828514	130727677.494782	137566491.441087	-71.8579029467888
1.17375	37988718.5294605	117580203.132065	123564747.821085	-72.0949928824139
1.001604	21169731.063321	157925685.095291	159338255.061709	-82.3650894727954
