EC-Lab ASCII FILE
freq/Hz	Re(Z)/Ohm	-Im(Z)/Ohm	|Z|/Ohm	Phase(Z)/deg
6999984	-5.68961808021886	35.3921208382267	35.8465336026567	-99.1326993472989
5969734	-0.49951340216912	6.97109584266294	6.98896922918817	-94.098520271941
5091109	6.44000011067247	4.56751705279341	7.89530325275856	-35.3458580548677
4341796	8.27710789479141	9.87775146228573	12.8872219292098	-50.0385184630388
3702781	16.3084279849676	8.28987684113754	18.2944494692271	-26.9450763781462
3157797	1.75115826781416	3.67277497478081	4.06888575586856	-64.5084587170867
2693047	6.03918282688361	16.132222411757	17.2255719544787	-69.476346575548
2296687	2.56205497355332	33.2843269166991	33.3827881397766	-85.5983476064981
1958656	15.5963799301536	30.5698247455108	34.3185263654624	-62.9698378540424
1670375	43.159322539813	32.119103257991	53.7992928967761	-36.6565677661649
1424531	42.8379252468858	36.0117530143135	55.9636863923535	-40.0521276544943
1214875	17.0387836228346	54.3420605017423	56.9506776686704	-72.5913462203358
1036062	24.3514285341845	88.1110461021365	91.4141592799951	-74.5506899923446
883578.1	18.0425366191316	88.8791156491939	90.6919529298795	-78.524839850931
753531.2	23.6587700003498	132.120728760329	134.222294594042	-79.8476848083291
642624.9	-14.6840011083336	150.138961065389	150.855319821158	-95.5859187081006
548046.8	105.066290311072	111.458984804797	153.173204750199	-46.6911099478122
467390.6	104.567551989218	127.136224622562	164.614678993996	-50.5632389413976
398593.7	70.3791914233769	244.500220862004	254.427963453268	-73.9415785603411
339937.5	115.296770489587	246.591918929227	272.214841194464	-64.9410418524105
289906.2	-10.1332055432225	300.818867293522	300.989489474863	-91.9293020595757
247234.4	257.150741480506	199.80213793278	325.64919494217	-37.8466526728532
210843.7	319.320747456953	230.525932742365	393.837460665189	-35.8264951604691
179812.5	64.661368566189	453.224349479462	457.813721447855	-81.8804244738942
153343.8	342.947203313826	302.579093434614	457.34767086374	-41.4216572130396
130781.2	449.610982724423	435.938462318051	626.252647670769	-44.115446934737
111531.3	-75.5861337488083	630.157466433436	634.674480436152	-96.8398368427444
95109.37	114.161536639598	411.927852434405	427.454573094189	-74.5098381015518
81109.37	413.264792214935	-56.7581116330698	417.144185768668	7.82012332882412
69171.88	417.366653792693	376.207611247664	561.895978325867	-42.0309920985833
59000	308.112838200441	369.505853641814	481.111314499563	-50.1769278776086
50312.5	512.975283410144	823.084419901906	969.851330707431	-58.067381775785
42906.25	1424.55932308083	-554.181951139178	1528.55713008868	21.2570264078291
36593.75	551.731585375994	1251.33280219774	1367.56774024454	-66.2065910302954
31203.13	-483.608399936133	1544.93735564286	1618.86025256955	-107.381572723797
26609.38	1744.32879237238	819.10122634763	1927.07284628877	-25.1537925866051
22703.13	-343.224028613196	1501.20770912941	1539.94393396871	-102.878296341408
19359.37	680.726786634241	2740.39783721918	2823.68009241078	-76.0498340633044
16500	5.58997988242574	1.98643213339763	5.93243522564883	-19.5629678245437
14112.02	708.839760145455	571.913507534889	910.790242407068	-38.8976463451955
12011.13	3364.87791547396	453.085002573001	3395.24511716032	-7.66882236386392
10236.38	-2029.43127380077	5070.39745850005	5461.45783488661	-111.813802339591
8750.684	6079.03103274091	1713.51478349913	6315.91253979162	-15.7417117535879
7449.463	7974.42908041281	558.773775297811	7993.98194209206	-4.00820360514002
6363.206	11025.5275470631	4838.29117607545	12040.403614312	-23.6931283611663
5414.761	2996.44840981504	12072.8980658775	12439.1949410624	-76.061064036089
4620.567	6847.37827351623	11085.9586971337	13030.1599934604	-58.2979399925456
3941.215	3559.03321797373	8978.69662808072	9658.34926815906	-68.3772989329281
3361.769	11245.0461314497	3692.29881992818	11835.7143035	-18.1775386871835
2867.244	6885.49403650534	-3390.97382234929	7675.20238108473	26.2193623052556
2442.658	-1590.00335752775	12142.3879884303	12246.0482090561	-97.4602355433121
2083.003	5945.08069206938	10120.8455880767	11737.7808742926	-59.5696198188385
1777.843	6672.41592672313	7232.44088426734	9840.1898072959	-47.3063692169575
1513.548	8557.90817536859	5866.00971726094	10375.3487816574	-34.4286500276884
1292.065	8884.95280322928	367.078471629645	8892.53242445288	-2.36580805328381
1101.762	6296.2258314585	5518.23641341272	8372.17969438302	-41.2324780082433
939.101	-1070.03533945296	6858.93145559866	6941.89573101462	-98.8670188176968
801.2801	13252.4757410295	-2594.31796497831	13504.0215850681	11.0762081010849
684.3433	5900.91538001116	-10262.0804465721	11837.6981467669	60.1001787371296
582.9476	6485.91856371107	594.930894992552	6513.14688801876	-5.24087818361376
497.0677	159.586756194897	18775.9474667969	18776.6256608761	-89.51302444595
423.5089	3822.66198691832	4560.15697701585	5950.44337182169	-50.0277640452242
361.5036	676.059063713329	294.916941640531	737.585154470687	-23.5682522097175
308.1262	490.647356202222	-345.32241520847	599.985331982075	35.138258256958
262.7298	-8.34400452626321	-562.121907566324	562.183832369392	90.8504225313443
224.2111	1130.88091449968	-310.528836913078	1172.74029577491	15.3544209319693
191.2854	1470.71150354308	-552.986359964658	1571.23716890892	20.6062208370738
163.1722	1728.8492998286	-486.439328694455	1795.97971091507	15.7147941963727
139.1537	1322.52180814976	-922.493875337569	1612.46980842031	34.896790923778
118.6706	1914.42641962733	-1013.66342404817	2166.22760886758	27.9006267409756
101.1982	2819.57623017166	231.18459031474	2829.03807548573	-4.68734881435803
86.24196	907.113672546139	-1301.43595890228	1586.37661670993	55.1231235539462
73.61024	3687.91214941313	28.5520359533933	3688.02267354013	-0.44357848189123
62.69291	1516.05361016623	-1031.44074908624	1833.65442975868	34.229249255827
53.57697	273.871875253668	3923.30702271889	3932.85440851429	-86.0068665144264
45.65746	5618.71842907852	-2177.81829693298	6026.0176999178	21.1863577933776
38.96512	205.256234688316	484.386000373171	526.079765088852	-67.0354317767317
33.18414	3263.47605076286	631.482889194101	3324.0106156942	-10.9513949749936
28.30617	2644.03726885991	3831.56224911955	4655.29830923844	-55.3916975204138
24.17237	3903.35725069021	805.736511286282	3985.65040515794	-11.6632606579759
20.61345	5221.81388052821	3423.81254512744	6244.18389760016	-33.2518520122692
17.55618	4018.59910904888	2257.86019496193	4609.45457285805	-29.3295662932981
14.98558	3982.37302817898	222.653868230557	3988.59244353261	-3.20006668863082
12.76553	1988.37925223503	-2724.53388728448	3372.94188412433	53.8778341636971
10.8809	5162.35760063342	6283.65641286101	8132.29819372771	-50.595078206073
9.278505	3267.82999813939	-6594.59749902935	7359.85251692885	63.6401411785659
7.923394	5056.89247516107	-919.513880127882	5139.81198888524	10.3057116469268
6.75822	7912.44197181693	6930.14288278938	10518.251676645	-41.2136219672056
5.761429	1412.32019324429	9299.59441303794	9406.22690430398	-81.3645332751584
4.919708	5224.8781939506	221.108248863315	5229.55456987838	-2.42321727844033
4.191257	5160.40128986503	-2770.4417590507	5857.05463631104	28.2298196421681
3.564097	6083.60450313853	-4026.85471050645	7295.60159343528	33.501340754581
3.051758	6837.70790020568	-1528.80879495862	7006.53306993394	12.6031921913101
2.604164	4407.8937254205	3047.08610740742	5358.56891721631	-34.6553064018642
2.214424	-494.279363109015	-2875.03656539416	2917.21568300133	99.7549888085905
1.892567	3496.06159574086	-3213.66408251077	4748.69282186518	42.589969723513
1.607507	4460.81270922456	386.213971246072	4477.50055928138	-4.94828811820548
1.376413	3522.06823913844	-1939.22669064746	4020.6423415752	28.8368798852651
1.17375	1273.02311398528	1883.36801041311	2273.24941688945	-55.9440975898553
1.001604	2787.20854740445	-113.077543340112	2789.50139228004	2.32322582994969
