EC-Lab ASCII FILE
freq/Hz	Re(Z)/Ohm	-Im(Z)/Ohm	|Z|/Ohm	Phase(Z)/deg
6999984	22.0908819819927	-2.05995993976426	22.1867190385547	5.32738736222718
5969734	9.15167720031685	-0.647159292762433	9.17453054542891	4.04492790797672
5091109	7.512026922184	-1.39302194212513	7.64009545822952	10.5055306779787
4341796	5.07405756291338	-6.52320869045757	8.2642792650672	52.1225493104241
3702781	2.50710965763794	-5.60876146330181	6.14359861869579	65.9154138788099
3157797	4.81648637319066	-9.7334894360424	10.8599888390679	63.6721122235342
2693047	5.35110867159813	-5.02996671965934	7.34404038769758	43.2281014678399
2296687	5.60525600164451	-11.2334548899719	12.5542583854645	63.4817756439918
1958656	9.16967353350159	-5.43697263736084	10.6603744854677	30.6649647559874
1670375	12.7688462058301	-10.9775252326356	16.8389279249391	40.6860309702932
1424531	-1.30153967736748	-14.0525968963285	14.1127419399089	95.2915902887419
1214875	86.0503427119036	-217.820465143603	234.201657799879	68.4434182624862
1036062	7.04496607596538	-3.13894250237551	7.71261998575856	24.0157551660265
883578.1	10.2619665243321	4.43380837953969	11.1788467067489	-23.3673502884329
753531.2	17.8666161132765	-1.75621039086866	17.952722531031	5.61389089697778
642624.9	15.0685535626194	-7.48935429430948	16.8271130683556	26.4282397990484
548046.8	32.3068001549768	3.31172834721328	32.476097069989	-5.85287273924243
467390.6	8.83679078358324	-2.51559864376168	9.1878783127182	15.8902396028197
398593.7	7.2744546654275	4.04307546648089	8.32250863063653	-29.0649056285712
339937.5	4.39432633212584	-12.2579871707198	13.0218413978495	70.277914530936
289906.2	13.1224452656661	26.730781454024	29.7780665405462	-63.8530522952365
247234.4	539.488071655882	578.969498429243	791.361522674935	-47.0216951364467
210843.7	3.06655966922192	8.33420686955864	8.88047252962909	-69.7989791099862
179812.5	14.5330757228553	-9.87879476788972	17.5727310351104	34.2057350679148
153343.8	11.6053225064472	-0.832999245337295	11.6351793377405	4.10549814128898
130781.2	14.5389720639134	3.19535467830811	14.8859665522747	-12.3953173736587
111531.3	12.2937052689739	0.566192269123391	12.3067364856005	-2.63692022278382
95109.37	29.3825002657529	-28.6932215551768	41.0686289652021	44.3200100563325
81109.37	9.18111111089402	-5.3580633471012	10.6302231426312	30.2676815504217
69171.88	9.35643815432372	-5.72153521186914	10.9671737524461	31.446112495557
59000	6.20536563425095	-6.67432836026145	9.11335403215155	47.0852762629724
50312.5	21.1991732546973	2.82772516733879	21.3869347103476	-7.59774694937794
42906.25	314.233937735973	3139.84440449474	3155.52940915815	-84.2848991569402
36593.75	10.3809828838352	11.7047240532873	15.6449790922864	-48.4300082081445
31203.13	0.000649419995218577	0.00146214829961658	0.00159988248951645	-66.0513767635945
26609.38	-0.000400227123035192	0.00120790386880296	0.00127248320471517	-108.332109705919
22703.13	0.000693274395777486	0.000335263698756785	0.000770085148243179	-25.8081562252681
19359.37	0.000915395689056456	0.000139484005551129	0.000925961692159957	-8.66383805962196
16500	0.00104669073052969	-0.013841274119312	0.0138807935915535	85.6754677257228
14112.02	0.000173406160717323	0.000450897072342348	0.000483091985466146	-68.9642368982601
12011.13	0.000688707616881116	-0.000211482016388506	0.000720446267813093	17.0701946156901
10236.38	2.7386058079072E-05	0.000211282844021917	0.000213050314139876	-82.6146125925749
8750.684	-2.26355936252237E-06	0.000197239844466914	0.000197252832543211	-90.6575076417238
7449.463	0.000119918497463945	0.000186754682543405	0.000221940887368457	-57.294759648207
6363.206	-0.000720815000629515	0.00125525989178576	0.00144749841487254	-119.865979305021
5414.761	0.000669420357719735	-0.000178225752571731	0.000692739513965659	14.9085337166426
4620.567	0.000591810379532761	0.000516868004347453	0.000785742998213048	-41.1329094026055
3941.215	0.000184451895902125	0.000886701563261933	0.000905683258205121	-78.2489033767961
3361.769	0.000419976141498161	0.00120077704784996	0.00127210277810834	-70.7225297799575
2867.244	9.22885268246484E-05	-3.13909068248429E-05	9.74810813170936E-05	18.7851604289198
2442.658	0.000336667717903076	0.00024560585746927	0.000416734195262736	-36.111501556501
2083.003	0.000405896386165501	-0.000538635857178178	0.000674448265577342	52.9996502919442
1777.843	0.000522756436558412	4.26334039173231E-05	0.000524492039112918	-4.66243890125692
1513.548	-0.000164183710166369	0.000362483943952522	0.000397933286252067	-114.367704415607
1292.065	0.00027199676531099	5.36495866928384E-06	0.000272049670319897	-1.12997533144331
1101.762	0.000624001879668865	-0.00023912914239291	0.000668252267165511	20.9677629353793
939.101	0.000673533623253536	0.000335686391486577	0.000752550925241818	-26.491477150897
801.2801	0.00560627918307939	-0.00238869785618714	0.00609395140502305	23.0776628272147
684.3433	0.00046125927387228	-0.000184150140063398	0.000496660237807047	21.7635382874586
582.9476	0.000360608025020715	-9.29002354835828E-05	0.000372382332371242	14.4464719027593
497.0677	0.00111210631244515	0.000516353303019825	0.00122613261261571	-24.9055414331308
423.5089	0.000716845308950168	0.000929612748544623	0.00117390249135972	-52.3633749308735
361.5036	0.00132051487054334	-0.000530481595807948	0.00142308476445258	21.8864778415598
308.1262	0.000789277176722661	-0.00174794649986235	0.00191788305902011	65.6986639449119
262.7298	0.00149802495723808	0.001303236670377	0.00198557412138743	-41.0222884410996
224.2111	0.0039284300935745	0.00102317548085492	0.00405948901522402	-14.5985807382106
191.2854	0.00278043592338482	0.00293645213422482	0.00404395537322586	-46.5632372270949
163.1722	0.0033553325267964	-0.00154891590082201	0.00369559154036227	24.779376126643
139.1537	0.00221640921066436	-0.00641609529733125	0.00678813292839452	70.9427747564058
118.6706	-0.000281127069092662	0.0055064692537711	0.00551364090884627	-92.922638988994
101.1982	0.00322631165874139	-0.0102087799355277	0.0107064594844123	72.4617431670772
86.24196	0.0109264426571813	-0.00637323471090963	0.0126493189469241	30.2543889295746
73.61024	-0.00025402496852655	0.0131332776233062	0.0131357340798095	-91.1080816518147
62.69291	-0.00409180564443785	-0.012423489594118	0.0130799834528569	108.229836739489
53.57697	0.0117916320799167	0.016249556131323	0.0200771178602193	-54.0331572923791
45.65746	0.0123506314637102	0.0041657332410811	0.0130342407139134	-18.6386894981725
38.96512	0.0294400685307402	-0.0108014389154003	0.0313590292856429	20.147877519281
33.18414	0.00855563610045702	-0.0192560959016245	0.0210712158751222	66.0440429038168
28.30617	0.0285137859276725	0.0119213392222122	0.0309055709667398	-22.6893349519868
24.17237	0.0306068052408259	-0.014330026214662	0.0337953573492388	25.0888707388388
20.61345	0.0321615114422744	0.010118531415658	0.0337156862048099	-17.4644182266298
17.55618	0.0416430010580832	-0.0245699651292853	0.0483510364271316	30.5412116018171
14.98558	0.0519469040180324	0.0159545165979144	0.0543417651252865	-17.0733573427192
12.76553	0.0524161419803224	0.00708103987218135	0.0528922779408558	-7.69366581386079
10.8809	0.0352935812459615	-0.0923641875098171	0.0988776011618098	69.0874801199927
9.278505	0.0886444362402202	0.0321596678972943	0.0942978277353764	-19.9404667974436
7.923394	0.0374099931012615	-0.116937898887823	0.122776136851324	72.2598328400731
6.75822	0.183204067891473	0.00786222210325812	0.183372694336928	-2.45734665542289
5.761429	0.149955878842826	-0.118542813280184	0.191152201608836	38.327003299557
4.919708	0.120770637343854	-0.113981506221081	0.166064236381188	43.3434436015777
4.191257	-0.0466217546089604	0.172504635919109	0.178693697192717	-105.123660644746
3.564097	0.239972163938192	0.0686451515165194	0.249597268198	-15.9634235019918
3.051758	-0.265869065703587	0.359300296629229	0.44697098704049	-126.500085727502
2.604164	0.506991563057592	0.034289870050715	0.50814982062348	-3.86925045362268
2.214424	-0.022538187413577	-0.380817934156528	0.381484297012518	93.3870212819475
1.892567	0.239524118817937	0.393589434035905	0.46074336249176	-58.6768369824657
1.607507	0.457867361987727	-0.023954340209658	0.458493545852589	2.99482461204803
1.376413	0.470862553796584	0.29054734818588	0.553289531895994	-31.6768024926105
1.17375	0.592767510281625	0.0451273357960697	0.594482798474041	-4.35352469530757
1.001604	0.42842546030131	-0.1389885000968	0.450406680893554	17.9739438642617
