EC-Lab ASCII FILE
freq/Hz	Re(Z)/Ohm	-Im(Z)/Ohm	|Z|/Ohm	Phase(Z)/deg
6999984	-0.361487133915091	0.30042575891718	0.470030408172823	-140.270610671456
5969734	-0.793784347287393	0.347255318290435	0.866417824193076	-156.37215710912
5091109	-0.699165361438464	0.273130170761381	0.750621271225056	-158.661811050022
4341796	0.371759812687823	0.470766034524013	0.599854997137766	-51.7021587169807
3702781	66.246248649317	-437.098642589117	442.090249624843	81.3818938963509
3157797	72.6166169497239	-438.343871041509	444.318041876399	80.5937331533689
2693047	-20.0039470697978	1.29967326992226	20.0461230411225	-176.282669673034
2296687	-17.7665503085339	0.101637388527418	17.7668410254725	-179.672230693248
1958656	-15.1051670105591	-0.29181757506123	15.1079855677055	178.893237274989
1670375	-12.4844448425611	-0.0992615877502568	12.4848394418893	179.544461104934
1424531	-9.50601820167205	0.67685337189436	9.53008460285454	-175.927263952714
1214875	5.43225854104745	2.16492055387409	5.8477614401897	-21.7287883971839
1036062	4.13990540290143	2.65423843059646	4.91770255215051	-32.6653552244395
883578.1	3.05516021115713	3.52282510406466	4.66307844987256	-49.0666273438923
753531.2	2.11331081561759	4.75776939510547	5.20600155785691	-66.0501162564452
642624.9	1.42581560963246	6.17869000867819	6.34106934010434	-77.0056995529212
548046.8	0.95312079583145	7.4441527724905	7.50492170189832	-82.7037648254972
467390.6	0.816404094914419	8.39296828839836	8.43258159380942	-84.4441814239866
398593.7	0.845283682030825	9.09074176090532	9.12995565523598	-84.6877457826967
339937.5	1.00541979082722	9.52994062298574	9.58283033520999	-83.9775072998525
289906.2	1.28925190463682	35.5653806283906	35.5887407717092	-87.9239260011546
247234.4	2.37350914888059	34.0483717066729	34.131000008139	-86.0123669092597
210843.7	3.32088401959765	31.7311399671107	31.9044434880784	-84.025349275746
179812.5	4.10130851495455	30.3398788319724	30.6158288973793	-82.3014911575359
153343.8	5.15312412798152	31.706441787704	32.1224709372652	-80.7686571682224
130781.2	5.96271508307889	36.3079192685232	36.7942790766659	-80.6737753573487
111531.3	14.2688270247545	69.4114672543639	70.8629043369377	-78.3836057544313
95109.37	15.1488055587487	70.674765188728	72.2800715573706	-77.9019774318443
81109.37	15.4467393408316	72.7535374213679	74.3752577379466	-78.0131885398792
69171.88	15.8100564750762	84.7354715917896	86.197784377721	-79.4312017870485
59000	19.2495131807823	144.752764789897	146.027075133402	-82.4251354497251
50312.5	23.5521691793516	97.3493578724059	100.157886115985	-76.3995102056728
42906.25	23.3391951174409	61.3926203159187	65.6793107301266	-69.1850548325035
36593.75	23.3936127832943	45.1358128770775	50.8380047123141	-62.6025719073635
31203.13	23.2243250040059	34.6158951936769	41.6848830147251	-56.1417451108637
26609.38	22.977135258483	26.9800200541107	35.4382593648001	-49.58111479603
22703.13	22.6638990288505	20.949458263285	30.8631191021752	-42.7488623792586
19359.37	15.4010928210404	3.71245529687072	15.8422215744372	-13.552680660667
16500	14.3221967038827	4.68931264223254	15.0703341529413	-18.1292612633658
14112.02	15.6616593939207	1.24080588905018	15.7107343630235	-4.52983641394082
12011.13	15.3781955430291	0.198753020847139	15.3794798651625	-0.740468882030861
10236.38	14.0899706296417	-0.240150870622049	14.0920170587758	0.97646045756273
8750.684	19.9739418452417	14.2088826678564	24.5122561080372	-35.4269430420346
7449.463	19.4119145619729	17.8591124974319	26.3774586751124	-42.6142975114942
6363.206	18.8938764770759	22.2570907858483	29.1951478602267	-49.6723239474369
5414.761	18.5583976944363	27.4999971086112	33.1762560569827	-55.9865193850068
4620.567	18.1838236514737	33.3316494932283	37.969070314235	-61.3856668462852
3941.215	18.2822878805322	39.8604159565809	43.8531049114918	-65.3610772120209
3361.769	19.0393957067076	47.2810547848141	50.9705476764885	-68.066068258613
2867.244	19.6502521503332	55.4655468529514	58.8435153374492	-70.4918569716379
2442.658	20.6065714084915	64.7053806234859	67.9074154039413	-72.3350049027942
2083.003	22.4657834840433	74.6035393478494	77.9127685991072	-73.2410803600141
1777.843	23.6974655767767	85.6413964658241	88.8595445823293	-74.5329283006956
1513.548	27.0354713151472	98.3372993784274	101.985985107144	-74.6276955200102
1292.065	29.7499956305595	112.961573802065	116.813438421518	-75.2454013189408
1101.762	31.7168631596627	129.199943929847	133.036028654513	-76.2073974569654
939.101	34.8800499821217	148.848519787436	152.880671537203	-76.8116960434899
801.2801	43.8091109055867	171.099695015709	176.619205730313	-75.638278479062
684.3433	43.5186540790734	198.079161017574	202.803420292361	-77.6087949280759
582.9476	48.2488375203915	227.781532503629	232.835514627324	-78.0403467393684
497.0677	52.2004108673735	267.448039376889	272.494654371906	-78.955876000208
423.5089	60.134179775663	309.454223452359	315.242820679226	-79.0031450183063
361.5036	72.3257300937298	360.244534586799	367.433172064323	-78.6477392979866
308.1262	76.7602468255729	418.412589042495	425.395380983347	-79.604349632737
262.7298	89.9543974164415	486.853540933699	495.094096040577	-79.5316985843144
224.2111	106.554706995909	565.017732076742	574.977341418015	-79.3202198621317
191.2854	127.194769626161	654.842438813798	667.081051366215	-79.0079005680059
163.1722	154.233986374973	761.570698515727	777.031563960466	-78.5512532052866
139.1537	189.421956475347	886.183530101523	906.201923755487	-77.9345787303873
118.6706	224.84273186646	1028.27299441215	1052.56809998713	-77.6658042286914
101.1982	279.076773452806	1185.11593334653	1217.53177410392	-76.7491290522616
86.24196	346.478210308285	1372.20763834777	1415.27416176456	-75.8291880163996
73.61024	428.778913899577	1585.61569283105	1642.56764924827	-74.8681086108471
62.69291	527.134313950677	1814.79439179318	1889.80138359253	-73.8032665485965
53.57697	785.309231507913	2055.29107653629	2200.2118076179	-69.0885687398035
45.65746	960.176359265383	2361.23781380821	2548.99640138033	-67.871319904048
38.96512	1167.74729816418	2688.7007765479	2931.33853694503	-66.5238950572389
33.18414	1433.44670504591	3062.76206165022	3381.6092178859	-64.9192694561955
28.30617	1740.20282293184	3469.38579170349	3881.35847824109	-63.362199352148
24.17237	2118.15821818174	3902.08807011719	4439.91954253697	-61.5057015043651
20.61345	2577.59264430309	4373.75433312631	5076.78154015973	-59.4878014456938
17.55618	3136.48387937758	4844.94643404173	5771.57145622655	-57.0821006329662
14.98558	3736.01919991238	5360.58884181494	6534.04562220871	-55.12574197107
12.76553	4442.20882521897	5821.92245440205	7323.11411299347	-52.6558584261318
10.8809	5269.63873133684	6243.85931501848	8170.36544498154	-49.8365909473009
9.278505	6207.41535981906	6693.40528979127	9128.72826973852	-47.1573830014896
7.923394	7173.33784397213	7083.93836940008	10081.6148828063	-44.6407346413129
6.75822	55786.5777735979	7930.58642952179	56347.461884328	-8.0909203715368
5.761429	61308.5684623148	8407.84925265566	61882.4086146759	-7.80882460110414
4.919708	66786.2879230367	7078.82987644309	67160.3907594229	-6.05031972502247
4.191257	72920.8208967703	6321.89086534563	73194.3469427263	-4.95488458130082
3.564097	90113.858629029	499.190105019548	90115.2412623612	-0.317389512246483
3.051758	95275.1876177173	-1076.7907545603	95281.2723147647	0.647523668504739
2.604164	99840.9536441684	-2880.58939476421	99882.500068021	1.65262685920385
2.214424	104109.782041184	-5305.91719202839	104244.901428854	2.91753432435827
1.892567	107784.767190843	-7369.50584219784	108036.408931167	3.91136399748039
1.607507	110611.716907087	-9206.97832931694	110994.235738123	4.75815551163809
1.376413	113431.295735499	-10967.9453752145	113960.320629542	5.52289775065967
1.17375	116442.243043642	-12352.6217300766	117095.615753285	6.05549926349045
1.001604	120079.494056629	-13689.8691079775	120857.343215419	6.50402208467476
