EC-Lab ASCII FILE
freq/Hz	Re(Z)/Ohm	-Im(Z)/Ohm	|Z|/Ohm	Phase(Z)/deg
6999984	23.3589451547356	10.0399249272679	25.4251924532956	-23.2585513327155
5969734	15.6459162187373	-3.78755400036711	16.0978340042828	13.6083320513081
5091109	12.2369276861744	-4.18544246235587	12.9329164461213	18.8824200146432
4341796	10.3989605642209	-7.35953515475924	12.7397464068308	35.2877429457076
3702781	5.69524852288939	-5.49947028757038	7.91707200809386	43.9980879895603
3157797	4.08583298851886	-5.08791246820595	6.52540301392907	51.2338974997541
2693047	3.17013042199389	-4.52827422558145	5.52765722114862	55.0051057073052
2296687	2.54986890682635	-3.67293639961419	4.47127422974823	55.2303927123506
1958656	1.8466588868549	-3.26006132535062	3.74675177846719	60.4706532474612
1670375	1.38959524132156	-2.88828427671828	3.20517721785264	64.3071213478777
1424531	1.13684041063532	-2.41085466786167	2.66545049640842	64.7537419491822
1214875	0.83771724811915	-2.17510733068941	2.33085007836522	68.9363911494167
1036062	0.838336428263608	-1.85238943229566	2.03326205291754	65.6499052365463
883578.1	0.727984533317696	-1.58059470333608	1.74018421351415	65.2703206972721
753531.2	0.641573934681674	-1.35974386372961	1.50350273980903	64.7404493283352
642624.9	0.600045786403898	-1.16307121649014	1.3087358787811	62.7101160855096
548046.8	0.556167716830401	-1.00831055884709	1.15152625342493	61.1195852462264
467390.6	0.523591226096568	-0.871652355609884	1.01682132210412	59.0072617429176
398593.7	0.498266301995316	-0.765635772332222	0.913491895737913	56.9444188747963
339937.5	0.475798202056664	-0.669148600355251	0.821062591059747	54.5852651533451
289906.2	0.454370944824423	-0.58150714353638	0.737972569601662	51.9970772828684
247234.4	0.436181177495082	-0.504372718740082	0.666817710480351	49.1467726802752
210843.7	0.419313443594565	-0.430240186382739	0.600774818012362	45.7368831174895
179812.5	0.407528199880631	-0.363001552067694	0.545755770012101	41.692723545916
153343.8	0.402560379588824	-0.313421955391125	0.510184458148123	37.9033010100577
130781.2	0.399820852802888	-0.271454565544729	0.483264208783463	34.1741708229811
111531.3	0.392037693712385	-0.245599856338909	0.462615221026091	32.0659095904397
95109.37	0.384016013038781	-0.215283179786295	0.440244415943121	29.2754217816582
81109.37	0.376557324096176	-0.18490982569787	0.419508119075292	26.1535122658612
69171.88	0.372296522574816	-0.153436856400487	0.402675514059849	22.3983296878399
59000	0.366178978848697	-0.127813481178175	0.387844466921417	19.2413608845588
50312.5	0.357626077097564	-0.0976929538527986	0.370729448860861	15.2787618551222
42906.25	0.395747306564479	-0.107822521034005	0.410172679118403	15.2404882744075
36593.75	0.373493721452206	-0.0998151092290455	0.386601365743351	14.9624605043203
31203.13	0.369363507267666	-0.081218768225732	0.378187637044334	12.4013219713516
26609.38	0.368848610540451	-0.0667070176750279	0.374832127364662	10.2512520084996
22703.13	0.372868290309768	-0.058562869432359	0.377439229008699	8.92598343962817
19359.37	0.366818844274116	-0.0549953913022802	0.370918532266978	8.52657456064247
16500	0.358001868771839	-0.0522846934279597	0.361799705929932	8.30906832245491
14112.02	0.35368543780707	-0.0471212939872878	0.356810601389329	7.58879161904005
12011.13	0.361219851479665	-0.0360461335835522	0.363013918258398	5.69868062924801
10236.38	0.365176560158246	-0.0310806609194568	0.366496831599128	4.86479556238343
8750.684	0.353447382320579	-0.0324454743579203	0.354933459785887	5.24489175296865
7449.463	0.348235926999137	-0.0303378235041719	0.349554923278043	4.97895683010545
6363.206	0.359823281491541	-0.0229773238637179	0.360556169431725	3.65378967476374
5414.761	0.355376852625033	-0.023244431218362	0.356136225290744	3.74226237974107
4620.567	0.347745799670746	-0.0218102705976474	0.348429087609214	3.58883344952976
3941.215	0.360036093793137	-0.0167711755929809	0.360426498976687	2.66701998759322
3361.769	0.341757460689409	-0.0168271841557793	0.342171471726509	2.81880796667928
2867.244	0.359998892991518	-0.0169020569060052	0.360395452916338	2.68808019726884
2442.658	0.347335847626505	-0.0147921441612769	0.347650684704217	2.43860692481755
2083.003	0.353062337357223	-0.0129604436401654	0.353300137502797	2.10230705513433
1777.843	0.343871259573139	-0.0148565144224874	0.344192038230408	2.47385185062722
1513.548	0.331173520211848	-0.0139279956755554	0.331466272119873	2.40824016167561
1292.065	0.348667891043389	-0.00879800083744087	0.348778874164391	1.44544818527352
1101.762	0.339450147153715	-0.00871445164205736	0.339561988553049	1.47058900036607
939.101	0.344706053046509	-0.0112793062817162	0.34489054170432	1.874136353506
801.2801	0.342602077389865	-0.0095109345286406	0.342734067911929	1.59017274066121
684.3433	0.325060516024002	-0.0115093184043379	0.325264205666598	2.02780707190685
582.9476	0.352077970906802	-0.0129592504675406	0.352316391572307	2.10798563984187
497.0677	0.328565292671468	-0.0179498941562922	0.329055238901479	3.12702488299195
423.5089	0.339982395393441	-0.0155725986444418	0.340338853212504	2.62255044128194
361.5036	0.337249527782479	-0.0148837284881748	0.337577797497428	2.52697707034955
308.1262	0.332994581888609	-0.0105855052761765	0.33316278977269	1.82075215686027
262.7298	0.345572092124116	-0.0110809084000462	0.345749703378049	1.83658298073974
224.2111	0.322645564877946	-0.0177434342092545	0.323133084027227	3.1477292858768
191.2854	0.336701338507496	-0.00517160383801875	0.336741053094209	0.879972073031519
163.1722	0.326214139100335	-0.00258043506127851	0.326224344882594	0.45321442879396
139.1537	0.314164768024898	-0.00824423051159264	0.314272920890213	1.50319602848696
118.6706	0.334017611338503	-0.00798863196512681	0.334113128932332	1.37007043070391
101.1982	0.319904474586509	-0.0175264421628361	0.320384220952527	3.13589942628073
86.24196	0.325222272878169	-0.0130631088167518	0.325484518200176	2.30014651700403
73.61024	0.332999978810291	0.00228562853234203	0.33300782270908	-0.393257718688731
62.69291	0.244524913842421	-0.0302641447760928	0.246390649069058	7.05545385544252
53.57697	0.315803496839715	-0.0243405357993971	0.316740130547415	4.4073552260757
45.65746	0.349164277519484	-0.0215945652149081	0.349831413601644	3.53903195797699
38.96512	0.328626909912001	0.006631983194431	0.328693822758204	-1.1561228333819
33.18414	0.3303593304492	0.00762612682060832	0.330447340774787	-1.32240034214902
28.30617	0.312521322906855	0.0203374180524694	0.313182355576574	-3.7232900282709
24.17237	0.334999080315769	0.0344968278257673	0.336770567215206	-5.87936057811133
20.61345	0.32111166475042	-0.0275936556213831	0.322295068329222	4.9114555263455
17.55618	0.329238596664436	-0.00191962072130011	0.329244192776852	0.334058401492886
14.98558	0.317269878425216	0.0176097765548758	0.317758209943132	-3.17689054581778
12.76553	0.317351327701805	-0.01128923847955	0.317552062030066	2.03734166257563
10.8809	0.330245746025915	0.0627653241574223	0.336157312407152	-10.7610870433409
9.278505	0.33578665829191	0.0703371521182223	0.343074328469721	-11.8306789257131
7.923394	0.28896834081291	-0.0182113767225429	0.289541631262753	3.60612818057578
6.75822	0.246409507269742	0.0376386631236085	0.249267555519465	-8.68471091209858
5.761429	0.324633038557893	0.0207464534525581	0.325295289013213	-3.65665159895042
4.919708	0.24034533536528	0.0335857026861993	0.242680612445194	-7.9549632163302
4.191257	0.18068829625436	-0.0182527025255498	0.181607878553739	5.76831562783703
3.564097	0.246366353126695	-0.0076567362038483	0.246485304962066	1.78010309312692
3.051758	0.219965669015416	-0.0425221864142178	0.224038014369984	10.9410530867915
2.604164	0.178255462508402	0.103680030668377	0.20621483621088	-30.1838807433058
2.214424	0.198182733844199	0.0851752632459719	0.21571096741469	-23.2571361269615
1.892567	0.210318052912065	-0.0124873380936267	0.210688435832123	3.39786718937045
1.607507	0.167562071511002	-0.00952605950358306	0.16783263573788	3.25381585939204
1.376413	0.22103871597029	-0.102574820393562	0.243679518500357	24.8940421701825
1.17375	0.153124176057291	0.132400424782123	0.202427482757927	-40.848676499597
1.001604	0.179350442392097	0.0353898925750103	0.182808713366491	-11.1623523055828
