EC-Lab ASCII FILE
freq/Hz	Re(Z)/Ohm	-Im(Z)/Ohm	|Z|/Ohm	Phase(Z)/deg
6999984	-0.046583469745286	-0.022728237346015	0.0518323492267789	153.992090428146
5969734	-0.0350412390227077	-0.00726265341514059	0.0357859548828166	168.290653276093
5091109	-0.02625130995934	0.00253673657697614	0.0263735910911334	-174.48048822423
4341796	-0.0203474485263161	0.00641984437100573	0.021336191395819	-162.488939938378
3702781	-0.0167610444845308	0.00882294496049869	0.0189414088702084	-152.237865546794
3157797	-0.0133671807371465	0.00913920539304661	0.016192794572767	-145.63939709917
2693047	-0.0109498345334598	0.00873337017459946	0.0140060926355901	-141.424834149747
2296687	-0.00953333501247581	0.00808913414795495	0.0125027424081162	-139.685047804832
1958656	-0.00841372949705457	0.00761999764657502	0.011351440797688	-137.834050351883
1670375	-0.00726503889589547	0.00699456579365087	0.0100848768361634	-136.086643668293
1424531	-0.00644840836267924	0.00681189110657182	0.00937996966197993	-133.429838372271
1214875	-0.00675526496940128	0.00650448641663536	0.00937773684590339	-136.083492400419
1036062	-0.00488629350763527	0.00611610340166721	0.0078283194277344	-128.622149513328
883578.1	-0.00552160184199747	0.00584890690277179	0.00804349419461725	-133.351171267
753531.2	-0.00380635663899959	0.00528217587512325	0.00651073980734834	-125.77666921537
642624.9	-0.00329455590482872	0.00498457431539717	0.00597495436934534	-123.462721863955
548046.8	-0.00246136878577299	0.00458607363633125	0.00520484463720389	-118.222679052806
467390.6	-0.00290529651038569	0.00434923157734573	0.0052303501915876	-123.743012817333
398593.7	-0.00215803461590099	0.00366847747707512	0.00425615324010242	-120.466782848995
339937.5	-0.00183704505701658	0.00339742872655863	0.00386228643339083	-118.400811631312
289906.2	-0.0018782261713605	0.0030727477827826	0.00360132093645914	-121.435482593223
247234.4	-0.0015298174140871	0.00313760922936166	0.00349069233772035	-115.992670018378
210843.7	-0.00116606283320029	0.00244576071216951	0.00270951065548061	-115.490357919386
179812.5	-0.00108087588862127	0.00217378086617068	0.00242767706681358	-116.438087408312
153343.8	-0.00060879586978662	0.0012802272456327	0.0014176086242435	-115.432832956755
130781.2	0.000299600063738284	0.000803008300277511	0.000857077901072336	-69.5396011161304
111531.3	-0.000814469067678204	0.001440515056827	0.00165482430824238	-119.483873751448
95109.37	-0.00108681744988238	0.00100534815697955	0.00148050568594349	-137.229980948476
81109.37	-0.00131260404891209	0.0010886786364588	0.00170533004509455	-140.327562676292
69171.88	0.00133502483820488	0.000973584217767312	0.00165231883960377	-36.1018873246987
59000	0.00269608655569925	-0.00519734547218965	0.00585502200449431	62.5822892014159
50312.5	-0.000513252494194548	0.0010029599557946	0.00112665735506605	-117.100541211043
42906.25	-0.000359685480446635	0.000886042760824474	0.000956266395338445	-112.094494363425
36593.75	-0.000367517282914688	0.000907018880586174	0.000978648150757355	-112.057423994081
31203.13	0.00103372519111826	0.00130968141268704	0.00166848828988711	-51.7161388871819
26609.38	0.000836243765232831	0.000866420062418536	0.00120415420916597	-46.015346335501
22703.13	-0.000229532490708562	0.000297688134751465	0.000375903431565452	-127.634026499846
19359.37	-0.000255063925943473	0.000936914923122747	0.000971013480590152	-105.22902758327
16500	0.00859300671723693	0.00126405971172236	0.00868548279586568	-8.36838091340685
14112.02	0.000165606797240137	0.000501328683367483	0.000527973541059692	-71.7197628223827
12011.13	0.000630138349421584	-0.000624826848936153	0.000887402349874756	44.7575034399606
10236.38	1.05944792250485E-05	0.000295459111385179	0.000295648997107329	-87.9463859467238
8750.684	7.00876609762823E-05	0.000199289625867255	0.000211254905740522	-70.623866447636
7449.463	4.556310437584E-05	6.42717723970161E-05	7.87836100176778E-05	-54.6666709968773
6363.206	0.000532764583766191	-0.000457580452501405	0.000702294790118048	40.6585977510624
5414.761	0.000557581971539492	-0.000429230465667985	0.000703659326409749	37.589325867904
4620.567	0.000731210577281277	0.00029947939181548	0.00079016252407349	-22.2723649165804
3941.215	0.000872595067721978	6.12581260407601E-05	0.000874742653709506	-4.01570362267828
3361.769	0.00031339702426869	-0.000532675890267009	0.000618030176360524	59.5297992520769
2867.244	6.85141631481723E-05	5.66934543816895E-05	8.89288385262232E-05	-39.6067561011832
2442.658	0.000760115410211843	-0.000361819568625987	0.00084183658573515	25.4547329389196
2083.003	0.000843877705416602	-0.000429578103351651	0.000946924985718716	26.9784855471803
1777.843	0.000572119530548281	9.31542895913764E-05	0.000579653757776191	-9.24792269513422
1513.548	0.000305144797539917	-0.000406898538362849	0.000508605709747246	53.1327254694413
1292.065	0.000350580455141895	-0.000402956102589572	0.000534116350752976	48.9760312573262
1101.762	0.00106781988212526	-0.000420666527364282	0.00114769317672744	21.501908569468
939.101	0.000839072192762013	-0.00029981837760359	0.000891029294813196	19.6628916640145
801.2801	0.00305338719072481	-0.00581266572668095	0.0065658400975514	62.2871013453645
684.3433	0.000318580352295564	-0.000232893380362747	0.000394629912051219	36.16810978666
582.9476	0.000378766555152155	-0.000173873946984602	0.000416768824100166	24.6576340543336
497.0677	0.00117314441043846	0.000683011531541096	0.00135748759108919	-30.208214260865
423.5089	0.00106473598594969	0.000464618729207419	0.00116169414361379	-23.5750073821221
361.5036	0.000509409539480297	-0.00112278716169721	0.00123294326284124	65.596161795363
308.1262	0.00220028635197923	-0.000276062247201681	0.00221753701097323	7.15133261287971
262.7298	0.00261122164204288	-0.000231115409877987	0.00262142953301365	5.05798547174564
224.2111	0.000259422195556822	-0.00283292351360137	0.00284477688219359	84.7677879866765
191.2854	0.00228265074578442	0.00320601363556925	0.0039356089565258	-54.5495011277731
163.1722	0.00295625284842625	0.00518914856315665	0.00597215988687	-60.3298775171976
139.1537	0.00482321158826548	0.00209245960873461	0.00525754288992151	-23.4527038111735
118.6706	0.0048030008764967	-0.00213265523952521	0.0052551913181446	23.9424452161395
101.1982	0.0109831832482465	0.0170531000159561	0.0202839477030179	-57.2161211908253
86.24196	0.00835330641642168	0.00129830236373549	0.00845359787985641	-8.83444197270011
73.61024	-0.00476468578396758	-0.00892780018533977	0.0101196762185999	118.088435041407
62.69291	0.00522888930293814	0.00543044548899898	0.00753863525788125	-46.0832704821138
53.57697	0.0139511697991471	-0.00396022758739561	0.0145023633008074	15.8473078752306
45.65746	0.0220288648252006	0.00483657953484488	0.0225535670589785	-12.3831763979798
38.96512	0.00423534864197722	-0.022296733800949	0.0226954294145204	79.2445894331744
33.18414	0.0395484643272217	-0.0055859704352327	0.0399410077031717	8.0394859502679
28.30617	0.0210340016554391	-0.0183628193648821	0.0279217184404597	41.1211694973833
24.17237	1.02005864054735E-05	-0.0286270528061634	0.0286270546235345	89.979583978525
20.61345	0.033050991992416	-0.0154499554377409	0.0364838209993269	25.0541208485642
17.55618	0.0461718530086807	-0.0135202229006286	0.0481106686457162	16.3212929408305
14.98558	0.0510743329340847	0.00409097701680255	0.0512379115266591	-4.57952847055472
12.76553	0.0550827563856721	0.0570742501042224	0.0793194810623634	-46.0172542849588
10.8809	0.0491655546260079	0.0937896173084681	0.105894967191797	-62.3359746452891
9.278505	0.0746860170934948	0.00349856627310908	0.0747679150121035	-2.68198335337086
7.923394	0.0887836764398751	0.0597170542379529	0.106998447507611	-33.9252894159321
6.75822	0.179113012992767	-0.0822234180042266	0.197084149265345	24.6579090740753
5.761429	0.167305723799683	-0.0344328587152506	0.170812256514104	11.6295478213104
4.919708	0.241736782938083	-0.0698747514319851	0.251632973024077	16.1220984337753
4.191257	0.16605681460751	0.118050363943249	0.203741881076833	-35.4091527024958
3.564097	0.252290864778026	0.129293229303596	0.283491480637773	-27.1340894251819
3.051758	0.140911081510061	-0.236609159215736	0.275390317762104	59.2243554514927
2.604164	0.394867744803202	0.332516582224766	0.516224576459128	-40.1005998839624
2.214424	0.389754845726591	-0.0838336004715335	0.398668925720803	12.1389817856951
1.892567	0.40445633793413	0.0575824809858997	0.408534786048359	-8.10275195000625
1.607507	0.54225377141241	-0.0273734013667419	0.542944247334261	2.88988338116526
1.376413	0.591294878375365	-0.158938393881314	0.612283468862674	15.0453216606521
1.17375	0.186616183095587	-0.278893534722891	0.335569968119011	56.212310592912
1.001604	0.522075859201405	-0.169366184169517	0.548860735616083	17.9735370642272
