EC-Lab ASCII FILE
freq/Hz	Re(Z)/Ohm	-Im(Z)/Ohm	|Z|/Ohm	Phase(Z)/deg
6999984	2.88920807679758	1.46730260365801	3.24044753725993	-26.9240259087531
5969734	4.12632262889156	1.05721270562884	4.25960528014575	-14.370726882243
5091109	6.10966888048389	0.713650398925268	6.15120725720077	-6.66234178262531
4341796	5.6738434487062	-13.416036715958	14.5664869012525	67.0757680055089
3702781	-2.83407928595446	-10.798192278178	11.1639133763917	104.706089003654
3157797	-0.606618707457319	-1.67943709109998	1.78563579690808	109.859901666636
2693047	0.76562761501106	0.503531132604813	0.916367418871825	-33.3317624359561
2296687	0.906190817257171	0.588987525048791	1.08078124611057	-33.0222449054485
1958656	1.07452476268856	0.585270218501747	1.22357864246479	-28.5761668997467
1670375	1.35138523386391	0.576364085902237	1.4691622135841	-23.0981861754363
1424531	1.85460854716753	0.474290916808023	1.91429484066417	-14.3451615054243
1214875	2.50821556903559	0.0964287344424297	2.51006849340386	-2.20166080159899
1036062	3.33477335195928	-0.490291815508169	3.37062299483226	8.36393476091663
883578.1	4.28215340065417	-1.35156029332788	4.49038450171415	17.5170673184244
753531.2	4.12396087669633	-1.02107841345603	4.24848848873901	13.9065623132516
642624.9	4.02162841178401	-2.02377246931905	4.50212728496676	26.7125529161483
548046.8	3.55339502512585	-2.71714704453506	4.47319843805467	37.4037792155288
467390.6	2.88394223485454	-3.17875808496003	4.29204214525866	47.7839753758226
398593.7	2.29770029509496	-3.80968264043854	4.44894464642327	58.9049314807072
339937.5	1.53309257600365	-4.85500525252618	5.09131111293096	72.4751503794832
289906.2	-11.8837382768611	-2.63628815617729	12.1726435368549	167.492064701239
247234.4	-16.368126202078	15.907982645371	22.8249746377204	-135.816780546786
210843.7	-26.3366865025219	46.844429653563	53.7403167603219	-119.345389852365
179812.5	-17.4263502431005	71.9846852636423	74.0639763670629	-103.608588347081
153343.8	-5.59428273931496	68.455988979319	68.6841934254457	-94.6718791375284
130781.2	4.40123547411638	56.6614700765379	56.8321481639839	-85.5584124481775
111531.3	10.8289016435305	41.5218502233212	42.9107114456656	-75.3828538939926
95109.37	-1.87815365562356	131.600389851753	131.613791337715	-90.8176493454629
81109.37	9.63024726563845	116.749165203475	117.145675285542	-85.284538622105
69171.88	16.9290687832806	93.6012946761235	95.1199018865955	-79.7481047435354
59000	22.0751863288826	66.1832492134271	69.7677312795929	-71.5540634280309
50312.5	22.6384794486343	41.1174211842887	46.9376509488111	-61.163645700672
42906.25	23.7936077707833	22.9228035008889	33.0392295777345	-43.932117629029
36593.75	16.1901272678787	-2.50211408544548	16.382331819576	8.78531084176765
31203.13	15.464778301491	-3.60562025174902	15.8795423521615	13.1240853115974
26609.38	14.6163995121965	-4.44558474927694	15.2775115271808	16.9171633181886
22703.13	13.6135078260227	-5.06191216594783	14.5241368110106	20.3966500643488
19359.37	12.575314761056	-5.39184874012887	13.6824915193127	23.2079362410936
16500	11.5175627652316	-5.63221167033549	12.8209227573725	26.0591289282693
14112.02	10.0288342672574	-5.72892650300211	11.5498101991728	29.7369736631038
12011.13	8.80725820694784	-5.54717462558801	10.4085994951587	32.2044164078347
10236.38	8.52086822505898	-4.91330189469876	9.83594076930469	29.9686033109413
8750.684	9.60886691342302	3.39209296631801	10.1900254195964	-19.4438957355596
7449.463	11.1735566025519	8.44529560368304	14.0061195548239	-37.0830374418146
6363.206	12.1383257824396	12.6779523481795	17.5519066925319	-46.2456925578775
5414.761	12.8082604670524	17.2140239062603	21.4563313555034	-53.3485529412891
4620.567	13.3961505094046	22.1009851026694	25.8439623699432	-58.7785369911014
3941.215	13.751031445392	27.9031545917875	31.1075055571055	-63.765332456802
3361.769	14.5233449334473	35.7356639047752	38.5741522625053	-67.8826644683916
2867.244	14.8327246035929	44.051365948787	46.4815292467877	-71.3908850479776
2442.658	15.2223043138443	54.1961305647189	56.2933310154173	-74.311308225539
2083.003	15.8215922679173	66.4412085059942	68.2990261250423	-76.6056604203608
1777.843	16.5148575729816	80.2239138295608	81.9061467216513	-78.3676202319471
1513.548	17.9931276841375	97.3278558551483	98.9770891126739	-79.5259117105836
1292.065	19.540587179978	116.348884764983	117.978377397698	-80.4662500439523
1101.762	21.4968517860691	139.445602745052	141.09284447357	-81.2363053206082
939.101	23.9567326166378	165.100372817358	166.829428285586	-81.7437740397555
801.2801	26.3668703122937	195.959549862769	197.72545873631	-82.3367280619364
684.3433	29.5701216427893	229.144793046374	231.044862038165	-82.6468701164407
582.9476	35.5636763133243	271.587957175358	273.906541644413	-82.5397270087513
497.0677	39.1412588448809	321.760722816877	324.132690254472	-83.064212574414
423.5089	47.3748482777365	375.494839945938	378.471598769794	-82.8091890598013
361.5036	50.2152381887727	440.761212545713	443.612462213498	-83.5004053438471
308.1262	57.3220031630721	514.935725483341	518.11640914536	-83.6480565676523
262.7298	64.7319076879001	600.532155285596	604.010835502873	-83.8477896550349
224.2111	72.6696473394111	699.148433967935	702.9149382139	-84.0659719834208
191.2854	87.8589745128333	820.92650701788	825.614637301825	-83.8912198559058
163.1722	101.441333607101	957.62702479352	962.98487152129	-83.953213889339
139.1537	121.168563231593	1117.8856502972	1124.43325629225	-83.8138132577837
118.6706	140.546781876541	1305.62337070781	1313.16632001978	-83.8559256557258
101.1982	167.317007964021	1527.99721365045	1537.13059499756	-83.7509597876578
86.24196	195.262341436968	1779.32279631661	1790.0047473332	-83.7374379836927
73.61024	250.808784165096	2080.20051123902	2095.26590512361	-83.1250606922569
62.69291	306.178594949647	2425.27939260089	2444.52970204494	-82.8047772847788
53.57697	376.8485148247	2819.58829949281	2844.66043347222	-82.3873202352465
45.65746	476.074313294129	3286.83748640973	3321.13646420117	-81.7584417593109
38.96512	605.710265548	3815.29814736877	3863.07971430901	-80.9791045663739
33.18414	764.542886689304	4447.33306857085	4512.57102419353	-80.2456039970474
28.30617	964.405359448501	5154.43960792963	5243.88456863104	-79.4023820099534
24.17237	1215.58095961084	5957.83009863771	6080.57370266999	-78.4681743249926
20.61345	1591.17714163053	6903.43497044964	7084.43781024822	-77.0205391598151
17.55618	2020.4371784357	7915.79943082188	8169.58059027544	-75.6814794968148
14.98558	2600.61485149673	9140.63070662221	9503.38504537568	-74.1183360401389
12.76553	3314.97803483498	10416.93239995	10931.676906887	-72.347380791169
10.8809	4309.43973407691	11870.4956239464	12628.5366206766	-70.0471844268368
9.278505	5506.6576180529	13405.8832053011	14492.7907125106	-67.6688939150283
7.923394	6936.17991966583	14950.77090896	16481.3877646932	-65.1117832753594
6.75822	8689.12901113241	16556.2598747328	18697.8796662025	-62.3084153753434
5.761429	10847.2164469025	18214.8854331764	21200.0980183983	-59.225615958642
4.919708	13350.994316996	19563.4536633793	23684.9692524953	-55.6885870611167
4.191257	16044.9145771431	20614.9915359508	26123.1154308812	-52.1059163456314
3.564097	19152.5786495655	21477.5816511481	28776.8619295003	-48.2750976090749
3.051758	22254.2414902587	21949.9894233125	31257.8518134289	-44.6056467059391
2.604164	25357.0744699339	21956.6989833264	33542.1802499208	-40.8892992072718
2.214424	28581.8875266695	21737.7295325664	35908.9568188523	-37.2545179803193
1.892567	31571.9514331659	21227.1400064313	38044.4423030595	-33.9145865643191
1.607507	45850.0615024636	3266.38658131718	45966.2639451838	-4.07490219502899
1.376413	47497.6899381291	1460.70736280171	47520.1453644493	-1.76147508929163
1.17375	49046.413707961	-375.431389411208	49047.8505781917	0.438568538930606
1.001604	50405.2722583059	-2216.99978020526	50454.0043946897	2.51844515582226
