EC-Lab ASCII FILE
freq/Hz	Re(Z)/Ohm	-Im(Z)/Ohm	|Z|/Ohm	Phase(Z)/deg
6999984	-3.99253411700545	3.41388610635396	5.25308928370812	-139.467323842683
5969734	-5.67227664660251	5.17619404920793	7.67904337731255	-137.618217150457
5091109	-8.49591888523124	6.57636623251158	10.7437996318131	-142.257914783867
4341796	-15.1733052596699	10.1297243552834	18.243917014094	-146.272859237467
3702781	-14.2522170767082	78.0646142161214	79.354960048591	-100.346510436284
3157797	18.51500727933	107.627357986873	109.208304088051	-80.2390149824034
2693047	21.0999898370444	120.899110282731	122.726543332237	-80.1001300128637
2296687	-2.46313614039852	140.313851078404	140.335468945305	-91.0056940938248
1958656	-61.0119176226765	120.364824027528	134.944970099571	-116.880067051476
1670375	-82.2461666387141	135.944749055909	158.888032030853	-121.173812768187
1424531	-73.6852251609525	183.384353177543	197.634342656751	-111.890635979918
1214875	-68.2950483844439	229.899587730552	239.829176858262	-106.544825159788
1036062	-57.1864129279877	276.871673000541	282.715774469146	-101.670042943036
883578.1	-34.9757550976312	328.32477835496	330.182470047219	-96.0806677641961
753531.2	-3.18388459962142	387.152157654159	387.165249341176	-90.4711817667473
642624.9	18.7657130813807	459.313106652559	459.696293143939	-87.660422711174
548046.8	25.3165535046839	516.722636233123	517.342450101539	-87.1950663899687
467390.6	144.12855154868	774.682907411912	787.97629812558	-79.4607091134977
398593.7	147.9886307843	861.714342813415	874.329596577725	-80.2552296880056
339937.5	189.733396994051	908.536249794472	928.136239528177	-78.2042126687758
289906.2	209.539916461284	1084.71668130379	1104.77022737278	-79.0665714462272
247234.4	262.227241460342	1176.19300891897	1205.06975748035	-77.4316936736009
210843.7	297.809717988978	1359.06792173335	1391.31457406774	-77.6402503110286
179812.5	247.249856474492	1543.05573646959	1562.73910086693	-80.8966559396546
153343.8	334.913405741627	1842.99938424215	1873.1827779644	-79.70049195076
130781.2	292.449673454095	2070.37101744047	2090.92394920544	-81.9598937200789
111531.3	419.427858085677	2508.29654571941	2543.12235045942	-80.5070446389656
95109.37	462.403924044819	2864.31321585436	2901.39752317568	-80.8295052860653
81109.37	374.473856374067	3298.12319584514	3319.31427919675	-83.5222923316211
69171.88	407.608555075491	3878.60004872995	3899.95936801638	-84.0007120905554
59000	570.437596532074	4467.09291729731	4503.36742708222	-82.7228443200751
50312.5	1578.72406027796	6019.89820460298	6223.46720504597	-75.3050462254139
42906.25	2091.96450225566	7449.44537759532	7737.60634256318	-74.3141157187351
36593.75	2349.36591900712	8237.82067443393	8566.28330640093	-74.0822396990457
31203.13	2417.65793183856	9302.11165868441	9611.15764026448	-75.4309250530041
26609.38	2411.8854186153	10378.6013394436	10655.1657441651	-76.917234869353
22703.13	2643.29879523354	11933.7576605801	12222.9947403383	-77.510761849329
19359.37	2750.81902744691	13831.6297935235	14102.5170826648	-78.7518457293619
16500	2956.05045031361	16025.45127025	16295.8069048438	-79.5487154308298
14112.02	3200.92704777703	18606.3665526748	18879.6930657701	-80.2387285035059
12011.13	3262.68375940204	21757.3979290757	22000.669761578	-81.4716190870684
10236.38	3842.3650967817	24971.0533854734	25264.9416527553	-81.2523481388718
8750.684	3858.43010631567	29946.6957700751	30194.2390271846	-82.6582719765638
7449.463	4673.63719273737	37378.9743570741	37670.022678466	-82.8730738539584
6363.206	18489.122215301	51612.668753517	54824.4034728387	-70.2910352644445
5414.761	20234.8107240696	58912.9521076713	62291.1188780527	-71.0439591030259
4620.567	24273.057593131	68843.9121342184	72997.7092987406	-70.5783163029231
3941.215	25738.5424737999	75639.3401789005	79898.5754026631	-71.2075958493153
3361.769	28972.5309481187	85962.9796389961	90714.0640581942	-71.3743838634779
2867.244	29932.3890133637	94686.1572545728	99304.6639775042	-72.4571022089366
2442.658	33864.5944954253	102422.816054504	107876.058552741	-71.7042929619142
2083.003	34629.2380110987	122807.183607382	127596.193010633	-74.2525800515381
1777.843	43661.3799180371	135781.781897769	142628.918497198	-72.1745194243781
1513.548	47249.089564553	159845.948390323	166682.943582962	-73.5327731735152
1292.065	55322.96523916	188137.776193327	196103.170075917	-73.6137321099672
1101.762	54112.3496816048	205761.850497865	212758.27952954	-75.2656840248884
939.101	73963.5755637278	241746.389264773	252808.08379624	-72.9882340850229
801.2801	67399.0609359993	272765.027102023	280968.669828189	-76.1204797594441
684.3433	206571.202787021	368723.17264448	422644.57865432	-60.740974735204
582.9476	262331.258050976	429722.230074642	503466.864819256	-58.5973104405015
497.0677	259926.499927545	457819.9857139	526460.753222555	-60.4143314961999
423.5089	313577.350484112	514407.928831935	602450.223654865	-58.6339797393899
361.5036	391538.353763566	562249.65805422	685147.400527777	-55.1474914489732
308.1262	429517.890641809	619051.497053082	753465.576111511	-55.2458396545074
262.7298	419257.766309038	712913.950207813	827057.056684333	-59.5406281544049
224.2111	448566.366432406	748587.923714357	872694.485272677	-59.0692557763508
191.2854	566901.380785053	730933.795061531	925008.85849761	-52.2033764665832
163.1722	666861.375541959	769869.376336556	1018529.79868561	-49.1008673017293
139.1537	776349.964788751	992573.055943216	1260127.19168025	-51.9689393255495
118.6706	876646.53688489	1052957.87197745	1370120.2249407	-50.2207190418904
101.1982	1007652.24741795	1088115.22422816	1483023.19365664	-47.1986817993627
86.24196	1163883.00062993	1206167.85842525	1676145.74003977	-46.0221244262174
73.61024	1302212.59689997	1202553.8539884	1772538.6933061	-42.7215380220088
62.69291	1400724.77121298	1297915.80059494	1909611.29817658	-42.8182819457167
53.57697	1612614.22000029	1305108.69282431	2074568.22559122	-38.9836759581344
45.65746	1774690.97417744	1289083.3662244	2193459.36340368	-35.9935524647954
38.96512	1903547.73823272	1296456.87067629	2303105.38387948	-34.2577596357127
33.18414	2103380.57757339	1267458.79574994	2455740.55083937	-31.0724007736829
28.30617	2219580.45920171	1203974.95922465	2525092.69479559	-28.4768905025844
24.17237	2451096.58097383	1355255.55615923	2800819.89277462	-28.9389981530912
20.61345	2554263.16141821	1156571.69225631	2803911.26412852	-24.3610424516841
17.55618	2696159.28094404	1098697.08345676	2911427.51058945	-22.1711175446028
14.98558	2885445.98770891	1134241.88288416	3100371.4611114	-21.4593263461338
12.76553	3099404.91779336	1060689.71022304	3275877.51691279	-18.8921602971604
10.8809	3264371.39295264	1015539.0816904	3418689.83933438	-17.2808081716022
9.278505	3499184.6658708	950818.480664349	3626065.23783539	-15.2016933020992
7.923394	3614969.48893174	811679.94200054	3704973.51328635	-12.6549130914765
6.75822	3478699.19005148	512644.407368499	3516269.6630479	-8.38315176536532
5.761429	3472792.85972558	285201.321960444	3484484.18573093	-4.69485055076967
4.919708	3883986.13695851	222795.82637254	3890370.97104311	-3.28304129060608
4.191257	3797203.14745374	-32994.2652119115	3797346.48992812	0.497836038104072
3.564097	3453994.76327434	-285625.2889558	3465784.41776428	4.72727194056495
3.051758	3459485.26206888	-505879.531633963	3496276.93110801	8.31938156276726
2.604164	3843277.40359346	-684868.930887448	3903822.05709572	10.104001855151
2.214424	3579653.75625965	-955093.537011866	3704878.49721765	14.9391754995262
1.892567	3338458.76289708	-1132569.64407224	3525339.82904319	18.7394670447581
1.607507	3192123.16641545	-1383376.4888986	3478991.3508952	23.4305532628137
1.376413	2987288.76890219	-1484825.08272518	3335955.59249505	26.4295690611332
1.17375	2489476.14139965	-1454293.40565527	2883133.84502532	30.292467704639
1.001604	2203589.59785618	-1449566.0799648	2637621.83338789	33.3377326561814
