EC-Lab ASCII FILE
freq/Hz	Re(Z)/Ohm	-Im(Z)/Ohm	|Z|/Ohm	Phase(Z)/deg
6999984	1.99124859265294	2.48269051358633	3.18258120776106	-51.2685499872036
5969734	3.79166668141358	4.23853941862218	5.68699856041444	-48.1851661535512
5091109	8.15209057553595	-0.558867275038953	8.17122471743689	3.92178094315366
4341796	10.9008143446815	7.73363632981902	13.3655109988025	-35.3539825964027
3702781	19.3444704729409	10.4422874588299	21.982945781931	-28.3604998560815
3157797	33.9093569670287	-0.271934457427779	33.91044733215	0.459470898733671
2693047	-2.0064062079283	-13.4252980166773	13.5743984289475	98.4999247583564
2296687	1.00795952152023	-14.3431413566205	14.3785147485065	85.9801666811733
1958656	0.745478891826409	-19.2836655632472	19.2980697566706	87.7861296514257
1670375	0.358586967560968	-18.3911529704501	18.3946484662197	88.8830000544241
1424531	8.25048612598273	-19.3909981255572	21.0732372838251	66.9512069808474
1214875	16.7923255059842	-0.385181214726374	16.7967425552428	1.31401625073287
1036062	-2.67529205047842	-14.7127542540792	14.9540069980016	100.30577313705
883578.1	0.687752410403616	-0.142297131035219	0.702318910123342	11.6896510940196
753531.2	4.60995487418075	-7.1672706122913	8.52182210397503	57.2510658867503
642624.9	3.39988902758462	-0.0672112658466605	3.40055330117718	1.13251353447574
548046.8	-1.49377779014393	-7.27134119180223	7.42319168645989	101.608965642075
467390.6	-0.00871007158476664	-0.126474430283158	0.126773999157797	93.9396390753512
398593.7	-0.00569650539505777	-0.00992863460621298	0.0114467444655506	119.844837162381
339937.5	-0.00152938127458397	0.014170805286205	0.0142530954372229	-96.1597932357036
289906.2	-0.014677587462858	0.00664940223940931	0.0161135385273163	-155.627999524804
247234.4	-0.0165877941122123	0.0110021211477758	0.0199048130676849	-146.445033054904
210843.7	-0.0135893064632737	0.0111991382319897	0.0176093710078465	-140.507586015522
179812.5	-0.012181469251865	0.0109924510210135	0.0164079911196804	-137.937182755006
153343.8	-0.0109990780665817	0.0110772393785655	0.0156104116077957	-134.797144854571
130781.2	-0.00922942588429753	0.0115471532768748	0.0147823898931594	-128.634697289042
111531.3	-0.00772776930782927	0.010514965919152	0.0130492500457289	-126.31330148629
95109.37	-0.00566246554956035	0.0100494248892331	0.0115349233506034	-119.399591659784
81109.37	-0.00452130134693236	0.00895246970708197	0.0100294007660474	-116.795326593576
69171.88	-0.00337201386269941	0.00810770612736063	0.0087809666972309	-112.582539813318
59000	-0.00330076754801048	0.00656366719921156	0.00734689005688835	-116.697121627491
50312.5	-0.00200792670259832	0.00596606969345942	0.00629489930262767	-108.601056094954
42906.25	-0.00182812198499514	0.00530643978622402	0.00561251576361651	-109.009345819764
36593.75	-0.00143076657064862	0.00457188729068176	0.00479053717012852	-107.377447427672
31203.13	-0.0011871187045041	0.00388525667409519	0.00406256941382971	-106.990242549723
26609.38	-0.000982060961763159	0.00334696537213977	0.0034880683672947	-106.352655115301
22703.13	-0.000813500421474098	0.0030061921915389	0.00311431765049874	-105.14205258997
19359.37	-0.000632900218903495	0.00255423355372326	0.00263147710118364	-103.916725049303
16500	-0.000488154105468156	0.00220407451436867	0.0022574850820271	-102.488169378703
14112.02	-0.000394098627511897	0.00190654260690758	0.00194684833517168	-101.679038380419
12011.13	-0.000281955847061731	0.00167261648960494	0.00169621491002486	-99.5684910462754
10236.38	-0.000203662694525999	0.00148163875280141	0.0014955707562481	-97.8266993490777
8750.684	-0.000139862541850392	0.00132895283527388	0.0013362923216854	-96.0078448284349
7449.463	-8.6765026956313E-05	0.00119056341395146	0.00119372082688646	-94.1681919398289
6363.206	-0.000106149056279432	0.00103599488116183	0.00104141875148402	-95.8501668432149
5414.761	0.000386041927442835	0.000843493252347383	0.000927636370836841	-65.4078305681035
4620.567	-5.52257973389885E-05	0.00115127099440176	0.00115259480791931	-92.7463398754322
3941.215	-3.30475558149638E-05	0.000561063332149803	0.000562035767214493	-93.3709211679043
3361.769	-2.99527697945543E-05	0.000712645422649752	0.00071327460829754	-92.4067477902582
2867.244	0.000131323253482143	0.000501238245453796	0.000518155937542681	-75.3186253251585
2442.658	2.14045015822047E-05	0.00042605749248318	0.000426594818989914	-87.123962327593
2083.003	6.69924936064206E-05	0.000475358756574745	0.000480056185932328	-81.978113777964
1777.843	0.000150843886496581	0.000443171564391435	0.000468139844040801	-71.2027830038362
1513.548	5.93201855528136E-05	0.000357511250015857	0.000362399197435536	-80.5790081380341
1292.065	0.000117066153373494	0.000263212302782462	0.000288071519942032	-66.0224423949404
1101.762	0.000100526621531682	0.000168603189249214	0.000196297318019326	-59.1952491955
939.101	0.000341904897193257	-6.58024635060717E-05	0.000348179440702922	10.8938528236286
801.2801	0.000166480764864377	0.000111841527795874	0.000200560146613287	-33.8931464836253
684.3433	9.79517261853981E-05	6.73093107825426E-05	0.000118848996549067	-34.4956116052054
582.9476	0.000116781204808895	3.13759707667597E-05	0.000120922708116274	-15.0386925389624
497.0677	0.000118081361227015	-3.01906871070696E-06	0.000118119950241713	1.46460216436475
423.5089	0.000145573835244764	-0.000104889139679612	0.000179425397117016	35.7735767785108
361.5036	8.98539491998641E-05	-3.64315865255468E-05	9.69587163878532E-05	22.0702597839259
308.1262	1.02863646316608E-05	-6.76338609784594E-05	6.84116104779668E-05	81.3522146825631
262.7298	1.06313011513561E-05	-8.16882949913681E-05	8.23771940695214E-05	82.5849333787871
224.2111	5.92057776906808E-05	-9.38282756400787E-05	0.000110946245639719	57.7480151007791
191.2854	-1.16457254253314E-06	-7.67689571204189E-05	7.67777897999384E-05	90.8691009554656
163.1722	8.18586121918056E-05	-7.45974036629527E-05	0.000110750191978262	42.3427785419597
139.1537	-5.83332142421888E-05	-7.09809960716443E-05	9.18752724466594E-05	129.41386259464
118.6706	-2.91139739751461E-05	-8.67044296430088E-05	9.14619133866384E-05	108.561235528192
101.1982	-4.95653928330248E-05	-7.28047605578192E-05	8.80753162161423E-05	124.24698649393
86.24196	2.47480951235876E-05	-7.94317034892161E-05	8.31977387399735E-05	72.6948223981364
73.61024	-1.04650884946775E-05	-4.87532297128111E-05	4.98637692581654E-05	102.114944670955
62.69291	-3.45250450926659E-06	-7.96318796831147E-05	7.97066876068286E-05	92.482550106554
53.57697	5.77291439911638E-05	2.04300599823191E-05	6.12375817356767E-05	-19.4886208210475
45.65746	1.10784172463696E-06	-7.59036771207796E-05	7.59117613663549E-05	89.1638066698177
38.96512	3.53442273881095E-05	-8.43176413817349E-05	9.14258117702066E-05	67.2575675139039
33.18414	7.79879048631386E-05	-3.77797959942957E-05	8.66569460015327E-05	25.8470084933559
28.30617	-5.63813298177196E-05	3.13969437734869E-05	6.453388590756E-05	-150.887976981466
24.17237	6.58416162869088E-05	2.99064571081676E-05	7.23153829557391E-05	-24.4284108292356
20.61345	4.0607820364519E-05	3.20571168582923E-05	5.17363877365173E-05	-38.2886953413745
17.55618	7.62213073509724E-05	-3.61732482803232E-05	8.43693758744326E-05	25.3881667022813
14.98558	-2.24945500662432E-05	-0.0001046469403644	0.000107037315504048	102.131503151234
12.76553	7.74307983300147E-05	3.53913453111824E-05	8.5135632099367E-05	-24.5637491900235
10.8809	8.37367078647507E-06	6.70491096146178E-05	6.75699745638054E-05	-82.8812671504287
9.278505	8.7462289276923E-05	-0.000157942239457402	0.000180541970329283	61.0240158859986
7.923394	9.25820998496704E-05	-5.60081029277189E-05	0.000108205142235183	31.1720954300357
6.75822	7.93793560234354E-05	-5.20699976040912E-05	9.49334862584608E-05	33.2634314893088
5.761429	7.31305039692855E-05	4.61025692449743E-05	8.64495083953017E-05	-32.2279477844807
4.919708	7.37164478410343E-05	4.86384107053677E-05	8.83165311719383E-05	-33.4169899079818
4.191257	-4.87869491416945E-06	8.62923837768088E-05	8.64301866360915E-05	-93.235875015592
3.564097	-6.86647778604733E-05	-2.88004141498126E-05	7.4460160984441E-05	157.245115605781
3.051758	5.8322873000017E-05	4.84911845271111E-05	7.58482200965748E-05	-39.7410344900501
2.604164	-1.75732734975765E-05	7.72412399460552E-05	7.92150812019069E-05	-102.817276336226
2.214424	-1.09603333656433E-05	-7.47767862576992E-05	7.55757677467829E-05	98.3386944348066
1.892567	-1.59248101330481E-05	8.20366520381152E-05	8.3568007367631E-05	-100.985530265193
1.607507	-2.38531849326784E-06	-6.61425552104792E-05	6.61855524573575E-05	92.0653795359192
1.376413	1.67354665417644E-05	-8.2102587532384E-05	8.37908749201444E-05	78.4788886357616
1.17375	5.48779213136405E-05	-4.38345053194018E-05	7.02356754385034E-05	38.6165990875279
1.001604	6.17444824289487E-05	5.26856633966211E-05	8.1167482639052E-05	-40.4736412452162
