EC-Lab ASCII FILE
freq/Hz	Re(Z)/Ohm	-Im(Z)/Ohm	|Z|/Ohm	Phase(Z)/deg
6999984	2.89428340959973	107.108801153152	107.147898537118	-88.4521357924857
5969734	13.1447032896364	103.61634669529	104.446783229792	-82.7701133381734
5091109	19.1723362749581	95.3337261038437	97.2424691741359	-78.6290608738653
4341796	17.7851333690074	93.8252479163745	95.4960109927243	-79.2665910125074
3702781	15.7283108547888	104.427986765928	105.60579615878	-81.434835196621
3157797	18.9784745260032	110.110587888133	111.734166933863	-80.2206803329593
2693047	19.1852365239917	121.704427612396	123.207309040261	-81.0417288533817
2296687	17.1085849374076	138.028893977788	139.085151081242	-82.9342657464783
1958656	19.3826546679963	158.134526517904	159.317970671926	-83.0120734150571
1670375	19.6614143424565	181.491948139789	182.553823442627	-83.8171364129954
1424531	22.4490941899705	210.957373596077	212.148474669287	-83.9257119151727
1214875	27.1720152649246	242.230296483157	243.749533225964	-83.5996416339638
1036062	29.3451388238656	278.043324283956	279.587602284982	-83.975215468672
883578.1	31.587686555948	321.161097147119	322.710756347999	-84.3827603483486
753531.2	34.6156993876324	372.385233700443	373.990653522556	-84.6892354729641
642624.9	37.4700366669397	433.103435311293	434.721277747323	-85.0553555040527
548046.8	41.4338486283954	503.052708323467	504.756170010567	-85.2914714114261
467390.6	151.443518047576	708.122301562107	724.135576482914	-77.9282188988613
398593.7	175.966329506648	801.596239290793	820.683056950236	-77.6188216894907
339937.5	201.116192015245	908.814280528857	930.801331748025	-77.521819934775
289906.2	223.090696626592	1031.5648580898	1055.41248588747	-77.7968969722173
247234.4	248.784052497608	1177.83190093996	1203.81954280904	-78.0731772210294
210843.7	268.358578283526	1343.98184796694	1370.51214303376	-78.7080144580344
179812.5	289.176023985114	1542.49884674683	1569.37104123376	-79.3818701208877
153343.8	310.713026631972	1777.10780312043	1804.06616531388	-80.0825402085532
130781.2	330.807586172545	2047.85172916336	2074.39879572532	-80.823775708114
111531.3	355.453640911822	2367.6512052555	2394.18452099776	-81.4619933961102
95109.37	381.420412647709	2741.15120982713	2767.5605659716	-82.0783813921119
81109.37	408.589375717458	3175.84812636989	3202.02382872401	-82.6688716957737
69171.88	430.659129011249	3682.89400962702	3707.98807597157	-83.3304087660318
59000	450.058294842022	4264.15116633601	4287.83600877189	-83.9750435813335
50312.5	330.242727968608	4893.46341613386	4904.59422015896	-86.1391624693221
42906.25	1863.49417763275	6795.76598360698	7046.63365402381	-74.6656253260479
36593.75	1961.91860114352	7494.60238009862	7747.1407263127	-75.3304282557382
31203.13	2058.88749614811	8502.55038970821	8748.27873648995	-76.3878791624316
26609.38	2174.35945234141	9723.42156804777	9963.57195075957	-77.394852487374
22703.13	2320.42744458067	11086.2968879453	11326.5335479673	-78.1783149764359
19359.37	2418.94872391809	12886.234781982	13111.3065628605	-79.3684056127022
16500	2577.51660162001	14920.1782100993	15141.1792688927	-80.1986787536262
14112.02	2722.59512879028	17225.2734429306	17439.1103390925	-81.0182375837814
12011.13	2944.15635228069	20030.6900459954	20245.9032978382	-81.638407101231
10236.38	3134.83917495598	23262.858960892	23473.1298229953	-82.3252116102543
8750.684	3397.67249987888	26984.1823464293	27197.2475688585	-82.8234557089001
7449.463	3758.57014400121	31469.2083716507	31692.8686783911	-83.189060077973
6363.206	4109.38037867045	36523.4318900831	36753.8852929339	-83.5804475478269
5414.761	14898.8063991053	49645.9965122647	51833.3811535946	-73.295454054772
4620.567	15845.5708572533	56074.8946352158	58270.7124046273	-74.2208381896878
3941.215	17257.548114813	63593.1519293386	65893.1858331575	-74.8170580713009
3361.769	18443.5868437936	72489.9436745063	74799.4507305879	-75.7251388808038
2867.244	19749.7602289	82888.9742743832	85209.3603153926	-76.5981546732446
2442.658	20921.9993790631	95351.6909723726	97620.0544422526	-77.6243220843239
2083.003	22341.2858294585	109909.116090308	112156.795836304	-78.5100002440372
1777.843	24272.1165803635	126093.94678844	128408.796661197	-79.1042720691468
1513.548	25046.5805314024	146711.039013238	148833.666099642	-80.3118379181646
1292.065	26927.2701770458	170268.084116304	172384.15921373	-81.0133101467432
1101.762	28480.0851223082	197136.293141722	199182.914232704	-81.7794120146127
939.101	30142.9518009573	230173.809547952	232139.139623398	-82.5391540509561
801.2801	34041.081738054	266329.596992467	268496.274611151	-82.7161980096516
684.3433	124290.07482671	379900.912698754	399715.806754969	-71.8837433433492
582.9476	132383.79571239	424174.198408677	444352.585187555	-72.666976649293
497.0677	147722.063273921	477944.215658564	500252.417544767	-72.8247692260721
423.5089	157037.722044244	549291.670397189	571298.683100687	-74.0452266254802
361.5036	168751.741074739	619969.366498987	642525.614674552	-74.7733413915325
308.1262	174761.282522329	705334.963297983	726662.862900958	-76.0840396436737
262.7298	196852.439717396	805486.259432477	829191.773450035	-76.2666985887614
224.2111	217379.646815649	934492.370229631	959442.494820346	-76.9048589809782
191.2854	248176.157615677	1027907.95132722	1057443.21909529	-76.4263819262644
163.1722	179298.962837801	1277651.12769096	1290170.73372662	-82.0115745131997
139.1537	302073.028185902	1506731.18858208	1536713.04705966	-78.6634956373527
118.6706	264895.982561005	1673682.25659141	1694515.32232845	-81.0063200616426
101.1982	44577.2073547274	2066949.05837928	2067429.69344801	-88.7645123823911
86.24196	191506.753566047	2291184.67012015	2299174.20593895	-85.2220862224357
73.61024	537024.34288838	2214438.15406808	2278624.91056496	-76.3683413016176
62.69291	1150546.39780827	1089505.64032068	1584543.95767367	-43.4390931758968
53.57697	-193893.420747535	3189066.74168209	3194955.60869193	-93.4792674869636
45.65746	478502.792863191	3056894.42937037	3094118.3679836	-81.1035509994763
38.96512	917112.370653129	5061260.42565153	5143680.80237016	-79.7293117278551
33.18414	1443879.04546618	5189280.97408637	5386411.02460173	-74.4511672233304
28.30617	853444.42099263	7972506.79905426	8018056.62493661	-83.8898447571975
24.17237	378753.788674081	7274872.18986936	7284725.10197671	-87.0196840088792
20.61345	1697786.90387593	5646556.57685788	5896276.92248503	-73.2652018831891
17.55618	3277069.76211906	7753650.59924647	8417736.26582529	-67.0887168516788
14.98558	-277084.390399244	9406981.10814491	9411061.00970545	-91.6871700953534
12.76553	846944.066815976	12726563.956383	12754714.5945419	-86.1926194316078
10.8809	10597710.3493258	3535036.5596047	11171747.7650522	-18.446949172032
9.278505	3030988.6670198	10205046.4256973	10645650.0435737	-73.4581167728097
7.923394	4000042.12231939	12456758.5217526	13083240.0363819	-72.1974377361833
6.75822	1911903.18473317	8956395.12959007	9158186.91145456	-77.9500485908558
5.761429	11138001.2574642	-9158452.30910813	14419858.5537266	39.429460041058
4.919708	3014922.47222504	11675872.8319298	12058845.8776503	-75.5214523846348
4.191257	11208071.5391876	5928601.42490724	12679478.7938211	-27.8769693136147
3.564097	17085985.1503417	-3066611.80562059	17359003.3274975	10.1751746724621
3.051758	15984456.048251	4703503.43601644	16662106.1013032	-16.396774400761
2.604164	19686664.2931705	-4003089.88818251	20089536.5711822	11.4938313083778
2.214424	21145180.6574213	-8582227.5527995	22820457.8131775	22.0908346983491
1.892567	6039475.70002798	24822902.1979736	25547049.5412169	-76.3254840585419
1.607507	31131252.4106099	-9248724.96066035	32476049.4834432	16.5460585542824
1.376413	1592633.88773377	27778162.5392944	27823781.1370025	-86.7185946875379
1.17375	27707291.9975364	-20401105.6482465	34407835.4667604	36.3645197188308
1.001604	15358431.8493017	-65452489.5227142	67230274.5315729	76.7944500138564
