EC-Lab ASCII FILE
freq/Hz	Re(Z)/Ohm	-Im(Z)/Ohm	|Z|/Ohm	Phase(Z)/deg
6999984	-18.6805065437106	-4.50050685703247	19.2149911969746	166.454438134257
5969734	-10.3964620893278	42.0395549812652	43.3060112108891	-103.890655469624
5091109	-20.7591789528571	22.3514829922964	30.5046275629069	-132.884726325984
4341796	5.54438810555996	1.23071412263014	5.67933946130323	-12.5152947359591
3702781	-15.9272438161892	11.3998343005714	19.5865596177793	-144.407022177623
3157797	19.2977319815433	29.9824915907048	35.6560270027125	-57.2333156542572
2693047	14.7903781780032	47.0999027072048	49.3675614313338	-72.5665944435861
2296687	-14.9552817692842	22.4629361251522	26.9859954821265	-123.654720021103
1958656	-6.68301988309638	25.1942221833523	26.0655248591311	-104.856146650199
1670375	79.8839895761066	61.9728116811495	101.104308406035	-37.8037782410435
1424531	-79.8080568210116	90.0623980406862	120.335204634325	-131.545494775645
1214875	10.6107506381989	31.27366494988	33.0246899834562	-71.258589093082
1036062	8.43499644915326	209.424201677711	209.59400137753	-87.6935396717325
883578.1	-140.140150397602	177.001777823554	225.762909057624	-128.370219970809
753531.2	36.003998339888	52.4307632767855	63.6024593411684	-55.5227673456279
642624.9	43.1314842347109	39.4029374348855	58.4201712663239	-42.4133841310536
548046.8	-60.5347379774056	-89.1381757513483	107.750029597543	124.180867164372
467390.6	-78.5615347593789	-28.9608794628219	83.7296081622815	159.764124552074
398593.7	-16.1485672264797	-75.3010468756213	77.0131409827741	102.103943881288
339937.5	-25.2311743966605	50.1136905152246	56.1069883213349	-116.72427982698
289906.2	51.3694135751094	31.2997156027367	60.1538764159288	-31.3542215243739
247234.4	77.8926365080444	-2.50706700592101	77.9329725286192	1.84349628949578
210843.7	-41.7423797887767	143.145186758898	149.10724584228	-106.257143050853
179812.5	1.03501256583378	-5.49067683945895	5.58737712766954	79.3248035244927
153343.8	-2.5819885925827	1.08885333728628	2.80218962283901	-157.134305568203
130781.2	0.6132359413411	-0.267517697652767	0.669047112175175	23.5687277646875
111531.3	-0.883515754132766	0.756484814668445	1.16312912551648	-139.429164853527
95109.37	-0.611777903608721	0.527353718052265	0.807696816440073	-139.238599090866
81109.37	-0.592677980138106	0.451943603248377	0.745332280702849	-142.672850819101
69171.88	-0.475065276551891	0.162135703606523	0.501971118062889	-161.155667149108
59000	-0.618183274841005	0.300077707808463	0.687166058545335	-154.107197649188
50312.5	-0.612263950888236	0.253205406770382	0.662555751295713	-157.532167461142
42906.25	-0.480889775686515	0.221642883166486	0.529509720418973	-155.254946704394
36593.75	-0.564355855669286	0.255064903678469	0.619318687685685	-155.67905006435
31203.13	-0.650222205305413	0.160198257485914	0.669665885329213	-166.159422165545
26609.38	-0.389338926160929	0.0227752531355521	0.390004501999059	-176.652170155114
22703.13	-0.292255891813863	-0.0166610090395991	0.292730414412534	176.737197091911
19359.37	-1.60094563271456	0.743898455046408	1.76533618054133	-155.077501675242
16500	0.716695395137708	0.743371948667268	1.03259582774528	-46.0467215043624
14112.02	-0.743860289401587	1.12346367771479	1.34740445497744	-123.509074149581
12011.13	-0.530895648249614	0.0715260044688125	0.53569222380547	-172.326911759671
10236.38	-0.526760404647192	0.0646650014806571	0.530714693899243	-173.001397676099
8750.684	-0.524516614838387	0.0591380916917867	0.527839931352742	-173.567193498791
7449.463	-0.520402879307236	0.0519561927476717	0.522990059901806	-174.298574124276
6363.206	-0.51918383506725	0.0497729805843004	0.521564189905119	-174.5239184251
5414.761	-0.516089283644172	0.0456887905120761	0.518107724581298	-174.940859812617
4620.567	-0.513877896570442	0.0428994418276141	0.515665448418626	-175.227911667978
3941.215	-0.516166572858094	0.041196013860944	0.517807920462889	-175.436812080082
3361.769	-0.513783978675288	0.0425061886323027	0.51553928348425	-175.270597023715
2867.244	-0.510310811744813	0.0402957536898278	0.511899279496545	-175.485112422212
2442.658	-0.504638835537714	0.0324295538284439	0.505679770501423	-176.323063197591
2083.003	-0.503477402170701	0.0317715474154287	0.504478865485689	-176.389182527149
1777.843	-0.501540257779609	0.0315163737561501	0.502529513549577	-176.40430861294
1513.548	-0.498033848571002	0.0305955944649422	0.498972749479475	-176.484580000038
1292.065	-0.498862550315546	0.0299535309518832	0.499761001003296	-176.563877358884
1101.762	-0.494391340720757	0.0275510618178612	0.495158417869433	-176.81036380235
939.101	-0.492481281853642	0.0218621202674523	0.492966292233855	-177.458207181304
801.2801	-0.487936015509319	0.0245573726748717	0.488553599704069	-177.118786983468
684.3433	-0.48707527253862	0.0267329628571268	0.48780833574437	-176.858492257141
582.9476	-0.484286431227113	0.02437806206145	0.484899615776879	-177.118271321453
497.0677	-0.480956476076253	0.0225930077724284	0.481486838740056	-177.310498661719
423.5089	-0.468093131940969	0.0149211443409701	0.468330888068201	-178.174232537879
361.5036	-0.486797687012859	0.0275063447464138	0.487574186234647	-176.765959573227
308.1262	-0.467108152574855	0.0262429077091464	0.467844756737665	-176.78440881423
262.7298	-0.123202420542326	0.45278439176456	0.469246781398755	-105.221636427713
224.2111	0.375474634364857	-0.291262139419872	0.47519978420751	37.8013488999922
191.2854	0.403161768812812	0.255632109087496	0.477375310451637	-32.3774897690098
163.1722	0.0949907679430682	0.502842684173088	0.511736270964654	-79.3024581704826
139.1537	-0.119642229126457	0.44624796420269	0.462008126059914	-105.008438832145
118.6706	-0.1267717332048	0.451386016350425	0.468850091283403	-105.687393819375
101.1982	0.394654586812025	-0.280061431713075	0.483928350507539	35.3609153857237
86.24196	0.404958776009552	0.247595683073355	0.474652749432378	-31.4420158473218
73.61024	0.416681952743728	0.285898258345205	0.505333220624914	-34.4552123510707
62.69291	-0.114500680692141	0.457946260867414	0.472043624807506	-104.037905622973
53.57697	-0.454518300977112	0.041678134798634	0.456425188660107	-174.760779177608
45.65746	0.386515032989572	0.280901034996791	0.477806720535823	-36.0078993279855
38.96512	0.338995708932344	0.221844093482821	0.405133178705172	-33.2013629713623
33.18414	0.389310810630093	-0.214727347299132	0.444601777944693	28.8792673029488
28.30617	-0.520029679420675	0.0652792448260408	0.524110911242485	-172.845094789588
24.17237	-0.449406550944847	0.0677550653716927	0.454485419915387	-171.426336697285
20.61345	0.417084575132306	-0.2804966455682	0.502630988885792	33.9215193536402
17.55618	203.138867771602	-620.061858179581	652.489162797853	71.8606531442054
14.98558	0.491072754974898	-0.263889544272596	0.55748555340478	28.2524113680301
12.76553	0.423102261733053	0.194600107062659	0.465708842038052	-24.6994198663325
10.8809	0.365685954590189	0.233131160711936	0.433677709225909	-32.5182196626499
9.278505	0.353580818548109	0.279821331401024	0.450909495078772	-38.3578398880909
7.923394	-0.137271312151196	0.538868681531155	0.556078114184362	-104.291554038877
6.75822	0.328316911411415	-0.452993945126771	0.559460015229191	54.0664862473219
5.761429	0.491223466509335	-0.000600809335574468	0.491223833930425	0.0700777230773173
4.919708	0.380454828153665	0.550029747380554	0.668788904863823	-55.3284429798314
4.191257	0.499535988459735	-0.399850080450378	0.63985646093684	38.6752814249052
3.564097	0.0685875502667587	-0.589107809569445	0.593087062198548	83.3591712473474
3.051758	-0.113683743335448	0.595332889186409	0.606090127329094	-100.810950025017
2.604164	0.576949428141283	-0.22532661898112	0.619388995586793	21.333046448087
2.214424	-0.417167009816011	0.0179507724833188	0.417553043710114	-177.536072145662
1.892567	-0.428157348287917	0.0186686253163266	0.428564152098776	-177.50335625556
1.607507	-0.4274838197432	0.0131431335464334	0.427685817045242	-178.238976768729
1.376413	-0.430067457676276	0.0086053588213345	0.430153542764184	-178.853703187125
1.17375	-0.425171402239491	0.00833725676586257	0.425253137710558	-178.87662149893
1.001604	0.340229432866692	0.245538381331621	0.419577363183171	-35.8174080498383
