EC-Lab ASCII FILE
freq/Hz	Re(Z)/Ohm	-Im(Z)/Ohm	|Z|/Ohm	Phase(Z)/deg
6999984	3.15706492495413	0.583176563623459	3.21047564151098	-10.4657674069966
5969734	6.50880967753577	2.81603974054462	7.09187445170245	-23.3957460767595
5091109	11.5997726932335	1.42728919639838	11.6872529272212	-7.01467644916306
4341796	5.52861606918508	-5.83941397819533	8.04141475420802	46.5660561794469
3702781	0.493517412520674	-0.380089527927837	0.622918522522414	37.6021830408267
3157797	3.30418406733508	-9.35572214799742	9.92205468949655	70.5481787228992
2693047	7.21516519189387	3.1017220661697	7.85361627036112	-23.2623500428972
2296687	11.6572576403193	-12.1491400997511	16.8372581157433	46.1836641469766
1958656	0.21803461001738	-8.83398711407916	8.83667739723943	88.5861506207668
1670375	5.06748372290302	-5.42177601570933	7.42125639271464	46.9345253374955
1424531	-3.74570330443802	-9.06716400353601	9.81039022220304	112.4458320834
1214875	0.276210990544216	-9.52699852895726	9.531001704021	88.3393204026245
1036062	-0.948721880122104	-11.3366560958897	11.3762843073781	94.7837204991379
883578.1	10.8727563683002	1.03800809940243	10.9221926305498	-5.45342661800005
753531.2	8.25345152614463	-8.17185218973994	11.6145869623236	44.7153623941287
642624.9	2.69748935577193	-14.8732171579139	15.1158538445887	79.720258994692
548046.8	6.9472205631572	-13.2745311072706	14.9825581818009	62.37470659224
467390.6	9.89847134233229	-15.5246950132331	18.4118410314905	57.4786103455086
398593.7	12.8538243924981	-15.6516576211654	20.2532759770701	50.605666466127
339937.5	20.183335664319	-8.13973128144984	21.7628643306157	21.9637125523434
289906.2	17.4690375251519	-14.7965289203825	22.8933295994026	40.2650846077886
247234.4	33.3680405387353	-14.802791429309	36.5040924211835	23.9231193497098
210843.7	29.6096063877597	-8.29105051144667	30.7485009231575	15.6428937226617
179812.5	28.442290562668	23.0674774167939	36.6206554669018	-39.0430000082422
153343.8	50.7596095523519	2.80865491068848	50.8372550824152	-3.16708781090089
130781.2	41.9215469134713	-8.69172988789201	42.8131085540685	11.7133600875822
111531.3	-29.8508420846572	-35.1926985598093	46.1475763728144	130.304983853407
95109.37	2.49985401730552	1.47115701258748	2.90061598001594	-30.4766908245074
81109.37	1.33857596124505	-0.45260773096044	1.41302489792228	18.6817472764766
69171.88	2.59872885567492	-1.35542486386113	2.93096711460406	27.5452955051694
59000	4.19664920562119	-1.19953987782055	4.36471768543198	15.9516721376136
50312.5	0.596768665591079	-1.0235213705243	1.18479062966893	59.7554873275789
42906.25	1.86203720174691	5.53227118615619	5.8372259694022	-71.3979324288578
36593.75	2.64466158645651	0.431985037916932	2.67971005518559	-9.27689717083399
31203.13	1.62997018898802	0.858079235431946	1.84203767368344	-27.7640507913503
26609.38	1.3149654033438	0.836692124441962	1.55858516709686	-32.467965534439
22703.13	2.24620665824219	-3.0268967455953	3.76929015333484	53.4215420348108
19359.37	1.12662239917126	-0.629729531928571	1.29067320174294	29.2031603445363
16500	1.27790905125933	-1.00355884811206	1.62486365733083	38.1430150923846
14112.02	119.800098130723	-47.6626139323064	128.933270644124	21.6951958816554
12011.13	129.610444230036	45.2244384098332	137.2738761855	-19.2352015882612
10236.38	107.981241754069	-281.968727471505	301.937595941033	69.0454250178301
8750.684	208.415291154388	-347.8136918148	405.476630400334	59.0693130721303
7449.463	523.465518067094	-529.421591940533	744.515527452651	45.3241128627213
6363.206	489.865114643326	-823.714285518108	958.369998858023	59.2599361305703
5414.761	826.505790446746	-582.848321507283	1011.34760964065	35.191325607943
4620.567	507.527764953275	-1233.0146927489	1333.38279002436	67.6271825875428
3941.215	696.547717636776	-1088.17092883401	1292.01187815921	57.3763373790777
3361.769	-82.6177142583839	-1314.93730592107	1317.53019138547	93.5951768489186
2867.244	1110.20759311653	-1270.35044208252	1687.11325805734	48.8485538774875
2442.658	-811.013150938572	-1554.25467306215	1753.12575696407	117.555641587715
2083.003	1273.12152803032	-965.322074144525	1597.71246848892	37.1705853929106
1777.843	1763.94076890265	-547.57738228421	1846.97807940054	17.2458290982095
1513.548	492.038124380047	-1739.64718035156	1807.89209521713	74.2070872026047
1292.065	3190.35475135428	-1843.92997840822	3684.89364904353	30.0266324764322
1101.762	1095.32550642471	-1760.5996453609	2073.51129157029	58.1129319204979
939.101	1178.80414442597	-2044.83804052697	2360.28426739281	60.0374971543423
801.2801	2727.62008858255	-812.065149471988	2845.93765824658	16.579284376822
684.3433	2090.76161212895	-1354.82937731843	2491.35440280926	32.9435434227093
582.9476	197.497951075052	-2461.00477399052	2468.91675402047	85.4117925484035
497.0677	1846.16738948247	-69.8171633770565	1847.48706796301	2.16574265038003
423.5089	1260.68919933983	370.403141213651	1313.97707147159	-16.3733175086284
361.5036	176.791879302704	-19.3422014054643	177.846814260451	6.24370444003502
308.1262	126.446519838094	-99.0726076329788	160.636558610933	38.079193323585
262.7298	66.3440727645464	156.160231100769	169.668953460652	-66.981974814446
224.2111	174.899005977124	-100.783296863359	201.858701121438	29.9521422334872
191.2854	213.550921756045	35.3436148349419	216.455924595418	-9.39751624586493
163.1722	261.438122647338	134.244713333532	293.890345250344	-27.1798458347011
139.1537	13.8733451725223	-226.682837399994	227.106975846159	86.4977767532945
118.6706	12.0731495187551	-154.530954656181	155.001860912226	85.5326866431761
101.1982	321.173839334413	57.5456217157999	326.288420958307	-10.1580604231216
86.24196	54.2668294898738	-99.4474049106953	113.290225202154	61.3794216063182
73.61024	533.104755095952	19.865206656752	533.474747613634	-2.13403860374426
62.69291	548.520068641006	-135.516148342398	565.012293816243	13.8774732459928
53.57697	95.3641898629807	-212.153723395248	232.601657471932	65.7958375869661
45.65746	-21.5874048323444	292.407808637645	293.203585584599	-94.2222791556892
38.96512	273.168518833615	-379.793384932515	467.829087296043	54.2742120959466
33.18414	490.293732164956	-37.7423729204384	491.744273493761	4.40189665716149
28.30617	-174.380315860745	325.327407935935	369.115722929825	-118.191968514987
24.17237	-47.2186154518008	-362.588548670611	365.650178821569	97.4196701314168
20.61345	843.89987428522	-173.916323058104	861.634426682605	11.6448515240184
17.55618	1348.41537569191	-149.14482063065	1356.63856753496	6.31168588242729
14.98558	251.980518558482	1224.27040463968	1249.93288036183	-78.3697401757891
12.76553	594.577977414615	-350.611458252968	690.254566000637	30.5270538146994
10.8809	-504.24345628699	-1397.78046251176	1485.95144085796	109.836696875933
9.278505	886.813315167121	-30.6246681535603	887.341944380641	1.97783140118436
7.923394	862.747413791468	-386.315196056683	945.289654396037	24.1215575524754
6.75822	1315.14459776702	-151.909499360566	1323.88889603009	6.58891151160134
5.761429	453.437214070727	1072.41310918503	1164.33465286236	-67.0804089636494
4.919708	802.480240688942	157.0646752231	817.706456437223	-11.0741683713342
4.191257	1006.64430371782	679.47938567502	1214.50606822891	-34.0191341731966
3.564097	957.826378044633	31.254270890156	958.336162276566	-1.86892186461251
3.051758	616.412268423803	903.235981848862	1093.52609642836	-55.6884667399798
2.604164	251.808585062679	-649.155992958768	696.283754446097	68.7986520954673
2.214424	699.171746315145	-78.0878631944592	703.518901824	6.37274026507643
1.892567	1087.97802929465	-897.496771178276	1410.38882812624	39.5199644543768
1.607507	361.935986100297	-1541.41024189569	1583.33293777882	76.7858556469295
1.376413	-201.990297330724	1048.80899018346	1068.08257082746	-100.90113358197
1.17375	809.523461033872	-69.2893611388833	812.483384157051	4.89218122611729
1.001604	808.245258104847	325.532786021378	871.339194587166	-21.9378435078933
