EC-Lab ASCII FILE
freq/Hz	Re(Z)/Ohm	-Im(Z)/Ohm	|Z|/Ohm	Phase(Z)/deg
6999984	-6.67732354608973	101.753369806963	101.972226203079	-93.7545164117444
5969734	-0.623847014742062	99.4692827379447	99.4712390266602	-90.3593404051377
5091109	11.0269680286305	94.2452584977376	94.8881592887638	-83.3265699488044
4341796	10.7173598391926	93.727613810948	94.3383664932616	-83.4767994826877
3702781	9.65961931952134	104.842346208928	105.286398950628	-84.7359315332672
3157797	14.5134974155401	110.563352052442	111.511866742079	-82.5216215424251
2693047	9.65820652598546	123.249352638379	123.627197165826	-85.5192794307701
2296687	7.63274154402544	135.788740065209	136.003090670671	-86.7827659605926
1958656	10.0399356196363	158.619672591049	158.937097117501	-86.3782577572302
1670375	10.3565787382074	181.490121523584	181.785376017451	-86.7340072522269
1424531	17.3603961424913	216.044599690539	216.7409799961	-85.4058337873342
1214875	23.0013133954462	235.82171280813	236.940795663549	-84.4291699297542
1036062	33.1583295310576	280.934058556815	282.884110678727	-83.2685866199372
883578.1	29.7474913760859	330.58266019987	331.918376213178	-84.8580861351891
753531.2	21.0298658592744	367.793127860705	368.3938655293	-86.7274755333625
642624.9	29.4982041681245	427.307866141442	428.324825938793	-86.0509842646515
548046.8	38.9566744698279	502.054608333606	503.563751907104	-85.5630534063181
467390.6	147.683522976229	706.884160690679	722.146549942625	-78.1993998232967
398593.7	172.266239024799	799.933554474254	818.272172740564	-77.8469161877322
339937.5	197.000162025052	906.381323619132	927.543081287046	-77.7375958404213
289906.2	221.989110543013	1027.51054834351	1051.21695770039	-77.8088717901356
247234.4	245.927764543986	1172.08611443987	1197.60858590625	-78.150068157136
210843.7	268.303082108914	1339.62216946664	1366.22622606787	-78.6744964270192
179812.5	290.987224305441	1536.09841441639	1563.41674018207	-79.2734092102695
153343.8	313.175506825073	1766.61748228489	1794.16170586426	-79.9473794646819
130781.2	336.144185465871	2038.99292200045	2066.51519457043	-80.6385384529482
111531.3	256.735182801596	2359.24621786791	2373.17417620625	-83.7894625514906
95109.37	166.951665963561	2510.47196457645	2516.01715886286	-86.1953123332449
81109.37	420.467481678466	3102.90425966503	3131.26296369316	-82.2829846207531
69171.88	166.014835791708	3226.80651089553	3231.07430809952	-87.0548063217207
59000	-210.288076566659	3324.66958189878	3331.31339023352	-93.6191837805345
50312.5	381.683436790115	3387.85120193604	3409.28409088761	-83.5720250682385
42906.25	1932.55548799696	6774.15828667783	7044.42980000178	-74.0774268535666
36593.75	2056.24086476506	7450.18693657154	7728.73934634821	-74.5705716278357
31203.13	2157.6692450801	8517.6207350348	8786.66031874792	-75.7849556746154
26609.38	2357.37186592057	9651.94418515131	9935.65441566433	-76.2748918852318
22703.13	2535.38122479618	11094.634191975	11380.6443494554	-77.127624971725
19359.37	2767.00047884894	12760.0621160072	13056.6257836515	-77.764925927249
16500	3010.18825291636	14742.0803801877	15046.2675522507	-78.4594080707271
14112.02	3269.64908885722	17009.7845001958	17321.1828091319	-79.1192262675998
12011.13	3680.43668146094	19758.7364353641	20098.5889974502	-79.4485051124614
10236.38	4176.30012526576	22876.5949007243	23254.6786042753	-79.6541396651339
8750.684	4700.71212013113	26510.6181204151	26924.1446951027	-79.9451449292808
7449.463	5472.05553107253	30819.3509092757	31301.3702927558	-79.9319096042133
6363.206	6354.58130797451	35639.5135813868	36201.5970907019	-79.8903128682868
5414.761	17928.5941001207	48271.8884116238	51493.7830930214	-69.6245707571484
4620.567	20344.0481146714	54336.2812288745	58019.9254694058	-69.4735963781314
3941.215	23116.1093158102	61192.556926797	65413.1755316907	-69.3054332652605
3361.769	26574.6549119834	70914.995852894	75730.7660103011	-69.4570378978521
2867.244	30153.1456063706	78471.1266939972	84065.0338403806	-68.9803370123033
2442.658	34812.4955886518	89061.4136457572	95623.4555414652	-68.6503706180874
2083.003	40274.77697176	101248.517959703	108964.76517279	-68.3082575186148
1777.843	48846.2878509464	113591.552043588	123648.698062247	-66.7314776664148
1513.548	56612.8666916082	129850.066914849	141654.70889749	-66.4434517828025
1292.065	66515.8603091858	147902.176918665	162170.939474221	-65.7851805719767
1101.762	80298.4678332261	163385.107553426	182050.919543429	-63.8273837860147
939.101	96543.9736397623	183032.609130783	206933.986699568	-62.1897558159718
801.2801	115391.699913397	199139.961561776	230156.400518711	-59.9098421575872
684.3433	137269.384169562	220742.386979863	259942.465249252	-58.12444837218
582.9476	162419.688952347	237104.521329741	287399.911959594	-55.5883480948586
497.0677	289013.792429723	310316.442556911	424058.093585994	-47.03566957707
423.5089	320385.377277648	329190.947451039	459362.024831236	-45.7766463884716
361.5036	352852.208516649	320621.153392983	476762.629678673	-42.2600319771869
308.1262	397644.837568739	320992.709374921	511035.944251401	-38.9116723520203
262.7298	449744.846099862	370165.701146648	582488.689073683	-39.4563317616496
224.2111	453654.494517868	337504.893377523	565430.7680433	-36.6481051795308
191.2854	476815.37518322	355489.836357717	594748.624012491	-36.7063807168736
163.1722	528128.376584211	322401.830398026	618758.856419422	-31.4024416524121
139.1537	572675.661279039	349378.583181242	670837.392672111	-31.3865764510649
118.6706	595968.195859496	407642.155771345	722045.85563379	-34.3721220116208
101.1982	574622.246647078	370825.321306305	683887.523839747	-32.8356726586201
86.24196	682177.178432307	439033.666936013	811243.652349371	-32.7644081680617
73.61024	742851.491292993	365546.367998585	827920.579085446	-26.2011250586365
62.69291	534969.325696021	297028.361632149	611897.072267497	-29.0401309335098
53.57697	642862.896784353	363408.853097681	738470.513000852	-29.479371838413
45.65746	879631.278288685	384099.296497751	959835.118816692	-23.5889417156997
38.96512	954740.989614934	461923.107519283	1060614.59282398	-25.818641352919
33.18414	894283.918357067	470871.01428345	1010674.64533568	-27.7683365156579
28.30617	649175.383373255	551103.624881911	851553.805543605	-40.3288834582764
24.17237	441954.88052374	841388.789037739	950399.500598115	-62.2884764440728
20.61345	647192.146831327	501143.663702318	818536.893847262	-37.7518797239606
17.55618	648737.094203813	579070.041053957	869587.218076622	-41.7524601256364
14.98558	497341.828788839	275315.230594092	568460.527090585	-28.9677491752509
12.76553	620936.114590159	127833.822386032	633958.314519296	-11.6331058892182
10.8809	595258.117382411	-86548.3647595418	601517.120082382	8.27262820668459
9.278505	246606.801467071	432084.124324769	497505.381903876	-60.2849576260593
7.923394	555223.960653061	123623.379407711	568820.170545537	-12.5524338602394
6.75822	285268.978122877	421572.448709887	509020.35262897	-55.9146361000297
5.761429	544556.459715956	205506.887190516	582043.656868719	-20.6757034288893
4.919708	423473.60245658	477631.695603611	638327.446239572	-48.4394448230303
4.191257	675461.525849468	262906.96914576	724822.976545516	-21.267265163628
3.564097	402555.664801744	-504008.672534886	645039.382715779	51.3853646224749
3.051758	-197748.113845133	644738.918244833	674383.117544342	-107.051319850684
2.604164	464696.388637694	-572525.035413146	737378.905168665	50.9351000095934
2.214424	297150.254659347	630256.650374538	696793.885726222	-64.757294287512
1.892567	676746.719039221	257405.640896232	724046.811812296	-20.8246839147792
1.607507	587494.235999415	-885899.758949342	1062999.46389405	56.4492114524647
1.376413	120730.819131865	984451.418071858	991826.862527903	-83.0082918936093
1.17375	-678440.135552923	1009660.2048308	1216427.04127623	-123.899086520726
1.001604	-986037.063087176	1318157.7311965	1646149.71800705	-126.79802378097
