EC-Lab ASCII FILE
freq/Hz	Re(Z)/Ohm	-Im(Z)/Ohm	|Z|/Ohm	Phase(Z)/deg
6999984	2.54288950651335	1.06119005905427	2.75543306646547	-22.6515884924436
5969734	4.38826195833908	0.936785677591142	4.48713833314127	-12.0503566739443
5091109	5.68503154106303	1.06377880420593	5.78370201230659	-10.5985790239079
4341796	6.93705464449575	-10.8551325368476	12.8824155162472	57.4190800305945
3702781	-2.84500905092528	-8.76586713550177	9.21599170665408	107.981115760622
3157797	-3.98955556047461	-3.96590779796808	5.62538694065555	135.17031226654
2693047	0.732012841979936	0.512083958621047	0.893349193485138	-34.9749423670339
2296687	0.877015116068455	0.630027166493495	1.07985635356393	-35.6925834645911
1958656	1.04523337709883	0.639632776136885	1.22541539932792	-31.4646362210736
1670375	1.26584753561767	0.662040917289938	1.42851956920282	-27.6096615838744
1424531	1.58986191883548	0.518030648957736	1.67212938321853	-18.0473569465518
1214875	2.19849758800354	0.374431928399121	2.23015490795192	-9.66545422917991
1036062	2.93418784674366	0.0228300970213389	2.93427666270722	-0.445793479431426
883578.1	3.88148595966485	-0.62105940069635	3.93085843477842	9.0905884845913
753531.2	4.95244107438396	-1.4134900485015	5.15020647279875	15.9294241864287
642624.9	3.83314967223674	-1.50533151584096	4.11813785373349	21.4406307332787
548046.8	3.53392221690939	-2.08864401498684	4.10500183392239	30.5842407322314
467390.6	3.06665336934858	-2.53343091940786	3.97776760396441	39.5608736409492
398593.7	2.71905175345895	-3.21228919715256	4.20856796596315	49.7536553064557
339937.5	2.14417883231042	-4.29932913681259	4.80434531352335	63.4934639830124
289906.2	-11.9277477836606	-2.81880494395416	12.2562975038418	166.70361747936
247234.4	-16.3836875595753	15.8291053377192	22.7812597071012	-135.986318758365
210843.7	-24.9109402367078	57.8194837406406	62.9575066494141	-113.30830545241
179812.5	-13.238696030046	68.003904321937	69.2805461554909	-101.016298098792
153343.8	-2.23635515327542	61.1042670301513	61.1451775176393	-92.0960327779587
130781.2	6.53920987294147	48.4892075189056	48.9281566337203	-82.319482032303
111531.3	11.9938947990225	33.9667145925541	36.0220933964428	-70.551501878111
95109.37	4.60066567164495	106.205828217061	106.305428233436	-87.5195896851308
81109.37	13.1239535137884	86.2373341768063	87.2302468284611	-81.3468861750684
69171.88	18.0943362158431	63.1492448212588	65.6904264302436	-74.011250228229
59000	20.935710326349	40.1431189715987	45.2744295119963	-62.4567541485027
50312.5	21.4446643349929	23.173154124151	31.5732275908272	-47.218523327808
42906.25	17.0898181510746	-0.671568476146267	17.1030081756091	2.25036049531172
36593.75	16.4450494678569	-2.27407995573093	16.6015388336539	7.87313338402962
31203.13	15.7060713004278	-3.48564579894142	16.0882069333347	12.5128424765959
26609.38	14.7926969709491	-4.34791415145985	15.4184383496771	16.3792762696977
22703.13	13.7647232617391	-4.9945500435869	14.6428527483601	19.9433774230429
19359.37	12.7924991688551	-5.31983790368489	13.8545555795428	22.5802781652616
16500	11.6719914429805	-5.45224967899693	12.8826399005457	25.0383358613083
14112.02	10.21835167484	-5.64884247158887	11.6757925735057	28.9344087611522
12011.13	8.97089114239783	-5.47528173671929	10.5097858201394	31.3973308688795
10236.38	8.67860320915345	-4.82441878482999	9.92940936175708	29.0695981529134
8750.684	9.75379153055133	3.37604484139123	10.3215370944709	-19.0920881901934
7449.463	11.3390364084485	8.42621988521116	14.1270990732722	-36.6166326078443
6363.206	12.2754830954659	12.66561200783	17.6381748704325	-45.896148195802
5414.761	13.0025984405132	17.1243999627117	21.501456701539	-52.7905092375655
4620.567	13.660296712107	21.9812358017351	25.8800779294476	-58.1410068524593
3941.215	13.99327787152	27.9192575806666	31.2297417447724	-63.379731860679
3361.769	14.70145175571	35.6278809712324	38.5419068836218	-67.5770487804688
2867.244	15.0391322393958	43.93458510061	46.4373046857456	-71.1035467137195
2442.658	15.6865339117114	54.144339604401	56.3708866114414	-73.8428006364605
2083.003	16.2447112503159	66.1497842462842	68.1152303045075	-76.2026419072658
1777.843	17.1974960708908	80.4788605548781	82.2958131822015	-77.937901885599
1513.548	18.4489556888323	97.0635724259298	98.8013211353585	-79.2381150100894
1292.065	20.4275011355337	116.429827825314	118.208238334198	-80.04879299442
1101.762	22.251405189364	138.289279558503	140.068018739865	-80.859184499853
939.101	25.9100260460677	163.894210791775	165.929629002077	-81.0164614146165
801.2801	28.2938438078071	192.4194334817	194.488508603565	-81.6350266502397
684.3433	35.2873313263461	228.275439008693	230.98673513158	-81.2126421636692
582.9476	40.0174370744288	267.93275003503	270.904695070683	-81.5053090054221
497.0677	44.9514200779887	319.901712511841	323.044479654174	-82.0013758644463
423.5089	52.2168620295955	373.836840630716	377.466003890381	-82.0484729952061
361.5036	60.6086884766308	435.856987601666	440.050822928507	-82.0834234207091
308.1262	70.6359655789434	508.193669646784	513.079180538769	-82.0869184632594
262.7298	84.3633192043313	595.415180072082	601.362125750734	-81.9355430137858
224.2111	103.066495894344	693.21697990995	700.836988044588	-81.5432961072393
191.2854	123.350518124347	806.872631396845	816.246772501315	-81.3082115238971
163.1722	147.49501514282	944.453643263292	955.901388096747	-81.123833705424
139.1537	181.53584530444	1095.89325573714	1110.82730030395	-80.5943061111641
118.6706	227.257633022789	1278.58607723626	1298.6255767809	-79.9214244765624
101.1982	282.978678211496	1486.81237236602	1513.5018873272	-79.2240202483292
86.24196	371.986368473128	1717.8256276121	1757.64010685087	-77.7815417033078
73.61024	467.603029021919	1992.75844340761	2046.88514736972	-76.7943927180769
62.69291	601.516242243492	2293.8628511895	2371.41910461857	-75.3062494367836
53.57697	767.310321864247	2626.75927600369	2736.53602645952	-73.7162342595161
45.65746	988.857108935943	3001.19757841209	3159.9090630206	-71.7635940937103
38.96512	1266.04983072713	3419.94444238499	3646.76598685523	-69.6856480581093
33.18414	1608.89978617026	3827.35430594343	4151.77064698454	-67.1996414808162
28.30617	2037.17266445732	4285.20166051502	4744.78932473222	-64.5737186099521
24.17237	2567.63634998806	4724.59734118109	5377.22758139131	-61.4776265724037
20.61345	3171.82307937924	5145.85802993464	6044.85868413196	-58.3509958843748
17.55618	3916.01532476552	5528.19581811486	6774.66789054792	-54.6873375845477
14.98558	4745.11490152013	5849.02085682158	7531.74351741762	-50.9487364051175
12.76553	5621.58569661008	6043.56194852242	8253.90009449831	-47.0717200815396
10.8809	6494.93238343642	6108.79276797022	8916.36112701904	-43.2451813397128
9.278505	7388.82325427965	5929.48359658169	9473.83157994246	-38.7468209352052
7.923394	8270.24008175538	5902.41491409326	10160.4809348763	-35.5151957312186
6.75822	11245.0279114941	1756.31055473389	11381.3566631993	-8.87705284392399
5.761429	11779.732685602	1163.38365215221	11837.0420150616	-5.64032430485614
4.919708	12287.1274316471	588.095690314397	12301.1933186378	-2.74024227493755
4.191257	12648.0338136575	-14.8008118129344	12648.0424736579	0.067047864960886
3.564097	12924.2499055097	-554.909185010884	12936.1570732453	2.45851319749378
3.051758	13115.6675730113	-1011.8323831722	13154.6395107344	4.41145072839529
2.604164	13264.9817767958	-1465.68888481284	13345.7103762141	6.30521145934232
2.214424	13389.9152904814	-1868.72287393517	13519.6877429117	7.94499375069493
1.892567	13514.2793987361	-2188.06882743896	13690.2663546299	9.19683204854241
1.607507	13643.9606158954	-2497.12735582738	13870.5914192339	10.3715273088535
1.376413	13783.1386914029	-2717.54368968661	14048.4858932129	11.153626158363
1.17375	13908.7933269679	-2938.90391671844	14215.8956117443	11.9310038356406
1.001604	14076.2427055403	-3117.87438917866	14417.4113283895	12.4893168295278
