EC-Lab ASCII FILE
freq/Hz	Re(Z)/Ohm	-Im(Z)/Ohm	|Z|/Ohm	Phase(Z)/deg
6999984	22.5797788517557	84.8220403248787	87.775992947215	-75.0934529116721
5969734	20.6417990534208	87.0194573882328	89.4341647934628	-76.6555650443167
5091109	21.1428593877067	86.3844447268732	88.9342048587524	-76.2470461363885
4341796	19.5791095849223	90.0306623763998	92.1350188585843	-77.7308349384388
3702781	20.6425760227852	99.0402486758401	101.168605815385	-78.2266153185655
3157797	20.4193484183909	107.618500299855	109.538538408277	-79.2565069553131
2693047	20.1633909031126	120.716322659401	122.388695920499	-80.517357879278
2296687	19.7880490337208	138.234656724792	139.643786844894	-81.8535527533026
1958656	21.3480038934167	157.981317945359	159.417169997419	-82.3042413549525
1670375	22.0756154091623	181.613496732475	182.950252776786	-83.0695410819087
1424531	23.8224600518123	210.137100618377	211.483121452323	-83.5322045014769
1214875	25.90677870427	242.619631450177	243.998866283948	-83.905085434548
1036062	27.9421251874145	280.566953945832	281.954921940426	-84.3125730184451
883578.1	29.8307873390757	324.890211294764	326.25683942015	-84.7539224080343
753531.2	32.4184421311812	378.446287413379	379.832262778167	-85.1038850293002
642624.9	35.2337106271349	440.209055793027	441.61683297486	-85.4238819578808
548046.8	39.0359375033202	513.1543829049	514.636983816041	-85.6498565122804
467390.6	143.885728720999	708.012903810749	722.485553414116	-78.5125212583357
398593.7	175.414284302765	810.443631613632	829.209895720344	-77.7871566897001
339937.5	198.722764885089	920.344833389709	941.554751265536	-77.8156326921181
289906.2	221.797038377279	1046.27752834721	1069.52821026716	-78.0312367104258
247234.4	243.149810611009	1195.36753078593	1219.84645101645	-78.5023226095824
210843.7	263.565827163153	1368.56414765309	1393.71258568244	-79.0991154489907
179812.5	285.060398887486	1572.37175704934	1598.00261995415	-79.7242696992579
153343.8	305.433345596925	1811.36293131263	1836.93363993804	-80.4287786041508
130781.2	327.042811165601	2091.77681533695	2117.18852384862	-81.1139215355682
111531.3	351.634103893648	2421.70495363021	2447.10061612885	-81.7383309407018
95109.37	373.832709080088	2808.89545594144	2833.66274930285	-82.4191193928762
81109.37	405.724771939531	3256.3986081919	3281.57652447715	-82.8979402222671
69171.88	435.470956986192	3783.56038843894	3808.5383242581	-83.434400605848
59000	467.694524953435	4389.36131180753	4414.20784447948	-83.9179769849385
50312.5	1427.02091716866	5811.44696763523	5984.08761263349	-76.2037878228561
42906.25	1776.0342857758	6817.65064393909	7045.18687382061	-75.3986675291383
36593.75	1907.28524246841	7582.05570096372	7818.26743266398	-75.8800666686072
31203.13	2022.83627874939	8636.02568128798	8869.76922915642	-76.8171391425436
26609.38	2142.81138020545	9898.9536863893	10128.2241630218	-77.7857242952123
22703.13	2251.57192367642	11434.7233514507	11654.289950559	-78.8605931188777
19359.37	2411.49361085407	13155.4889298006	13374.6846847803	-79.6126002249869
16500	2554.62176845412	15227.8309137047	15440.625852479	-80.4767351716032
14112.02	2709.65274594341	17597.6378713831	17805.0295325768	-81.246446673582
12011.13	2916.41753864161	20463.5547015842	20670.3304831932	-81.8889615450417
10236.38	3135.13488043398	23779.2349244231	23985.0179134688	-82.4892494270002
8750.684	3398.64296665922	27560.2639807186	27769.0281555138	-82.969961017115
7449.463	3697.05714602242	32147.9547832795	32359.8397444848	-83.4397291133428
6363.206	4161.00371256208	37221.4253360259	37453.2836469822	-83.6213567343992
5414.761	15244.492066543	49151.1613940739	51460.9677790186	-72.7684474748107
4620.567	15153.6134022577	56185.3307205787	58192.9840043101	-74.9060384168848
3941.215	16523.5214232241	65091.8296027586	67156.3328455203	-75.7563650806384
3361.769	19194.7693355246	73298.4068637886	75770.0179399047	-75.325386227141
2867.244	19693.6632947905	85126.8586742274	87375.1820696842	-76.97407228263
2442.658	20439.4320646401	96455.4978855099	98597.3298597211	-78.0357057812279
2083.003	21400.0764822858	110701.833244317	112751.315544876	-79.058951107552
1777.843	22019.7437192573	128853.089823442	130721.030712391	-80.3023841145449
1513.548	26113.8237766916	150043.812022291	152299.301766031	-80.1270590292349
1292.065	26170.1559004057	171796.285666907	173778.136797461	-81.338578287039
1101.762	26545.0630918689	201114.361453226	202858.637374134	-82.4809988347504
939.101	30529.4962500524	236381.775245046	238345.114926405	-82.6407967638123
801.2801	32420.5295806799	270462.807042885	272399.010152036	-83.1645374843414
684.3433	118372.548718252	398395.679584054	415609.405333054	-73.4521007159608
582.9476	120393.127881933	434490.891958036	450862.329803328	-74.5124737074094
497.0677	157083.145097836	491163.35649875	515670.977698906	-72.2647602771112
423.5089	145754.166903366	560951.640435183	579578.312289735	-75.434706574452
361.5036	171977.474992288	643261.804930219	665854.339617011	-75.031917244475
308.1262	192841.686436179	725186.380181512	750388.700626758	-75.108521701684
262.7298	193158.28414624	809041.358389159	831780.04443392	-76.5720277977867
224.2111	190889.286978555	941650.982914301	960804.503271426	-78.5404243029586
191.2854	231937.185964042	1099339.59033584	1123540.11637889	-78.086527137656
163.1722	231389.513894188	1236279.27180834	1257747.01154213	-79.3988296716236
139.1537	230525.00135779	1464474.00866025	1482506.626728	-81.0543912206541
118.6706	281770.924640612	1687735.72158387	1711095.18142126	-80.5217696543005
101.1982	280680.488905796	1945041.24642964	1965188.79173604	-81.7885793393348
86.24196	252144.582286984	2285624.08953363	2299490.02368637	-83.7047220935908
73.61024	338097.530360852	2627084.14908046	2648750.85019069	-82.6665225688137
62.69291	358213.814002444	3152665.28575824	3172950.60481049	-83.5177086692601
53.57697	267091.555583289	3615980.11890567	3625830.95571001	-85.7755634525321
45.65746	463825.919529646	4169414.77357562	4195134.56729795	-83.6522391595568
38.96512	695728.183831791	5169152.04003424	5215761.73907206	-82.3344935265354
33.18414	612203.035336622	6013315.8251319	6044399.04119981	-84.1868660781934
28.30617	919682.369825867	6883231.53742452	6944400.05034013	-82.3896693622065
24.17237	176530.27444459	8425304.0945207	8427153.25735462	-88.7996919910121
20.61345	364560.940494905	9091567.82052319	9098874.11246618	-87.7037383204859
17.55618	581454.182558849	11126858.1735392	11142040.2880474	-87.0086259234331
14.98558	4327737.54113806	4224206.38441356	6047580.6570145	-44.3064023086982
12.76553	8063323.61465103	6132396.74696455	10130324.6530785	-37.2540653436612
10.8809	7307913.10550581	14118356.7162718	15897596.9984624	-62.633110557844
9.278505	2680698.42868764	16702108.6453878	16915867.6179469	-80.8817590369812
7.923394	3731977.48585334	21672117.1253822	21991096.3039863	-80.2293892914452
6.75822	9476885.23301286	14249021.9724758	17112743.2310485	-56.3725095924306
5.761429	22152266.9068371	20084679.3224806	29901793.8023562	-42.1974879042704
4.919708	-1280129.43471183	31362408.9283249	31388523.7811066	-92.3373626012679
4.191257	5219479.74638787	18535968.0064205	19256819.0197134	-74.2734930110603
3.564097	22413554.2225036	11260413.4213968	25083148.1936754	-26.6746345692665
3.051758	18050243.2083692	23236860.3005399	29423850.1306013	-52.1601697192524
2.604164	15141624.8032218	23316196.6980611	27801327.8485798	-57.0001562091066
2.214424	37440938.4808074	2056984.39796746	37497400.6984096	-3.14463703265648
1.892567	27655593.1775837	40801857.2274048	49291210.0400217	-55.8704897019149
1.607507	74615716.6956187	-13287022.3112191	75789512.0706003	10.0969773925827
1.376413	39214717.5433698	-5556370.60355354	39606405.1169796	8.06461014958439
1.17375	48261473.0799089	53306906.3203121	71908247.4079663	-47.8438437358359
1.001604	58980959.3839032	87641761.846862	105640105.970544	-56.0603220785976
