EC-Lab ASCII FILE
freq/Hz	Re(Z)/Ohm	-Im(Z)/Ohm	|Z|/Ohm	Phase(Z)/deg
6999984	-0.422140399348786	0.862102170806771	0.959907636010934	-116.089327998416
5969734	-0.959154512678267	0.428093556344018	1.05035302264256	-155.947652678707
5091109	-0.596335432768857	0.325198769228295	0.679242363139416	-151.395101925936
4341796	-0.0492487672360664	0.485992726985656	0.488481700534653	-95.7863966406169
3702781	0.685186758855456	0.512933794384985	0.855910025606093	-36.8186861742971
3157797	1.61044771073211	-0.259830392698196	1.63127363185089	9.16514748247167
2693047	1.87914728671813	-2.31955503401487	2.98521859852907	50.9879381774604
2296687	0.418435381584571	-4.99778679799961	5.01527277890456	85.2141221090834
1958656	-1.39908035567034	-5.04959440184452	5.23983105307434	105.486342929064
1670375	-5.11158260004316	-6.57126855229621	8.32525357352322	127.87822111213
1424531	-9.77283345247468	-7.80565647498018	12.507459641958	141.385300061883
1214875	-13.5350932218987	-6.52458979498848	15.0256121512022	154.263615127259
1036062	5.53504448395142	3.26963439742746	6.42862555544821	-30.5709882184301
883578.1	6.09039338411252	3.18807278047779	6.87435085130698	-27.6302250391416
753531.2	6.08550881411965	2.30830314840619	6.50858517280598	-20.7723098427263
642624.9	5.85103685867848	1.49491998831402	6.03899147979817	-14.3322642254559
548046.8	5.5928083867074	0.999958613379059	5.68149829524709	-10.1370099537285
467390.6	3.30754842403301	6.83554776084079	7.5937204167693	-64.1788360975479
398593.7	0.699103760016647	8.34175865232258	8.37100253738272	-85.2093665593838
339937.5	0.882791113839615	8.91427497960491	8.95788024940523	-84.3443721760748
289906.2	0.427916762870152	35.3243861177493	35.3269778972357	-89.3059574987897
247234.4	1.59751317502432	33.5539748991091	33.5919823748826	-87.2741918614763
210843.7	2.845336535568	31.5815437813079	31.7094599072785	-84.8518408952222
179812.5	3.91947355502846	30.612723279169	30.8626165370914	-82.7038794170562
153343.8	4.9892111348655	31.7449453912847	32.1346197370361	-81.0681422077373
130781.2	5.81798858377638	36.4128275726389	36.8746932596826	-80.9220952657584
111531.3	8.71503509865323	81.8824337139736	82.3449135508323	-83.9246805911415
95109.37	13.1012159871862	40.8448383311296	42.8945530182915	-72.2160588645251
81109.37	12.0637902450743	26.9540445473433	29.530586728633	-65.8881983835412
69171.88	11.9100021086705	20.0834149243801	23.3493405742721	-59.330925601387
59000	10.3043327747134	15.9949924149551	19.0267983719412	-57.2094576916679
50312.5	11.6087021679912	13.4114175118837	17.7377587564828	-49.1210755231635
42906.25	12.3753183842087	11.5110096848322	16.9012380929574	-42.9276996958528
36593.75	12.9155300792174	9.44999851069711	16.0035430164494	-36.1920823408082
31203.13	13.5206762766417	7.69776987617928	15.5584172731148	-29.6542958532664
26609.38	14.1035702322237	6.1157618550827	15.3724830903583	-23.4431067681051
22703.13	14.6805642918438	4.62495830203608	15.3918552235438	-17.4864885608983
19359.37	15.1622659921636	3.24295145529781	15.5051941025754	-12.0726962983764
16500	15.7677902020277	0.388177634529517	15.7725676327955	-1.41024508538289
14112.02	15.4010462909274	0.746535243114911	15.4191290845008	-2.77512738325189
12011.13	15.0749187257439	-0.255385259647673	15.0770818203865	0.970558992272882
10236.38	13.7504712986563	-0.506713903189965	13.7598045013313	2.11043216962708
8750.684	19.5692702750663	13.6365773555689	23.8518884173352	-34.8701827637721
7449.463	18.821801482437	17.1649066466475	25.4734024274809	-42.3638576592425
6363.206	18.3648292154901	21.4729167113219	28.2551429691213	-49.4611030562619
5414.761	18.0297800473684	26.6254717106848	32.1556948668966	-55.8956024420755
4620.567	17.6048068373002	32.4672505088518	36.9330689136875	-61.5320002671616
3941.215	17.6016266703087	39.3262456198242	43.0856223813892	-65.8876827215256
3361.769	18.0844533800208	46.8185987171313	50.1899256812552	-68.8801266939349
2867.244	18.5552905955805	55.3359147358538	58.3640494546096	-71.462619363928
2442.658	19.6174452191899	64.4879970235342	67.4058299929262	-73.0800792195823
2083.003	21.264779217852	74.7118395610365	77.679146530958	-74.1123772790695
1777.843	22.8124248606237	86.1620079442883	89.130793449925	-75.1705157351172
1513.548	24.8301002102553	99.242509679305	102.301562079463	-75.9531760832659
1292.065	27.2188298688215	113.90087829017	117.107962046566	-76.5601102756479
1101.762	29.1020758292077	130.710950930291	133.911476396424	-77.4481375623212
939.101	34.6569625900095	151.844277973415	155.749124585768	-77.143037536414
801.2801	34.353841150782	175.925316391265	179.248161355089	-78.9506047884928
684.3433	36.701966926683	201.365571950565	204.682993781275	-79.6703543707361
582.9476	38.5394309253463	234.64337016856	237.787297600417	-80.6726294417584
497.0677	42.1747206330105	270.527275731894	273.795021823613	-81.1390170869949
423.5089	44.422458345046	317.069154711565	320.165900237554	-82.0245806551492
361.5036	48.0824244794107	368.233427449745	371.359363198513	-82.5606399682735
308.1262	55.1660275761346	428.93206674811	432.46503729589	-82.6712781185133
262.7298	59.7590494873613	500.997043817817	504.54849312016	-83.197883628018
224.2111	65.499102565271	583.414904339462	587.080133407936	-83.5943131264691
191.2854	73.158800795775	681.023900135128	684.942160104879	-83.8685307272187
163.1722	83.1041288519286	795.838062470875	800.165306614598	-84.0385846008135
139.1537	86.7913102696063	927.635082679419	931.686416213078	-84.6548580052562
118.6706	94.8735583955713	1080.56567380776	1084.72262237599	-84.9823033851735
101.1982	121.702544187934	1257.08748303648	1262.96494380042	-84.4702510036651
86.24196	138.858463660722	1481.05262952415	1487.54783598734	-84.6437999198102
73.61024	166.920892481028	1725.72126295161	1733.77520507993	-84.4752357364827
62.69291	308.415864704399	1997.40607722058	2021.07678798186	-81.2223824461865
53.57697	376.450273275765	2324.87761527233	2355.15832466604	-80.8023470865761
45.65746	435.461092886131	2717.86752410833	2752.53160599843	-80.8973434890088
38.96512	518.669720404626	3177.89325442903	3219.94158571396	-80.7303835875076
33.18414	619.618749798053	3700.69395636667	3752.20777060521	-80.4949552294884
28.30617	729.429953369148	4324.99109602595	4386.07068314863	-80.4268878434268
24.17237	853.016444431142	5042.1181349583	5113.76498690987	-80.3977242916547
20.61345	1027.70609550634	5892.95325975542	5981.8958483413	-80.1073492810824
17.55618	1248.55748387672	6961.68722640182	7072.76359203323	-79.8322722436401
14.98558	1416.35731045859	8033.7170445712	8157.61469935442	-80.0014093847627
12.76553	1733.83989787994	9400.66434599621	9559.22020551701	-79.5499186421996
10.8809	1997.83058432278	10962.104306607	11142.6683461632	-79.6712711032083
9.278505	41760.7486246861	59410.3838580454	72619.238744664	-54.8958483853517
7.923394	48029.6111007453	69629.4681722403	84587.8618977798	-55.4025321523197
6.75822	55247.1797443948	81588.1874386726	98533.6653090579	-55.8962326956501
5.761429	71291.625620899	130826.203515307	148989.903718	-61.4125385668768
4.919708	80319.0069364023	150566.951453914	170650.372825186	-61.9225855961023
4.191257	90699.8937466999	174909.283720459	197027.227197834	-62.5908262725633
3.564097	104588.17172165	203562.262620805	228858.647263718	-62.8063729950916
3.051758	118646.169938392	236217.918411993	264340.346182615	-63.3308012649748
2.604164	138253.452782025	273663.976653132	306603.961689599	-63.1973593944888
2.214424	158552.451948099	319246.796707075	356451.114778006	-63.5889187516812
1.892567	183484.81347083	370906.125527266	413809.171875242	-63.6787012381782
1.607507	214486.524397034	433543.02534597	483698.277828292	-63.6770396605724
1.376413	246947.423491277	504212.077159117	561438.196707431	-63.9058217081681
1.17375	286110.516446773	584840.561736371	651074.274006855	-63.931604808949
1.001604	339170.528829267	677245.736152521	757428.831483919	-63.3978946227846
