EC-Lab ASCII FILE
freq/Hz	Re(Z)/Ohm	-Im(Z)/Ohm	|Z|/Ohm	Phase(Z)/deg
6999984	12.5489705701645	93.3788709516219	94.2183113973633	-82.3460099782175
5969734	20.3034514337692	90.0525741798522	92.3130340555504	-77.2944129858876
5091109	21.088113663658	87.7563988458218	90.2546069532094	-76.4878602976819
4341796	19.7894230936812	91.4251720592482	93.5424147242515	-77.7864691403459
3702781	21.0438264044205	100.243020106007	102.42805138102	-78.1441666918461
3157797	21.3401702122441	108.099966499677	110.186231544231	-78.8327473700344
2693047	20.8920388846864	120.793514731878	122.586909945718	-80.1873914850622
2296687	20.4325487822762	138.136028647894	139.639004079633	-81.586038758756
1958656	22.345511775121	157.61370772246	159.189832459593	-81.9307301683067
1670375	23.5050227986281	181.049579802847	182.568990914535	-82.6028669577747
1424531	25.4132983777876	208.781136524273	210.322130796561	-83.05997268673
1214875	28.0293961599177	240.543080197363	242.17064330741	-83.3535562609551
1036062	30.101951606968	278.056751109327	279.681397894143	-83.8213190048999
883578.1	32.4777459634052	322.136399325916	323.769460810512	-84.2429013505571
753531.2	35.3334261526141	374.101860653338	375.766753649084	-84.6044950150642
642624.9	38.7011045189293	435.005427790214	436.723594162179	-84.9159548724973
548046.8	42.5350927656473	505.823990135841	507.609242541471	-85.1932664453407
467390.6	153.121978705972	711.166792850401	727.464464847567	-77.8490934273538
398593.7	179.349355167054	806.872512503321	826.564844783675	-77.4681910851508
339937.5	205.08472218025	915.282579370432	937.977581486221	-77.370501781081
289906.2	229.005375434364	1039.28405963677	1064.2155883997	-77.5735007278958
247234.4	251.993106224208	1185.11584216542	1211.61053351973	-77.9958852144663
210843.7	274.264319620676	1353.75782778748	1381.2607188047	-78.5471852049412
179812.5	296.339085177308	1552.9933525273	1581.01398045612	-79.1968047530605
153343.8	318.779507774923	1786.378439343	1814.59866172296	-79.8820622760369
130781.2	340.181669202213	2060.87686047837	2088.76446784131	-80.626907409707
111531.3	365.599896540926	2383.72659152546	2411.60024620506	-81.2803084792742
95109.37	389.513320873504	2761.63202100832	2788.96612503565	-81.9716966506586
81109.37	419.912488739149	3200.78956809848	3228.21628108266	-82.5260333174476
69171.88	449.148382515581	3712.63280287835	3739.70274200032	-83.1019704931131
59000	478.009223127369	4307.0232570112	4333.46768233365	-83.6670214706712
50312.5	1336.48016922594	5706.94558015269	5861.34857328572	-76.8197174526217
42906.25	1843.24359052856	6689.61637110243	6938.91303638735	-74.5950942214673
36593.75	1955.41598366687	7467.11037337434	7718.89817249422	-75.3254435229205
31203.13	2068.68559209592	8493.83272148205	8742.11955874915	-76.3120195503563
26609.38	2196.35431758342	9733.98667428167	9978.70076029241	-77.2848445907089
22703.13	2278.81231440353	11249.2256875046	11477.7203369262	-78.5482738247519
19359.37	2462.19646857139	12904.6379904179	13137.4309936754	-79.1978360770917
16500	2601.4143252403	14929.342392901	15154.2938065762	-80.1155425775527
14112.02	2764.02674517791	17260.8868592231	17480.7911438516	-80.9023282218264
12011.13	2999.76694488469	20049.7805091317	20272.945029965	-81.4907558774258
10236.38	3266.52379564041	23296.447139127	23524.341160033	-82.0182781194027
8750.684	3452.27140698627	27052.5837507238	27271.9721592961	-82.7275998697747
7449.463	3553.7947115769	31254.9098868222	31456.3006230136	-83.513125006899
6363.206	3730.78148882842	36176.714244172	36368.5768764996	-84.1120950859288
5414.761	16793.004746963	47403.8851201651	50290.4894877484	-70.4931174787872
4620.567	18485.9083753997	55538.8421274529	58534.5350483098	-71.5901597691242
3941.215	18152.9137645372	64442.5857407046	66950.5424555379	-74.2679353204476
3361.769	18422.8430741185	71680.5402438232	74010.1411738956	-75.5861966154846
2867.244	20600.0856377917	80439.411174091	83035.3081424934	-75.6355855774248
2442.658	20406.5336018923	97557.0267233026	99668.4507591862	-78.1854769488751
2083.003	23758.0131135793	107212.062534951	109812.884217214	-77.5052614544957
1777.843	23156.4861014111	126793.74720003	128890.950720328	-79.6500716647885
1513.548	24951.898714253	142459.229658445	144627.899674731	-80.0653514746993
1292.065	29032.369915793	169543.774376459	172011.540115026	-80.2830181410695
1101.762	29688.1968129074	198308.750789772	200518.70154627	-81.4856565530491
939.101	32833.4599889974	231533.63930044	233850.084931683	-81.9287821118033
801.2801	31593.5549825798	263165.276758233	265054.929415913	-83.1542815398086
684.3433	104114.893757003	394892.635127368	408387.199089135	-75.2298741626927
582.9476	123624.307126823	428450.671459077	445929.307386631	-73.9051384445707
497.0677	139591.336991776	467657.605762716	488046.491218682	-73.3801372168924
423.5089	154410.573047255	540008.352483484	561650.821971008	-74.0425910196226
361.5036	175315.11141563	621677.678904827	645924.550345602	-74.2513768401683
308.1262	216098.593652246	703345.248593648	735794.224561283	-72.9207396567565
262.7298	179444.537331139	806954.03090882	826665.077270099	-77.4629771692151
224.2111	215856.921106663	943287.656909638	967670.302359085	-77.1106654209891
191.2854	228982.612120707	1049035.56285547	1073735.83752668	-77.6866598924342
163.1722	276969.784139596	1260930.22013272	1290990.81382103	-77.6114305339335
139.1537	295384.049185176	1434416.70192605	1464514.59920256	-78.3639533020583
118.6706	314028.674358925	1714221.68151547	1742747.8250445	-79.6190746480719
101.1982	304727.535949811	1978188.55475143	2001521.62849058	-81.2427797436931
86.24196	380693.839371005	2243922.60194651	2275986.91623248	-80.3711390499606
73.61024	337838.148396156	2814570.79734822	2834773.95709026	-83.1554274553989
62.69291	642546.410646768	1315349.20865674	1463902.12464801	-63.964549882169
53.57697	1007576.71102753	3114794.90941837	3273707.09690767	-72.0745955849073
45.65746	627500.771877561	5068372.53233285	5107069.3499514	-82.9422871556102
38.96512	679567.590722952	4693186.3109538	4742131.36255051	-81.7609054778299
33.18414	1110630.69661319	5804758.6583912	5910052.76003752	-79.1684433422015
28.30617	593491.027645252	5213596.26534873	5247267.63353592	-83.5056765555623
24.17237	1435992.03570356	7244743.72151001	7385687.82964477	-78.7886296198093
20.61345	4352699.14991942	9917037.78195924	10830218.2922837	-66.3027906440979
17.55618	5840836.49530671	10010956.1557269	11590281.0197507	-59.7388142557406
14.98558	3253787.00266968	11086220.2708035	11553848.2659033	-73.6431248448574
12.76553	4149189.43679293	12165213.3880329	12853333.7993989	-71.16703043742
10.8809	5358464.22550444	14051463.4096166	15038509.3279821	-69.1258682922665
9.278505	6785439.65064258	15510594.9108523	16929877.3102781	-66.3720039457497
7.923394	7671507.11424453	17800906.1074008	19383608.5301062	-66.6858129301428
6.75822	5690620.22693436	20643489.016764	21413472.3329134	-74.5885052068233
5.761429	11955276.4864947	8866498.20983466	14884334.9321874	-36.562069837014
4.919708	13188265.1115453	16722262.0054807	21297051.0454463	-51.7383868383668
4.191257	7982781.07352062	20136536.1560272	21661137.5977983	-68.3750071017475
3.564097	24871327.4334842	23829512.9356688	34444573.0856806	-43.7745083987444
3.051758	12752685.0915459	21076845.0237403	24634617.374721	-58.8236860653577
2.604164	22401754.8555921	29425332.8156382	36982277.2679174	-52.7176748426485
2.214424	26871092.3497567	34497702.5652644	43728104.0790772	-52.0841153015267
1.892567	35481307.6917509	14979717.5658574	38513830.4232331	-22.8887987492057
1.607507	44349039.9951006	21234466.1207338	49170518.6053556	-25.5852527246504
1.376413	26773390.3230493	16279009.8223329	31334016.502612	-31.3008333170236
1.17375	36297732.0626584	37349197.1173175	52081550.2668726	-45.8179623750784
1.001604	47929252.2511773	40657362.8273229	62850889.9971159	-40.3072313831984
