EC-Lab ASCII FILE
freq/Hz	Re(Z)/Ohm	-Im(Z)/Ohm	|Z|/Ohm	Phase(Z)/deg
6999984	2.60871095791827	1.01364321164007	2.79872210525927	-21.2341825805372
5969734	4.50244680888635	1.38189755155178	4.70974183048665	-17.0623737417865
5091109	7.03653157865674	0.509614116436365	7.05496160195821	-4.14235995399651
4341796	5.07116711636527	-7.21797163714093	8.82132929193074	54.9090779808413
3702781	-5.5799916514499	-13.005578119249	14.1520800254287	113.221559642227
3157797	-2.50590288866088	-3.00263364220388	3.91092803266609	129.847305166656
2693047	0.773543186440743	0.509002745175873	0.925987503093575	-33.3455019638834
2296687	0.910386788869778	0.6216243438462	1.1023705956759	-34.3257869147286
1958656	1.11385194855745	0.631339633613617	1.28033429083056	-29.5448895622862
1670375	1.29365077159969	0.615574308703876	1.43264233093844	-25.4471011410885
1424531	1.72629152253044	0.467753376542169	1.78854008678225	-15.1607497380591
1214875	2.25747605217888	0.316989621701396	2.27962289566225	-7.99308209844026
1036062	3.07909268168077	-0.215290465758019	3.08661007045373	3.99961725962219
883578.1	4.13397417202457	-0.865371256615432	4.22357785138884	11.8230929645056
753531.2	3.99807060058215	-0.750167373874654	4.06783967433149	10.6269805418126
642624.9	3.95341733413693	-1.68241685577093	4.29651429584919	23.0526704081911
548046.8	3.57445930095816	-2.31809059854249	4.26031727894266	32.9640152047294
467390.6	3.01827196826195	-2.81150649411569	4.12486780889407	42.9687349331401
398593.7	2.60948243712858	-3.45292814974474	4.32806092805799	52.9205534683264
339937.5	1.9664332947732	-4.52736473669773	4.93597927081209	66.5225772543101
289906.2	-11.9055932082249	-3.09215731264499	12.3005929322889	165.440646611553
247234.4	-16.3046556063053	15.7526540167812	22.6713013083201	-135.986490645704
210843.7	-25.0113824724801	57.6724338874086	62.8623805123716	-113.445414252785
179812.5	-13.2768775864692	67.9785668041473	69.2629845097077	-101.051305820074
153343.8	-2.1707858822997	61.1927795590562	61.2312712713858	-92.0316896175655
130781.2	6.6669132659921	48.5466583271773	49.0023036931117	-82.1804824712042
111531.3	12.1865484326548	33.9925961571552	36.1110586414313	-70.2769405026843
95109.37	1.9516469665198	118.664168095283	118.680216193044	-89.057752181939
81109.37	11.7579415560994	100.232214221043	100.919502363467	-83.3093812149505
69171.88	17.9197752009827	76.5470280584628	78.6165748925559	-76.8242438192032
59000	21.450442837789	51.1791976484755	55.4926280678702	-67.260260415541
50312.5	22.3417630643703	30.1323889044077	37.5115347314787	-53.4447869325593
42906.25	17.4193749435754	-0.665910579180473	17.4320985634068	2.18924595209409
36593.75	16.8184535507364	-2.27612854146093	16.9717748328078	7.70730793896286
31203.13	16.1079233966015	-3.48347122842659	16.4802842193349	12.202769177027
26609.38	15.2238064508497	-4.35394787407093	15.8341764845242	15.9603180707422
22703.13	14.2462178349149	-4.97426545807159	15.0896666446681	19.2473597526738
19359.37	13.1826506732544	-5.34064195047179	14.223386910866	22.0541768586166
16500	12.0300901993898	-5.42862394731577	13.1982206439665	24.2874574820555
14112.02	10.6340957844093	-5.7202426557947	12.0749811259962	28.2764870545815
12011.13	9.41058701498563	-5.53286868602481	10.9165829756115	30.4530104788347
10236.38	9.06864773169878	-4.90226619245702	10.3088595636643	28.3944590645989
8750.684	10.133109694336	3.35752500081499	10.6748717185989	-18.3322029144011
7449.463	11.6953183616346	8.40859588715524	14.4043381095235	-35.7150434101602
6363.206	12.6492790910167	12.6751869557611	17.9071110424303	-45.0586156796136
5414.761	13.3396168011101	17.152661016581	21.7292235560822	-52.1278090629834
4620.567	13.8536705640028	22.103707946778	26.0863583716159	-57.9222515662784
3941.215	14.2417973806514	27.977141069945	31.3934581573794	-63.0215759429427
3361.769	14.9726948485992	35.6836171340341	38.6975725698344	-67.2372848079563
2867.244	15.4063254526164	44.070714365202	46.6860014202454	-70.7312960342231
2442.658	15.7361770893606	54.3797724955316	56.6108375318145	-73.8608488070071
2083.003	16.2896709846739	66.7034060638639	68.6636567720482	-76.2763815754992
1777.843	17.1178110000568	80.8298942401303	82.6225832100663	-78.0428104578875
1513.548	18.4419770170351	97.851809413834	99.574510402302	-79.3267515809961
1292.065	20.0131358212954	117.11382953229	118.811509009522	-80.302613297663
1101.762	21.1077785869174	139.310493312503	140.900503419424	-81.3843003190904
939.101	23.6360426452561	165.674447569564	167.351979639945	-81.8806536570123
801.2801	27.8165509688863	195.67559041893	197.64285262463	-81.9092442509893
684.3433	30.0231656843146	233.424171326351	235.347050623332	-82.6708197522772
582.9476	30.7840177812365	269.612720558081	271.36446863487	-83.4862532863074
497.0677	39.0937763534043	323.676085153783	326.028421230494	-83.1131431701182
423.5089	41.3350071194918	374.371482953506	376.646505442936	-83.6993935860961
361.5036	48.6054413508734	440.405581345903	443.079637322159	-83.7020291919537
308.1262	55.4412926912268	516.37152134909	519.339277347331	-83.8717965866509
262.7298	63.8127315225631	602.094915918665	605.467053174221	-83.9501199172453
224.2111	71.2584907885913	715.405132112206	718.945252131169	-84.3117708775319
191.2854	82.0655209948533	821.437777741503	825.526966511122	-84.294811326796
163.1722	88.6712684442767	964.382851374122	968.45076171791	-84.7466458440362
139.1537	107.89277340703	1122.43616339065	1127.60976913141	-84.5093840210725
118.6706	125.241127235841	1312.52000130117	1318.48173812417	-84.5493191793931
101.1982	145.186426280638	1534.57627161948	1541.42902262598	-84.5953276903421
86.24196	172.701538397957	1809.07978749061	1817.30445959726	-84.5468554608741
73.61024	211.263172957715	2092.95649837147	2103.59193579066	-84.2360831527951
62.69291	254.858697689678	2445.78938236023	2459.03205726443	-84.0510750807474
53.57697	312.828349891325	2845.57495397354	2862.71870695973	-83.7263798982467
45.65746	380.86739897749	3324.74067534631	3346.48480258108	-83.4649392563285
38.96512	459.597935646104	3879.94542743772	3907.07138178265	-83.2445223925417
33.18414	545.619917412841	4504.20510418117	4537.13177181458	-83.0930896472886
28.30617	708.871092451561	5244.14904286578	5291.84253445844	-82.3017776364334
24.17237	872.519862852915	6109.59094620351	6171.57941219303	-81.8724603605419
20.61345	1127.63382582157	7102.78776669349	7191.74193807229	-80.9790472705944
17.55618	1383.04000025857	8210.78896739316	8326.45513465247	-80.438748069786
14.98558	1788.2404267025	9566.51893991453	9732.21909183289	-79.4120649966911
12.76553	2249.11571558541	11067.703238377	11293.9176761155	-78.5130942161309
10.8809	2922.08106591823	12840.3572293574	13168.6495713611	-77.1795349479639
9.278505	3712.77946868158	14855.053353934	15311.9999193864	-75.9673281408056
7.923394	4750.38922812479	16998.626713976	17649.915240017	-74.3865948798192
6.75822	6064.30570592475	19533.6336280159	20453.3284921664	-72.7528057270036
5.761429	7707.27950317122	22354.8201176823	23646.1442910665	-70.9773241114522
4.919708	9879.06499973126	25183.3534705263	27051.7507250526	-68.58064165442
4.191257	12512.5289079259	28486.045996075	31112.9907942355	-66.2864613469367
3.564097	15890.4232383041	31756.1746215041	35510.001088199	-63.417146004701
3.051758	19792.9535177489	34832.5823050714	40063.3223659165	-60.3934185366776
2.604164	24314.5680358253	37849.4035240829	44986.3931194493	-57.2831916303233
2.214424	29939.3625565781	40524.2591661659	50384.3329941046	-53.5429747099109
1.892567	62990.737975066	26253.754136198	68242.8946989161	-22.6257652846171
1.607507	69719.0754091276	23066.1235697973	73435.6557296303	-18.3064771093998
1.376413	74905.5886397141	19694.6566740792	77451.4474427168	-14.731157442426
1.17375	80047.0649369181	14933.4628005407	81428.1334443466	-10.5675361705677
1.001604	84501.1030975233	10580.1549567959	85160.8836474121	-7.13671072994797
