EC-Lab ASCII FILE
freq/Hz	Re(Z)/Ohm	-Im(Z)/Ohm	|Z|/Ohm	Phase(Z)/deg
6999984	35.6951249088961	3.01074100441499	35.8218718614391	-4.82125821840482
5969734	-6.16168270462409	21.641077531078	22.5011682020866	-105.892799188929
5091109	9.36719597038591	24.4006889158628	26.1369083848172	-68.9986716617474
4341796	2.04252074416599	0.915519764588126	2.23831799119336	-24.143370055736
3702781	40.8335207943009	-39.7404864093126	56.9796690101598	44.2227963072327
3157797	141.589014133494	46.2785651927809	148.960244762142	-18.10005187497
2693047	57.7271945104493	-15.6930864355643	59.8222529492273	15.2082765871653
2296687	40.8031578232103	-1.96591243925462	40.8504895939402	2.75840045338084
1958656	52.317123659581	2.5942074019693	52.3814026163516	-2.83875491935896
1670375	52.5434323228889	17.6386232683064	55.4250242315802	-18.5566992376893
1424531	34.8646973092995	5.17177283960771	35.2461962880192	-8.43763432210431
1214875	103.81237194235	-23.8648565075797	106.520138680083	12.9464798542627
1036062	68.4901195283617	-54.7716172389962	87.6973575883811	38.6493608142535
883578.1	117.408703025301	28.7620117983196	120.880341117859	-13.7648641209378
753531.2	-19.0959343164704	85.9135582351597	88.010193705304	-102.531370396456
642624.9	113.924920301034	-100.133037848889	151.675682739337	41.3134942404748
548046.8	0.0914503007711137	54.717136050207	54.7172124718938	-89.9042400284653
467390.6	10.4180650610104	3.94375899591305	11.1395383491997	-20.7341623127265
398593.7	0.0630694600970003	3.96721509397599	3.96771639090647	-89.0892075648917
339937.5	-2.13742300153824	1.03537759445658	2.37499133695418	-154.154237484168
289906.2	0.426282274223255	2.5897566489427	2.62460589004518	-80.6527478062674
247234.4	0.191557138469929	1.52335487227409	1.53535149206297	-82.8328522167402
210843.7	-1.24645864564721	0.588142380958615	1.37824911231183	-154.739685759233
179812.5	-1.32698385060376	0.311310121569549	1.36301142018504	-166.797181487305
153343.8	-2.00404998764464	2.13500574179479	2.92821889046485	-133.187820999608
130781.2	-0.552552436836109	0.395391015521741	0.679447018250015	-144.413553896488
111531.3	-1.49586368972786	1.0558336364757	1.83095408084413	-144.784200294158
95109.37	0.682496161438141	0.798573383970501	1.05048582092473	-49.481334196008
81109.37	0.856587894789342	0.241643289022222	0.890019269807747	-15.7537495968636
69171.88	0.257186000966442	1.08396584905931	1.11405861650991	-76.652585663782
59000	-1.59703806982082	-0.135930777475334	1.60281245712718	175.135035209387
50312.5	-1.00456115534446	0.953557265167505	1.38506843613618	-136.492068604127
42906.25	0.432295585796919	0.481365378822219	0.646986940693675	-48.0742186061021
36593.75	-0.29358830764061	0.977693797656026	1.02082283299226	-106.714306075588
31203.13	0.242619682288296	-0.150870075558982	0.285702800008762	31.8749083798549
26609.38	0.176042478424703	-0.244908926056951	0.301614549172087	54.2911200804809
22703.13	0.186288298754705	0.185263125064289	0.262727531411363	-44.8419115823392
19359.37	-0.0661319667411936	0.56301478694887	0.566885427002794	-96.6992902955988
16500	-0.578728836729387	0.0894519193354532	0.585601154656432	-171.213540172173
14112.02	-0.574152408542874	0.0800580496267637	0.57970706356368	-172.062033370982
12011.13	-0.570107985679025	0.0723393634366284	0.57467912685029	-172.768547628158
10236.38	-0.5660644562301	0.0654981426012671	0.569841184270929	-173.399775231054
8750.684	-0.564322673840823	0.0604500043591574	0.567551128302885	-173.885815328663
7449.463	-0.26378512922011	0.514418582441382	0.578108183957528	-117.147982116479
6363.206	-0.559101214942777	0.0483934772149549	0.561191675978399	-175.053044948904
5414.761	-0.555095735617585	0.0463185808873839	0.55702485279945	-175.230146203379
4620.567	-0.550664002017339	0.0441676549664018	0.552432461811381	-175.414237542954
3941.215	-0.529531026460232	0.0511732522957184	0.531997941475856	-174.480144449552
3361.769	-0.101126410258987	0.564387354970844	0.573375651124857	-100.158408392142
2867.244	-0.546225373562168	0.0359160494912454	0.547404897068146	-176.238036260793
2442.658	-0.544562904533322	0.0299859235980021	0.54538785520746	-176.848236312608
2083.003	-0.538332769577944	0.0324461109654009	0.539309670707135	-176.550871216935
1777.843	-0.53776647246823	0.0326640357507429	0.538757568988548	-176.524114087902
1513.548	-0.52906072220568	0.0291323082470311	0.529862188842151	-176.848236312608
1292.065	-0.529091698726611	0.0327600873239689	0.530104941481293	-176.456906138533
1101.762	-0.530440447651592	0.0322515280023124	0.53142001238503	-176.520619045352
939.101	-0.531719934725253	0.0295528761769539	0.532540572608847	-176.818786281938
801.2801	-0.530162120501998	0.0201439988679634	0.530544677388782	-177.824040733495
684.3433	-0.509587555649347	0.0288196396506938	0.510401850018466	-176.763094784251
582.9476	-0.52419986373094	0.0160222561406625	0.52444466803217	-178.249290009041
497.0677	-0.133068111418307	0.511058305571768	0.528098204854288	-104.594476825163
423.5089	-0.508802669879543	0.0374760734354268	0.510180960990009	-175.787462250702
361.5036	-0.505493238340739	0.0417810929893981	0.507216988812083	-175.275008798737
308.1262	-0.514464773283294	0.0148776581194834	0.514679849674097	-178.34354156634
262.7298	-0.479476115485352	0.0471027059791769	0.481784194667574	-174.389387934804
224.2111	0.408894896678353	0.272315487873549	0.491274629372829	-33.662788802093
191.2854	0.425453517255221	0.277350518065471	0.507872036261127	-33.100081221917
163.1722	-0.144135904729362	0.486404702052596	0.507311238995379	-106.506093212837
139.1537	0.382361736303605	-0.272464239790015	0.469507464640829	35.4730031191852
118.6706	-0.141037155351578	0.492053728373521	0.511867512932739	-105.993868943991
101.1982	-0.0946499998250087	0.449174281509081	0.459038296480886	-101.899283356868
86.24196	0.427972063904675	0.300455373245356	0.522908709809689	-35.0705575638853
73.61024	-0.473275232818154	0.0289107116327444	0.474157437193797	-176.50434704397
62.69291	-0.136479618604591	0.48588304949872	0.504687055594485	-105.689513763217
53.57697	0.412265688907428	0.298504607025003	0.50898722839131	-35.9067493588331
45.65746	0.39413413710471	0.279430662747965	0.483138917201918	-35.3356307582246
38.96512	-0.153201235056843	0.465138298799437	0.489718547160486	-108.230180514166
33.18414	0.374753362120213	0.307549631879652	0.484795687367074	-39.3747712195127
28.30617	0.409202092005065	0.257529570536618	0.483495431004364	-32.1840821356855
24.17237	-0.129657315185778	0.449296559771512	0.467630642712494	-106.097001347114
20.61345	0.475572305630409	-0.335812079672705	0.582184481703806	35.2267573179939
17.55618	-0.0878812933724818	0.49881742102309	0.506499695203212	-99.9917922653181
14.98558	0.367427030118679	0.398790516935658	0.542251324442496	-47.3439724370519
12.76553	-0.321810357413993	-0.46373247913149	0.564455240333864	124.758981579659
10.8809	0.345399758646962	0.196729424877399	0.397496490407113	-29.6645517977992
9.278505	0.368976183156509	0.272973213582413	0.458974725960217	-36.4945009242342
7.923394	0.330479778453114	0.227037689058978	0.400952610940072	-34.4888392440669
6.75822	0.0506231442849162	0.667824911112266	0.669740856331311	-85.6650971896309
5.761429	0.00940751110281204	0.44254962990834	0.442649608829781	-88.7822167782606
4.919708	0.400512222564353	0.289342728550435	0.49409437862462	-35.8455402775792
4.191257	0.597761751738686	0.238879251021195	0.643725413829646	-21.7827782102191
3.564097	0.410687647358624	0.503943503243379	0.650094914727205	-50.8217632281386
3.051758	0.337248495314872	0.734480257533293	0.808206530719913	-65.3370129846254
2.604164	0.89494200901166	-0.0330284629918964	0.895551270928378	2.11358171862691
2.214424	-0.599884720076819	-0.505388386494878	0.784397283642377	139.886671652939
1.892567	0.606450051493367	-0.274916223947367	0.665853283498539	24.3857598509661
1.607507	0.745510228447235	0.222314720994355	0.777952013873765	-16.6048325649069
1.376413	-0.439972824311727	0.0189885319467044	0.440382391199205	-177.528738285885
1.17375	-0.450920498940403	0.0230818501643055	0.451510872705929	-177.069684500426
1.001604	-0.133648155372474	0.436470974880072	0.456474250475561	-107.02467731321
