EC-Lab ASCII FILE
freq/Hz	Re(Z)/Ohm	-Im(Z)/Ohm	|Z|/Ohm	Phase(Z)/deg
6999984	5.04237789755752	107.275740778247	107.394181101135	-87.3088558080817
5969734	13.8719292363729	102.66319554716	103.596149256106	-82.3047570169681
5091109	17.5755967086605	93.7171770033959	95.3509877513145	-79.3782031909989
4341796	17.4649436954724	94.6566668292365	96.2543964372906	-79.5460225291927
3702781	16.1990398693967	103.024923640845	104.29066968762	-81.0643033905099
3157797	19.1492210979073	109.801299401658	111.458593293425	-80.1071773937438
2693047	19.0507122390135	121.164547765712	122.65307689611	-81.0645325736279
2296687	17.0996547680775	137.842798853593	138.899371449189	-82.9284788727475
1958656	19.2890434353304	158.173675696134	159.345470220762	-83.0471957278986
1670375	19.7752066910496	181.390317703655	182.465082019291	-83.7781752829265
1424531	22.0411313999689	210.424755149952	211.575965207081	-84.0203072471488
1214875	26.5144145365724	241.801427625812	243.250785363785	-83.7423081249514
1036062	29.0648443525149	278.182960426456	279.697201717971	-84.0353187413812
883578.1	31.3849277220109	321.435645778909	322.964221029854	-84.4233257602438
753531.2	34.1764826783048	372.391408830939	373.95640566696	-84.7563288307739
642624.9	37.689355046866	432.44052374992	434.079824531104	-85.0189726840619
548046.8	41.283666254849	502.784175088865	504.476231173711	-85.3059672436429
467390.6	150.713378729533	707.423222643274	723.299480480297	-77.9731960857791
398593.7	175.64809540812	801.125780898388	820.155332995252	-77.633489409046
339937.5	199.814150759844	907.277513622861	929.020011393489	-77.5797459678628
289906.2	223.403129471592	1030.99828257682	1054.92483947154	-77.7738067730736
247234.4	246.824342688351	1176.28894953089	1201.90596509545	-78.1493806077818
210843.7	267.659508590193	1344.03618980782	1370.4287256373	-78.737120714027
179812.5	289.648104887086	1541.84975283894	1568.82015699511	-79.3605560909089
153343.8	308.802170831377	1773.61075761679	1800.29272626542	-80.123277507787
130781.2	364.986583794659	1944.71213063291	1978.66633806231	-79.3702963734261
111531.3	113.623849178908	1987.42134707945	1990.66671995322	-86.727876603819
95109.37	-110.029294675587	2713.90032386285	2716.12985947832	-92.3216635576813
81109.37	-195.66175750303	3242.66802652177	3248.56575330957	-93.4530260199466
69171.88	1464.96375961234	3680.68195702566	3961.5070977788	-68.2967410669327
59000	1389.69875670914	4150.68985780965	4377.15534681177	-71.488860830945
50312.5	331.997238463447	4904.71355423892	4915.93706382439	-86.1275887218605
42906.25	1861.77696558196	6794.83189348016	7045.27883977823	-74.6770844819505
36593.75	1983.79679424935	7485.28208880438	7743.70051524784	-75.1563636775774
31203.13	2025.83235944449	8444.52757741357	8684.12590617333	-76.5097472854559
26609.38	2193.94783654639	9719.33776534757	9963.8814578656	-77.2798025621118
22703.13	2351.90755285186	11167.0682825294	11412.0499106793	-78.1066952520446
19359.37	2470.79124986203	12866.8439651356	13101.9266912749	-79.1299405783687
16500	2605.21140635019	14909.6932413635	15135.5898141875	-80.0886135611816
14112.02	2759.22602123781	17236.8687699628	17456.3161414199	-80.9054221939201
12011.13	2942.67294742684	20004.0517520383	20219.3325946665	-81.6315889034689
10236.38	3205.41003484294	23211.4155190907	23431.6978448288	-82.1373960450104
8750.684	3414.1451680171	26892.3734300545	27108.2300405208	-82.7646702391196
7449.463	3656.22135320393	31405.4235210105	31617.5359747982	-83.3595150220245
6363.206	4004.02201426159	36645.3711076078	36863.4699384769	-83.7643670000639
5414.761	14648.2970615131	49664.7646140163	51779.93289845	-73.566921458105
4620.567	16184.543347685	55940.3027490522	58234.4993541519	-73.8638854833213
3941.215	17279.4797138913	63515.3792761656	65823.8849034145	-74.7809044344282
3361.769	16285.9423806095	69072.5224197684	70966.5081052601	-76.7330862339979
2867.244	20054.4735176008	82861.3409001339	85253.643463704	-76.3946400644141
2442.658	21047.0512139532	94976.588717708	97280.6803494684	-77.5050322713777
2083.003	22148.1804073103	109516.116092031	111733.260845811	-78.5668949530937
1777.843	23519.3953968847	125436.514511277	127622.416262085	-79.3803231348409
1513.548	25001.6949680894	146783.455953465	148897.507342871	-80.3335530186
1292.065	25963.1124064366	169680.273839452	171655.115088542	-81.3005338894423
1101.762	29198.3871521625	197377.789886841	199525.782175892	-81.5851793220633
939.101	31013.3351743132	231564.47727201	233632.048514097	-82.3717930789984
801.2801	37115.0949686097	265759.303893213	268338.476332289	-82.0496762065759
684.3433	121966.635998494	376478.548270548	395742.286854322	-72.0493854419215
582.9476	142404.912678415	421313.991951355	444729.849424269	-71.3246511268605
497.0677	138426.817483163	487523.571563007	506795.044005037	-74.1487028032808
423.5089	158970.056597285	542749.272363591	565551.281092839	-73.6748094109281
361.5036	172605.021578177	624288.237378588	647710.040684307	-74.5447885270548
308.1262	204612.855293926	706673.858983315	735699.914042338	-73.8519679611826
262.7298	191041.745509896	812843.711919422	834992.124833769	-76.7738808290112
224.2111	254924.676655835	926672.186391459	961097.254079736	-74.6185854910676
191.2854	200422.154851368	1057607.77409277	1076430.78921812	-79.2693985057035
163.1722	212881.114119924	1384160.12284899	1400434.79478134	-81.2565307307763
139.1537	425120.914978344	1607380.48155591	1662648.43091945	-75.1855845251291
118.6706	365599.911889246	1709169.36329632	1747833.86167112	-77.9260989550193
101.1982	388244.901527146	1840847.35165108	1881343.42310026	-78.0905378422219
86.24196	387533.422648376	2330637.94953578	2362637.38340988	-80.5593556856611
73.61024	731114.916251765	2583317.77666105	2684782.99979324	-74.197747990544
62.69291	1177711.02138467	916493.219324325	1492301.26682195	-37.8900083892107
53.57697	530589.875649174	2709763.37411252	2761221.31670446	-78.9212693493821
45.65746	797934.264858624	3723148.17404535	3807693.71364514	-77.9035244178912
38.96512	563099.515587411	3921379.73145058	3961603.21873433	-81.8283426103168
33.18414	747681.064941664	4652781.63572817	4712473.22800264	-80.8708728388737
28.30617	1339380.43275749	5255515.64139803	5423502.98244898	-75.7023924563371
24.17237	4107030.17182149	1860947.86386579	4508971.47743016	-24.375887788156
20.61345	217158.435737718	6591096.28913467	6594672.70445296	-88.1129447777683
17.55618	-265039.626166506	7057313.48746302	7062288.55710144	-92.1507502473937
14.98558	3918349.94520611	3492308.4094946	5248779.31714826	-41.7096659079181
12.76553	4232382.60602559	10901142.5308771	11693928.809527	-68.7812341784953
10.8809	4530415.30335444	348309.595729786	4543785.02961414	-4.39639339753926
9.278505	3236730.20848806	4980504.74793844	5939852.690663	-56.9809678525477
7.923394	9572072.34166619	50660.7711760405	9572206.40332348	-0.303238543326563
6.75822	5489304.07618419	655378.914915708	5528289.13525048	-6.80842883164982
5.761429	5305941.13465474	1305963.63439235	5464297.97309558	-13.8274884079456
4.919708	6531743.99057172	1256932.41243506	6651583.16852459	-10.8925292911218
4.191257	6605843.59084633	1100798.2420187	6696934.09825399	-9.46083954138279
3.564097	6254215.5128289	1236121.47813623	6375202.58420228	-11.1801942113232
3.051758	5992350.99297397	-5201279.57201726	7934833.30696241	40.9575384806719
2.604164	4066490.94865449	7754996.84847791	8756501.85607194	-62.32881267285
2.214424	7697967.39272188	-1775071.27842193	7899973.4191254	12.9848451082247
1.892567	402106.968117877	10027154.4157896	10035213.7840655	-87.7035664331473
1.607507	8685360.73226675	752162.725582364	8717868.99507883	-4.94953487436769
1.376413	1464975.31995245	9718838.05336285	9828629.90429305	-81.4280169988589
1.17375	12245389.0513553	-4542034.70542638	13060613.7790056	20.3507217674911
1.001604	8687673.1038739	-21314368.6007417	23016906.238851	67.8243373648473
