EC-Lab ASCII FILE
freq/Hz	Re(Z)/Ohm	-Im(Z)/Ohm	|Z|/Ohm	Phase(Z)/deg
6999984	-11.337637459397	23.0718411447791	25.707039443908	-116.169771272853
5969734	3.39927771185984	-62.8716753275864	62.9635025031151	86.905207041412
5091109	-45.4204202027788	13.43805285437	47.3666109819337	-163.518659687787
4341796	3.12663764233924	0.884331478891361	3.2492930171117	-15.7929112621608
3702781	-10.2732417473501	23.5463509135619	25.6898839496034	-113.571579559273
3157797	-7.42575696062727	-39.4602961677069	40.1529182013144	100.657454631701
2693047	38.1335120814853	49.2982423304951	62.325608224429	-52.2770874869268
2296687	39.2485540975715	82.1622849716962	91.0554230703488	-64.4664036149241
1958656	23.8786495681912	62.6989124177769	67.0920526111143	-69.1508492521342
1670375	0.159924767224713	60.9856868168913	60.9858965045126	-89.8497517421484
1424531	-6.26764453685165	70.5423628420107	70.8202536240461	-95.0773613691425
1214875	1.95622634245437	95.6581623691951	95.6781628656937	-88.8284544723277
1036062	63.8169821950639	40.831985521474	75.7618522616163	-32.6123107917663
883578.1	-9.81166992083063	67.3856419122244	68.0962084301165	-98.2843207400487
753531.2	134.441768333364	158.898198053396	208.142322503661	-49.765859307492
642624.9	49.2910998281076	178.946978776119	185.611512938625	-74.5997351796078
548046.8	40.9220319343408	200.076533055852	204.218588226647	-78.4406150550468
467390.6	-23.8998562397047	252.443657367797	253.572481301714	-95.40830179161
398593.7	-91.6031713448126	104.655402916991	139.082329431689	-131.195131083922
339937.5	310.394011595655	-185.747954864765	361.727445974019	30.897413733472
289906.2	121.066324573621	-3.11013080453736	121.106266804764	1.47157506073149
247234.4	-91.6027713787713	78.1506974233176	120.410129275001	-139.530922157942
210843.7	157.85806336697	26.9071855106646	160.134833194017	-9.67320061857008
179812.5	-175.542077481466	-37.2515544881555	179.451105536558	168.019071281201
153343.8	78.5331034934853	96.4912760196506	124.410669527251	-50.8582663692663
130781.2	-112.728692411959	-146.966205317356	185.221012842208	127.489583839693
111531.3	31.6813165718968	-46.6244288494607	56.3697009506629	55.803877628653
95109.37	-4.80705455787152	1.71057297295052	5.10233607459781	-160.412082522587
81109.37	-2.16892231971664	-1.14674123227016	2.45341384253727	152.133931002758
69171.88	0.0492050907971807	1.27274610396324	1.27369689726951	-87.7860150598666
59000	-0.863703583643269	0.990529119339011	1.314203871801	-131.08718583532
50312.5	-0.145613860691696	0.701206880373839	0.716166520796073	-101.731406722894
42906.25	-0.25762518414703	-0.626884722074287	0.677757471575893	112.340751623773
36593.75	-0.0463177105274256	0.596414749643455	0.598210568195487	-94.4406906671931
31203.13	-1.12075831883998	-0.227154717074641	1.14354644625318	168.542525522832
26609.38	-0.488709452700732	0.702527815132251	0.855793351337543	-124.824184176745
22703.13	-0.999617963822025	-0.29653240590381	1.04267326682273	163.477234839199
19359.37	-0.196066443998529	-1.39624691630325	1.40994592156882	97.9934300674608
16500	-1.17210824838087	0.291574132482947	1.20782996346988	-166.030621253199
14112.02	0.556380598845641	0.632144526458581	0.842119987355352	-48.6474514209746
12011.13	0.235868950583266	0.939948973230156	0.969091447762117	-75.9131836291657
10236.38	-0.825435730285308	0.787187601459402	1.14061758040241	-136.358684029421
8750.684	-1.43889916592342	0.221602314169671	1.45586345353555	-171.244766372008
7449.463	-0.542971591994004	0.0587077520069728	0.546136200831089	-173.828977915386
6363.206	-0.537614546691054	0.0466149279239745	0.539631682093615	-175.044450581977
5414.761	-0.534476593068169	0.0462023014999041	0.536469832517771	-175.05940478043
4620.567	-0.533338303569198	0.0459819330969191	0.535316807344398	-175.072410922379
3941.215	1.89106974643374	-1.16223222674387	2.21966856416876	31.5744607712442
3361.769	0.746470258143526	1.50994682782172	1.68438631826008	-63.6936554366311
2867.244	-0.526082416360452	0.0366812636690714	0.52735967224278	-176.011488748599
2442.658	-0.525833359433211	0.0356463548039354	0.527040211467422	-176.121840419941
2083.003	-0.524350428326327	0.0365578657557826	0.525623295939802	-176.011775227496
1777.843	-0.515990529935504	0.0245774681468636	0.516575530705465	-177.272969926138
1513.548	-2.05976431963437	0.550314744629381	2.13201204747894	-165.041466915685
1292.065	-1.44023324879377	1.09340351201399	1.80825967466389	-142.794776237905
1101.762	-1.53724729230188	0.487394363679204	1.61266317110416	-162.408439368162
939.101	-1.14577794072044	0.840825472850026	1.42119476681947	-143.727035866362
801.2801	1.6231035271464	-4.18563457930928	4.48932087195208	68.8047254480957
684.3433	3.87326756755712	2.45424077424667	4.58535706656142	-32.3598082914521
582.9476	1.88602683298872	3.68620950896458	4.14068083275376	-62.9037185244843
497.0677	1.09377783778291	-0.87957007127747	1.40356455808492	38.8047756161827
423.5089	-0.0969806731630616	0.75348537682037	0.759700904336237	-97.3341848283833
361.5036	-0.468375593754777	0.420251665366431	0.629275106029468	-138.099845473044
308.1262	-0.479228848789839	0.46464808482821	0.667501409921326	-135.885019820186
262.7298	-0.256097524902552	0.714811587119842	0.759303330258732	-109.711219118799
224.2111	0.5669221312067	0.190865142206917	0.59818910501748	-18.6067872081396
191.2854	-0.953491139640828	0.364700423684897	1.02085834100991	-159.068668380344
163.1722	-1.00089417772904	0.174387034409304	1.01597243701883	-170.116497881836
139.1537	0.334840696703944	-0.792743240166452	0.860558038135016	67.1016656978488
118.6706	-0.488657395363976	0.631383788319273	0.798393097537987	-127.737961043882
101.1982	0.764356354169581	-0.620478539554763	0.984496954900027	39.0685195484374
86.24196	-0.379009445433021	0.962948347534296	1.0348515254598	-111.484237015832
73.61024	1.01562028675073	0.389936611725022	1.08790400680539	-21.0037618736474
62.69291	0.434653837231542	0.189329794392708	0.474098860223149	-23.5373411366702
53.57697	0.40040384261974	0.662875573012296	0.774420597918878	-58.8663141253154
45.65746	0.688471558543534	-0.124826823910421	0.699696236156038	10.2766626867137
38.96512	-0.00986606898423648	-0.5080596963853	0.5081554825133	91.1124934268372
33.18414	0.386333312383126	-0.325697262856104	0.50530400284272	40.1324735261055
28.30617	0.373055733922591	0.30862659632982	0.484170379695673	-39.6007343147564
24.17237	0.460090601323034	-0.274966861491877	0.535994530144184	30.8640733193733
20.61345	0.55805926461766	0.298100178615999	0.632687805569614	-28.1099282235369
17.55618	0.616498184499743	0.154639065927347	0.635596768558779	-14.0812399562532
14.98558	0.635343235934649	-0.205626251041674	0.667789774229409	17.9339628693175
12.76553	0.495663714680922	0.259885210628334	0.559663149362743	-27.6688137466437
10.8809	6869.73376536661	11757.2587388848	13617.1353470582	-59.7023741399703
9.278505	8336.1375048793	-95.7274909442235	8336.68712695743	0.657923425444158
7.923394	6693.01063930808	6679.36327921172	9455.70120263818	-44.9415260246007
6.75822	11834.4758707905	5684.6570335601	13128.9811000522	-25.6571703870952
5.761429	15732.14952836	5506.76588452769	16668.0832518222	-19.2917124155949
4.919708	6277.04959979265	71.7008969338388	6277.45909559578	-0.654444425712124
4.191257	4867.38079262589	-425.223336846656	4885.9196336639	4.9927886042377
3.564097	4437.71452587079	-3772.16845916162	5824.30812177879	40.3653694106703
3.051758	1874.28570681601	5936.03485533184	6224.90616109908	-72.4766400697506
2.604164	6641.88502455419	331.863297104577	6650.17066904018	-2.86041788063506
2.214424	2518.27983225835	-5421.20358141392	5977.55648946074	65.0839948222956
1.892567	9046.86407397851	-6421.0640196406	11093.9538811628	35.3654474818832
1.607507	1431.58776703937	5912.93266816134	6083.7666188757	-76.3899418104941
1.376413	1997.92021441333	-2578.25251665429	3261.75891549261	52.2274464235566
1.17375	3672.41724645792	-3036.40139069929	4765.12138749079	39.5843763697054
1.001604	394.221473067482	-674.273809348743	781.06065052668	59.6868469837223
