EC-Lab ASCII FILE
freq/Hz	Re(Z)/Ohm	-Im(Z)/Ohm	|Z|/Ohm	Phase(Z)/deg
6999984	6.39292735831528	119.859555623724	120.029923746228	-86.9469183688976
5969734	12.8088754236892	100.396504338348	101.210302701749	-82.7293187431601
5091109	12.8943331140609	93.2619380310862	94.1490993678141	-82.1282287202883
4341796	11.8255521934808	93.5595098402988	94.303900058469	-82.7962402136313
3702781	10.9027973772762	105.397087311018	105.959506436639	-84.0940469153822
3157797	15.4585561067151	110.632260739168	111.707045763299	-82.0456082062304
2693047	15.3580556553523	121.498615455039	122.465437699803	-82.7957245516157
2296687	13.7564006949961	138.952307850718	139.631595339744	-84.3460910494602
1958656	16.6408169337157	158.747382043135	159.617192350231	-84.0157808805673
1670375	17.9175647408794	181.891079957537	182.771453171338	-84.3741086856421
1424531	20.6772831073181	210.419812925849	211.433317403974	-84.3877450811662
1214875	25.7521488531824	241.587968256452	242.956620771768	-83.9155132664194
1036062	28.4861118995754	277.516450711073	278.974620685155	-84.1393105811975
883578.1	31.5687242634453	320.507665328988	322.058609396271	-84.3747389392168
753531.2	35.6111259551282	371.352815785828	373.056384590661	-84.5223328672425
642624.9	39.7986125782877	431.361463481634	433.193538433081	-84.7286549692691
548046.8	50.4977288015052	500.635100879013	503.175441418051	-84.24020844892
467390.6	164.520438404868	703.85210188433	722.824152875316	-76.8437243842377
398593.7	195.869943732798	795.93825833304	819.684540500871	-76.174968045761
339937.5	229.60374728185	901.169562017959	929.95938635701	-75.7060593862259
289906.2	265.016720923226	1019.89279559621	1053.76239109106	-75.4339617293183
247234.4	305.436970160622	1162.07399348137	1201.54388561826	-75.2735908424612
210843.7	347.127651175616	1324.04614344366	1368.79355498875	-75.3092861130978
179812.5	398.656936481315	1514.20349971404	1565.80317778159	-75.2499849813018
153343.8	454.643221669211	1736.85335120794	1795.37183408118	-75.3312303966514
130781.2	530.114393831533	1992.53070724571	2061.84380830956	-75.1015316165834
111531.3	620.325848589194	2292.13303959088	2374.59007612093	-74.8566494549445
95109.37	730.078064757524	2637.00686485983	2736.20525289276	-74.5247923000047
81109.37	862.785302213525	3036.56336470239	3156.7571248939	-74.138446858748
69171.88	1044.67548066053	3480.5755198025	3633.97204294994	-73.2931622235915
59000	1235.24778965567	3987.76280944206	4174.6963154484	-72.7891312512149
50312.5	1356.09063085948	4551.49773342085	4749.22240124002	-73.4088996982079
42906.25	3247.84930325799	6160.67977849925	6964.37365668177	-62.2022462959056
36593.75	3711.24163747542	6609.60860697628	7580.25332222784	-60.6861426742099
31203.13	4271.73479621045	7330.40160354726	8484.25045825755	-59.7688372442055
26609.38	4999.66240360608	8096.41175710465	9515.69795078714	-58.304013345174
22703.13	5877.47184497591	8915.11737531575	10678.2017729645	-56.6043225867625
19359.37	6916.96437166712	9799.10409918148	11994.4502694166	-54.7826032771441
16500	8138.772928515	10671.2109214659	13420.6694062681	-52.6677759482706
14112.02	9477.34020856285	11619.4025511498	14994.348704579	-50.7976703528533
12011.13	11134.3933537594	12383.0955920332	16652.8007193286	-48.0393655834243
10236.38	12943.491894522	13080.8532185938	18402.2472364098	-45.3024149510197
8750.684	14898.8292330638	13300.4932256324	19971.9361244995	-41.7559494386087
7449.463	16891.2665023433	13326.4544388857	21515.3264433724	-38.2718618413536
6363.206	18767.8174743447	12886.8520335899	22766.2453664622	-34.47529452179
5414.761	20618.4840214989	12344.1079762672	24031.2064839564	-30.908592140055
4620.567	22239.3581956994	11709.3978878515	25133.6239299597	-27.7675630226345
3941.215	23564.9339655326	10631.6133454482	25852.2207001066	-24.2831087323905
3361.769	24896.1828423168	9915.14865305328	26797.9494165172	-21.7154041030896
2867.244	25857.5792978155	8955.08464683567	27364.3554313784	-19.1021665178097
2442.658	26687.0376080377	7967.7380300087	27851.0830239628	-16.6236313101651
2083.003	27220.9414945233	7004.06832081407	28107.5902362848	-14.4294550562439
1777.843	27672.5178291372	6172.62145536415	28352.5924499884	-12.5745213832417
1513.548	27751.6144006053	5391.97074029134	28270.575698136	-10.995231975899
1292.065	28176.9629262456	4731.64398322017	28571.4839399525	-9.5325108319757
1101.762	28239.3784774221	4123.84073931411	28538.8955503593	-8.30826618154172
939.101	28522.0326468181	3612.34213507222	28749.8758607229	-7.21813376221401
801.2801	28556.0339536409	3363.92120732531	28753.4874589255	-6.71852029443789
684.3433	28896.2244061062	2799.93118334123	29031.5586829142	-5.53445946600761
582.9476	28590.5822475811	2473.60340934074	28697.3885063153	-4.94480969143124
497.0677	29339.2334873624	2299.19048032453	29429.1844686661	-4.48086800302216
423.5089	29627.3132580325	1987.02409192531	29693.8706744587	-3.83692761256817
361.5036	29419.1299395956	1602.22409781335	29462.7277838021	-3.11736194977707
308.1262	29669.292812991	1785.0056086638	29722.9403162937	-3.44295896784724
262.7298	29440.5422505129	1539.75828239205	29480.7799010208	-2.99387636689709
224.2111	30291.8470898383	1490.09381745965	30328.4747341336	-2.8161809551886
191.2854	29780.4928607066	947.251380299184	29795.5540341857	-1.82183733892425
163.1722	29969.9393508476	288.621985575576	29971.3290887148	-0.551763226852241
139.1537	29280.8404958345	436.530610384947	29284.094302476	-0.854125373935372
118.6706	30976.5781358486	-520.74952881344	30980.9550059079	0.963112832767362
101.1982	32844.6193227383	1415.58755996729	32875.1107465135	-2.46789366251566
86.24196	30562.4436344219	38.0152373698323	30562.4672771275	-0.0712675845304655
73.61024	29951.3505006337	2673.90521355216	30070.4699980375	-5.10155318248739
62.69291	24163.7831934197	10241.902626703	26244.7135178393	-22.9698264405931
53.57697	31712.4972925075	799.677324301507	31722.5782109572	-1.44449134575566
45.65746	29925.3154842165	2486.33651652984	30028.4261343034	-4.74949525456469
38.96512	39635.0743532306	3545.22928787189	39793.3131278322	-5.11131982106319
33.18414	32009.38694567	1453.49571925567	32042.3704248535	-2.59992491091002
28.30617	35563.0655274699	-1656.13713114737	35601.6069849141	2.66628201795309
24.17237	28039.219078224	418.797436443305	28042.3465104012	-0.855713612943475
20.61345	31219.2388393146	2664.34997026494	31332.7246576199	-4.87798562378513
17.55618	31530.2408903878	-719.600224148503	31538.4513742903	1.30740832848163
14.98558	27384.5961748902	3020.63652737656	27550.686973147	-6.29452006688518
12.76553	30770.8816560046	2974.70320636291	30914.3335210996	-5.52177704521239
10.8809	27873.0142656149	6014.19754485295	28514.4787145002	-12.1761151803975
9.278505	29246.5766404914	-2817.71223843475	29381.9969955543	5.50308085939948
7.923394	28193.7190822719	-2289.0924449585	28286.4939487316	4.64175283302151
6.75822	12845.8786293797	10503.9800221913	16593.6793408619	-39.2726128446409
5.761429	19221.0483555113	915.97705091333	19242.861373577	-2.72836027618213
4.919708	11525.5772986168	-7346.01044093757	13667.5821367481	32.5120489071963
4.191257	14720.5571016242	-4741.65690350649	15465.3843008427	17.8543331949502
3.564097	11100.1301432904	-5355.37966223694	12324.487028866	25.7554956743176
3.051758	12101.4905907359	6416.76368643582	13697.4789915966	-27.9345802199151
2.604164	11003.9109875267	4728.34737770913	11976.7827877815	-23.2530509378822
2.214424	13965.0110658	463.193232660856	13972.6905797952	-1.89969714666237
1.892567	11484.6083972795	3163.81441604127	11912.4284551058	-15.4019764289651
1.607507	10554.1515749491	-843.91548362825	10587.8377778708	4.57167379214127
1.376413	13131.2407982429	420.57716821126	13137.9743513168	-1.83448480929397
1.17375	8919.52967972815	-3322.77071278836	9518.34097504998	20.4317494588785
1.001604	11591.9872846662	-19598.9860830747	22770.4726497369	59.3974460014017
