EC-Lab ASCII FILE
freq/Hz	Re(Z)/Ohm	-Im(Z)/Ohm	|Z|/Ohm	Phase(Z)/deg
6999984	10.5972427138728	108.837820557748	109.352515914803	-84.4387956207124
5969734	16.8737331679139	90.7599745430567	92.3151983699232	-79.4680429732754
5091109	13.3367863779	83.92285481115	84.9759697240526	-80.9702237205494
4341796	10.0185311474521	87.2604291970264	87.8336693415556	-83.4504434241117
3702781	12.3581990403812	100.473125347435	101.230301790536	-82.9878373003231
3157797	14.2048896362814	104.939145344694	105.896190277336	-82.291120621444
2693047	13.7580900041163	115.164347341439	115.983239906208	-83.1874557961467
2296687	12.313489118729	131.73433491958	132.308567413381	-84.6599573296329
1958656	14.2097094778202	150.133058325691	150.804015349954	-84.5932077465001
1670375	14.8912728907395	172.557203806079	173.19855251612	-85.0677313924275
1424531	16.6770264584431	199.466085012044	200.162040061365	-85.2207111237274
1214875	18.6419131830685	228.944219948489	229.701930281283	-85.3449283737118
1036062	21.6482858862732	264.95859433861	265.841503523633	-85.3290574427866
883578.1	23.6605491251892	307.083421538348	307.993586570571	-85.5941077188142
753531.2	26.0667354879915	356.06064714059	357.013527952621	-85.8129203007746
642624.9	29.013104585446	414.375809698513	415.390264571745	-85.9948916965082
548046.8	32.5727263999702	482.138697987714	483.237733007694	-86.1350371731972
467390.6	142.25147965511	670.394873006624	685.320924252015	-78.0200640334208
398593.7	163.936224268191	760.310293727767	777.783278539539	-77.8323057639564
339937.5	186.338289161931	863.838573185498	883.707552604905	-77.8272637353593
289906.2	207.00429280675	983.562636793863	1005.11006249929	-78.1147739569559
247234.4	228.610339535598	1122.3948254656	1145.44001657639	-78.487425706909
210843.7	246.750087422573	1284.88765209299	1308.36611242576	-79.1292530290145
179812.5	266.807803840454	1475.65122281464	1499.57758571689	-79.7512560114086
153343.8	286.784992721135	1699.83637107511	1723.85884586873	-80.4236219839946
130781.2	306.527420597482	1963.24816507448	1987.03357224946	-81.1258963534864
111531.3	327.711031124414	2272.84761096373	2296.35162433461	-81.7953402413173
95109.37	353.27559491778	2634.50714483005	2658.08794853087	-82.3624538669378
81109.37	381.133192627386	3054.5170950047	3078.20356607523	-82.8875696861752
69171.88	407.54532014899	3542.24008445709	3565.60766264461	-83.4368070285876
59000	425.988877950329	4100.63555752418	4122.70281487388	-84.0691805470735
50312.5	311.559321747003	4756.28396425308	4766.47735330594	-86.2522070423014
42906.25	1703.8615275073	6358.11092892781	6582.45536934895	-74.9982273261213
36593.75	1802.3407784161	7097.65874851711	7322.9223669204	-75.7517814182774
31203.13	1897.58211574105	8083.76947566739	8303.50208175515	-76.7895798725978
26609.38	2012.56905177428	9267.20832782684	9483.22647517725	-77.747278827159
22703.13	2198.23382725427	10738.4984675837	10961.1852140898	-78.4310466598681
19359.37	2256.83485762418	12316.566577355	12521.6259259333	-79.6165536337733
16500	2389.31040724588	14251.947785557	14450.8414946818	-80.4829804115701
14112.02	2540.06006239377	16475.9655553247	16670.6132490923	-81.2358469543721
12011.13	2738.0174561877	19168.6863829003	19363.245524353	-81.8709706702746
10236.38	2909.20526198756	22379.145742299	22567.4464530535	-82.593298562596
8750.684	3383.42004590352	25876.4422811659	26096.7008707525	-82.5506705026383
7449.463	3481.27432881228	30529.2581724086	30727.1032723559	-83.4946184701163
6363.206	3435.76228628433	34512.4973647198	34683.0929537382	-84.3148648496256
5414.761	12126.2280485738	47920.4576274281	49430.918117188	-75.7994515068323
4620.567	15154.8280720798	52063.3626364077	54224.1878030865	-73.7705506584945
3941.215	15542.2546964733	59166.4260175354	61173.7496704145	-75.2816695473725
3361.769	18321.1321572519	68634.7866969846	71038.002706045	-75.0541480069261
2867.244	18165.2236079017	76641.7717108845	78765.0716987448	-76.6661074677471
2442.658	20860.4911699597	89048.1530482781	91458.9178438141	-76.8155921564968
2083.003	18722.9712248479	104210.517422875	105879.089498492	-79.81462514355
1777.843	22764.2689423815	122391.384150231	124490.412701904	-79.4636311982529
1513.548	25040.7233312306	140917.275881575	143124.828268317	-79.923830899302
1292.065	26707.754229913	162499.717322264	164679.878144906	-80.6665560891301
1101.762	27908.9373891075	185062.393981847	187155.011828382	-81.4239489985135
939.101	32233.1413209667	222338.380582341	224662.704691712	-81.7511078995332
801.2801	29878.5859273154	251820.239279153	253586.598241361	-83.2334643070957
684.3433	40154.1495105666	289785.49372991	292554.248130504	-82.1110399864344
582.9476	129096.936249702	400677.397489557	420961.275900841	-72.141230576481
497.0677	145771.912158625	458776.072368677	481378.162105856	-72.3728201172729
423.5089	148920.309928139	508047.945388578	529424.190534064	-73.6629491845689
361.5036	159068.588959721	579571.0696779	601003.694498813	-74.6525618883189
308.1262	178702.17564645	666787.068004831	690318.377011111	-74.9970241147515
262.7298	167922.310588448	764160.723128365	782393.45163762	-77.6063885053363
224.2111	183121.303453049	877422.394895287	896327.769759548	-78.211374641215
191.2854	214144.671013889	1034639.64821702	1056568.56937271	-78.3063137478681
163.1722	219495.700401794	1196146.2890159	1216118.54159921	-79.6017713226589
139.1537	201997.814538707	1398534.73823974	1413047.25014478	-81.7813027753366
118.6706	234176.582096458	1629755.93455512	1646494.17788828	-81.8232432859402
101.1982	285530.051964251	1908876.4205831	1930113.10539897	-81.4927612297087
86.24196	290029.227964104	2186219.15791429	2205373.24720895	-82.4431263244922
73.61024	161873.978295432	2507895.64604065	2513114.35399961	-86.3069245117364
62.69291	294040.262464159	2479011.06688863	2496388.50055562	-83.2356415467172
53.57697	236689.948469608	3461157.21559559	3469240.75307205	-86.0879400424374
45.65746	-30360.2883164449	4103402.5284054	4103514.84184357	-90.423912748649
38.96512	466981.251632945	4271939.26304942	4297387.17787447	-83.7615595068678
33.18414	334069.201396518	5488300.46873094	5498458.35361094	-86.5167416563133
28.30617	487599.396026962	5532574.83302708	5554019.93641096	-84.9633957779342
24.17237	1620978.85984244	6785036.32313967	6975979.52766354	-76.5636053181982
20.61345	662872.818795734	10268058.0901186	10289432.312618	-86.3062942581618
17.55618	1037569.68506325	12157983.6741221	12202176.7677567	-85.1221623829649
14.98558	-553170.414580471	12676829.4410084	12688892.866755	-92.4985929248177
12.76553	-3386885.46472233	12934737.2851015	13370804.8293939	-104.673143930434
10.8809	706440.808553247	14029816.9776601	14047591.3608928	-87.1174306087285
9.278505	2173343.5168774	17188908.1864239	17325760.7822474	-82.7938337908918
7.923394	2128845.80065344	19923837.075142	20037247.0224769	-83.9011320257616
6.75822	-203924.162511027	21409448.0153505	21410419.1781957	-90.5457235758938
5.761429	7295223.62961633	24491675.9014618	25555087.091778	-73.4130249943329
4.919708	3308908.15780435	25246673.6292175	25462588.292179	-82.5331952898868
4.191257	-29229892.272251	26475071.9668178	39437495.3298961	-137.831185562907
3.564097	42386148.8209426	19809061.0788404	46786584.7513614	-25.0489183917844
3.051758	16178538.1022824	23969871.0597582	28918848.7625016	-55.982497221285
2.604164	-24421498.8466836	32324690.2796511	40512901.7424565	-127.071267353468
2.214424	38059054.0635649	35863984.3822689	52294521.4337505	-43.299159693592
1.892567	32690997.9354757	21395269.9456937	39069923.4970633	-33.2035344814059
1.607507	48765082.8359824	48138306.5202117	68522477.0322417	-44.6294129952811
1.376413	18662350.7653535	36596211.9614549	41079995.934966	-62.9805521648113
1.17375	-2901835.37957093	103893248.626157	103933766.210344	-91.599908623155
1.001604	80195506.284068	102653203.11319	130265111.743536	-52.002067745264
