EC-Lab ASCII FILE
freq/Hz	Re(Z)/Ohm	-Im(Z)/Ohm	|Z|/Ohm	Phase(Z)/deg
6999984	6.46709122227024	1.05608313972022	6.55275365591948	-9.27459961007552
5969734	1.06340937060955	0.200813866819697	1.08220409286201	-10.6937874207248
5091109	7.63611673775484	7.31102109390694	10.5717221051337	-43.7540308871464
4341796	10.6018587184731	12.4312700806205	16.3381726060106	-49.5411968264432
3702781	-0.021892997004957	1.6669674209744	1.66711117982812	-90.752446748377
3157797	16.801648226437	-21.1869771751395	27.040402825121	51.5849601999867
2693047	8.77533893806809	-19.9295451246662	21.7759808585992	66.235238920052
2296687	-0.926970030585959	-16.6002862824664	16.6261474219811	93.1961117446099
1958656	0.964376118616148	-36.1045187974905	36.1173960702665	88.4699547799143
1670375	20.6024078116989	-7.44662552951213	21.9068810974163	19.8721072029065
1424531	16.1455029050041	-13.0696979861581	20.7724401432495	38.9899842234588
1214875	-5.54716537664276	-32.9496707056285	33.4133482806673	99.5562870452391
1036062	17.7522901757302	-11.6999123256959	21.2610384250699	33.3874768519546
883578.1	23.8517616817693	-15.9425919158506	28.689244889318	33.7588910130703
753531.2	5.35623829379456	22.0056209600397	22.6481046115751	-76.3200409594881
642624.9	7.86692767997953	20.2878953219619	21.7597621245479	-68.8054702932293
548046.8	8.67273288189065	9.39350314067305	12.7849206839332	-47.2846598461
467390.6	-0.944818834582662	11.0798689499046	11.1200799717107	-94.8740186476505
398593.7	8.00766009465706	1.17639077152078	8.09360954326822	-8.35743741951985
339937.5	0.646640954083557	-7.33337561305962	7.36183009894386	84.9608174678561
289906.2	11.6052515665258	-0.0361530867621443	11.6053078790712	0.178489244733642
247234.4	9.76207412799758	1.81481661584374	9.92933283910164	-10.5313366970714
210843.7	0.55754818670626	-5.73259697298584	5.75964651998591	84.4449262691203
179812.5	3.60093534120166	1.18640681748614	3.79134494185015	-18.2355965005641
153343.8	4.65793542953558	2.59172556069066	5.33042248303642	-29.0920351801707
130781.2	178.072170128823	-102.39977223326	205.415216397939	29.9009026178687
111531.3	275.586718337553	-346.154953721854	442.460496892367	51.4754106695577
95109.37	599.224756724464	-240.348289505635	645.629622415032	21.8556584417597
81109.37	786.253307455077	-202.678443847029	811.956165740677	14.4548771936139
69171.88	446.667204423235	29.5419905330633	447.643072896168	-3.78395766440833
59000	207.325589271458	-63.4820711148864	216.826827952154	17.0243293441899
50312.5	-0.00180833684083172	3.59029757706455	3.59029803246997	-90.0288583489063
42906.25	4.96424732006791	-1.39108139813144	5.15546883523009	15.6539346193739
36593.75	2.76608887508007	-0.623689388123506	2.83553101159194	12.706393349369
31203.13	87.2452791403704	24.5541687343083	90.6346839488836	-15.718638743178
26609.38	2.78236612624735	-1.60960903697568	3.21440546795242	30.0495393290815
22703.13	33.0697591836074	-0.995299967759354	33.0847335562433	1.72390968441167
19359.37	7.58793724343301	3.19664031067453	8.23379018958506	-22.8446809989807
16500	12.8412667546659	0.667129028401577	12.858584409064	-2.97395462436039
14112.02	4.33289989869239	5.66882263530258	7.13509436536107	-52.6079247769912
12011.13	1.97315870465184	0.825307537802414	2.13880522855561	-22.6979579668036
10236.38	-0.328109429709111	0.712345029452337	0.784277526676296	-114.731016953499
8750.684	-0.0494832403454031	0.434357980156431	0.437167526242121	-96.4992707293186
7449.463	0.534421946602602	0.331094452722564	0.628673487300179	-31.7797687379735
6363.206	-0.0743285993143189	0.57265132665595	0.577455004824487	-97.3954913124623
5414.761	-0.15640717754397	0.511944231480474	0.535303746795597	-106.988752859456
4620.567	-0.533129115792555	0.0378219460551167	0.534469039055723	-175.942046263829
3941.215	0.348959406155456	0.255755468028271	0.432647115523412	-36.2380220968218
3361.769	0.625642314624931	0.443683891901011	0.76699654613412	-35.3429474292684
2867.244	-0.527949584995332	0.0227955196704909	0.528441482109222	-177.527649666074
2442.658	-0.526074619850845	0.0399321855641551	0.52758798801256	-175.659234296152
2083.003	0.435418658599562	0.28341273450687	0.519530736662715	-33.0599856354138
1777.843	-0.522560316532514	0.0328965397200456	0.523594754309202	-176.397834189855
1513.548	0.431791184473115	-0.316738951382261	0.535506480176879	36.2617826565859
1292.065	-0.501714837423668	0.0511253345373316	0.504312976159261	-174.18157614251
1101.762	-0.116927685760803	0.504847968295979	0.518211882138914	-103.040328805871
939.101	0.437892371713289	0.26402911910108	0.511332675406122	-31.0880597102238
801.2801	0.419258325234945	-0.315741960869786	0.524852864270271	36.9832740305264
684.3433	-0.442191957161217	0.0930304391482661	0.451872094276894	-168.119109712231
582.9476	0.410446804401122	-0.267470364003128	0.489905067194716	33.0905414746281
497.0677	-0.0892981985468934	0.55324216419823	0.560402587887013	-99.1689675757307
423.5089	-0.0787087568547858	0.380524059081762	0.388578985465871	-101.686429535977
361.5036	-0.197984608339201	-0.616815005328437	0.647810663649146	107.795534730779
308.1262	0.449587653217273	0.286349144986536	0.533033667567008	-32.4936741507065
262.7298	0.321280654965578	-0.240195208240077	0.401142116109247	36.7824523233331
224.2111	0.517343845315762	-0.313197114276227	0.604762008295044	31.1904816456814
191.2854	0.555820980270066	0.302778961832845	0.632939224441772	-28.5789801225208
163.1722	-0.472738798587664	0.15911703037732	0.498798758064016	-161.397512634433
139.1537	0.387210969565792	-0.364417932971209	0.531726212277606	43.2630461637649
118.6706	-0.0927105712650779	0.610109165941771	0.617112991591054	-98.6404140097225
101.1982	-0.117087747914112	0.568543647986954	0.580475167753034	-101.636983278257
86.24196	0.688892971114835	0.225659513132576	0.724910850738665	-18.1371566217827
73.61024	0.453068014735863	-0.344571018459358	0.569209814338101	37.2540137774596
62.69291	0.712372332744211	-0.325174243359712	0.783078941744694	24.5351184890008
53.57697	0.606726026664559	-0.992077483905069	1.16289905215525	58.551244633773
45.65746	594.17071460335	2970.20847365079	3029.05549883775	-78.6876744563072
38.96512	1417.81680291293	4892.88435383781	5094.16546518202	-73.8399358474849
33.18414	3171.82020374489	-520.177972152461	3214.19173783969	9.31358938803417
28.30617	5374.33347915436	-5116.29525232319	7420.23836908925	43.5909785578081
24.17237	2073.53816262602	6284.72100023433	6617.95123604374	-71.740561190346
20.61345	4380.24065018569	4692.17832285008	6418.95985086084	-46.9692293911466
17.55618	4452.99418041565	-469.997646595072	4477.72877233767	6.02505801583515
14.98558	2803.76819656917	-2120.92039388101	3515.59659478631	37.1058125141711
12.76553	3927.04032325572	3442.27426665962	5222.15451967705	-41.2364084987179
10.8809	5250.46250958651	-13229.0945621403	14232.9301093845	68.3524898603989
9.278505	9539.82936486575	625.287276833828	9560.29960248763	-3.75008268068681
7.923394	5975.3901867061	-11104.2026568796	12609.8614000486	61.7144300291312
6.75822	11749.2474951741	8263.44600059709	14364.1691896064	-35.1193735680304
5.761429	4318.41272714932	7504.06410015225	8657.92506904506	-60.0805835805362
4.919708	2405.83316418119	-11644.3120867318	11890.2496688288	78.3263672706977
4.191257	13218.9395098725	-1481.87465262778	13301.7410233311	6.39628883045631
3.564097	4122.26891359016	-4969.7151137035	6456.86993111405	50.3250431972278
3.051758	-1289.13485111358	8335.8671352864	8434.95996205694	-98.7911019098419
2.604164	1354.48090846696	6993.28310099675	7123.24554273459	-79.0384965142658
2.214424	2170.03080410361	-5944.28456295263	6327.99752339676	69.944796868847
1.892567	5245.21872096212	-3888.26749078262	6529.23759030168	36.5494475767872
1.607507	4185.80035541378	-2357.74903433203	4804.15498545538	29.3913941689706
1.376413	5267.90361958624	-2837.02239702499	5983.26872424022	28.3046250119003
1.17375	2225.23059480669	-4660.66988728561	5164.63890299356	64.4779200666062
1.001604	1221.09744600579	1489.72291508414	1926.22774779325	-50.6591807241922
