EC-Lab ASCII FILE
freq/Hz	Re(Z)/Ohm	-Im(Z)/Ohm	|Z|/Ohm	Phase(Z)/deg
6999984	25.4283350484122	96.7697541806792	100.054912660615	-75.277143180791
5969734	23.8658453507488	85.7104498790728	88.9711177449115	-74.4402810252229
5091109	23.561629871105	84.9706246318029	88.1768532694477	-74.5017593966405
4341796	22.0767024917993	89.706379127823	92.3829813825909	-76.1742804964068
3702781	23.0249851593071	98.6448982370455	101.296425849007	-76.8616579632253
3157797	22.6407424447174	107.358131184943	109.719513077535	-78.0913972789146
2693047	22.316619403838	120.49257746392	122.541799911355	-79.5070613991238
2296687	22.0884575296646	138.09352032688	139.848919596507	-80.9123549832412
1958656	23.5767386542492	157.820048985406	159.571396143941	-81.5034182446982
1670375	24.2239263608361	181.519000945913	183.128223692411	-82.3987220953696
1424531	26.120864307377	209.882028101821	211.501218134313	-82.9057324482808
1214875	28.5736194852778	242.058895986183	243.739534865683	-83.2677271832445
1036062	30.2560521213564	280.381547714686	282.009292380327	-83.8410287530524
883578.1	32.6693624968087	325.793072258451	327.426958538157	-84.2737264799352
753531.2	35.0424588027227	378.293763169372	379.913339028502	-84.7076274181878
642624.9	37.8735777520999	440.347060938543	441.972784194861	-85.0841752811477
548046.8	41.1885837011371	512.996445470733	514.647308836753	-85.4095580130025
467390.6	157.536756798374	715.298864760718	732.441325752802	-77.5795167847447
398593.7	178.497647024243	809.859162251825	829.29685437509	-77.5704067558021
339937.5	201.930218657633	919.902772272496	941.805141014713	-77.6192227599473
289906.2	223.420622308087	1046.74171781507	1070.3200447936	-77.9513663937846
247234.4	246.176440658633	1195.90117710455	1220.97602979559	-78.3681358939628
210843.7	266.906178865008	1367.97736541608	1393.77221259682	-78.9597148174353
179812.5	287.187057108384	1572.60456179153	1598.61237125768	-79.6507592141426
153343.8	307.520002420549	1811.31815720963	1837.23760535376	-80.3643781479781
130781.2	329.463484712259	2092.36794024498	2118.14772504747	-81.051698319017
111531.3	353.694429331829	2422.43517814397	2448.12008317602	-81.6930672748864
95109.37	377.188199535211	2807.37622127712	2832.60166378205	-82.3477861473824
81109.37	408.117893435473	3259.37289721575	3284.82448512045	-82.8629325009846
69171.88	436.17959455155	3784.58631959429	3809.6385982352	-83.425577055803
59000	469.428170752103	4387.55691290542	4412.59770106904	-83.8931106166298
50312.5	1441.24696238442	5761.00498617469	5938.54959205629	-75.9544365904151
42906.25	1780.97408000893	6814.34548663944	7043.23598106346	-75.3530027928663
36593.75	1912.95109719678	7579.77646228733	7817.44159674452	-75.835719735264
31203.13	2022.07738661863	8634.73007083853	8868.33470014058	-76.8200039315193
26609.38	2142.02585964577	9898.38848580227	10127.5055862366	-77.7893912251011
22703.13	2232.42586330734	11357.799812256	11575.1173562278	-78.8800163881326
19359.37	2421.54011925144	13145.7974379504	13366.9684980839	-79.5627528968105
16500	2559.70076785931	15226.4697677666	15440.124663023	-80.4573119023483
14112.02	2719.78933913337	17597.8279658848	17806.7628491576	-81.2143037412751
12011.13	2933.76923709987	20465.2961130775	20674.5095935188	-81.8420363016205
10236.38	3190.60088429933	23772.3792247242	23985.5362251293	-82.3557502607348
8750.684	3405.0677659832	27578.3074935218	27787.7226612434	-82.961366650188
7449.463	3714.48901328539	32191.4687619365	32405.0627168125	-83.4178994213483
6363.206	4049.79742350396	37086.2960758045	37306.7583125852	-83.7680339299527
5414.761	12983.1655521018	50138.5508398417	51792.2471811436	-75.4823766630069
4620.567	15500.5965377026	57655.0326101352	59702.3557181825	-74.9518177447157
3941.215	17703.0483643916	63791.9527168945	66202.8032097319	-74.4900137618403
3361.769	19377.7149053589	73302.3501600789	75820.3823120418	-75.1924027228911
2867.244	18699.3314600164	84962.1317353877	86995.5678530402	-77.5876527854356
2442.658	22034.0634655801	95539.5981983019	98047.5128531988	-77.0130907084784
2083.003	21253.6747479992	112798.985049911	114783.839100214	-79.3293871868538
1777.843	21805.5930612506	129860.660712607	131678.681226186	-80.4680835088968
1513.548	23852.9289344933	148429.891073769	150334.276806472	-80.8705290641966
1292.065	26930.0346894747	175242.282172328	177299.419709547	-81.2635208158769
1101.762	30657.908841472	201997.284866452	204310.573558861	-81.3698617826531
939.101	33032.095740784	231283.693167662	233630.618871546	-81.8719446985263
801.2801	36951.438750254	271243.417126459	273748.790244179	-82.2423619130784
684.3433	127602.78537048	376168.787217625	397222.138495683	-71.2621987271913
582.9476	121630.271849849	433943.17159409	450666.838366665	-74.3423052422555
497.0677	133908.398986175	490848.032365303	508786.055425982	-74.740453614092
423.5089	145219.629951892	554527.114521373	573226.884979032	-75.3249278609049
361.5036	180369.607097092	642078.092162633	666931.384476369	-74.3091309859175
308.1262	171533.643028129	728822.953779011	748736.728527234	-76.7560618415827
262.7298	214886.685442725	815553.296374243	843388.087897532	-75.2388696000763
224.2111	216206.939344794	965486.103429794	989398.229499573	-77.3776637535201
191.2854	229679.623890183	1075565.05727618	1099814.94900908	-77.9459232947309
163.1722	242446.835309635	1283077.77360237	1305782.92264222	-79.299707973066
139.1537	248228.493749787	1462166.02944357	1483086.94376563	-80.3648938099937
118.6706	312142.66336952	1719668.5832198	1747768.02763084	-79.7120656982216
101.1982	377688.668416059	1976457.98864504	2012221.38720587	-79.18156407571
86.24196	426706.292512473	2284577.31490222	2324085.14642549	-79.4203728847205
73.61024	465048.336335207	2620249.76341221	2661198.74826927	-79.9358057172202
62.69291	500672.318392208	3100574.54673386	3140738.01681358	-80.8272134548847
53.57697	507760.072192209	3501500.06909156	3538124.22404313	-81.7489306599117
45.65746	721638.191712639	4118537.00392812	4181280.75264786	-80.0616845448105
38.96512	882204.405247235	4763863.62410356	4844861.32326765	-79.5084364978321
33.18414	1026338.24342526	5648909.90445954	5741389.49198	-79.7023827114839
28.30617	1206108.47195304	6681539.81864162	6789526.63992199	-79.7675280127903
24.17237	1593034.4075851	7439098.80286827	7607755.88610637	-77.9130355172904
20.61345	1919787.92361283	8690189.02648848	8899717.46673738	-77.5426183027383
17.55618	2580613.67768116	9885716.97308066	10216994.0307945	-75.3697331604841
14.98558	3373537.89042033	11244083.208838	11739257.4341554	-73.2992928719994
12.76553	4041706.96909857	12803890.5646709	13426652.9267769	-72.4810518447731
10.8809	4687531.36347912	14980867.6349835	15697112.6447031	-72.6250361386895
9.278505	6100527.13289383	16508583.5695065	17599709.167215	-69.7188796102269
7.923394	8289140.63034058	19029053.4887655	20756076.9190101	-66.4618437280262
6.75822	8937006.99569215	21000437.6068169	22822981.2627286	-66.9471962762815
5.761429	10736284.1947538	23038950.5080586	25417730.7961056	-65.0142085628487
4.919708	14739730.3784418	25866643.0823769	29771511.1470721	-60.3239760519077
4.191257	15872036.7975595	28013308.9766053	32197314.0482531	-60.4645798948329
3.564097	19548602.0356262	29291463.4082462	35215588.4537503	-56.2815582720315
3.051758	26018171.1653769	33076300.8798655	42083095.3078102	-51.8110321572114
2.604164	28519017.2633947	33801268.7186864	44225107.2656998	-49.8447957029271
2.214424	31172363.8229182	35926226.8093297	47564798.3183339	-49.0525726891777
1.892567	36646204.7364721	36485762.9320166	51712234.7062931	-44.874300886498
1.607507	41271339.114147	36560562.6385273	55136178.4377608	-41.5363977410925
1.376413	42801044.9758322	39713362.8898542	58387332.8988785	-42.8569967039337
1.17375	54481281.5580182	38148468.8741529	66509515.9931739	-35.0001868874873
1.001604	53011786.2691007	36576944.829231	64405918.8000716	-34.6048059018014
