EC-Lab ASCII FILE
freq/Hz	Re(Z)/Ohm	-Im(Z)/Ohm	|Z|/Ohm	Phase(Z)/deg
6999984	-0.478829515189111	0.367129184796907	0.603375126224044	-142.521819144304
5969734	-0.933792177405045	0.486387633835641	1.05287262331732	-152.486185455204
5091109	-0.818290174094434	0.495418615719827	0.956576402500735	-148.807968297803
4341796	0.237888458925947	0.887073945062126	0.918417716999322	-74.9880859731475
3702781	-206.464815916266	-521.366170529059	560.758775217538	111.603927899234
3157797	-78.3852880377909	-502.634872967098	508.710201296787	98.863810254044
2693047	-20.3379953694333	1.30859185948783	20.380050743357	-176.318536831009
2296687	-17.9670522588851	0.20135896026145	17.9681805507509	-179.35790604684
1958656	-15.3415305039879	-0.144869063799572	15.3422144832627	179.458975801901
1670375	10.3055058951427	7.48280530161572	12.7356125465841	-35.9833194385744
1424531	-9.73337178629121	0.760429657072565	9.763031270744	-175.532782510767
1214875	5.53198095683257	2.0795993186108	5.90995318363223	-20.6023992085803
1036062	4.25207671199207	2.58925369896519	4.9783924194734	-31.3388490667305
883578.1	3.12170478331589	3.45875290962828	4.659185813427	-47.9321021545978
753531.2	2.17998525689316	4.70336550016767	5.18401222495077	-65.1325243475432
642624.9	1.47426039835798	6.12148173596387	6.29650556784522	-76.4590978163664
548046.8	1.0074944011469	7.40673644255215	7.47494412673248	-82.25393566054
467390.6	0.868364962480704	8.32862654193209	8.37377321062851	-84.0476946297561
398593.7	0.872936133207425	9.03971039062812	9.08176092170946	-84.4842311738662
339937.5	1.03150667737265	9.4875002074442	9.54340956952588	-83.7950202421034
289906.2	1.36108518372115	9.80497240580771	9.89899170400682	-82.0969452246742
247234.4	2.4025985763135	34.0727191510044	34.157322352054	-85.9665302856492
210843.7	3.35591987530475	31.7770342881103	31.9537494882401	-83.9714339472242
179812.5	4.18169728090238	30.4843644365164	30.7698402213507	-82.1891914296902
153343.8	5.1971263199246	31.7533437640329	32.1758443895743	-80.7047150782858
130781.2	6.0343271643802	36.3614141699647	36.858724133731	-80.5774038562077
111531.3	14.4505025722446	69.6841517550522	71.1666918608108	-78.2845413516532
95109.37	15.2751364467117	71.0149499477586	72.639196784851	-77.8607817663744
81109.37	15.5620874560514	73.0153640424043	74.6553544779919	-77.9683259445205
69171.88	15.9227948236385	85.0923839780232	86.5693317870654	-79.4011787985836
59000	18.4856497781096	141.161078247392	142.366320664985	-82.5393259382947
50312.5	24.1789189424244	99.3438204896801	102.243898550036	-76.3209576919603
42906.25	23.8596036305839	62.1491135688676	66.5717132332087	-68.9977549292752
36593.75	24.1670613842284	45.5837138918112	51.5938157933639	-62.0688617211992
31203.13	24.1398802006336	34.8679288384191	42.408799530074	-55.304241242565
26609.38	23.9519231631669	27.1672850755756	36.2181722563666	-48.5991224309553
22703.13	23.6688593625183	21.009233665184	31.6481089912331	-41.5932809909931
19359.37	16.4486428504419	3.67122281421136	16.8533595633921	-12.5818036768178
16500	16.8262419999976	4.47655182649633	17.4115460570792	-14.8982032875964
14112.02	16.7858976682611	1.1631631782492	16.8261495627659	-3.96392141602774
12011.13	16.4864085117131	0.118852627340056	16.486836918042	-0.413045446397149
10236.38	15.2205114662953	-0.303998289530028	15.2235470326617	1.14421275969452
8750.684	21.1982812273289	14.1329069514098	25.4775624008682	-33.6914137735377
7449.463	20.5724998375782	17.7236051763301	27.1542617283841	-40.7455326373176
6363.206	20.1402501491064	22.1346528261062	29.9261178872374	-47.7010397349775
5414.761	19.8439565865784	27.3828640243366	33.8172124100333	-54.0697119997085
4620.567	19.6104587181677	33.1178459256045	38.4884633349922	-59.3684543369681
3941.215	19.7851426758705	39.7885130659191	44.4362199416351	-63.5607865239403
3361.769	20.5930730765592	47.1505097038297	51.4513869984808	-66.4066105965756
2867.244	21.3480909297399	55.4643937004348	59.4309679788347	-68.9484232631145
2442.658	22.4840840181948	64.5019127555773	68.3083507579077	-70.7824611653282
2083.003	24.379625696823	74.3769917774975	78.2707036827134	-71.8516577068219
1777.843	27.4333849826629	85.2786220843701	89.5825540840169	-72.167472043498
1513.548	29.8359073019855	97.9677280573334	102.410239259794	-73.0619737532562
1292.065	32.5728641432849	112.313963213125	116.941942053038	-73.8269870013149
1101.762	37.0040265036301	128.62173963984	133.838895263896	-73.9496572652524
939.101	39.9662285380058	148.427310543235	153.713909385748	-74.9297015738237
801.2801	44.100801301043	171.961218545429	177.526170912976	-75.6160477166109
684.3433	52.2317292522456	196.475789321319	203.299998352472	-75.112646997809
582.9476	58.8801180135577	226.784844548558	234.303721725038	-75.445650068339
497.0677	68.1585781759713	263.662147304668	272.329432306312	-75.5059252283867
423.5089	78.8687316090783	304.645296846647	314.688788672883	-75.4855279308801
361.5036	97.3996540330717	351.027380117178	364.289602099335	-74.4922482972413
308.1262	114.041076827498	404.929535577259	420.681941598151	-74.2710865883208
262.7298	137.839965266212	467.5677110825	487.46222466107	-73.5743699094417
224.2111	168.823641197738	537.007589576018	562.91968618046	-72.5479733152443
191.2854	209.579203467038	614.533944714919	649.288388724731	-71.1686920150259
163.1722	263.907749347765	699.354384520783	747.49170919432	-69.3255440838696
139.1537	328.536000795111	795.60500228719	860.768972188731	-67.5623810609135
118.6706	416.594699256855	891.692462199722	984.208611318105	-64.9582305862644
101.1982	513.99684873331	991.233802948902	1116.57387244029	-62.591341934579
86.24196	633.513142810093	1089.87822852997	1260.62423232966	-59.8318626016699
73.61024	777.065084751	1189.48902955992	1420.81465975773	-56.8443632550326
62.69291	941.155979148773	1284.04657267053	1592.02706568526	-53.7600397705962
53.57697	1120.44315030836	1353.00804760718	1756.70818008077	-50.3714126715878
45.65746	1419.61099999674	1329.88653740329	1945.22327604783	-43.1309278257857
38.96512	1630.37145129202	1366.4584333626	2127.27988739043	-39.9672840641914
33.18414	1852.97905927495	1368.79306297556	2303.72000107684	-36.4532307742509
28.30617	2071.18561168108	1358.79703800858	2477.12317589086	-33.2667947515662
24.17237	2294.18596786294	1322.52809483683	2648.08795487838	-29.9621346174343
20.61345	2510.31665337141	1276.96376186876	2816.43855770365	-26.9618182049199
17.55618	2698.33794791228	1226.40103961957	2963.96477562124	-24.4419097148889
14.98558	2874.49642978885	1167.20203500039	3102.43296710467	-22.0998301357326
12.76553	3050.9281773089	1098.0257742877	3242.50263594303	-19.7937494948444
10.8809	3213.46676678309	1032.85649182934	3375.37571152211	-17.8181852876554
9.278505	3363.0880571615	964.446504347042	3498.64521493242	-16.00151946579
7.923394	3495.02665580666	907.101690350275	3610.82328582214	-14.5495641988372
6.75822	3634.38815984024	862.222366714054	3735.26501148833	-13.3461179163665
5.761429	3760.08378126331	796.050465191521	3843.42638608456	-11.9536299389703
4.919708	3888.79995251587	750.068400839383	3960.47568817499	-10.917097721377
4.191257	4022.16985902734	716.841625004698	4085.54920300899	-10.1053024693459
3.564097	4156.68566328613	694.577605117012	4214.31770906022	-9.48641637735743
3.051758	4290.74839447897	652.070569285892	4340.01357279591	-8.64119476755839
2.604164	4450.87222687955	619.673326734519	4493.80224441106	-7.92606322514381
2.214424	4612.53410154909	595.580571108108	4650.82649156413	-7.35744845010007
1.892567	21579.5769110635	-8540.61617295496	23208.193903754	21.5923270391176
1.607507	25804.1165696778	-7925.81204073699	26993.9053944888	17.0744975287315
1.376413	26558.889029734	-8053.02396802826	27752.941853493	16.8680321872561
1.17375	27427.2418192996	-8184.62472439159	28622.398147141	16.6157474109041
1.001604	28455.1690506285	-8397.80583207567	29668.498251396	16.4425995652156
