EC-Lab ASCII FILE
freq/Hz	Re(Z)/Ohm	-Im(Z)/Ohm	|Z|/Ohm	Phase(Z)/deg
6999984	19.7732586421341	6.51401747047108	20.8186018006574	-18.233728658152
5969734	16.0790941363966	-7.21916136032217	17.6253669179814	24.1790366784829
5091109	12.8964711815928	-4.42128616352434	13.633295283145	18.9232088800786
4341796	9.11282771701502	-7.50407471117041	11.8048619759328	39.4701858811359
3702781	6.77871574103846	-5.05936084894642	8.45861213779509	36.7361802517983
3157797	4.1782744572717	-5.28136618011503	6.73430071861599	51.6512399577274
2693047	3.37733902545081	-3.73590084347594	5.03620631081743	47.8857040323481
2296687	2.29736147044512	-3.913630312427	4.53810224083077	59.5864074822358
1958656	1.82586531807743	-3.21456924368582	3.69692298840655	60.4035598896514
1670375	1.44208123108361	-2.83998581164892	3.18514013622805	63.0795592718099
1424531	1.17858005123052	-2.40841175237476	2.68132394651139	63.9247293154074
1214875	1.05221614583298	-2.04456017290306	2.29943147716408	62.7677556396997
1036062	0.818251893263435	-1.81062251513847	1.98692980579475	65.6809595490424
883578.1	0.734963396418906	-1.57332760266701	1.73652841594647	64.960866192122
753531.2	0.671298748448972	-1.36090787805376	1.51746903171628	63.7441330183822
642624.9	0.624685793574503	-1.15649617337249	1.31442601150427	61.6241318806186
548046.8	0.571498553973945	-1.00225906609875	1.1537477335932	60.3077613463056
467390.6	0.541393716470323	-0.87090256662259	1.02546498564474	58.1329854433275
398593.7	0.514720097979981	-0.762888858610784	0.920291361394306	55.9925125235439
339937.5	0.485955751510544	-0.666660252262446	0.824978111450726	53.9101719016543
289906.2	0.466318435107735	-0.565115672554074	0.732672236602132	50.4714568321956
247234.4	0.451617977639232	-0.48809639013839	0.66497885965877	47.2230267760778
210843.7	0.442127384291501	-0.421179903239547	0.610630112943441	43.6100351340741
179812.5	0.432983518595476	-0.367326129498403	0.567805611796499	40.3099586623032
153343.8	0.420875219874901	-0.321498370884917	0.529619819480353	37.3755037483391
130781.2	0.417983723656786	-0.270156174077676	0.49768941282117	32.8758713775264
111531.3	0.415520005336824	-0.23381158823258	0.47678583622729	29.3662986175439
95109.37	0.413098217564878	-0.202506783070446	0.460064272189028	26.1147688597544
81109.37	0.400632984596722	-0.183192412992816	0.440529509255632	24.5726013879583
69171.88	0.396470230372541	-0.153260603271036	0.42506170856319	21.1346426227891
59000	0.394081034329637	-0.126062860499224	0.413753195051789	17.7389910612124
50312.5	0.38862683665463	-0.093907466592861	0.399811743762078	13.5845027366086
42906.25	0.42622506570795	-0.103264957398476	0.43855610594798	13.6190807395447
36593.75	0.416546504178725	0.0927540665173449	0.42674852899456	-12.5534709138486
31203.13	0.43768736353285	-0.0584468176815036	0.441572484076433	7.60602618951758
26609.38	0.295015635737514	-0.0913030258815126	0.308821093620125	17.1965318095164
22703.13	0.37848505342154	-0.070600881424853	0.385013532387464	10.5662584746846
19359.37	0.370144305779264	-0.0626616080827708	0.375410820606349	9.60848503561005
16500	0.365273279157153	-0.0562970651250705	0.369586157760157	8.7616648735626
14112.02	0.361517791672602	-0.0510121763239528	0.365099104119883	8.03172810172183
12011.13	0.35763590267877	-0.0474404844074435	0.360768677195889	7.55618459091915
10236.38	0.355672888548643	-0.0349320158673839	0.357384176176134	5.6092516577106
8750.684	0.351652816952814	-0.0310533539150277	0.353021266300235	5.04651944034948
7449.463	0.336876222534003	-0.0530187118865263	0.341022833720685	8.94403733975274
6363.206	0.365926738034402	-0.0399984426941596	0.368106306692042	6.23807799448684
5414.761	0.304483030769863	-0.0077334577377668	0.304581224627164	1.45492261537381
4620.567	0.338229994835854	-0.027283400235527	0.339328621449877	4.61179172399853
3941.215	0.333163726413133	-0.00901358734278448	0.333285633285131	1.54973223356528
3361.769	0.337772219562718	-0.0227386534692356	0.338536731640628	3.85131171801493
2867.244	0.334944202167047	-0.0231515521977945	0.335743373627071	3.95403101856819
2442.658	0.331493581020877	-0.0203426769383373	0.332117176254198	3.51165087790548
2083.003	0.331546936530036	-0.0201207378270235	0.332156913541109	3.47287538616221
1777.843	0.329658849372563	-0.0188372111691934	0.33019660430458	3.2704121548858
1513.548	0.327550522458887	-0.0173748183810871	0.328011019749132	3.03639155416918
1292.065	0.326238607461399	-0.0167333357888372	0.326667466278745	2.93622535355103
1101.762	0.324331919402885	-0.0159374677213016	0.324723261903004	2.8132158985988
939.101	0.322732975517326	-0.0159039977736199	0.323124605425601	2.82120350322072
801.2801	0.322252454149144	-0.0154234682855623	0.322621337761627	2.74016779042419
684.3433	0.319738072022493	-0.0151416643446341	0.320096399073446	2.71129988487432
582.9476	0.319714444882574	-0.0139274210781595	0.320017654707456	2.49434540504346
497.0677	0.317532808344299	-0.0127007375947667	0.317786710091011	2.29050650210095
423.5089	0.316890770030864	-0.0116239300254805	0.317103888150226	2.10073543190229
361.5036	0.317028730699908	-0.0128684881089051	0.317289795101266	2.32441242554341
308.1262	0.31350650512466	-0.0138145722730901	0.313810725059815	2.52308955170959
262.7298	0.314885781735624	-0.0110876106369628	0.315080927142365	2.01663897856416
224.2111	0.311824524634081	-0.0109812271584305	0.312017822428745	2.01689738252977
191.2854	0.307930921640642	-0.00902810544044387	0.308063238946648	1.67935132964214
163.1722	0.310941367746593	-0.0130586216324394	0.311215458766208	2.4048408030771
139.1537	0.310774486117248	-0.0114488302080491	0.310985300190495	2.10980363492582
118.6706	0.308133023274788	-0.00697165742250489	0.308211881730211	1.29612335174873
101.1982	0.318932044992802	-0.0137919088084983	0.319230114606803	2.47615800575263
86.24196	0.302508001549442	-0.0151255833334225	0.302885909663381	2.86243984869408
73.61024	0.302972732088929	-0.0041634376258486	0.303001337624596	0.78730646290942
62.69291	0.708816974465448	-0.210375925367008	0.739377801441439	16.5308178769319
53.57697	0.302770861350416	-0.0291666797100015	0.30417246701202	5.50246779455869
45.65746	0.287825712464425	-0.032787707691963	0.289687201186637	6.49884254620678
38.96512	0.276646674083058	-0.0252025710885608	0.27779228187747	5.205289483127
33.18414	0.301633334663062	-0.0175193589002419	0.302141682851331	3.32409830028956
28.30617	0.300152688551587	-0.0120255924778177	0.300393494135923	2.29432354693211
24.17237	0.319738771281764	-0.0105147108052284	0.319911614362607	1.88351108894993
20.61345	0.310656212152145	0.0361156310769746	0.31274849473148	-6.6312072560379
17.55618	0.274278555224078	-0.020909419864614	0.275074407560723	4.35946855947426
14.98558	0.296201917817625	0.0166126375535433	0.296667416217765	-3.21010032553915
12.76553	0.297604992030376	0.000443906149691199	0.297605323094312	-0.0854620409470365
10.8809	0.289453854361432	-0.00811461614228184	0.289567575532596	1.60582250987741
9.278505	0.317151696347016	0.00956591092649834	0.317295926774428	-1.72762818050207
7.923394	0.309853827917686	0.0182203364867014	0.310389070904457	-3.36528880913931
6.75822	0.393403186884592	0.00925512027809809	0.393512038827678	-1.34767981302799
5.761429	0.303931259117799	-0.0855719318070343	0.315747946600003	15.7245803155135
4.919708	0.297795313222308	-0.00900652632153824	0.297931478856385	1.73232643442214
4.191257	0.335653664196689	-0.0155668611825042	0.336014448284206	2.65534654547522
3.564097	0.250679832780512	0.0990260064157105	0.26953019962429	-21.5554973120466
3.051758	0.417407856563965	0.0719894324300428	0.423570297710927	-9.78541440274645
2.604164	0.377967238175829	-0.179287064261076	0.418333699987963	25.3771143464132
2.214424	0.319222193782538	0.0103955807278676	0.319391416763203	-1.86519763894416
1.892567	0.356961219425074	0.0691303540877177	0.363593616596509	-10.9604190602669
1.607507	0.433345978441895	0.0874898408477805	0.44208959418124	-11.4142245523223
1.376413	0.317019109511436	-0.0666747776492952	0.323954690921442	11.8772202874116
1.17375	0.449198548818417	-0.116996055572165	0.464184675834971	14.5986380339902
1.001604	0.452606162249956	-0.00942077781679467	0.452704196094213	1.19241168829431
