EC-Lab ASCII FILE
freq/Hz	Re(Z)/Ohm	-Im(Z)/Ohm	|Z|/Ohm	Phase(Z)/deg
6999984	3.76336065109402	1.69824167539422	4.12879015914452	-24.2875949919263
5969734	7.08483219097327	2.05265579658971	7.37619434353004	-16.1576447353852
5091109	9.2474070187736	-0.41362285580827	9.25665276640051	2.5610485785948
4341796	2.26910152467376	-1.89194291333823	2.95436451992769	39.8208417813339
3702781	0.782785932490242	-0.167196501451413	0.800442681397119	12.0567279646261
3157797	13.6446310450596	-3.76258414859563	14.153903907794	15.4164951794937
2693047	2.60332418880111	-12.6730041031015	12.937632311564	78.3916271635631
2296687	-2.66114868590601	-16.227663860001	16.4444150604904	99.3129518696471
1958656	-0.788444569870933	-13.8561917715643	13.8786056666412	93.2567306793348
1670375	5.50613216829758	-12.7029942619166	13.8449830145453	66.5656063847244
1424531	-9.55088890622316	-10.7673819061436	14.3929146461641	131.573684299165
1214875	8.43354280224365	-3.20725866288064	9.02281288334734	20.8217045342446
1036062	1.36152520790364	-11.5874849803582	11.6672001380702	83.298495016843
883578.1	3.11627172336733	-8.60939091185443	9.15602322665143	70.1016727131538
753531.2	8.24117664282851	-1.77188436259534	8.42950571817305	12.1340887261247
642624.9	6.4670346862044	1.10903012588799	6.56143928210099	-9.73098341220902
548046.8	5.25241355612093	-2.83309961529143	5.96777191208641	28.3419818601429
467390.6	4.35606422518544	-1.3250864800261	4.55314723169462	16.9194207719014
398593.7	3.15190232471268	-2.66442929883891	4.1271869055133	40.2091753861397
339937.5	3.02806823400119	-0.243083416507151	3.03780953602228	4.58967555310648
289906.2	1.57543639992312	-1.78636407811847	2.38182628875298	48.5901728301953
247234.4	1.35973024718852	1.94233839280154	2.37097970832106	-55.0061313017585
210843.7	2.26987869695217	0.693414446913998	2.37343061707443	-16.9871386537079
179812.5	1.29856279122537	-0.245330978462597	1.32153418864154	10.6985085929567
153343.8	1.13604909494624	2.32845551875584	2.59081312505412	-63.9923383352328
130781.2	-0.510129518282847	-1.83609016414891	1.90563879481602	105.527137524077
111531.3	0.683424889650454	-1.47022446150363	1.62130489020338	65.0689260322837
95109.37	1.56433773171634	-0.283694970376424	1.58985388482348	10.2789602474721
81109.37	1.45642896395639	-2.09384517482411	2.55056325998499	55.1784426290661
69171.88	1.6971366889149	-1.55207439131315	2.29982778855964	42.443705057572
59000	1.2401615872069	-1.96508147405602	2.32369231226118	57.7440043962132
50312.5	0.975124941878588	-0.780348593265827	1.24892456909362	38.668715328573
42906.25	2.11140691065957	-2.82352556917069	3.52566813272913	53.2111920394844
36593.75	-0.104313049717975	-3.69260398976844	3.69407707521043	91.6181286810401
31203.13	8.51631379520592	-1.94285249680171	8.73511742810268	12.851128217997
26609.38	0.263554665652254	1.4097309106712	1.4341556060236	-79.4105753064238
22703.13	1.55842619959212	-2.5258998413159	2.96797274716848	58.3263014034046
19359.37	1.49935087081896	0.68411278752125	1.64804834269984	-24.525916786811
16500	0.595740071350229	1.21257316687149	1.35101440319085	-63.8350041246899
14112.02	0.886810441377241	1.50716987329097	1.74871203629746	-59.5276793082349
12011.13	1.61286452354202	-0.578125944400748	1.71334806122097	19.7200499336568
10236.38	2.59737504194938	0.0949804379317596	2.59911107729763	-2.09425069557699
8750.684	0.768933003252307	2.73199360406994	2.83814147219086	-74.2804830961609
7449.463	1.05185739420227	4.0532558984175	4.18751565439393	-75.452124491424
6363.206	7.89607346136974	-12.2342488613899	14.5610721208903	57.1615068537934
5414.761	13.2343668065887	11.4224735078071	17.4820297965623	-40.7972077008604
4620.567	21.3394708989626	-9.23137494808145	23.2506193827119	23.3931276596358
3941.215	23.0802575587999	13.3002880148461	26.6382422516651	-29.9532365828759
3361.769	50.3309388696562	14.4258800049864	52.3575154244291	-15.9933891946771
2867.244	35.6832452517731	-0.739623666850265	35.6909096951416	1.18742695547667
2442.658	-3.79415556989045	24.5065333720817	24.7985038743366	-98.8007848965796
2083.003	8.08808329937326	-15.549939898646	17.5276274010234	62.51943573129
1777.843	37.1156741642943	-12.2767893000621	39.0933859391609	18.3027185062637
1513.548	38.6191435731103	-3.84621485382478	38.8101999353558	5.68753087055476
1292.065	16.2332460686087	-13.0374852397685	20.8205259131747	38.7691605596374
1101.762	30.5705402538766	-29.9668976176672	42.8085608756197	44.4287001500688
939.101	53.7306467849852	-18.1333598059933	56.7080341908133	18.6488365807243
801.2801	78.5630467365533	7.02906922105362	78.8768668663013	-5.11266455300836
684.3433	55.0136787699857	7.37484603508889	55.5057943448109	-7.6352527666472
582.9476	44.5570483572547	-20.4109781683317	49.0095764937716	24.6118719152365
497.0677	76.2563110478303	4.88561880749193	76.4126576278797	-3.66583783127975
423.5089	45.1388803673165	102.815468917035	112.287751644802	-66.2971756577056
361.5036	47.8571267970524	125.132578382077	133.971887938537	-69.0705778650364
308.1262	38.1815573245973	-26.6580970245355	46.5669996531992	34.9224766217337
262.7298	111.936016891368	-80.953927975596	138.141993369803	35.8750590631844
224.2111	179.178554118994	-101.492097253771	205.926200521309	29.5285144285013
191.2854	320.721692211834	-199.051738578015	377.470526645661	31.8252673164848
163.1722	107.840200585703	-75.6125009436946	131.707096093281	35.0363405243601
139.1537	70.0890574922193	109.256220720083	129.805230041717	-57.3193853742417
118.6706	462.269379967791	-313.267669163572	558.417059373174	34.1244495455196
101.1982	147.095916965641	-222.88505123742	267.048600170587	56.5766601844136
86.24196	-22.748991050159	570.62532997152	571.078614377133	-92.2829889065099
73.61024	344.699648161113	507.273172256925	613.305730230853	-55.8033104004358
62.69291	515.92137752173	-179.470151252993	546.245734971625	19.1809138371725
53.57697	1591.2434072209	384.784129016439	1637.10549659053	-13.5939393514944
45.65746	350.766883104247	723.813927529483	804.328296138041	-64.1447451087376
38.96512	755.155443251616	893.304476128319	1169.72331367013	-49.7904735743708
33.18414	212.517917655758	999.308050794456	1021.65573737309	-77.9940517495219
28.30617	2131.2388327777	-454.182369286051	2179.09627756782	12.0301828299777
24.17237	2282.80999069018	692.610448923457	2385.56716265815	-16.877932897956
20.61345	4794.83685009026	2132.13983297962	5247.5213850314	-23.9734766103238
17.55618	2839.65821110031	-2278.3058181925	3640.65051290003	38.7406616389076
14.98558	7246.26083541905	-592.867846758188	7270.47373825445	4.67735471153756
12.76553	3259.25980821731	-1416.27223098121	3553.6743702412	23.4867776112499
10.8809	4582.64886553975	-1557.43241822779	4840.0688385786	18.770544275566
9.278505	1376.41478560704	-2574.38822291191	2919.24517372303	61.8684983802419
7.923394	3048.26065858918	-2757.37160699277	4110.3517150911	42.1316149465642
6.75822	2992.98134667391	3142.4191578892	4339.66997655433	-46.3952574607184
5.761429	8392.31802181925	1928.34768324706	8611.01193628464	-12.9405382819272
4.919708	4092.74150041085	-3742.6870601979	5546.01112690536	42.4419632658748
4.191257	2243.01906889161	880.300375253065	2409.5774098547	-21.4281345237669
3.564097	1526.62802029337	-1536.71852610293	2166.12486731786	45.1887286653099
3.051758	1714.20035348426	-2665.09734469268	3168.78947053501	57.2507278416512
2.604164	2029.46980383559	1031.54109075079	2276.58180318384	-26.9433689639167
2.214424	1892.47727172091	-1987.58594056244	2744.44313023639	46.4041612248547
1.892567	-1779.4885442268	1310.03533008793	2209.69953729303	-143.640003577282
1.607507	1569.7811714082	1662.08421065677	2286.20577582645	-46.635939841719
1.376413	2247.60070706562	269.497027151941	2263.69997703883	-6.83736892988187
1.17375	2416.27128511224	254.955761307918	2429.68503380213	-6.02334487202771
1.001604	-77.0005103842399	3059.70593221534	3060.6746756611	-91.4416003843603
