EC-Lab ASCII FILE
freq/Hz	Re(Z)/Ohm	-Im(Z)/Ohm	|Z|/Ohm	Phase(Z)/deg
6999984	-0.486772357458125	0.833857102895469	0.965538707683211	-120.274670100288
5969734	-0.894380537282959	0.366171072713049	0.966435616046087	-157.735166407957
5091109	-0.537899016786443	0.253644945854268	0.594702539777019	-154.753895112552
4341796	0.010537990585657	0.383028823804326	0.383173758379288	-88.4240608605243
3702781	0.78208006792174	0.333480916906226	0.850211005916232	-23.0935222989839
3157797	1.66345268918147	-0.664380248293465	1.79122191910091	21.7716857473053
2693047	1.66881786621811	-3.0640051464437	3.48899421152318	61.4249717510311
2296687	1.25303676755071	-3.26178426770898	3.49418627865026	68.9853790409004
1958656	-2.2683914861851	-5.64945112817871	6.08784838709677	111.876655809717
1670375	-6.71772698863449	-7.55206733067935	10.1075010195865	131.653783798924
1424531	-13.2316214803904	-8.1074187726525	15.5179266062025	148.502925567675
1214875	5.18729130051545	3.29301923669864	6.14426291182845	-32.4083779237453
1036062	5.44417962603993	2.43127666236017	5.9623986791832	-24.0647144096204
883578.1	6.63583642292237	2.76558589522675	7.18907437544364	-22.6246766648063
753531.2	2.09831235796684	4.55790350739829	5.017708554146	-65.2801755713484
642624.9	1.35031326807491	5.92017898809439	6.07222077769027	-77.1514027202229
548046.8	0.8535995498137	7.10153903583647	7.15265607092578	-83.1459736517792
467390.6	0.675187021651298	8.00329587001534	8.03172598494314	-85.1777392890926
398593.7	0.65585425812739	8.70219415790138	8.7268738944548	-85.6899635579395
339937.5	0.773228500276423	9.20663955336822	9.23905266676643	-85.19922520641
289906.2	1.09406723392678	9.54919008442404	9.61166033424062	-83.4640225238563
247234.4	1.52729413144336	9.72693791622409	9.84611337483066	-81.0764500957667
210843.7	4.17375744357915	31.0931549610988	31.3720343081659	-82.354661640924
179812.5	4.66601068248747	28.941563689446	29.3152820978982	-80.8414801039835
153343.8	5.38030412254714	29.8461731128205	30.3272438894725	-79.7811644083144
130781.2	6.0588605092491	33.7675465386925	34.3068067577456	-79.8277458770585
111531.3	8.77176474682352	83.1334174766548	83.5949098816512	-83.9767624547189
95109.37	13.0831075239108	41.4764240370221	43.4909353012909	-72.4929120711323
81109.37	12.0583460820832	27.7262350190525	30.2348775186378	-66.4954190548209
69171.88	11.7957901151812	20.8452822238739	23.9513351493055	-60.4956342073289
59000	14.9335636137455	17.9903383209717	23.3808382037259	-50.3043422320898
50312.5	11.4478617382597	14.0943041020384	18.1577241552747	-50.9153501543952
42906.25	12.2367704934217	12.1330139641844	17.2321960284744	-44.7560595863168
36593.75	12.7482158557677	9.99750353501543	16.2008359178745	-38.1045237877077
31203.13	13.298452987801	8.18658467825006	15.616306239406	-31.6166304649659
26609.38	13.8911421940526	6.55917462780524	15.3618554625876	-25.2759299997931
22703.13	14.4577070659704	5.06610031598659	15.3196170323233	-19.31088358342
19359.37	14.8688323290721	3.59277586231508	15.2967386467473	-13.5840787478402
16500	15.1284234989171	3.3166544835955	15.4877175376536	-12.365512109156
14112.02	15.1255314236978	1.05702205420291	15.1624205347411	-3.99751908817642
12011.13	14.7732420339467	0.00830272097092262	14.7732443670557	-0.0322008411511931
10236.38	13.5173931443017	-0.38719221026282	13.5229373741544	1.64073168241914
8750.684	19.3257399690836	13.879562406929	23.7934124908655	-35.6855475428669
7449.463	18.6831226787814	17.4657379964395	25.5755953359969	-43.0711797869095
6363.206	18.1930565637894	21.8002191235451	28.394310362603	-50.1538033009971
5414.761	17.840006082489	26.9920438946765	32.3548489508974	-56.5378594825274
4620.567	17.5439650960853	32.7899889924617	37.1883595956909	-61.851424237947
3941.215	17.5336122476194	39.4735992831095	43.1925062807586	-66.0498870733271
3361.769	17.6205787019653	47.1808942009857	50.3638915434139	-69.5209226920092
2867.244	18.2419335840038	55.3871157223593	58.3138125054881	-71.7705268830313
2442.658	19.5688956850951	64.597426901477	67.4964387255046	-73.1465423238175
2083.003	21.1234783735114	74.5570611583653	77.4916557260743	-74.1815332849419
1777.843	23.3991080859663	85.6259313743743	88.7655247432684	-74.7158737246808
1513.548	24.8017709068827	98.8601048404043	101.923737025156	-75.916449488598
1292.065	27.2749565655918	113.498424843656	116.729669311816	-76.4874019314458
1101.762	29.406199232999	130.067365937927	133.350081497393	-77.2604938844159
939.101	29.9966881911533	150.82340983138	153.777443910353	-78.7514446589053
801.2801	32.3560904087768	172.955964022371	175.956477793369	-79.4037571086617
684.3433	38.3240156074094	200.986950059022	204.608123656674	-79.2044823875152
582.9476	40.5606014256353	231.996662792701	235.515634162489	-80.0830558705688
497.0677	42.6540942719053	271.205018053812	274.538765160268	-81.0619542635499
423.5089	45.4640255379263	315.39720964809	318.657147216117	-81.7974028893798
361.5036	44.9873239403569	365.711227103385	368.467856053657	-82.9870924551894
308.1262	54.0674136767947	426.749947959304	430.161368912838	-82.779337958675
262.7298	60.682750201816	496.580573177512	500.274586431654	-83.0329290787999
224.2111	66.5380668172403	578.330486137972	582.145570740136	-83.4368643243671
191.2854	75.6152949588953	675.459335224454	679.678590492287	-83.6125331843542
163.1722	85.3801994278457	790.236757329746	794.835776176041	-83.8334657101567
139.1537	96.1178455283515	920.988605507615	925.990632622098	-84.0419650518048
118.6706	106.926543623873	1071.49827423877	1076.82024378631	-84.3012284541015
101.1982	129.041261021172	1253.74708079902	1260.37033829665	-84.1235542418314
86.24196	162.320017766347	1464.57489850524	1473.54247359868	-83.6756731333776
73.61024	183.127713095806	1706.41059504737	1716.20886788106	-83.8746040798471
62.69291	320.469467634015	1980.45728910005	2006.2182716831	-80.8083058476454
53.57697	390.482808774477	2301.56586974977	2334.45545614934	-80.3709098668426
45.65746	467.332526778662	2683.62449024779	2724.01176488705	-80.1214440428426
38.96512	565.389804705574	3130.32770096719	3180.97738858791	-79.761798434839
33.18414	671.636374623814	3647.90936019567	3709.22338501215	-79.5677949254077
28.30617	815.50004606801	4272.17460171924	4349.31214707703	-79.1930232316126
24.17237	991.598821850444	4965.77208530797	5063.80890503572	-78.7073269086802
20.61345	1215.70144827101	5807.96228587127	5933.83147093269	-78.1777420186408
17.55618	1460.28747992823	6826.20242191999	6980.65032995218	-77.9250676309881
14.98558	1723.44826624122	7857.36647713675	8044.15824573598	-77.6285619720079
12.76553	2078.02056399556	9123.50021670641	9357.15905970559	-77.1688779329744
10.8809	2535.30025497424	10674.8759772101	10971.815005353	-76.6396941133916
9.278505	45084.0237739752	55111.4082241106	71202.7844687055	-50.7150326500616
7.923394	52227.6952597305	64148.1333418807	82720.705771838	-50.8484401430799
6.75822	60899.0470055462	74731.6791105844	96402.8930523928	-50.8233159437634
5.761429	85078.2274674964	118576.002779567	145940.307058026	-54.3405777973566
4.919708	98806.0469068399	134936.797289774	167244.055703568	-53.7869401390776
4.191257	115350.784507504	153364.494763685	191902.245272474	-53.0518983132822
3.564097	136599.950027156	174048.728058833	221252.132388185	-51.8738512498696
3.051758	161666.13184925	195181.411214864	253439.778785661	-50.36550547672
2.604164	193181.725047161	217003.344260061	290533.354904816	-48.3237359963036
2.214424	231713.239789822	237785.10104819	332013.2222885	-45.740945388257
1.892567	276142.443851502	255560.242852737	376252.158828664	-42.7831882807649
1.607507	329492.451720929	269097.835257413	425416.173506949	-39.2386536361235
1.376413	384604.203956644	267979.706760238	468757.418006827	-34.8675299691807
1.17375	444472.59252006	262768.427192227	516336.258489155	-30.5912193581761
1.001604	505981.63175073	254891.668362471	566557.30007629	-26.7369895661106
