EC-Lab ASCII FILE
freq/Hz	Re(Z)/Ohm	-Im(Z)/Ohm	|Z|/Ohm	Phase(Z)/deg
6999984	23.3729152275186	89.1631126342455	92.1756682691257	-75.3111768738218
5969734	22.3903772007001	86.2123140125585	89.0723979613753	-75.4412382933165
5091109	22.1315311983385	86.0191479880639	88.8205972383403	-75.5715288959292
4341796	21.3090165794936	89.6211040731156	92.1195770879858	-76.6252555769543
3702781	21.351461358337	98.3879823024677	100.678100715534	-77.7559304898655
3157797	21.4820770583696	107.256572155006	109.386708082763	-78.6742672439012
2693047	21.1506214820212	120.445221400274	122.288184822724	-80.040198627493
2296687	20.7887084658433	137.752383269959	139.312201533935	-81.4180475332237
1958656	22.331823908511	157.796455841364	159.368854658544	-81.9448249300669
1670375	23.1237234862534	181.4470611966	182.9145773435	-82.7373401522919
1424531	24.8021232277029	209.824233337227	211.285007069023	-83.2586744500814
1214875	27.3503872937002	242.29802359147	243.836781313747	-83.5597637714227
1036062	29.2995195514575	280.263647845589	281.791011477766	-84.0318236988309
883578.1	31.6860960069242	324.412791666994	325.95654323442	-84.4214922952994
753531.2	33.9353085495092	378.00675609262	379.526959276961	-84.8700609531074
642624.9	36.8519417897474	439.931587452132	441.472385605065	-85.2116583905644
548046.8	40.6941057876983	512.718066051732	514.330463322647	-85.461983651257
467390.6	153.62690532909	714.001134505822	730.34159549939	-77.8571721322651
398593.7	177.125675814303	809.369881727603	828.524658945301	-77.6557774672766
339937.5	202.15570406671	919.288115520519	941.253190179972	-77.5977941384094
289906.2	224.194663464808	1046.96742174092	1070.70258676858	-77.9133792919674
247234.4	245.415277077705	1194.4775933928	1219.42830020488	-78.3896791070597
210843.7	265.714598001414	1367.01149969201	1392.5963836953	-79.0002229335511
179812.5	286.681482885074	1570.40480010885	1596.35757549307	-79.6544261440315
153343.8	306.863134663854	1809.86191379964	1835.69200315255	-80.3769832194709
130781.2	328.974407121873	2089.12592293025	2114.86909344299	-81.0511253612219
111531.3	353.122037149331	2418.26115811677	2443.90715903382	-81.6922078381937
95109.37	379.408621741531	2803.35913168752	2828.91734122218	-82.2923811285933
81109.37	407.92097001392	3256.426623391	3281.87657770776	-82.8599531204499
69171.88	439.825809543736	3774.43787545123	3799.9773707723	-83.3534416693961
59000	470.023429995423	4382.67940315773	4407.81133620844	-83.8786720801925
50312.5	1419.34278278026	5755.46931532438	5927.89684244512	-76.1468358180201
42906.25	1784.56926150802	6810.72686032184	7040.64541182331	-75.3172502264502
36593.75	1915.97779866681	7571.56574561572	7810.22270906313	-75.7994515068323
31203.13	2026.85590405456	8622.19436190143	8857.22193863322	-76.7714171104922
26609.38	2157.47839101078	9883.79521446329	10116.527114041	-77.6863734135366
22703.13	2302.65059649724	11323.3105443977	11555.0664842058	-78.5053592858966
19359.37	2426.17679397191	13121.5433211055	13343.9586691227	-79.5243074287573
16500	2571.21225208504	15186.7984629393	15402.9211514961	-80.3906196149951
14112.02	2729.92734463876	17562.1885012362	17773.0967549259	-81.1644564130987
12011.13	2949.73697957009	20415.3310990392	20627.3287687	-81.7784379863609
10236.38	3161.75467993813	23683.186832152	23893.3051540119	-82.3958573063939
8750.684	3413.80218038924	27484.7340883703	27695.9320701661	-82.919712618482
7449.463	3702.75450271936	32055.1466921278	32268.294351596	-83.4108520404682
6363.206	4264.87390686156	37310.2649136765	37553.2291204118	-83.4789194265297
5414.761	15284.1961824552	50291.986125835	52563.205014772	-73.0954917842714
4620.567	14485.9548129167	55484.2999701191	57344.1403285115	-75.3677278082012
3941.215	13874.2376947026	64784.7051542415	66253.6979611789	-77.9121760805976
3361.769	15779.5962460744	68607.2734933071	70398.5343162382	-77.0472962888477
2867.244	15351.2530274504	80827.6356628959	82272.5206637468	-79.2461364192212
2442.658	11880.8612989647	95362.7443781299	96099.9889725997	-82.8983412927236
2083.003	10842.7745954061	106340.823496686	106892.172318089	-84.1780998239279
1777.843	9333.11224155262	134796.271530337	135118.991272855	-86.0392386298513
1513.548	7099.22907254507	146550.612892788	146722.463149568	-87.2266363644804
1292.065	38366.3102311657	157915.869587909	162509.678568569	-76.3443343700017
1101.762	15726.4493500511	189571.563131066	190222.760880804	-85.2577241972929
939.101	46970.0751451551	219209.740121131	224185.410147751	-77.9061027279693
801.2801	56708.9721371038	286636.739641889	292192.621456085	-78.8089696215364
684.3433	121815.307148477	427288.927163538	444313.848908905	-74.0877400938789
582.9476	153738.884884046	392646.86997194	421671.92131342	-68.6174255448674
497.0677	108999.167243316	454346.698126906	467238.419394808	-76.5095181023379
423.5089	135052.356666221	484097.59293421	502582.946911051	-74.4120915017025
361.5036	192482.518098283	670743.158919028	697815.093710456	-73.9881600290852
308.1262	128906.398863879	716728.787162336	728228.682499699	-79.8041400158992
262.7298	177034.511359599	870966.168552328	888776.285110632	-78.5104586102733
224.2111	207851.302438049	1016141.31112273	1037181.43451154	-78.4396410267951
191.2854	204204.359570193	1037856.17694443	1057754.63340474	-78.8689010069071
163.1722	338147.164806825	1336807.91921095	1378912.22270745	-75.8047227185475
139.1537	190142.853857111	1443323.277251	1455794.0745612	-82.4950935965106
118.6706	225355.635215412	1780199.47758131	1794406.68252883	-82.7852967197443
101.1982	270026.911550141	1854966.70290635	1874517.53842224	-81.7176471642976
86.24196	610191.427668454	2243126.52858337	2324639.80040662	-74.782222237357
73.61024	321229.519501355	2753235.61684959	2771911.75294024	-83.3451910771462
62.69291	190271.725868046	3221074.30149696	3226689.16777383	-86.6194156932008
53.57697	377470.116605487	3253783.67222235	3275605.57371472	-83.3827198127272
45.65746	1005002.63745851	4035448.43777084	4158710.66500251	-76.0153420040376
38.96512	1167237.48687075	5004699.06730789	5139013.14505702	-76.8716847246401
33.18414	510807.52168657	5578329.09393915	5601667.5913963	-84.7680171697945
28.30617	1589015.3784753	6767317.09282583	6951370.40502689	-76.785912942709
24.17237	1971667.98594726	7422848.86741084	7680244.78485105	-75.1245072241681
20.61345	3046824.01685701	8820307.16468364	9331717.69124346	-70.9434050099805
17.55618	1705910.52906909	11127434.6031249	11257438.9440943	-81.2840327049425
14.98558	4274543.01673069	11581193.3695935	12344867.6730776	-69.741224964237
12.76553	3622382.0905858	11206091.3170199	11777017.2206542	-72.086513107046
10.8809	3453521.20212315	10977980.8406767	11508382.6853203	-72.5371444129164
9.278505	8559437.07080418	11495488.8149341	14332139.6191682	-53.3289635142736
7.923394	4517078.98665639	15731333.6246033	16367005.2294324	-73.9791645917016
6.75822	13513901.4635727	14458877.279928	19791024.8588386	-46.934829005127
5.761429	11390555.5697489	9466378.85145152	14810708.4485093	-39.729042483398
4.919708	19007898.6005734	-5037765.85912139	19664162.683954	14.844121801314
4.191257	13998495.9475728	16612059.0504171	21723682.8067609	-49.8801414693088
3.564097	18363873.1424213	-2311324.19646446	18508756.2070525	7.17367223731186
3.051758	30022354.2421685	16665113.3539994	34337556.0770406	-29.034223738642
2.604164	21682972.9859017	1694547.41690194	21749087.5315603	-4.46864337550525
2.214424	19508512.5141772	4084948.78408749	19931604.7292842	-11.8264734154969
1.892567	24212927.4422224	11344950.142261	26738993.0448533	-25.1054063008063
1.607507	25960565.6467266	13988949.0540702	29489687.4234939	-28.3181754637552
1.376413	39350160.2501592	12421737.4410448	41264205.7086704	-17.5194393636963
1.17375	27320255.234683	-13350318.5227735	30407685.7183793	26.0429142226671
1.001604	37000331.3985843	-16616127.0528982	40560081.383586	24.1839182788974
