EC-Lab ASCII FILE
freq/Hz	Re(Z)/Ohm	-Im(Z)/Ohm	|Z|/Ohm	Phase(Z)/deg
6999984	3.85543756967831	2.69729020852271	4.70529205498229	-34.9768961531153
5969734	5.88090423548458	0.354291341287496	5.89156659823614	-3.44758101838056
5091109	7.39471518161437	-3.10831830103608	8.02143723267557	22.7991193951119
4341796	0.787724631191893	0.0646414544033397	0.790372451578231	-4.69123633299799
3702781	3.4535969461344	-6.6096395402831	7.45752416816886	62.4125218067186
3157797	3.55500644925286	-7.63020902212438	8.41772894405241	65.0186203378712
2693047	0.0949465537389453	-6.33042384665979	6.33113583225204	89.140716470674
2296687	-1.00408604639688	-13.4007823526191	13.4383464924386	94.2850180342561
1958656	-1.54156726893231	-10.7846064567008	10.8942262722304	98.1348360512991
1670375	-0.101373833890851	-20.3328597305604	20.3331124394876	90.2856580326839
1424531	-4.04861706136662	-6.00415112955308	7.24162487954895	123.991905683538
1214875	-5.25928702721089	-27.8406369302312	28.3330401601301	100.697504381581
1036062	2.37112993700276	-12.5247455316107	12.747215688524	79.2798836333544
883578.1	12.3042857545803	-3.27251997425207	12.7320396996022	14.8939232928667
753531.2	13.0837555902813	5.2220852074932	14.0873998403018	-21.7582957236331
642624.9	3.72638183747434	-21.4058337762479	21.7277619937032	80.1247671980544
548046.8	8.43850038023219	-3.43289539143541	9.11005265822966	22.1371526065075
467390.6	5.83441729651706	4.35701504641864	7.28175839372715	-36.7515698981755
398593.7	4.81373751555974	-2.4817511319126	5.41582473400466	27.273639025764
339937.5	13.9031209205396	-4.76491749322217	14.6969796233226	18.9177600514469
289906.2	4.7569075548234	8.09781490643303	9.39163328415164	-59.5687030863663
247234.4	-5.41547774274889	-5.39347598104697	7.6431003094516	135.116626121136
210843.7	3.4590502240353	2.67062319319323	4.37004081129917	-37.6705942015654
179812.5	-0.255424534195007	-4.30608628671303	4.31365515558288	93.3946416206228
153343.8	2.03252379161176	1.6812034876031	2.63772593917501	-39.5958756326537
130781.2	-1.05734799251634	3.86813934406988	4.01004822445063	-105.288214123507
111531.3	-2.53130078021319	1.28538986545599	2.83896297019261	-153.078623815369
95109.37	2.16607828354115	0.582913277240521	2.24314132840797	-15.0620348395361
81109.37	0.0416013408947585	1.81797664263253	1.81845256873026	-88.6891111365518
69171.88	2.48533165891422	-0.700702450616092	2.58221946764808	15.7450119904879
59000	-0.51345174942752	0.214884034878301	0.556603851438129	-157.290264680038
50312.5	-0.538494103838804	0.17071650362534	0.56490709367047	-162.410043649988
42906.25	-0.581943710814936	0.165974456054072	0.605149570453044	-164.081476129944
36593.75	-0.544850968394457	0.151984932905939	0.565651834250364	-164.413677059561
31203.13	-0.539489121060196	0.145117428611808	0.55866589284581	-164.944350569411
26609.38	-0.532726706254482	0.121258614738317	0.546352812022602	-167.176880618138
22703.13	-0.53020055841208	0.106937046214183	0.540877217114472	-168.59689921759
19359.37	-0.523580980526061	0.0958977834692202	0.532290736386555	-169.620889389048
16500	-0.519190433274395	0.0864965081357424	0.526346228183817	-170.541460678485
14112.02	-0.516839275627304	0.0778777309433901	0.522673681954475	-171.431092246984
12011.13	-0.513288043913789	0.0711799459166687	0.518199962104923	-172.104890614058
10236.38	-0.507869191739219	0.0640199798273799	0.511888341081281	-172.8154155758
8750.684	-0.506178656433217	0.0583478082538852	0.509530469115017	-173.424469712024
7449.463	-0.511304388348515	0.0542665185891676	0.514176071578829	-173.941678713689
6363.206	-0.376289661108764	0.079002151064737	0.384493496603264	-168.142944756508
5414.761	-0.49850617840191	0.0443964600821564	0.500479225915226	-174.910722232593
4620.567	-0.498946766530362	0.0430213795908254	0.5007980780045	-175.071895260364
3941.215	-0.485543669239973	0.0261103048471581	0.486245208468143	-176.921861389282
3361.769	-0.513565421426931	0.052543085503832	0.516246276422101	-174.158371351807
2867.244	-0.490627667606094	0.0341638131475399	0.491815691442817	-176.016759960314
2442.658	-0.487807112709487	0.0344169266961021	0.489019737897327	-175.9642197305
2083.003	-0.488237835195557	0.0329584521744771	0.489348999473976	-176.138112421323
1777.843	-0.488122536124296	0.0318014755958059	0.489157381752014	-176.272413728501
1513.548	-0.489158844252459	0.0317363605363123	0.490187282057065	-176.28788358897
1292.065	-0.481178336885857	0.0264783278409889	0.481906312195114	-176.85029896067
1101.762	-0.475932051584737	0.0336881435929163	0.477122844500652	-175.951156292771
939.101	-0.472452111864933	0.0271796945008115	0.473233276301226	-176.707460582344
801.2801	-0.122262417039462	0.458437510543744	0.474460798901107	-104.932865698967
684.3433	-0.139757610532202	-0.438807010518605	0.460525549977355	107.666390043757
582.9476	-0.458111497300041	0.0399143967267703	0.459847043074702	-175.02050094614
497.0677	-0.104750882374809	0.442197245332456	0.454434980099368	-103.326979590775
423.5089	-0.109606215996165	0.491492256227242	0.503565448096216	-102.571649329454
361.5036	-0.399278641861965	0.0255264991970859	0.40009378401619	-176.34197080483
308.1262	-0.126876942398211	0.447637713662068	0.46527119103263	-105.824674507088
262.7298	-0.517489388170835	0.0384280892365844	0.518914236566892	-175.753084782995
224.2111	0.395612435351261	-0.259082202156117	0.472898283438012	33.220345063115
191.2854	0.38228224961574	0.261966670313734	0.46342880221943	-34.4216828608996
163.1722	0.447375096783485	0.289806162793011	0.533040419869678	-32.9348573825351
139.1537	0.405336987728798	0.240098839590576	0.47111094913385	-30.6401155764126
118.6706	0.358593937137833	-0.246008801397283	0.434867729449933	34.4515740690716
101.1982	-0.120247464898271	-0.462348592850038	0.47772970822932	104.578491302679
86.24196	-0.0631023437628829	0.473162326511753	0.477351540291203	-97.5963130196556
73.61024	-0.0530270026953063	0.411486279943897	0.414888926818872	-97.3430656742078
62.69291	0.409756858457468	-0.300173587682487	0.507941793707812	36.2252050309447
53.57697	0.375348828163957	-0.262063868147808	0.457781840828846	34.9222646273495
45.65746	0.429474846656202	-0.262957373449604	0.503582390639191	31.4781580250386
38.96512	-0.134328468412121	0.46342465245156	0.482500306658758	-106.164782254278
33.18414	0.316135118943185	0.209542592205099	0.37927498121713	-33.5374542844081
28.30617	0.395922628352093	0.277838234283239	0.483682552994066	-35.0592129995417
24.17237	0.23765882783439	-0.436966204479785	0.497414497481814	61.4589481482824
20.61345	0.463792968005969	0.291902355001596	0.548006297433946	-32.1855202597513
17.55618	0.394660616680965	-0.247232817377977	0.465704915528762	32.0648438889408
14.98558	0.524551090821652	-0.305296001243941	0.606926268386634	30.1999980460829
12.76553	0.155463008210529	0.52922541078544	0.551587057809449	-73.6295457451128
10.8809	0.73123338895401	-0.0595345674634936	0.733652938278197	4.65456359636284
9.278505	0.580569533472356	-0.344972625873355	0.675327398969024	30.7186509013912
7.923394	0.0729784569930679	-0.61431495441309	0.618634559655897	83.2252137148458
6.75822	2.39283038494617	-0.46915983428769	2.43839049400019	11.0932020292885
5.761429	1.08769500464318	1.66505426092806	1.98884039454161	-56.8454633339992
4.919708	1.61139263196992	0.201132621174837	1.62389671644092	-7.11481228301807
4.191257	2.62556572731285	-0.0676943330042626	2.62643825572976	1.4769161732977
3.564097	0.492406053232458	-2.01645824278607	2.07570893098234	76.2772983079714
3.051758	1.06803250387375	-1.50485019650676	1.84533670186697	54.6356567914269
2.604164	1.59512798401005	-1.05033660436072	1.9098796474731	33.3635214865402
2.214424	2.82902608074379	1.81859133610214	3.3631329163853	-32.734247669726
1.892567	2.35741989341034	-0.159598809474601	2.36281618705995	3.87305030971999
1.607507	2.17675614798445	-1.16886070019734	2.47072917663064	28.2346267580692
1.376413	2.01188007741111	0.588011642127112	2.09604845773202	-16.2920434453891
1.17375	1.32973208835922	-0.612491297269202	1.46401264203649	24.7313909113008
1.001604	0.549187121780276	0.00312087673409629	0.549195989243269	-0.325592377112033
