EC-Lab ASCII FILE
freq/Hz	Re(Z)/Ohm	-Im(Z)/Ohm	|Z|/Ohm	Phase(Z)/deg
6999984	2.87308630218806	1.17690188491774	3.10479032247647	-22.27547034783
5969734	4.67793247540427	1.43904926482617	4.89427369801063	-17.0992091984355
5091109	5.57391519142654	-2.69747243448871	6.19232493463013	25.8244626041175
4341796	4.03560108386209	-5.11396908119647	6.51450350153428	51.7218684651332
3702781	3.00753718114568	-5.87089917799181	6.59641850204477	62.8748987473892
3157797	3.05993239374369	-6.15032921387895	6.86947856051497	63.548582522904
2693047	2.15024035663204	-7.63598515793693	7.9329567579511	74.2731492363833
2296687	1.7335211301319	-9.7106097876562	9.86412884935807	79.8782807545891
1958656	-1.25281763523566	-7.35729102647987	7.46319524570265	99.6637739276057
1670375	-1.51986685747028	-13.1579582708968	13.2454468072277	96.5889959200361
1424531	-4.28312907255098	-6.68186946100672	7.93678613458027	122.660179880315
1214875	4.24419666407849	-8.77292837543675	9.74563890178157	64.1830759852319
1036062	10.1495218743608	-7.07481088561121	12.3719741086575	34.8787542123873
883578.1	2.60807623491612	-7.84507086060905	8.26723644606295	71.6107289539694
753531.2	5.23420013517079	-6.35503947837749	8.2330661254941	50.5241116535681
642624.9	5.81483029830573	3.4140580774584	6.74299962586038	-30.4184496646324
548046.8	4.20524167842576	-0.0775979956731022	4.20595756313608	1.05714093652628
467390.6	0.0411605474420235	-0.121342324557399	0.128133330537844	71.2625425018683
398593.7	0.0347136148879923	-0.106781542308125	0.112282379901273	71.9911729299362
339937.5	0.0392270738394491	-0.105050511165495	0.112135512743008	69.5237874809848
289906.2	0.0423977785187683	-0.103796370977325	0.11212162258632	67.781422825992
247234.4	0.043735891714985	-0.0996929188929109	0.108864623737435	66.3126455181741
210843.7	0.0426041898146185	-0.095000887716088	0.104116692497432	65.845627619363
179812.5	0.0411391537763101	-0.0882494613424914	0.0973673323074571	65.0065309283939
153343.8	0.0389859047307244	-0.08157155849387	0.0904091805227321	64.455230937919
130781.2	0.0369414596024165	-0.0741331874082051	0.0828275371652268	63.5123715902518
111531.3	0.0361651697675703	-0.068119444045018	0.0771244329724344	62.0358020564201
95109.37	0.0348590518870604	-0.0629643144501483	0.0719698436335797	61.0296881681704
81109.37	0.0329385024518011	-0.0574202000118994	0.0661968602969494	60.1597090520437
69171.88	0.0312803940836869	-0.0537478312386989	0.0621875583770131	59.8012666554099
59000	0.0303152723447775	-0.0508914874291832	0.0592364687510383	59.2183966904233
50312.5	0.0364247784420413	-0.0535316553560219	0.0647487653141565	55.767282814278
42906.25	0.0337377355657934	-0.051907354445197	0.061908062856196	56.9777191818493
36593.75	0.029179745276576	-0.0486505701671948	0.0567303755672304	59.0454207320733
31203.13	0.0246335188795316	-0.0457482970339814	0.0519588003508321	61.6994185348988
26609.38	0.0557576188216095	-0.0929675385915193	0.108406066658751	59.0466239434431
22703.13	0.0347816713113694	-0.0805711969187602	0.0877580904084277	66.6506906173013
19359.37	0.0183897630863018	-0.0660283703934935	0.0685414406267528	74.4367859826726
16500	0.0251504738357449	-0.0510039218976073	0.0568677974173408	63.7516960612779
14112.02	0.00182095120791403	-0.0416864596360099	0.0417262121487954	87.4987913171676
12011.13	-0.00210197553817633	-0.0320464649940759	0.0321153268670837	93.7527402425795
10236.38	-0.0039219749712801	-0.0241534203348218	0.0244697691355258	99.2230547915911
8750.684	-0.00426950988574107	-0.0176388623604432	0.0181482280136409	103.606812177917
7449.463	-0.00419757944530552	-0.0130171940977037	0.0136772444365429	107.872654850004
6363.206	-0.00364090863470658	-0.00982984904401497	0.0104824685983027	110.324283959589
5414.761	-0.00287531873120739	-0.00807204520771479	0.00856886058011352	109.606253250731
4620.567	0.0322083719341726	-0.00604786711626588	0.0327712666722849	10.6347727678263
3941.215	0.0285987403189779	-0.00575034889507356	0.0291711237398802	11.3688692132597
3361.769	0.0352519046995922	-0.00643539153007621	0.0358344952398455	10.3456754531372
2867.244	0.0432512591136209	-0.00650236115226303	0.043737308050085	8.54977362176732
2442.658	0.0500590853155185	-0.0072093679982033	0.0505755574320232	8.19522733814036
2083.003	0.0550569346743038	-0.00767621487374849	0.0555894803943922	7.9371957951032
1777.843	0.0587369250577664	-0.00863945384100532	0.0593689020271769	8.36748136966849
1513.548	0.0617753980837987	-0.00899384715557807	0.0624266697419437	8.28346283859051
1292.065	0.0650465653772896	-0.00941977637617565	0.0657250930342375	8.2400555560314
1101.762	0.0674494741403846	-0.0103778966197887	0.0682431850082148	8.74703726105291
939.101	0.0695957432283393	-0.0100302709916369	0.0703148192891841	8.20110588511841
801.2801	0.0732528174491088	-0.00806386515954119	0.0736953267551187	6.28197802074976
684.3433	0.0746239928914173	-0.00962631317422019	0.075242316686732	7.35042398753177
582.9476	0.0781068232227225	-0.00814409080101893	0.0785302619944749	5.95264188010856
497.0677	0.0833806200392261	-0.00622340691597199	0.0836125504441024	4.26855791907864
423.5089	0.0904153661824413	-0.00374045807308145	0.090492703951763	2.36895932115703
361.5036	0.0975142956620269	-0.000452223837726612	0.0975153442534077	0.265708031576329
308.1262	0.0995420554414592	-0.00122183656402026	0.0995495539221533	0.703246105912392
262.7298	0.104736124480191	0.000268177118592761	0.104736467813733	-0.146705671555909
224.2111	0.112566509513862	0.0012447965654228	0.112573391983291	-0.633569281404328
191.2854	0.122624176843362	0.00184899755497745	0.122638116173033	-0.863873104903933
163.1722	0.135252573430075	0.00266823689044547	0.135278890103229	-1.13017357484043
139.1537	0.14685021517067	0.00111914615604136	0.146854479617718	-0.43664294237273
118.6706	0.161355341564371	0.000204487992814338	0.161355471139636	-0.0726117435178424
101.1982	0.170618790395272	-0.00426062225060328	0.170671979357796	1.43046934963542
86.24196	0.176876151792133	-0.00725941676740871	0.177025060950693	2.35023563336995
73.61024	0.153169160970084	-0.0100151470500902	0.153496237878048	3.74102708273477
62.69291	0.154401006619775	-0.0123708539433906	0.154895800047931	4.58084340869454
53.57697	0.17018675970717	-0.0152648968467545	0.170869980556469	5.12542776085269
45.65746	0.19187697383594	-0.0196623908015382	0.19288178426298	5.85090176442718
38.96512	0.209322948667929	-0.0228321772907842	0.210564491685741	6.22500309760195
33.18414	0.223991739110396	-0.028464490660884	0.225793105338235	7.24223236707722
28.30617	0.233450159775845	-0.0328994531440505	0.235756974693316	8.02170134030704
24.17237	0.256175544930156	-0.0391522475483527	0.25915016555725	8.68948365053202
20.61345	0.25698344685363	-0.0411770868297182	0.260261492419748	9.10326231101959
17.55618	0.265560694999243	-0.0452891738604586	0.269394862604029	9.67820826969952
14.98558	0.285256290454197	-0.0521803033076943	0.289989543426952	10.3661816126249
12.76553	0.277780174606304	-0.0512221301085368	0.282463328623672	10.4478682054767
10.8809	0.27919451049787	-0.0530314097148839	0.284186391490679	10.7548876399976
9.278505	0.286733613788381	-0.0557763691116296	0.292108145431485	11.0078943431714
7.923394	0.274842350209612	-0.053125620623841	0.279929721600639	10.9400618698059
6.75822	0.298528908362852	-0.0607625810880708	0.304649963710486	11.5048263684663
5.761429	0.310184338410185	-0.0640980290953905	0.316737874478058	11.6755448731035
4.919708	0.309245028849888	-0.0642143459101679	0.315841685166855	11.7306920608849
4.191257	0.308828047541792	-0.0636819118542544	0.315325464949929	11.651371783727
3.564097	0.297782547190654	-0.0616912721448158	0.30410566990801	11.7043302727309
3.051758	0.293560529491589	-0.0597650136193531	0.299582444960154	11.5073932193885
2.604164	0.306052248080887	-0.0641377016580472	0.312700532985382	11.8358813824929
2.214424	0.299799998255331	-0.0613014115583072	0.306003107848495	11.5562206826896
1.892567	0.296107029271636	-0.0622459832370981	0.302578808268567	11.8715480052398
1.607507	0.298907657919545	-0.0607459166877546	0.305017793509138	11.487568879677
1.376413	0.31010402045898	-0.0649269230882986	0.316828043024189	11.825281663283
1.17375	0.233629152539175	-0.142330384705313	0.273569953259738	31.3503998958804
1.001604	0.32308502484941	-0.205625019196339	0.382969426718946	32.4744055800562
