EC-Lab ASCII FILE
freq/Hz	Re(Z)/Ohm	-Im(Z)/Ohm	|Z|/Ohm	Phase(Z)/deg
6999984	2.60459143498331	1.14304578023612	2.84437167031737	-23.6946524289013
5969734	4.5925858464801	1.01770195914687	4.70399426391452	-12.4946510666005
5091109	5.67506394600677	-1.67337308682207	5.9166314976485	16.428900144334
4341796	3.94798917551676	-4.98368475519124	6.35796604812601	51.614341475721
3702781	1.98332305080537	-6.20621368140869	6.51541699226998	72.2776518275016
3157797	0.547442737337234	-8.0304773088921	8.04911543955572	86.1001440434737
2693047	-0.581275185157785	-8.43252173538484	8.45253238140014	93.94330600524
2296687	1.57502673943229	-9.23963114876524	9.37291272738414	80.3261045672633
1958656	-4.62958826163972	-8.95720276467859	10.0828849462779	117.332474526511
1670375	5.81346622203527	-8.00280863267317	9.89147792425042	54.0042859490825
1424531	-3.65395291247046	-12.4799766291698	13.0038912849645	106.319251675845
1214875	0.808309712200792	-8.93566123384173	8.97214613550292	84.831157118818
1036062	-2.04253625107151	-9.725953085453	9.93811439647251	101.860264931019
883578.1	5.33107449994964	-5.22054369809189	7.46153012643522	44.3998345363501
753531.2	4.22780176127716	8.74356656550892	9.71206795786272	-64.194707028473
642624.9	8.14575809356428	4.0342699388199	9.09003349048473	-26.3473839949996
548046.8	1.21471251107618	-7.84966237791698	7.94309297011248	81.2034175431676
467390.6	0.0954272407126102	0.00324712884494475	0.0954824702013837	-1.94886723872491
398593.7	7.11560877154629	-5.7791649132254	9.16682252931527	39.0828606820495
339937.5	0.180695314095168	-0.503123415379839	0.53458766132359	70.2443964999209
289906.2	0.547283105741676	0.108895605365081	0.558011694051372	-11.2534468654306
247234.4	0.690365502641671	-0.0200675325746727	0.690657102404169	1.66500389349427
210843.7	0.615242369087359	-0.411854445606377	0.740369675963274	33.7990725432428
179812.5	0.10195986019726	-0.413795001584082	0.426171463647456	76.1579511992456
153343.8	0.0148603526013495	-0.26472441737182	0.265141183583928	86.7870631440561
130781.2	-0.299912263302995	-1.33762563797488	1.37083540698628	102.637424884335
111531.3	-0.417372463344196	-1.04967152977804	1.12960616746926	111.683855511655
95109.37	-0.482419551983319	-0.895466541367363	1.01714745776815	118.312919905539
81109.37	-0.720632265874047	-0.400182610390786	0.824291807722209	150.955643297071
69171.88	-0.607964836482331	-0.0985545210308702	0.615901157666238	170.792129713854
59000	-1.14354663451087	-0.287415621722152	1.17911265149309	165.89167898788
50312.5	-0.215990724167456	-0.691605605463674	0.7245483465133	107.343757509319
42906.25	-1.21018267712401	-0.468736130604394	1.29778876252841	158.827281261255
36593.75	0.390492597734042	-0.518119997871593	0.64879334235143	52.9956854240019
31203.13	0.218719273791987	-0.216130986906708	0.30749101487582	44.6589718879319
26609.38	0.128873489469805	-0.136874998500856	0.187997716748723	46.7246165196714
22703.13	0.0770392807597535	-0.0979773299065534	0.124637907378124	51.8221360792811
19359.37	0.0457574044598089	-0.0734191449842355	0.0865107560544626	58.067381775785
16500	0.0322504607393367	-0.0473448361390682	0.0572854757066284	55.7380046709468
14112.02	0.0145844027892806	-0.0434454293420157	0.0458280496577375	71.4433679820116
12011.13	0.00677198290077004	-0.0328397595933545	0.0335307256491362	78.3481969626922
10236.38	0.00205512829709261	-0.0242636139931324	0.0243504931433686	85.1586024987352
8750.684	-0.000494263011716096	-0.0177672003336575	0.0177740739173964	91.5934914958495
7449.463	-0.00158783215832176	-0.012763143602218	0.0128615335622872	97.0915944979249
6363.206	-0.0019540481138241	-0.00950700022378779	0.00970573836893621	101.614695220026
5414.761	-0.00164353312118326	-0.0078102130588682	0.00798126738966574	101.883584313281
4620.567	0.0334918825122306	-0.00562899545666262	0.0339616222236834	9.54056088899729
3941.215	0.0310642950874083	-0.00548868378821123	0.0315454605134328	10.0200520790084
3361.769	0.0376710795354426	-0.00621708178646558	0.0381806539926341	9.37138937040697
2867.244	0.0454858643709485	-0.00662340068661046	0.045965566397334	8.28486658518858
2442.658	0.0523221970487482	-0.00704334724440542	0.0527941383527879	7.6667769045353
2083.003	0.0566966443435541	-0.00798416093666418	0.0572560591176341	8.015822793329
1777.843	0.0604863640319479	-0.00850056105602417	0.0610807643376581	7.99977424548739
1513.548	0.0635698485155158	-0.00925234126594549	0.0642396408706271	8.2810277679612
1292.065	0.0665528065937061	-0.00960388467703239	0.0672421792209992	8.2113675592292
1101.762	0.0690748997191	-0.0097775858163804	0.0697634786661359	8.05672052074544
939.101	0.0709847176192588	-0.00992308594114588	0.071674945204592	7.95791394897513
801.2801	0.0738042571366657	-0.009788544416178	0.0744505471657701	7.55495846123757
684.3433	0.0745587582789526	-0.00933316529650838	0.0751406441984045	7.1350949889657
582.9476	0.0769431755235263	-0.00861346882760705	0.0774237954694055	6.38743090294359
497.0677	0.0804491542875398	-0.00688284785317212	0.0807430493612318	4.89004695833043
423.5089	0.0856620404356948	-0.00463094755338	0.0857871251811643	3.0944361895205
361.5036	0.0953865941988888	-0.00127440447082838	0.0953951071052323	0.765449841898565
308.1262	0.104416071067666	0.000685513676407338	0.104418321314836	-0.376153553405368
262.7298	0.109446303261265	0.00176069306100114	0.109460464724081	-0.921653606711696
224.2111	0.108749261054869	0.000904039837810831	0.108753018661591	-0.476292653119814
191.2854	0.112660144834486	0.00111767250673906	0.112665688769739	-0.568398139701393
163.1722	0.126940583609655	0.00153455536987862	0.126949858713363	-0.692601695994452
139.1537	0.134875077224649	0.000405062230854807	0.134875685472831	-0.172072461202854
118.6706	0.144708813507708	-0.000868179655525768	0.144711417803582	0.343741560117935
101.1982	0.15889798171583	-0.00386731373024329	0.158945036754384	1.39420914261277
86.24196	0.176665968213852	-0.00744869607779897	0.176822926675806	2.41430893064164
73.61024	0.187525014864258	-0.0108626245474778	0.187839367045089	3.31522604883196
62.69291	0.199904296757448	-0.0153573780373098	0.200493333859933	4.39304216739554
53.57697	0.203317267093051	-0.0175910864354636	0.20407684194971	4.94493803397735
45.65746	0.205537909757823	-0.0212618135373297	0.20663469472117	5.90594009022745
38.96512	0.220684075007134	-0.0256736617787078	0.222172450746896	6.63577372966509
33.18414	0.226167257839417	-0.0287696568195947	0.227989740278194	7.2493886099384
28.30617	0.231919434083923	-0.0322466993990111	0.234150536040252	7.91580728061096
24.17237	0.240149365402495	-0.0358914012124127	0.242816618838603	8.50019558375465
20.61345	0.243240909387826	-0.0393191539130162	0.24639832764094	9.18226173181223
17.55618	0.244082022545287	-0.0401106239395969	0.247355808265385	9.33215322059641
14.98558	0.265866635255325	-0.0466061095467348	0.269920723896981	9.94285747527045
12.76553	0.261181813739634	-0.0463826331321843	0.265268332984923	10.0700311874777
10.8809	0.260601476076881	-0.0479627726366417	0.264978408351404	10.4283819108643
9.278505	0.261504547545164	-0.0491103521851496	0.2660760325143	10.6362166214701
7.923394	0.257958267571687	-0.0483228366987842	0.262445354988812	10.6101413122137
6.75822	0.267610198631681	-0.050997247289816	0.272426022330516	10.7892307302377
5.761429	0.273318899113315	-0.0531610511335065	0.278440869791297	11.0067140501135
4.919708	0.272974985716493	-0.0529452143957067	0.278062112763186	10.9765879292455
4.191257	0.283993770558706	-0.0572658975360076	0.289709932064394	11.4005251314407
3.564097	0.289894821442336	-0.0576946037143369	0.295580234110534	11.25588193606
3.051758	0.309904458777543	-0.0644127635127066	0.316527688636469	11.7415897181483
2.604164	0.289903574076198	-0.0586088324426812	0.295768621564979	11.4292475057106
2.214424	0.286478567562084	-0.0585351708951163	0.292397564805428	11.5480904115767
1.892567	0.310619326005167	-0.0650795591765955	0.3173636946951	11.8331884808558
1.607507	0.304374312136202	-0.0639170184010953	0.31101303369742	11.8594929732303
1.376413	0.298913666052639	-0.060755230477801	0.305025536280881	11.4890585699443
1.17375	0.231593646398648	-0.137755224982876	0.269466359797109	30.744789236005
1.001604	0.321998073194048	-0.206578581973656	0.382566947959342	32.6822918568635
