EC-Lab ASCII FILE
freq/Hz	Re(Z)/Ohm	-Im(Z)/Ohm	|Z|/Ohm	Phase(Z)/deg
6999984	21.5670847924247	3.28593647374002	21.8159694937698	-8.66289840883795
5969734	13.0091338314089	-17.4736073569991	21.7845017641001	53.3322465624397
5091109	6.62629033732157	-12.0932076597906	13.7896118559334	61.2801280204221
4341796	7.35931690625695	-9.7639694488435	12.2268002651826	52.9938691477913
3702781	5.43492572975006	-7.85627926845492	9.55298600605349	55.3247531316307
3157797	4.47357065806167	-4.89717907025409	6.63288755210015	47.5883160183634
2693047	2.78551557910647	-4.04517880512784	4.91147316055991	55.4486495252498
2296687	2.57903408707139	-3.89461387346679	4.67112770599094	56.4872615796394
1958656	1.78347242542579	-3.06725451917057	3.54807330499617	59.8238984883176
1670375	1.54986633476414	-2.81943346538005	3.21734218281802	61.2020338729457
1424531	1.13190948072454	-2.42434245054824	2.67556636809561	64.9724399395836
1214875	0.642394014925168	-2.11427886256264	2.20971608562975	73.0993306014988
1036062	0.823992140733968	-1.87127543168007	2.04466006690618	66.2343221875798
883578.1	0.699145399707913	-1.51873474653675	1.67193286954674	65.2811495996001
753531.2	0.628644301912933	-1.38003498998851	1.51647295785985	65.5094159851802
642624.9	0.560949046192216	-1.16971302499337	1.29726342477659	64.3794286216232
548046.8	0.527713612337983	-0.982196259055305	1.11498481960475	61.7517868773738
467390.6	0.550678024383095	-0.889098168182376	1.04582113155344	58.227294296406
398593.7	0.498128086929825	-0.717796042239023	0.873706328947188	55.2405569836363
339937.5	0.45543740978994	-0.658974572358008	0.801043520197616	55.3504674774762
289906.2	0.456183475987589	-0.534890793682691	0.703001795823182	49.5406811644276
247234.4	0.454262022640986	-0.463453467728778	0.648955392892076	45.5738307881512
210843.7	0.449521115812265	-0.42561207640663	0.619043514742112	43.4350423642853
179812.5	0.435389221099766	-0.345055023019501	0.555541846093388	38.3975573224494
153343.8	0.453549291290371	-0.312502016120586	0.550785320891387	34.5674032169353
130781.2	0.422743007033163	-0.299641500657719	0.518166651678638	35.3291276872499
111531.3	0.391707948051844	-0.209521782457205	0.444223472917664	28.1420081304863
95109.37	0.397524050546573	-0.21996175580832	0.454322071642171	28.9570463236378
81109.37	0.398803676883365	-0.17369033063407	0.434985866036431	23.5344935364284
69171.88	0.390969998587962	-0.148457420132546	0.41820706042376	20.7925524416283
59000	0.379736718937663	-0.126443542789861	0.400234862577953	18.4165652201562
50312.5	0.378205234076456	-0.0923799068147321	0.389324088987473	13.7262238472342
42906.25	0.42911875952659	-0.097810798252329	0.440124825512487	12.8402935860911
36593.75	0.401761620317312	-0.0923747634896457	0.412244462048625	12.9486456347283
31203.13	0.392484536226569	-0.0784006784017556	0.400238400894818	11.2964244296434
26609.38	0.388567203528578	-0.0673199625756983	0.394355739173671	9.82902795011181
22703.13	0.385507382569971	-0.0610685142329586	0.390314367461116	9.00147062913665
19359.37	0.378864235424754	-0.0546541487029721	0.382786082367724	8.20873768294955
16500	0.373622808687703	-0.0489875480995668	0.376820624489286	7.46972525963391
14112.02	0.369946646168	-0.0439901076857352	0.372552882937649	6.78116177017954
12011.13	0.367332844836424	-0.0393555030175131	0.369435074828287	6.1152587615226
10236.38	0.365702842427582	-0.0349423388761073	0.367368392769091	5.45795355753938
8750.684	0.364457470664122	-0.0312200754239731	0.365792210185465	4.89610598701394
7449.463	0.363202196516853	-0.0280824147567075	0.364286230282225	4.42125346331219
6363.206	0.363304293688085	-0.0165025096497689	0.363678900456074	2.60078033689814
5414.761	0.376552698747489	-0.0324405976434905	0.377947519252983	4.92396204909761
4620.567	0.368447600376934	-0.00607392615543657	0.36849766186838	0.944445867802
3941.215	0.349907005087345	-0.0200428144321002	0.350480565252276	3.278343036686
3361.769	0.370937904344243	-0.00827820780479614	0.371030265077875	1.27845562517808
2867.244	0.356798426259653	-0.0169251766137186	0.357199634077039	2.71586062892356
2442.658	0.344909757350206	-0.0483644046993994	0.348284160359476	7.98216152286506
2083.003	0.367763192963012	-0.0249562690593252	0.368608981800107	3.88211793978573
1777.843	0.35254601945381	-0.0150229570406095	0.35286595907082	2.44005478916584
1513.548	0.351046634734022	-0.0137064799297518	0.351314114931562	2.23595576338434
1292.065	0.351205567800149	-0.0121425377946906	0.351415412408051	1.98014844250787
1101.762	0.349953032224468	-0.0112530744023477	0.350133912163052	1.84176595695449
939.101	0.349654804093306	-0.0117240750587058	0.34985130550208	1.92043248926816
801.2801	0.347294343831034	-0.0105679365380475	0.347455094277953	1.74293474799899
684.3433	0.348875323781274	-0.00886414581891806	0.348987914725693	1.45544515288297
582.9476	0.345003283647081	-0.00863075969527326	0.345111222275059	1.43303849238879
497.0677	0.344920614220711	-0.0160336482704097	0.345293075504349	2.6614806316299
423.5089	0.34681823045073	-0.0114383948800955	0.347006803752331	1.88898455476681
361.5036	0.344439346355245	-0.0102972387096553	0.344593233309466	1.71238463836261
308.1262	0.340499620756925	-0.00915483480651893	0.340622669145705	1.54011055331165
262.7298	0.339755834893217	-0.0127510859775266	0.339995025754191	2.14931022081568
224.2111	0.339503950417108	-0.0120907420755889	0.339719175780174	2.03961057544434
191.2854	0.349676515034601	-0.0105212715567278	0.349834764312974	1.72342897282155
163.1722	0.332399543556959	-0.0205795083420108	0.333035993130583	3.5427722264636
139.1537	0.325766769739451	-0.00787341611187935	0.325861901651217	1.38450495643664
118.6706	0.342326319006461	-0.0111495440437502	0.34250784081083	1.86546005361433
101.1982	0.347324254084064	-0.0055561128645998	0.347368691544324	0.916476933032689
86.24196	0.330451701780807	-0.012164308356436	0.330675517097383	2.10817185112529
73.61024	0.364974001474773	0.00721345671267842	0.365045278986393	-1.13226372487706
62.69291	0.232743711878492	-0.0546944627404444	0.23908391763865	13.2244789764602
53.57697	0.321583209442139	-0.0298699746277874	0.322967453436675	5.30664227933887
45.65746	0.338644601454384	-0.0298939434756667	0.339961488922973	5.04472379061954
38.96512	0.318340521478791	-0.0078854170467944	0.318438168907859	1.41894831429093
33.18414	0.328339601560597	-0.00592334383159929	0.32839302665422	1.03352075142201
28.30617	0.299131105441293	0.0147103060306035	0.299492589801557	-2.81535417709023
24.17237	0.370127464295716	-0.00873004937526723	0.370230406082579	1.3511622505068
20.61345	0.328779137647442	-0.0290903138922918	0.330063581321156	5.05635196907172
17.55618	0.303357973448812	-0.0252842567316572	0.304409844935151	4.76447179837161
14.98558	0.308304114077204	-0.00312018423472549	0.308319902546994	0.57984073712373
12.76553	0.299376642190283	-0.0241854238335709	0.300351974548425	4.61866320683554
10.8809	0.144390630268786	-0.185902494095822	0.235389871108475	52.1634814153082
9.278505	0.269204650694159	0.0737369011330033	0.279120537660815	-15.3179865457769
7.923394	0.249684840187253	-0.0217754830720226	0.250632581845126	4.98426127337277
6.75822	0.185512355327794	0.0194062046441762	0.186524622390603	-5.97191618033677
5.761429	0.165242967807694	0.0508923938014171	0.172902498989266	-17.1180595098953
4.919708	0.167319688596966	-0.0967406631093562	0.193273469702966	30.0355820771921
4.191257	0.216093436371115	0.0019878276293726	0.216102579117792	-0.527044796246266
3.564097	0.140097468779561	-0.0470399894239272	0.147783833227601	18.5603088717986
3.051758	0.0782521059127815	-0.160862242095008	0.178885586371899	64.0592025099246
2.604164	0.141087308596782	-0.0542990058931499	0.151175430173252	21.0497703845964
2.214424	0.0964946995797541	0.136516256962559	0.167176300539443	-54.7459282486778
1.892567	0.186686553979134	-0.07127268133764	0.199829088327153	20.8957192222196
1.607507	0.131167046741501	6.69578975026449E-05	0.131167063831768	-0.0292482349342792
1.376413	0.208807306320993	-0.0571809715160651	0.216495160861738	15.3147436046565
1.17375	0.112155576153463	0.0510840475038026	0.123241442590088	-24.4880729244426
1.001604	0.156810308321265	-0.0669973204879832	0.170523059286361	23.1346320207846
