EC-Lab ASCII FILE
freq/Hz	Re(Z)/Ohm	-Im(Z)/Ohm	|Z|/Ohm	Phase(Z)/deg
6999984	-0.493649131842401	0.396126792758311	0.632934357820574	-141.254837571932
5969734	-0.945249667480997	0.490199290508989	1.06479682488654	-152.58908867521
5091109	-0.823051753324616	0.51196735681267	0.969290855776777	-148.116923901095
4341796	0.231582981787001	0.923107706842571	0.951713463120864	-75.916678671716
3702781	5.37715712880706	-497.159963028959	497.18904116819	89.3803274205977
3157797	57.0805300405236	-386.940382943437	391.127916239842	81.6083841127661
2693047	-20.214436403263	1.16068524860984	20.2477314617689	-176.71376311809
2296687	14.4492629571955	10.499235277701	17.8609949729209	-36.0031953444875
1958656	-15.1801184642552	-0.297699840522011	15.1830373043034	178.876506907371
1670375	-12.530894255064	-0.0794300616503818	12.5311459957296	179.636821901509
1424531	-9.53268337842376	0.714019527709836	9.55938681502258	-175.716415484106
1214875	5.50309428986772	2.07812389100812	5.88240135230107	-20.6879532665492
1036062	4.22684015038513	2.60558158579549	4.96540361472703	-31.6512256566359
883578.1	3.11063575085012	3.46114722026028	4.65355722590604	-48.0530248972602
753531.2	2.1844010684906	4.70944841586319	5.19138829309648	-65.116538825059
642624.9	1.45305969215988	6.11853998295634	6.28871322227489	-76.6406108458638
548046.8	1.01521640333379	7.38546268382855	7.4549127023609	-82.1730913156471
467390.6	0.842623981106377	8.30156970813721	8.34422403777588	-84.2042266993858
398593.7	0.847953738331227	8.99099303367178	9.03089039208673	-84.612287241078
339937.5	1.01897225496374	9.4802766425655	9.53488068493565	-83.8652075720069
289906.2	1.34635481914361	9.76928923544323	9.86162681634111	-82.153209680156
247234.4	2.4496113925106	34.1265483035432	34.2143521798731	-85.8943376034627
210843.7	3.36635865375298	31.7370042669247	31.915040504823	-83.9452497759867
179812.5	4.17880264934763	30.4481110681203	30.7335298851074	-82.1853526124629
153343.8	5.20421004186667	31.7299362214447	32.1538901966281	-80.6855209921489
130781.2	6.0597052323681	36.3226945875145	36.8246951053372	-80.5285878520626
111531.3	14.3661386065634	69.2313615719191	70.7062045620099	-78.2769783087575
95109.37	15.181108400698	70.6021908225165	72.2158943807579	-77.8648497667198
81109.37	15.5735560762797	72.7838772675736	74.4313673054731	-77.9225466166895
69171.88	15.8716761377793	84.7086225188097	86.1827177133371	-79.3876569946186
59000	13.8433823909037	136.563696701172	137.263551217031	-84.211732446502
50312.5	24.113784774675	97.5138976265982	100.451156521416	-76.1102238149112
42906.25	23.8940954516723	61.5124134748406	65.9901872171414	-68.7716657833166
36593.75	24.0448045362423	45.1463989831938	51.1502684874265	-61.9604008105809
31203.13	24.0652059674818	34.6871319420739	42.2176652673282	-55.2478965729919
26609.38	23.9138782011685	26.9520064919933	36.0317113743543	-48.4181136043175
22703.13	23.5334069781979	21.0004935611929	31.541115608285	-41.7447481137139
19359.37	16.6221248027958	3.69576186160814	17.0280265649733	-12.5352336672296
16500	17.0434808689381	4.04556355392722	17.517043831615	-13.3530163282198
14112.02	16.8487310030952	1.21800191240263	16.8926985728533	-4.13474362602584
12011.13	16.6171818950035	0.153008405545141	16.6178863187771	-0.527555645416405
10236.38	15.3473410080752	-0.247425173928194	15.3493353352788	0.923625154484741
8750.684	21.2404479051133	14.1968497609021	25.5481343808791	-33.7582722186515
7449.463	20.5941104499909	17.8141742501353	27.2298033309205	-40.8602330583248
6363.206	20.1731526072391	22.2458139905409	30.0305232424729	-47.7973424811831
5414.761	19.7610661572787	27.5572845717061	33.9102295574409	-54.3560533874031
4620.567	19.5801312998424	33.3972242407301	38.7137718222427	-59.6177482736295
3941.215	19.5685530156161	39.9261546172366	44.463761532786	-63.8896642983454
3361.769	20.1011990803984	47.4716152060817	51.552036378247	-67.0504432709641
2867.244	20.3831628179236	55.9327478627831	59.5310474453763	-69.9771116884923
2442.658	21.7589744642563	64.9139006939124	68.4636215302351	-71.468979195454
2083.003	23.1776406163463	75.0811430985163	78.577229993939	-72.8444789742246
1777.843	24.3957624669232	86.2821808916821	89.6647531963786	-74.2120719354223
1513.548	27.7665571538639	99.0294809419768	102.848528389161	-74.3372059178789
1292.065	30.2057528013492	113.698500531516	117.642409552896	-75.1221580972081
1101.762	33.3784310857971	130.577623633635	134.776242177754	-75.6610249035287
939.101	36.085933097069	150.978421344015	155.231048051017	-76.5577038529084
801.2801	42.8112906447268	173.115210944442	178.330263463625	-76.1094789697775
684.3433	42.5651363261508	199.935832188641	204.416554670673	-77.9815039738085
582.9476	47.947516365764	232.415900972714	237.310166976899	-78.3433841172131
497.0677	52.0797402737209	269.458696323717	274.445419658364	-79.0610137556145
423.5089	57.1709893220986	313.747247901653	318.913558172005	-79.6728753850347
361.5036	67.4444011309526	363.715232395325	369.915554580094	-79.4948573980875
308.1262	76.0092511846987	423.104996088554	429.878173417486	-79.8156564675813
262.7298	85.5688706829394	493.325729297602	500.691828190719	-80.1597749193369
224.2111	101.401268465213	572.665785827627	581.574001743482	-79.9587813248049
191.2854	120.217983025819	665.642533840035	676.411373573639	-79.7624859841931
163.1722	147.9806248885	775.098269103875	789.097961035393	-79.1912470624477
139.1537	183.598312405652	898.708687375366	917.270758872295	-78.4538503801143
118.6706	224.116489435483	1048.45077785999	1072.1367610674	-77.9340630683717
101.1982	282.121673820422	1213.07543053004	1245.44957304376	-76.9076091783948
86.24196	355.247416049764	1399.770349116	1444.14603031493	-75.7595736442912
73.61024	441.791936682616	1613.25885764939	1672.65784220862	-74.6849912995233
62.69291	558.940750430029	1856.54002378197	1938.85420349124	-73.2447472899029
53.57697	841.991040233165	2068.65514293795	2233.44644266133	-67.8525268883677
45.65746	1062.34147287262	2349.75298970145	2578.74165390721	-65.6719068158793
38.96512	1323.22840281781	2646.70348839839	2959.04930028615	-63.4370849359716
33.18414	1637.82478438103	2954.77096181354	3378.33412514353	-61.0004673206187
28.30617	2016.97416390575	3280.37256719899	3850.8478232066	-58.4142504249572
24.17237	2461.62650157495	3591.09704885444	4353.8009885096	-55.5701280369735
20.61345	2978.65135459161	3893.85528689723	4902.49659739892	-52.5853846173308
17.55618	3567.31459306585	4170.61415053214	5488.14684556813	-49.4581351348831
14.98558	4225.00174112896	4401.87346146432	6101.40391084598	-46.1745369293002
12.76553	4927.10649704392	4564.61376889159	6716.55248564076	-42.8129133311763
10.8809	5651.02637787822	4674.58357006665	7333.88237409167	-39.5978809849367
9.278505	6433.6317890293	4666.75197152874	7947.96778809374	-35.9559377855451
7.923394	7213.21235691534	4687.03448930705	8602.25114780486	-33.0151917949904
6.75822	7834.44439446759	4538.72761558958	9054.20164004094	-30.0849939574442
5.761429	53804.2860420847	1736.80100145355	53832.3106899297	-1.84886433107837
4.919708	57797.4801740173	538.331066532137	57799.9871522747	-0.533642749031875
4.191257	61705.9656200743	-732.395961855251	61710.3119174643	0.680018969855584
3.564097	65812.9600744529	-2416.84831843591	65857.3220648688	2.10312695773916
3.051758	75146.7221664695	-8616.70751902994	75639.1267852364	6.54125861178031
2.604164	77344.6291351215	-10234.8341463889	78018.8662187139	7.5380218288135
2.214424	79903.0363199614	-11812.8231074078	80771.5172750641	8.40966252254603
1.892567	82440.8603219616	-13523.6479763458	83542.7106647451	9.31586403048084
1.607507	84826.2808348986	-15127.5539304286	86164.6145943862	10.1115820867806
1.376413	86892.8886544847	-16745.3972187785	88491.7082371866	10.907924667077
1.17375	89294.1944232745	-18143.680166403	91118.8580244632	11.485563527394
1.001604	90630.0629202889	-19681.4705941009	92742.4853542431	12.2522670009484
