EC-Lab ASCII FILE
freq/Hz	Re(Z)/Ohm	-Im(Z)/Ohm	|Z|/Ohm	Phase(Z)/deg
6999984	3.1811404823005	1.24060970015023	3.41449369544562	-21.3052350767114
5969734	4.78919567138683	1.24835804390935	4.94922145237243	-14.6097018490141
5091109	5.82403374145091	-2.09224749445308	6.18844638011867	19.760506483571
4341796	3.46232102262874	-4.41277118351551	5.60894075399285	51.8817809857542
3702781	1.57046481744174	-6.28189494721745	6.47522693584545	75.9638330982553
3157797	1.17722643547407	-7.0982120988369	7.19517039968155	80.5833053214976
2693047	0.751149413091706	-8.01040327047342	8.04554448104038	84.6429404831175
2296687	2.51787928128048	-8.39569051987461	8.76512038597382	73.3059391824229
1958656	-3.1479669371279	-8.21090454569219	8.79367097950106	110.976252634669
1670375	5.47810676460661	-6.75817157178877	8.69957106518262	50.9721188127368
1424531	5.18629353662922	-10.8540559453689	12.0294709407055	64.4605594454138
1214875	3.081338121349	-9.31547851514614	9.81186957639715	71.6970163979161
1036062	14.0448196116196	1.40114591293764	14.1145374629237	-5.69711817334069
883578.1	8.37145765690145	-10.2354751832397	13.222944283631	50.7207278505452
753531.2	9.95623895967221	-3.41309638470404	10.5250140690345	18.922217663093
642624.9	2.88684851433701	8.04049359858426	8.54303410116126	-70.2498968947541
548046.8	1.07374292582053	-0.373584448154428	1.13687695493069	19.1841796966048
467390.6	0.0532288709034119	-0.137857236168688	0.147776622852607	68.8876324410511
398593.7	0.0350245926348499	-0.109603854943469	0.115064013087091	72.2783966726353
339937.5	0.0394666165597313	-0.106614634627214	0.113685065595122	69.6864501990225
289906.2	0.0427559184509374	-0.104806958210116	0.113192610411811	67.8070340394344
247234.4	0.044246404237196	-0.102072811921031	0.111250183017322	66.5642885817956
210843.7	0.0435563333522692	-0.0965130761798722	0.105886392179523	65.7103522839326
179812.5	0.0425291158643614	-0.0893993089181443	0.0989998087434823	64.5585925241606
153343.8	0.0397968347967026	-0.0821325937991006	0.0912663740049099	64.1477817850518
130781.2	0.0382326214643107	-0.0756519898704593	0.0847641251673923	63.1891088022389
111531.3	0.0368936888606394	-0.0691555127301605	0.078381306564238	61.9205802438193
95109.37	0.0348626399334181	-0.0626573987997186	0.0717032306627403	60.9083930029412
81109.37	0.0326729647181493	-0.0574282908424628	0.0660721667009636	60.3629371819766
69171.88	0.0304014576372024	-0.0531954854839795	0.061269962480345	60.2518406655008
59000	0.0292986003069509	-0.0502967697330837	0.0582080151313314	59.7785775267227
50312.5	0.0347036978919611	-0.0525076942252401	0.0629396901821721	56.5382490938281
42906.25	0.0335950455923784	-0.0517083437256067	0.0616634405397515	56.988112636253
36593.75	0.204097885091461	-0.172162904604207	0.267013131550799	40.1486710429739
31203.13	0.129967291892514	-0.148656322738429	0.19745936101382	48.837438496262
26609.38	0.0758569552825823	-0.114477942601438	0.137329811064465	56.4701988965004
22703.13	0.0432253433814697	-0.0892777203263003	0.0991914394345956	64.1652569978033
19359.37	0.0228064624524367	-0.0702448338609451	0.0738543933273179	72.0128880303717
16500	0.00730413790328575	-0.0692898836540616	0.0696738000061975	83.9824347368907
14112.02	0.00342543517757558	-0.0429322521704704	0.0430686879598698	85.4382059027591
12011.13	-0.00089811158043665	-0.0328635838043882	0.0328758535232009	91.5654165638881
10236.38	-0.00323208016515403	-0.024719695369734	0.0249300958956525	97.4491201620865
8750.684	-0.00399537096719285	-0.0181054316636424	0.0185410259935181	102.444166220037
7449.463	-0.0038781695632546	-0.0130662144252082	0.0136296059578725	106.531360651603
6363.206	-0.00343018552420691	-0.00991245920308732	0.0104891858684718	109.088070220815
5414.761	-0.00267688141342214	-0.00812663894869144	0.00855616471930699	108.231670204433
4620.567	0.0323401055354396	-0.00612913264725991	0.0329157818234821	10.7314823140665
3941.215	0.0294907411464906	-0.00561335080009684	0.0300202185297553	10.7769235967983
3361.769	0.0360450471572961	-0.00630531010934989	0.0365923811762336	9.92227683126935
2867.244	0.0437059569242825	-0.00681923998753832	0.0442347454460278	8.8680975135861
2442.658	0.0498734860553761	-0.00716451113963417	0.05038546249848	8.17482431105575
2083.003	0.0549073805198477	-0.00769046837087883	0.0554433380967889	7.97312597843585
1777.843	0.0586232018807233	-0.0085032600121457	0.0592366882057243	8.25315910080604
1513.548	0.0622134449822386	-0.00947045609571056	0.0629301380518017	8.65541558003354
1292.065	0.0651986245430686	-0.00975110615269129	0.0659237795754239	8.5061085082004
1101.762	0.0676158433093091	-0.0101391376066169	0.0683718098183378	8.52808143964366
939.101	0.0690874850940958	-0.0102165403896794	0.0698388022102388	8.41183976216752
801.2801	0.0716654375650116	-0.0105673593213143	0.0724403480417532	8.38805055451369
684.3433	0.0735467713426684	-0.00972570209071864	0.0741870396773464	7.53299125937225
582.9476	0.0775189552522675	-0.00837639101993947	0.0779702016793722	6.16722603354096
497.0677	0.0815860648844093	-0.0066350146310605	0.081855417673343	4.64936686916101
423.5089	0.0874891640308531	-0.004520177296123	0.0876058549733173	2.95758923085807
361.5036	0.0956016731408012	-0.00197738856488961	0.0956221207297619	1.18491510850282
308.1262	0.104972342989859	0.000624066986457053	0.104974198031631	-0.340622893543259
262.7298	0.111401429890042	0.00179330348638982	0.111415862959186	-0.922248909860837
224.2111	0.117408677886074	0.00245067609520304	0.117434251631624	-1.19576349139582
191.2854	0.129492683181471	0.00337427311404517	0.129536638510443	-1.49265475097215
163.1722	0.134347914628764	0.00207921339210875	0.134364002967415	-0.8866579175429
139.1537	0.146959873347094	0.00115259773433939	0.146964393156067	-0.449358250945391
118.6706	0.15331237659268	-0.00108431694975029	0.153316211014176	0.405223311986464
101.1982	0.168506754499825	-0.00455752334250669	0.168568375833315	1.54927444028698
86.24196	0.187209782347647	-0.00742891463028474	0.187357122574077	2.27243598620032
73.61024	0.200358878171894	-0.0115042009494772	0.200688880364074	3.28619943397284
62.69291	0.214371955079656	-0.0163719431633872	0.214996222403138	4.36729630887133
53.57697	0.22107934811329	-0.0201980539915587	0.22200008907035	5.22011419311822
45.65746	0.220063485978027	-0.022727887372442	0.22123402705103	5.8965321232314
38.96512	0.219179831793164	-0.0261127632460332	0.220729869001055	6.7941106163495
33.18414	0.233896133051206	-0.0304425311638753	0.23586892283633	7.41559220714995
28.30617	0.245539198229522	-0.0350228223032097	0.248024385795588	8.11770614845916
24.17237	0.251672052893514	-0.0391559518114405	0.254699844463823	8.8433629255703
20.61345	0.257560715998347	-0.0410106554408568	0.26080528423571	9.04709525836292
17.55618	0.267526977906271	-0.0456446323565121	0.271392918792336	9.68239659118193
14.98558	0.28640266756514	-0.0525739502000063	0.291188097675816	10.4017852100143
12.76553	0.288634514213996	-0.0545452531614428	0.29374319981575	10.7013791115103
10.8809	0.271705809821037	-0.0521996741840275	0.276674633957333	10.8750655375262
9.278505	0.263615111943519	-0.0498775336278692	0.268292183273746	10.7140472083606
7.923394	0.257307712765794	-0.0491857445800968	0.261966594280002	10.8218434879365
6.75822	0.284941418190744	-0.0576410337694507	0.290713089788821	11.4360828922065
5.761429	0.285315232381659	-0.057257915510609	0.291003867186709	11.3475551832809
4.919708	0.297048429214099	-0.0600084217853163	0.303049137902962	11.4209338881033
4.191257	0.291206840407253	-0.0592538691998303	0.297174098661249	11.5013542442278
3.564097	0.288615906855037	-0.0587933725178257	0.294543379388801	11.5140681777018
3.051758	0.301096983540843	-0.0623353402779503	0.307481850106576	11.6965609650289
2.604164	0.3179074863014	-0.0668549465837812	0.324861129914299	11.8760686422434
2.214424	0.30625042442607	-0.0659876024510172	0.313278927057633	12.159585348008
1.892567	0.313289573014823	-0.0671244907945817	0.320399834307451	12.0931852691303
1.607507	0.320321645901167	-0.0685770569019714	0.327580172730538	12.0839320007389
1.376413	0.242403942332414	-0.128246218843688	0.274238516452375	27.881524328086
1.17375	0.318379045754318	-0.206062943191572	0.379245505355308	32.9119619890417
1.001604	0.33046356157873	-0.215463461268918	0.394500530637516	33.1044987265175
