EC-Lab ASCII FILE
freq/Hz	Re(Z)/Ohm	-Im(Z)/Ohm	|Z|/Ohm	Phase(Z)/deg
6999984	-2.21689864417554	3.5887158293649	4.21823670536417	-121.705345714729
5969734	-1.71905524925053	5.34610932551695	5.61569549302266	-107.825328536126
5091109	-2.07303499011918	7.01231712978021	7.31232285931545	-106.469137435052
4341796	-2.24289715588573	11.532089498346	11.7481775544014	-101.006156745818
3702781	18.9645985949699	-1246.64574784377	1246.78998897842	89.1284551738582
3157797	687.320666029425	-508.208705309571	854.801606282746	36.4794264046443
2693047	-20.8700254660898	-5.46311058715583	21.5732134890176	165.330925193785
2296687	-19.7425228303591	-3.28954748472949	20.0147028546901	170.540142875556
1958656	-17.711168233182	-0.926334247846248	17.735376379508	177.006028889387
1670375	-14.818861104462	0.656142937746395	14.8333801942811	-177.464738900168
1424531	-11.5494993641251	2.13603491423217	11.7453642223962	-169.52176769049
1214875	8.19014715805465	0.7340955626376	8.22298040649951	-5.12182271040573
1036062	6.84974680152874	1.42171122468373	6.99573398947136	-11.7256385731318
883578.1	5.57940957297928	2.40377419291029	6.07519065985211	-23.3078027847849
753531.2	4.48633995850395	3.73257278381414	5.83603853737613	-39.759987933913
642624.9	3.53989490468329	5.23381316659819	6.31851693034523	-55.9275047321084
548046.8	2.83182723635184	6.5134344539178	7.10239916380568	-66.5021799568034
467390.6	2.44230448880795	7.50065887139497	7.88826563454144	-71.964129322006
398593.7	2.23410231491102	8.26684801852908	8.5634099116502	-74.8771613440102
339937.5	2.15606756304386	8.80621728025648	9.06631623778356	-76.2426343613659
289906.2	2.33154739588521	9.17799280673789	9.46951240665493	-75.7462810234441
247234.4	3.86944890643061	37.233428927661	37.433953365236	-84.066888715893
210843.7	5.11142320540283	34.9990644072363	35.3703428958019	-81.691004626824
179812.5	6.21881093228803	33.8277940528442	34.3946690621263	-79.5832074900967
153343.8	7.33870402945444	35.003091164971	35.7641296264176	-78.1589490029605
130781.2	8.40815094757682	39.9908670286987	40.8652229660416	-78.1264050001971
111531.3	15.0326285591226	88.2903329507002	89.5609446909871	-80.3372772442684
95109.37	28.2807600597775	46.4758465786298	54.4040963968619	-58.6793007009847
81109.37	34.5092696073578	31.0592107646065	46.4280546884485	-41.9880088047926
69171.88	39.5163843621391	22.9696367142549	45.7072077887193	-30.16809575605
59000	41.9402933785193	18.0255924937102	45.6498652070909	-23.2576346002433
50312.5	46.3629745914777	15.0940163314584	48.7581248817501	-18.0332736439475
42906.25	50.7807647299283	12.5878444980991	52.3176824378207	-13.9221926019028
36593.75	52.8930177722415	9.85434940126082	53.803155401675	-10.553619025724
31203.13	55.0298533387459	7.72355793229866	55.5692190481156	-7.98939797981757
26609.38	56.8889285186632	5.90679607295103	57.1947587445651	-5.92779843011169
22703.13	58.4281472323741	4.23899136432333	58.5817158915202	-4.14956719010146
19359.37	59.610463006851	2.65520221002197	59.6695684471344	-2.55041448191717
16500	59.5921127782266	0.307180396637512	59.5929044867672	-0.2953408357827
14112.02	60.828677526772	-0.0667192925854664	60.8287141169368	0.0628442455053497
12011.13	60.8340909637676	-1.18917442493094	60.8457127429769	1.11986549114823
10236.38	60.1866268865706	-1.93864211111389	60.2178411205371	1.84488857693795
8750.684	66.6282579186297	11.310621877324	67.5814687656553	-9.6345202378208
7449.463	65.139321793901	14.8113788041937	66.8020073489615	-12.8101101694436
6363.206	64.1799882890336	19.3528379402653	67.0343436838361	-16.7801633797949
5414.761	63.477815252377	24.584374753161	68.072200722606	-21.1709280399547
4620.567	63.0354623245585	30.5222842657565	70.036271654554	-25.836643686842
3941.215	62.477800844701	37.2657976440358	72.7476135171205	-30.8145812250299
3361.769	62.4295920232718	44.6943941016712	76.7791822326056	-35.5995122003501
2867.244	63.1354761833387	52.8306401253502	82.3235378792189	-39.9219917504863
2442.658	63.7668044692471	62.2377942395786	89.1052657480315	-44.30477510856
2083.003	65.4952115797696	72.1591851384775	97.4503501262456	-47.771576569136
1777.843	67.4545612793782	83.5083507043896	107.34878888353	-51.0701690802175
1513.548	69.3762895538931	96.363441324287	118.739135823556	-54.2482227303594
1292.065	70.8624394660948	110.944273871999	131.643903132926	-57.4327737218981
1101.762	73.6577588862508	127.265027445122	147.043710014243	-59.9388338220208
939.101	75.2822827930762	147.140566858304	165.280877653526	-62.9041195949409
801.2801	77.0112436774648	170.640012427107	187.213101822156	-65.709951213476
684.3433	81.4744917513463	196.341731630821	212.57508881788	-67.4633739539149
582.9476	87.7676948414257	227.906533196547	244.222349778734	-68.9381100228021
497.0677	89.8825883443362	264.385867243678	279.246784199333	-71.223638667579
423.5089	98.0505349294017	308.690214554936	323.888184350578	-72.3783778078856
361.5036	104.89754986824	359.028615995835	374.038825621411	-73.7131975832019
308.1262	113.175739163555	418.435230832849	433.470633765838	-74.8651292303124
262.7298	123.682515538895	486.676900326007	502.147159666326	-75.7408952201699
224.2111	141.228143531559	570.900305548153	588.109298855531	-76.1052390820936
191.2854	156.720364896183	661.397396741397	679.711548518553	-76.6694306229589
163.1722	179.862634071528	766.617677568156	787.434588200913	-76.7961688872418
139.1537	209.988338833405	894.867738512478	919.175376017248	-76.7939916476203
118.6706	255.711564645553	1035.93170661675	1067.02525980755	-76.1341734507477
101.1982	318.62390654599	1205.01307922	1246.42597650799	-75.1890795676794
86.24196	375.324023650505	1394.62399951945	1444.24520866951	-74.9373219124989
73.61024	464.49802448832	1602.98820944082	1668.93067991449	-73.8399931432644
62.69291	595.747502155981	1850.08275573339	1943.63610004217	-72.1508562674392
53.57697	863.553773988555	2069.6940715156	2242.62316723892	-67.352277437439
45.65746	1080.07186214709	2349.75470552177	2586.09791066069	-65.3139800812611
38.96512	1336.39933720044	2650.74936915212	2968.5746422366	-63.2446284125871
33.18414	1670.14417337467	2969.18086831014	3406.672362966	-60.6425405860005
28.30617	2067.62181359672	3284.25041107602	3880.89689720224	-57.8072589367956
24.17237	2524.07584710322	3592.63321769893	4390.66877808422	-54.9092785160696
20.61345	3065.16396708387	3883.57254016472	4947.46054252389	-51.7172389661485
17.55618	3710.14139167899	4132.36767985488	5553.52246666554	-48.0817243532183
14.98558	4332.62884711069	4330.64614052937	6125.86065147564	-44.9868870932412
12.76553	5076.33134695544	4416.16377928985	6728.42050332721	-41.0216982945706
10.8809	5834.81212168684	4444.0227813054	7334.46460051073	-37.294327087925
9.278505	6605.16104870116	4326.45946866712	7895.97391163993	-33.2252782297311
7.923394	7243.15156200035	4232.36983507518	8389.05232853881	-30.2989020206783
6.75822	7859.49087184925	4055.94191915828	8844.33500135918	-27.2962937769835
5.761429	8482.40154759656	3755.83801641707	9276.71575614086	-23.8828060392444
4.919708	56076.4600730728	-2208.97662476017	56119.9514616296	2.25584198253774
4.191257	58350.2906664135	-3946.22353631	58483.5797558039	3.86901554092668
3.564097	60276.7260791552	-6016.43065648357	60576.2424112439	5.70001275612169
3.051758	61501.9074497689	-7849.90789305161	62000.8522029281	7.27372212749761
2.604164	66633.0377311026	-13229.7236076616	67933.6978531985	11.2298066268035
2.214424	66726.2690584322	-14344.1121791833	68250.6303023443	12.1322094245566
1.892567	66858.7475698069	-15380.5679847175	68605.0581089738	12.9552518381062
1.607507	66799.4757468024	-16119.560652368	68716.8843565612	13.5668269886288
1.376413	66697.8528978606	-16676.1737297517	68750.9880034426	14.0376264088878
1.17375	66834.6550841947	-17281.141589139	69032.6659984036	14.4972073155181
1.001604	66768.544890959	-17646.8300431946	69061.1989284099	14.8046679275412
