EC-Lab ASCII FILE
freq/Hz	Re(Z)/Ohm	-Im(Z)/Ohm	|Z|/Ohm	Phase(Z)/deg
6999984	20.3116349262736	118.557112732067	120.284460728484	-80.2782625913699
5969734	20.1282820437799	92.6661433931912	94.8270102312702	-77.7449869959785
5091109	15.9652901462009	85.7476898452196	87.2213093414927	-79.452916887484
4341796	12.6170720422293	87.1751703983537	88.0834879015403	-81.7646297034983
3702781	11.6358486694947	99.3304759279491	100.00968164299	-83.3186631312316
3157797	14.590585120693	104.762879650265	105.774033329453	-82.0712767154523
2693047	14.3208224134728	114.902343400542	115.791340235504	-82.895591095307
2296687	12.4247045930241	131.072335080999	131.659903948809	-84.5849571542502
1958656	14.5320970141048	150.006115304378	150.708382223212	-84.4666413695557
1670375	14.7492259489158	172.157188974382	172.78783921808	-85.1032547757256
1424531	16.6684421128657	199.375418205366	200.070973274573	-85.220997602625
1214875	19.4933015852558	230.875464256085	231.696933087507	-85.1738431760857
1036062	21.9027626822125	264.82311198959	265.72732576264	-85.2719908463916
883578.1	24.3391217735202	306.730276514319	307.694418830204	-85.4630722710677
753531.2	26.2584781065856	356.330848250079	357.297048808264	-85.7854183266084
642624.9	29.4461625218497	414.252248034446	415.297485531583	-85.9341008744448
548046.8	31.6002087387687	481.893574833771	482.928556474355	-86.2481963377355
467390.6	142.749984944001	670.261456820963	685.294081910293	-77.9769776072269
398593.7	164.58360309357	760.374633323709	777.98286961181	-77.786698323464
339937.5	186.582929799949	862.570308116719	882.5195330061	-77.7943759579188
289906.2	206.42885189528	983.06231234181	1004.50205616595	-78.1410154239729
247234.4	228.616606146129	1121.87487674266	1144.93178472438	-78.4819253120758
210843.7	246.876311841146	1284.64321097181	1308.14987399925	-79.1218045776779
179812.5	266.638521366493	1474.95084011211	1498.85825941745	-79.7528602932349
153343.8	286.970864861344	1700.39906394416	1724.44462188307	-80.4206426034599
130781.2	307.452106719542	1963.16797828335	1987.09720670214	-81.0991965202333
111531.3	329.339412234847	2273.56509369106	2297.29464451159	-81.7576969141772
95109.37	353.273618888898	2635.33265777247	2658.905877786	-82.3648602896773
81109.37	379.31809509143	3054.3880584658	3077.85130065802	-82.9208012382928
69171.88	405.400862425473	3541.34578243225	3564.47468920821	-83.4694083271305
59000	427.004858566117	4103.98639399049	4126.14074787786	-84.0599559265719
50312.5	306.373754182302	4762.91619131108	4772.75973863184	-86.3195295832293
42906.25	1716.2618424906	6367.67028675947	6594.90557876826	-74.915664107843
36593.75	1818.35666425004	7103.35114202248	7332.39513428556	-75.6414297469352
31203.13	1917.00131824334	8091.6102907118	8315.59084797345	-76.6716651583599
26609.38	2031.03077866086	9265.73033810205	9485.71793394114	-77.6364114938012
22703.13	2170.4784289479	10630.9372221634	10850.2443673913	-78.4607258736559
19359.37	2285.27020643713	12305.506705774	12515.9080854039	-79.479387537619
16500	2415.78732070891	14240.3181299421	14443.776819823	-80.3717693035353
14112.02	2558.51091753264	16465.7232758222	16663.3136293802	-81.1677795683105
12011.13	2756.57847512979	19136.6049019445	19334.1245486491	-81.8030751715516
10236.38	2956.16682011608	22247.8727140895	22443.4124537844	-82.4312088023535
8750.684	3226.6127135953	25795.8550020199	25996.8683669547	-82.8703236565418
7449.463	3484.1441499546	30064.7589662447	30265.970860953	-83.3895953062688
6363.206	3816.83089173219	34869.5198685029	35077.7937435637	-83.7532516188383
5414.761	13568.082736355	46858.6705489087	48783.4795269028	-73.851452299167
4620.567	14676.5010069455	52699.1801162863	54704.691450877	-74.4377027151448
3941.215	15987.035638809	60112.660905039	62202.2291369108	-75.1068601240781
3361.769	17195.6199734415	68359.4152868986	70488.9991746065	-75.8803531475047
2867.244	18158.4943137142	78832.7018143542	80897.0073061549	-77.0286178647264
2442.658	19266.3102520378	90709.1861108112	92732.6649871207	-78.0087767648567
2083.003	18291.982783131	106873.254620626	108427.345201031	-80.2876018034305
1777.843	21785.067500121	123904.687715743	125805.249508598	-80.0281092180158
1513.548	20226.3152496764	131388.870648184	132936.598266935	-81.2484520258649
1292.065	33330.6575750034	157315.936383169	160808.07372298	-78.0375965419518
1101.762	35726.6523384816	180842.339944421	184337.585977164	-78.8247259609025
939.101	42036.3334755685	216791.592231291	220829.454091268	-79.0264071047886
801.2801	43970.5801691867	265028.416169479	268651.211234413	-80.5799248705063
684.3433	48577.4867672971	296435.532163153	300389.408850376	-80.6935424012807
582.9476	140101.789198436	431180.077184194	453370.455915657	-71.9996527053042
497.0677	146735.815387282	492144.193614734	513553.60657488	-73.3977270212029
423.5089	133223.609743567	450440.076632838	469728.42454987	-73.5237204403521
361.5036	88033.6949123925	627330.002205938	633476.805500905	-82.0118036963177
308.1262	169488.883747773	584339.780872102	608423.751363902	-73.825096240591
262.7298	284210.686696457	737047.638811732	789946.160387163	-68.9130144713754
224.2111	109921.671288643	993839.432873196	999899.791055385	-83.6885646837681
191.2854	282490.759143147	1197831.06624287	1230690.98162691	-76.7301068534633
163.1722	210465.140412477	1040446.07775674	1061519.48453536	-78.5643166430156
139.1537	242567.254193901	1611365.70431777	1629520.88230211	-81.4392469716435
118.6706	218987.321602706	1403399.62975018	1420382.33155925	-81.1310529736426
101.1982	-5858.47329164705	1943313.63477581	1943322.46547372	-90.1727280512636
86.24196	-16116.2411659935	2226061.74923867	2226120.08765315	-90.4148027197064
73.61024	499226.353421567	2136120.18987094	2193681.02000379	-76.8456724407411
62.69291	189685.680317688	1886933.2612009	1896443.4580403	-84.2595744223955
53.57697	52751.9079352322	3675242.80418351	3675621.36699273	-89.1776722484599
45.65746	334284.972661272	3836187.73284511	3850724.96610423	-85.0198321207545
38.96512	558869.295116957	5277453.06638875	5306962.00824545	-83.9550473542834
33.18414	619097.508260389	4310303.63402822	4354537.7644764	-81.8263945538134
28.30617	2696210.48512702	7594281.5659655	8058701.103979	-70.4535260951436
24.17237	813128.548118509	7539327.08512459	7583048.92060302	-83.8443519082641
20.61345	1143688.60203774	8028857.57457053	8109906.13824658	-81.8929149538281
17.55618	1092835.55277048	8385677.17466564	8456587.4454834	-82.5749639131518
14.98558	1781231.98839607	10098065.664686	10253961.0670606	-79.996310060386
12.76553	-1219527.03075434	11872613.2213569	11935082.3575993	-95.8647199712112
10.8809	3240159.37887153	11993036.7354594	12423025.5146872	-74.8813439359146
9.278505	785118.704041806	18311990.6127679	18328813.6981513	-87.5449717154551
7.923394	873453.304735708	18171467.8954316	18192448.0527018	-87.2480649860183
6.75822	29449670.7780921	4288322.68458017	29760255.717737	-8.28491242181219
5.761429	16141649.6987196	-11273500.3010438	19688693.8122824	34.9308589942765
4.919708	17257217.1121579	24102730.7812334	29643771.2440366	-54.3978678472917
4.191257	6389840.49640899	25801496.4202077	26580957.0762894	-76.0903421794202
3.564097	14070577.0811855	16047975.2559188	21342882.8702255	-48.7562962133156
3.051758	-7110484.35343154	47795518.315846	48321533.0760601	-98.4617657692007
2.604164	34275484.5164854	11445061.7242203	36135830.9259804	-18.4648827510196
2.214424	62969688.7654054	-12041620.3244075	64110703.6558578	10.825905758704
1.892567	18003545.774177	34429015.0839336	38852087.9759713	-62.3941298614949
1.607507	107961206.013742	-34319185.3339539	113284723.091544	17.6346497171412
1.376413	50723289.1480868	49498848.1168801	70873041.6089107	-44.3000367475943
1.17375	68657762.3789698	-24714833.8183214	72970619.742156	19.7974278838892
1.001604	63879900.9678854	77266474.1048852	100253427.713309	-50.4178279825713
