EC-Lab ASCII FILE
freq/Hz	Re(Z)/Ohm	-Im(Z)/Ohm	|Z|/Ohm	Phase(Z)/deg
6999984	-12.5035191295911	-25.2124331986461	28.1425794556974	116.378041431383
5969734	-15.5368042220558	21.1684864058871	26.2582768313291	-126.277147849417
5091109	50.009794800786	27.1427217822888	56.9008516787531	-28.490813377006
4341796	-1.6559232512703	1.26370349177303	2.08303344409468	-142.651250310224
3702781	35.0150007942086	-36.4359791485327	50.5334627462906	46.1393172136335
3157797	1.71135544637449	3.91382357727747	4.2716217596937	-66.382202594503
2693047	-4.20714541417468	39.9622256316924	40.1830754170745	-96.0098501807179
2296687	10.8532920132562	40.0059940028214	41.4520627192277	-74.8214698463235
1958656	26.3959920478084	-4.61513464357431	26.7964151327428	9.91747544494615
1670375	83.3973766127713	40.5179180827934	92.7190601314334	-25.9124116256701
1424531	43.6840444032172	65.7329008150305	78.9247108640944	-56.3932220167245
1214875	79.6939607561102	-48.6702702033697	93.3805257142273	31.4130241828882
1036062	73.5924556800369	78.9227327400539	107.910366861466	-47.0016244248833
883578.1	136.45481690839	-57.0917921256404	147.916834017023	22.7041115335233
753531.2	25.7798871088124	109.601556536739	112.592645295415	-76.763796771817
642624.9	-99.6457996215961	114.547532021049	151.823655845657	-131.020264364848
548046.8	92.1322429487041	97.1159856106223	133.865099454195	-46.508502568926
467390.6	8.68780240743809	140.447414615813	140.715863295283	-86.460305313493
398593.7	65.7735078079498	153.091869368417	166.623152041002	-66.7499842031975
339937.5	13.6081894815871	162.563413251911	163.131989962357	-85.2149242499966
289906.2	259.906174352173	117.80590756211	285.358461102723	-24.3830383014392
247234.4	124.062121611885	258.00801599996	286.285777395731	-64.3196118278116
210843.7	350.928142869516	64.1120088693491	356.736472958836	-10.353341628436
179812.5	168.909565503336	286.143399866754	332.277725112339	-59.4467776675625
153343.8	250.85058773781	243.331636190136	349.480045981703	-44.1283155668156
130781.2	437.089192883876	307.986555288918	534.698682226366	-35.1697079103327
111531.3	329.704881411048	173.179102740005	372.419535540372	-27.7109204150078
95109.37	29.4456440076559	-0.507742390985598	29.4500212794695	0.987874922757326
81109.37	20.1972265229908	-7.37815762702183	21.5026781864535	20.0675259180918
69171.88	44.4921061077974	30.7444579817727	54.0811353662299	-34.6448327333692
59000	61.5442284348161	-89.2646471479392	108.424486552083	55.4153664069307
50312.5	24.1246262838307	-12.5282698667541	27.1837293098043	27.4435095528644
42906.25	52.7867036548915	-24.0961183784777	58.0263647289656	24.5357888496211
36593.75	42.1133391429713	-23.3866502346821	48.1712439425252	29.044571356422
31203.13	18.119036230437	91.3111015324943	93.0914428774061	-78.7764829145525
26609.38	94.4891920340811	29.7696705724491	99.0678590524979	-17.4875026961957
22703.13	7.03600842485877	88.8641152730149	89.1422256722949	-85.472927145144
19359.37	186.829989381313	69.6934400813299	199.405668230849	-20.4570913821572
16500	245.499417926961	-151.788345651735	288.634138795408	31.7278358434228
14112.02	1148.63131549746	591.410454774362	1291.94435830567	-27.243157671063
12011.13	27.2439664733404	-11.7176251194684	29.656979745768	23.2725315029167
10236.38	28.3045270159582	18.9935565190514	34.0866753855448	-33.8633125712328
8750.684	1381.92088749509	-468.866020014194	1459.29458438629	18.7413406167482
7449.463	5017.02902217609	1587.49319303963	5262.19677010508	-17.5584635191226
6363.206	5034.22256502341	5710.80535610314	7612.9294394134	-48.6029898960724
5414.761	4775.44792858981	4754.16860830407	6738.47327477498	-44.872060621519
4620.567	-1337.75104560844	6196.11731200225	6338.88378219071	-102.183241240134
3941.215	123.125355881838	-34.9730249471271	127.995959838511	15.8568819999872
3361.769	65.3223733716356	4.76288361394058	65.4957824842433	-4.17025669608364
2867.244	65.2952752305094	-33.9328584573829	73.5860846255374	27.460142517657
2442.658	60.3261312012455	17.7871760069059	62.8937654780705	-16.4281667583562
2083.003	35.6469577108045	-45.6370103661279	57.9089139010045	52.0066915146707
1777.843	111.351189249642	-43.4459933298813	119.526740454718	21.3142820802965
1513.548	72.0045554595198	-39.3795198601236	82.0694985444466	28.674389054566
1292.065	73.1893659859171	185.524210659831	199.43900329267	-68.4707483493139
1101.762	4.84538518569854	0.711618822640235	4.89736244794305	-8.3550309967803
939.101	285.202041781846	322.620593794943	430.609164065438	-48.5227758047541
801.2801	430.860466116768	158.695941332154	459.156991733391	-20.2199269620187
684.3433	172.449356803326	421.257221653227	455.188342839397	-67.7373623715464
582.9476	288.239471885789	667.18510158325	726.786043432075	-66.6345332074786
497.0677	483.882045778876	83.0946813511536	490.964927765721	-9.74408122740571
423.5089	827.417633683968	-381.064492230108	910.95010169041	24.7282797504732
361.5036	835.76805770518	261.246811326356	875.647270713772	-17.3583522795952
308.1262	-155.731401104366	680.070882639603	697.673759506646	-102.897948793781
262.7298	754.806375240217	-100.301136066115	761.441384480401	7.56930532442765
224.2111	1399.56460547723	-1230.55225167376	1863.60938208735	41.3232058751023
191.2854	1765.35270770995	671.359330851565	1888.7015470265	-20.8216873455107
163.1722	811.589229646396	-1413.29356090281	1629.74714816973	60.1332384019087
139.1537	1166.07763584718	1925.05546628154	2250.68336313293	-58.7951527671602
118.6706	474.777156380344	524.920952327651	707.781996389548	-47.8714889494509
101.1982	2244.75127030486	-11.5126894380572	2244.78079276204	0.29385114551536
86.24196	1812.48132050424	1277.39049586158	2217.38923423342	-35.175202575588
73.61024	2454.36397220681	3310.67081486528	4121.21872174574	-53.4486314793646
62.69291	2102.6637880507	-421.661116760695	2144.52631202502	11.3394936671034
53.57697	4253.69212409316	-3896.52136221955	5768.60255285502	42.4907047855065
45.65746	815.443933002885	5494.92271307921	5555.09895776709	-81.5589378550463
38.96512	588.396804050336	-502.9514869816	774.061365315214	40.5232536606966
33.18414	2771.42366074688	-701.169910815625	2858.74594029984	14.1978998929198
28.30617	4796.92250836189	569.211875481471	4830.57633315302	-6.76718159997835
24.17237	1749.0809467133	674.247754333119	1874.53839447975	-21.080996584431
20.61345	2608.17579596237	-4705.7637187544	5380.22240798549	61.0025299686812
17.55618	7894.75126400207	-1208.30873056893	7986.68313562216	8.70171629945806
14.98558	3359.44364744255	-2083.24748348015	3952.94595178944	31.8037470216997
12.76553	1935.53342435498	-1098.3170510287	2225.44152504075	29.5727123928177
10.8809	5315.73261582593	-2180.44683904182	5745.55146707808	22.3028233529695
9.278505	4383.11472029963	-1642.12750383535	4680.62788417963	20.5383883637083
7.923394	7743.43554712848	822.985403120491	7787.04687582413	-6.06671777711911
6.75822	6562.76075559361	-3637.49928324448	7503.41454077833	28.9980070764118
5.761429	2223.04675725643	-5217.92793672621	5671.74654209936	66.9240487813582
4.919708	3075.40047944928	-1803.17729914696	3565.04368572894	30.3840664673466
4.191257	563.026669654434	-5215.29511732956	5245.59836354097	83.8383931471948
3.564097	5468.56238313184	7563.71295609947	9333.53781909473	-54.1330811318499
3.051758	4339.31049701219	-779.850076759371	4408.82997309964	10.1882954059706
2.604164	2600.57935073073	4950.86987951999	5592.32737984691	-62.2880753736162
2.214424	3164.39012603333	427.959452148866	3193.19810885901	-7.70208256387126
1.892567	259.21318191709	-3869.00938253218	3877.68295194458	86.167065513945
1.607507	2130.42126510943	-1686.07014317295	2716.89662934196	38.3589972628371
1.376413	2452.82020017568	593.854099518628	2523.685722491	-13.6100280063817
1.17375	1436.43665780258	2635.53193395546	3001.56273410669	-61.4084132707519
1.001604	2988.85426464871	1834.14969616551	3506.75846377432	-31.5359064412099
