EC-Lab ASCII FILE
freq/Hz	Re(Z)/Ohm	-Im(Z)/Ohm	|Z|/Ohm	Phase(Z)/deg
6999984	6.30764752212002	-2.08265154067583	6.64257891960541	18.2721282895817
5969734	9.04265092527361	1.92659566145283	9.24561012584245	-12.0274039846713
5091109	14.5095979073046	-1.94811028632352	14.6397938892369	7.64700413102534
4341796	0.625171877889652	-0.108303323421886	0.63448363790432	9.82824299793248
3702781	4.42462787031637	-5.56384463716488	7.1087058553079	51.5066483285482
3157797	0.466467606151664	-7.11512370770596	7.13039812377599	86.2490557744282
2693047	12.1311757779501	-12.4282223452237	17.3673871499958	45.6929601729148
2296687	18.8370122295037	-21.6483099956611	28.6963822702917	48.9722382767224
1958656	10.8783956843198	-16.7096113320844	19.9386710573687	56.9348161021499
1670375	36.3158678837195	4.43356307738336	36.5854990632751	-6.96041734596417
1424531	29.1361411642672	2.08418819164621	29.2105899009641	-4.09155521334447
1214875	34.8976114698707	-32.9444841309546	47.9914817541277	43.3509493486939
1036062	11.6155251248441	56.2623988208613	57.4489159602123	-78.3350189334042
883578.1	55.6803750138713	56.2013152114835	79.1131594185561	-45.2667769761626
753531.2	57.9230458176076	4.65076057284173	58.1094554327828	-4.59054816782847
642624.9	66.8137031854569	16.5692504269465	68.8375696336324	-13.9278992615423
548046.8	33.5012371335501	79.3911512037594	86.1701095446474	-67.1213754460013
467390.6	-41.4770205550446	74.6513974824527	85.4000841932064	-119.056962898296
398593.7	96.3194232795905	40.4290288828574	104.460220549853	-22.7696980123319
339937.5	150.239266809707	-96.6520058623027	178.643352881446	32.7540089840801
289906.2	93.061640578113	-13.3641285069657	94.0163224011692	8.17209703195093
247234.4	26.645570254355	-39.4967571355801	47.6443096120278	55.9953429350518
210843.7	-29.9863957203194	27.3428221464917	40.5809542917643	-137.64016143401
179812.5	46.0193886034867	13.4593155008832	47.9472345520681	-16.302643164599
153343.8	27.3633769188231	32.6164614524594	42.5744988705839	-50.0052410742976
130781.2	16.3783808498729	42.0192756389659	45.0984576730388	-68.7050307917429
111531.3	-17.1879361084002	45.2704444332203	48.4235303013704	-110.790385125928
95109.37	2.73161997177568	-2.62310309753373	3.78713843561267	43.8390234464761
81109.37	-0.207456710100567	1.49636060567976	1.51067314426253	-97.8932197490924
69171.88	0.229846981094052	0.422170516872216	0.480684491152152	-61.4343109630918
59000	-0.965196167810811	0.593647110642047	1.13314629873213	-148.406267587637
50312.5	-0.0845564748403792	0.493342679370518	0.500536508884131	-99.7257106652593
42906.25	0.135848350682168	0.522989117155991	0.54034469651017	-75.4390037579155
36593.75	-1.08776226538253	0.460998595641384	1.18141713682063	-157.032548263788
31203.13	-0.896812694835926	0.587859070650468	1.07231119390078	-146.755232405188
26609.38	0.874482561075416	-0.69355604923114	1.11612711778279	38.4180921298269
22703.13	0.234938956430637	-0.739596447835966	0.776014960487422	72.3771173007363
19359.37	0.912196876076333	-0.461581381163907	1.02233092106255	26.839898515694
16500	-1.14202887534689	0.784807370435111	1.38569569560396	-145.50297584815
14112.02	-0.234008049952346	0.727671863103124	0.764373016134447	-107.826990113732
12011.13	-0.524678567215037	0.0977764992590078	0.533711385209432	-169.443730838794
10236.38	-0.513565113125759	0.079386645814022	0.519664665869708	-171.212795327039
8750.684	-0.517206988217183	0.0433356910485896	0.519019316383647	-175.210493751006
7449.463	-0.531847967463363	0.0768205243157094	0.537367335675561	-171.780997572471
6363.206	-0.552069908410624	0.0408372344165606	0.553578236103361	-175.769471375935
5414.761	-0.50940473850031	0.0680575731687104	0.513930949517718	-172.390223596033
4620.567	-0.587200600804429	0.0635855741255759	0.590633279473788	-173.819753294885
3941.215	-0.466419481518491	0.0919502273767658	0.475396652338462	-168.847682844519
3361.769	-0.544899023771366	0.0950355650701413	0.553124492980729	-170.10658571198
2867.244	-0.515796877240022	0.0385840391110419	0.517237998067312	-175.721973174719
2442.658	-0.513278786287802	0.0417466512595697	0.5149736841281	-175.350180861459
2083.003	-0.511053437301022	0.0419422445653584	0.512771652547574	-175.308240350855
1777.843	-0.504192610309584	0.0244071643768928	0.504783020676917	-177.228565697016
1513.548	-0.539800704405061	0.0328092671194936	0.540796864344754	-176.521822256722
1292.065	-0.506157898833988	0.0345449355452122	0.507335363565226	-176.095656248703
1101.762	-0.500893453487895	0.0285797035633975	0.501708133482806	-176.734389598715
939.101	-0.498319273596353	0.0280123966290405	0.499105993554976	-176.782575349286
801.2801	-0.495077148106968	0.0228003682875127	0.49560189605345	-177.363153483092
684.3433	-0.492166846077417	0.0303280459397248	0.493100390131983	-176.47380839349
582.9476	-0.491934175189584	0.0226275216239504	0.492454299863753	-177.366419342524
497.0677	-0.13193527150099	0.47238892300604	0.49046733881559	-105.604716009538
423.5089	-0.48889670917728	0.0219729142777953	0.489390234073212	-177.426637206792
361.5036	-0.12857594962985	0.463461368061554	0.480965918240269	-105.505365127862
308.1262	0.401793978746187	0.283387843275635	0.4916778122644	-35.195559766049
262.7298	0.372570916056783	-0.255572545304915	0.4518035119441	34.4489613815258
224.2111	0.386268524387169	-0.253136486045807	0.461824050369683	33.2383531266159
191.2854	-0.0965666916930992	-0.414732892455504	0.425826840428194	103.107250276342
163.1722	-0.117356106444751	-0.383488697528231	0.401043684468128	107.01528080537
139.1537	-0.388356107100588	0.0532867850593811	0.391994830813224	-172.187167353439
118.6706	-0.461148610638269	0.0590949441344196	0.464919620489237	-172.697500861562
101.1982	0.37704254740153	-0.287655232879709	0.474243202960374	37.340920015825
86.24196	-0.128977511686066	0.435831509783022	0.454515460067617	-106.485294844874
73.61024	0.375991558192134	0.240727520983261	0.446452003232705	-32.629287531236
62.69291	0.385938319613386	-0.29261686213769	0.484327383650059	37.1692561308259
53.57697	-0.0727268736714347	-0.446836554700025	0.452716362384009	99.2443688215699
45.65746	-0.161072159160496	0.466400569592827	0.493430574420695	-109.052432245958
38.96512	0.357298547986281	0.264883729928376	0.444775946712357	-36.5514357403363
33.18414	0.354255087444412	-0.364669610198314	0.508409865740662	45.8299429225746
28.30617	-0.458837749552348	0.108455860916364	0.471481446274795	-166.701039169282
24.17237	-0.451238427610322	0.0298951460140347	0.452227639919804	-176.209617554155
20.61345	-0.45107977290262	0.0119097628098698	0.45123697097209	-178.487583156036
17.55618	-0.450684205680859	0.0169472415355088	0.451002729754322	-177.846500679064
14.98558	-0.449120936434804	0.0175096030414884	0.449462124925722	-177.767375207557
12.76553	0.357521288792169	0.480857391522744	0.599203890943367	-53.3689044021721
10.8809	-0.449027150459098	0.0142504612596859	0.449253222020201	-178.182253947011
9.278505	-0.445585312476701	0.0142259770415636	0.445812347426298	-178.171367748903
7.923394	-0.445079254493244	0.0147449262013689	0.445323428115954	-178.102555517708
6.75822	-0.445765251934309	0.0116079666739306	0.445916365165444	-178.50832422822
5.761429	-0.439385406379818	0.0171564531468633	0.439720228354505	-177.763937460786
4.919708	-0.443320492624976	0.0107879626790909	0.443451732796273	-178.60601353229
4.191257	-0.438661518181288	0.0106925848644691	0.438791817271238	-178.60366440533
3.564097	-0.436655933690019	0.0140457983286165	0.436881779063159	-178.15761676182
3.051758	-0.437580291940176	0.0145394249030124	0.437821775121978	-178.096940531316
2.604164	-0.436997074469701	0.0124611370668203	0.437174705389134	-178.366631765484
2.214424	-0.433870958780381	0.0122651763985295	0.4340442874006	-178.380726527244
1.892567	-0.434367296491134	0.0116089065116181	0.434522398699322	-178.469076619253
1.607507	-0.121567128044557	0.413855274398816	0.431340648175802	-106.369786553376
1.376413	-0.430760991816916	0.0167187492916401	0.431085314814794	-177.777344673192
1.17375	-0.433712226289652	0.0108540284599044	0.433848020817122	-178.566422148646
1.001604	-0.431351252373718	0.0192059326141099	0.431778613147933	-177.450586842629
