EC-Lab ASCII FILE
freq/Hz	Re(Z)/Ohm	-Im(Z)/Ohm	|Z|/Ohm	Phase(Z)/deg
6999984	-12.7020930692141	21.9378589386761	25.3498091344339	-120.070983604119
5969734	6.32179445703728	3.42278991746067	7.18892036234216	-28.4323086565452
5091109	8.54305126024411	7.42666873983834	11.3198557149131	-41.001174946349
4341796	15.682186896111	11.6397011891638	19.5298138654104	-36.5837047233581
3702781	0.932234140035465	-1.42958536309638	1.70668532607129	56.8915864365073
3157797	4.45311473472627	15.2894216895128	15.9247180961039	-73.761555221111
2693047	48.1392632438602	28.7706026700376	56.0815142775125	-30.8648009757731
2296687	10.5015900211036	27.1400976651037	29.1010016020534	-68.8465513671402
1958656	46.8747325111971	14.7719598489797	49.1472414869456	-17.4915649669631
1670375	5.52583833252227	40.933803345495	41.3050983003894	-82.3118616936277
1424531	26.7778127937734	72.548654704209	77.3327780272306	-69.7408238937804
1214875	54.0714150836086	40.8082546396839	67.742391276668	-37.0422313876454
1036062	26.3040091275148	80.4372469654293	84.6289052012245	-71.8915928651425
883578.1	75.8395345283066	69.700782241379	103.004048670576	-42.5847500779993
753531.2	124.817670989663	28.5344069471516	128.037741979111	-12.8770316399149
642624.9	1.07801899491368	135.608500608015	135.61278539322	-89.5445371246822
548046.8	104.821558248246	71.4091769386467	126.833866237079	-34.2644575123378
467390.6	64.0997761607562	187.514333859674	198.167622750782	-71.1275536453355
398593.7	121.037974381066	204.654426831055	237.768008074718	-59.39882110011
339937.5	169.218100187477	134.883596462979	216.398590628143	-38.5583178206072
289906.2	-5.29437152125689	7.31833196273461	9.03262711075128	-125.883468548382
247234.4	6.09823907703468	0.385869708133447	6.110434949521	-3.62059765673401
210843.7	2.518007829817	-0.504262671480901	2.56800394720662	11.3243962292017
179812.5	3.03055985460165	0.179705609049195	3.03588325504241	-3.39354135801721
153343.8	1.6358935964649	-3.66437832960442	4.01295606771733	65.9425147825196
130781.2	9.18459177582398	5.03095420331233	10.4722121008104	-28.7121756211548
111531.3	4.79954463510825	1.51721781198495	5.0336446630052	-17.5426326952432
95109.37	2.93507523801245	4.33465240696117	5.23487135868381	-55.8973270450388
81109.37	4.01326686495074	4.89549001215552	6.33025539677713	-50.6554908759916
69171.88	13.0668245498567	3.62012886376055	13.5590278710153	-15.4852501149094
59000	2.48870028602886	3.59364456825241	4.37125958925001	-55.2963057771025
50312.5	3.62777287068482	-1.64923458534741	3.98506094291955	24.4471866561821
42906.25	1.96455248801047	4.35044097766589	4.77344772447575	-65.6972315504241
36593.75	3.89730756634574	-3.63444763157183	5.3289976405825	43.0011758035004
31203.13	3.33286409891976	-4.67102742736992	5.7381600125049	54.4914433143925
26609.38	1.95383662966642	-2.6812461456676	3.31761336943948	53.9190011812773
22703.13	-9.8419426086627	26.7283213941455	28.4827491450693	-110.21479172494
19359.37	3.34100967553724	0.0327283013278117	3.34116997378781	-0.561247569122381
16500	132.748634131261	122.557565326173	180.672512249082	-42.7141354072958
14112.02	437.922255590072	43.6631956075055	440.093599807763	-5.69387809700922
12011.13	1336.72818926128	413.357883715507	1399.18082891223	-17.1832334590914
10236.38	938.308040493988	-1322.2662873256	1621.36057478079	54.6396846847267
8750.684	2457.66386044915	4211.13613529723	4875.83625657834	-59.731709579081
7449.463	-3014.35677235095	3650.39120894543	4734.0999914835	-129.548622268055
6363.206	1931.83932826501	5729.63202177893	6046.54333443711	-71.3676229614953
5414.761	2199.55380786411	5611.363139597	6027.05842332041	-68.5957104444319
4620.567	3511.98507636235	4783.8893271488	5934.61340535338	-53.7165809218355
3941.215	-131.280222994651	-121.69313055921	179.007583567921	137.170336042003
3361.769	-7.11595776026981	528.06676442631	528.114707754403	-90.7720419049705
2867.244	-6.82058384355136	2.30577530188907	7.19978914342049	-161.321595726578
2442.658	11.5763232101079	47.3950357333232	48.7883251529284	-76.2741470400981
2083.003	0.831405701000445	-7.43434516083321	7.48069003568923	83.6189503116597
1777.843	-8.46538349722939	23.4528187118039	24.9338609782741	-109.847239299363
1513.548	1.80247986658687	19.1696128096594	19.2541680926938	-84.6283873551212
1292.065	-3.66829980696692	14.1542499437595	14.6218745359208	-104.529446115416
1101.762	-1.47018901164941	11.496812606494	11.5904338071883	-97.2873168807416
939.101	-1.73125678972722	-0.205557186620854	1.74341728480248	173.228804624987
801.2801	-1.45278499372723	0.665278646870998	1.59786730236949	-155.395378659981
684.3433	1.92009843819287	1.1569741813683	2.24173309488519	-31.0714783116327
582.9476	-1.41605468175461	0.648833799214299	1.55762516695192	-155.382830884267
497.0677	6.84443905628801	3.1916609027244	7.55202259750461	-25.0003201116014
423.5089	4.58313375500959	6.08083452004088	7.61456915894978	-52.994613992925
361.5036	-0.280294374835493	1.56569609330316	1.59058768797863	-100.149699433656
308.1262	0.601098021450028	1.45065687171947	1.57026245922714	-67.4927093930256
262.7298	-1.40817250204485	0.610047228397937	1.53463592307468	-156.576817633541
224.2111	-0.218475464379615	1.53356044032283	1.54904459350241	-98.1079643307075
191.2854	5.87614509963657	3.17741567506205	6.68019847041336	-28.4014777975892
163.1722	6.05757358392548	3.59636857712773	7.04471892038451	-30.6975144883288
139.1537	0.577304134693522	1.48475549897771	1.59304078908193	-68.7528727676363
118.6706	-1.53727943478285	0.216971309040746	1.55251557465719	-171.966349419196
101.1982	-0.604292408934194	-1.41679234451196	1.54028239714774	113.099290448746
86.24196	-1.01893327383442	1.1944406675751	1.57000430728205	-130.466271472736
73.61024	-1.28822612880088	-0.897505019210779	1.57004516445669	145.135136943676
62.69291	8026.40494984498	-6126.28419043091	10097.2538049125	37.3532729858881
53.57697	0.381117275463782	0.281922264693133	0.474057529195183	-36.4912866310035
45.65746	0.339526886195652	0.367286568497696	0.500177898200758	-47.2491020853342
38.96512	-0.109579198797003	0.427869262514172	0.441678284063655	-104.364949932434
33.18414	-0.0803645783638113	-0.45379628606091	0.460857390846961	100.042613621746
28.30617	0.466333958226474	-0.32367020604611	0.567652854196209	34.7635037518967
24.17237	0.107240985675368	-0.596949380113073	0.606505722500627	79.8155418760223
20.61345	0.672494359728635	-0.00244711017682079	0.672498812054746	0.208490174323384
17.55618	0.427961685541607	-0.521334782036001	0.674493261087269	50.6175610699539
14.98558	1282.13037468658	145.882242756193	1290.40300931357	-6.4912623145772
12.76553	2168.3823245846	-804.453517974808	2312.79643897878	20.3544746410492
10.8809	-0.0284002206620669	-0.525665733448181	0.52643236588879	93.0925209752503
9.278505	0.410789471130953	0.254266143325483	0.483114128580053	-31.7562430909054
7.923394	-0.103133160550469	0.395941439396165	0.409152871474997	-104.599748036878
6.75822	1.78865801373259	1.09309285541	2.09622266962224	-31.4301269730728
5.761429	0.680366875516301	-1.67419870782755	1.80716363359582	67.8839822713204
4.919708	2.09476674666165	1.16936421519738	2.39905406164671	-29.1716190179143
4.191257	2.3083939868746	0.087077808735658	2.31003578834031	-2.16030127019968
3.564097	0.813000711581741	-1.7794964190259	1.95641960283535	65.4457030783617
3.051758	2.48402015917659	0.643788390757179	2.56609034199293	-14.5297685070154
2.604164	2.28632173659814	-0.339111417212406	2.31133373542743	8.4367061304762
2.214424	2.85771741243371	0.531691250408109	2.90675839984808	-10.5396273963669
1.892567	0.76752786328586	2.69016957513302	2.7975187870489	-74.0761090506378
1.607507	2.01967087174682	-0.890125430534666	2.20712340213842	23.7844291858204
1.376413	2.71014626174643	0.393263637697147	2.73853045423872	-8.25644214897214
1.17375	9.15152551185495	3.45634097550862	9.78246963364118	-20.6905086583155
1.001604	-1.44709066999394	0.260078516684749	1.47027624684086	-169.81128326437
