EC-Lab ASCII FILE
freq/Hz	Re(Z)/Ohm	-Im(Z)/Ohm	|Z|/Ohm	Phase(Z)/deg
6999984	2.73099067747974	1.31725843918608	3.0320751765232	-25.7497431780545
5969734	4.46249759631823	1.0827185220796	4.59196735563312	-13.6379195918486
5091109	8.51481096065932	-2.20488310562745	8.79565319946424	14.5176790975382
4341796	3.65688908770899	-5.99360160601734	7.02111800295784	58.6112906107027
3702781	2.92543373145682	-6.36296355992563	7.00324694567361	65.308938052664
3157797	1.16499175154617	-8.07085678411957	8.1545039708703	81.7863448039337
2693047	2.69004690230006	-6.6893586292633	7.20998413364922	68.0930545707637
2296687	-2.72990346646574	-9.11882906917788	9.51868775247435	106.666120325018
1958656	4.79977768693091	-7.30232216677751	8.73852246500345	56.6832933596654
1670375	-4.06753760007903	-9.57485168711232	10.4030114369953	113.01649804735
1424531	-9.65262802986684	-8.41059079898996	12.8027835048096	138.933499064959
1214875	5.74756266870084	-1.67022495998151	5.98532606025677	16.2037105421137
1036062	-3.5515082988622	-7.83633064214177	8.60356258359624	114.380538670218
883578.1	0.305478148941468	0.250960273835196	0.395345366134652	-39.4042212501825
753531.2	1.78930411259319	-1.66256077981333	2.44248184310885	42.89719542284
642624.9	1.22468297859932	0.557892334256966	1.34576827674514	-24.4911726261143
548046.8	2.26363440146735	-2.49077905336594	3.36571255400591	47.7352567745027
467390.6	3.98639965840615	-2.04924489092132	4.48227474163597	27.2058409298661
398593.7	1.38811193876036	2.87093179408203	3.18890327868377	-64.1959675356223
339937.5	-1.07235925800117	-2.91348873669072	3.10457259490651	110.206999498926
289906.2	0.0255184064362023	-0.0529423279097487	0.0587714144082526	64.2657537950693
247234.4	0.0159063876774167	0.00597361167932146	0.0169910919437098	-20.5835660858543
210843.7	0.00534213390598575	0.014938899604712	0.0158653432383024	-70.3230063094128
179812.5	-0.0126163002809459	0.00919290865629323	0.0156102723340096	-143.920924784234
153343.8	-0.0120545703065288	0.00953831393784863	0.0153717955376723	-141.646797999581
130781.2	-0.0093773760426405	0.01182818770515	0.0150944097543876	-128.407347635934
111531.3	-0.00705510276577146	0.0108132452048575	0.0129112643414954	-123.122442229426
95109.37	-0.00619255883054864	0.0101639708925764	0.0119018523421754	-121.352518304488
81109.37	-0.00472394982540155	0.00887140925897579	0.0100507514243042	-118.034920783342
69171.88	-0.00365496878336292	0.00829068858852268	0.00906059126543172	-113.790392141233
59000	-0.00269317769069167	0.00719335735703626	0.00768098926829526	-110.525793216137
50312.5	-0.00229042468438368	0.00602676792933116	0.00644732323595216	-110.808891662711
42906.25	-0.00188930950904755	0.00533562751679937	0.00566024835312057	-109.498709072585
36593.75	-0.00135994744761549	0.00498102596071531	0.00516333968295673	-105.271025389653
31203.13	-0.0010107984527829	0.00406370520245793	0.00418753071447028	-103.968176659306
26609.38	-0.000834734533969049	0.00363773452773504	0.00373227735256588	-102.923674598782
22703.13	-0.000582569399522304	0.00284104989652456	0.00290016406773858	-101.588109978332
19359.37	-0.000534736920805972	0.00265024686759671	0.00270365530970189	-101.407341793968
16500	-0.00042532033232063	0.00229909428333784	0.00233810434086293	-100.480926335021
14112.02	-0.00035867156878793	0.00191590062109244	0.00194918456903373	-100.6034820074
12011.13	-0.000333538522638665	0.00173631599880143	0.00176806142251274	-100.873803495142
10236.38	-0.000202460604515534	0.00145367656608907	0.00146770768723793	-97.9288577239496
8750.684	-0.000184299382896393	0.00119622393712344	0.00121033795705294	-98.7585579070785
7449.463	-0.000102475765044861	0.00108132312437777	0.00108616802647456	-95.4136875948843
6363.206	-1.40036001791629E-05	0.000914080782635439	0.000914188043020359	-90.8776953223926
5414.761	7.2313675200998E-06	0.000869309526686783	0.000869339603299314	-89.5233949820419
4620.567	-6.22775953799536E-05	0.00073703990556585	0.000739666358085066	-94.829843601646
3941.215	5.75230907767352E-05	0.000598509142075748	0.000601267078028355	-84.5101288662062
3361.769	-3.01764959140001E-05	0.000651609048660658	0.000652307422311057	-92.6515153603381
2867.244	2.49193132086587E-05	0.000590724506685295	0.00059124987523836	-87.5844485075396
2442.658	0.000135597084719796	0.000475632775249035	0.000494583770736168	-74.0877973896584
2083.003	7.59392799557311E-05	0.000319644061942449	0.000328540865913607	-76.6357407046052
1777.843	0.000183813879448792	0.000374426349199231	0.000417112254977818	-63.8525939290004
1513.548	0.000108574565037332	0.000309074132539625	0.00032759007246583	-70.6441491535837
1292.065	0.000101274300223454	0.000219975748214189	0.000242168977551095	-65.2792015430967
1101.762	0.00016275992405218	0.000219561731651842	0.000273309617253815	-53.4506597499594
939.101	0.000224036958704442	0.000148191254546803	0.000268613489589952	-33.4830003755589
801.2801	0.000132353306836812	9.80202410993879E-05	0.000164697800519076	-36.5234753999339
684.3433	0.000140448411511581	0.000101031812296532	0.00017301209030599	-35.7294189212401
582.9476	0.000228078550122982	-8.04328549290172E-06	0.000228220330969267	2.01972263741756
497.0677	0.000101052724694164	-3.83207803985806E-05	0.000108074675009786	20.7675141859811
423.5089	0.000106158173732494	-1.22320987699031E-05	0.000106860573134037	6.57293171869514
361.5036	7.53437647939777E-05	-2.35382552662828E-05	7.89349881504452E-05	17.3494026788353
308.1262	5.92720790634887E-05	-0.000106846783101646	0.000122185982893615	60.9811586429228
262.7298	3.17123643131342E-05	-6.86140631204008E-05	7.55881188297426E-05	65.1943464936378
224.2111	3.91632208271155E-05	-9.03470690343845E-05	9.84700500084023E-05	66.5644604691341
191.2854	-2.46991424555308E-05	-0.000101182059121393	0.000104153044727861	103.717965990172
163.1722	-4.73066816773204E-05	-6.87860931374591E-05	8.34832243054527E-05	124.517709052129
139.1537	-4.30808901761853E-05	-9.95790255424403E-05	0.000108498596425735	113.394764783695
118.6706	-3.72183338067488E-05	-9.96545580623378E-05	0.000106377795210986	110.479326338952
101.1982	-1.70954822072256E-05	-7.60974453021413E-05	7.79940811434429E-05	102.661431815951
86.24196	-4.54898186402037E-05	-3.5217095976532E-05	5.7528840149432E-05	142.253846783522
73.61024	3.15095927263797E-05	-9.60037698649234E-05	0.000101042457719809	71.8295415359298
62.69291	6.12809722699941E-05	-4.61500703705398E-05	7.67149695793563E-05	36.9830276586745
53.57697	-1.94193716818997E-05	-7.86765214552749E-05	8.10376889158502E-05	103.864929664623
45.65746	0.000118291605661916	-3.96703855126841E-05	0.000124766355468128	18.5394417489
38.96512	-8.46243760710528E-05	-4.10935202310733E-05	9.40742389307328E-05	154.098832465379
33.18414	9.24009625248691E-05	-4.1055063782203E-05	0.000101111107884757	23.9562592285801
28.30617	-1.67459976465058E-05	-6.7724383775518E-05	6.9764035110868E-05	103.8887647089
24.17237	7.63505105550127E-05	-5.54844072334966E-05	9.43817774152595E-05	36.0061460771324
20.61345	-1.82025062706321E-05	9.59100209004014E-05	9.76220433285835E-05	-100.746205794167
17.55618	0.000104554561313138	5.23335811697149E-05	0.000116920742425926	-26.5897279536061
14.98558	-5.99167818871268E-05	2.31181846737135E-05	6.42220461704347E-05	-158.901479295725
12.76553	4.15847279310859E-05	-5.07626260629652E-05	6.56211383771333E-05	50.6756761791141
10.8809	-8.40692679391449E-05	-3.32126127856848E-05	9.03920320596653E-05	158.442883876502
9.278505	8.24019362584433E-05	0.000164796160893197	0.000184249433497846	-63.4338763723188
7.923394	7.99369212627878E-05	2.59729771846717E-05	8.40506212041804E-05	-17.9999332298489
6.75822	-4.38572981672354E-05	-2.98762261765197E-05	5.30664818230901E-05	145.736742628563
5.761429	5.57160761663533E-05	3.00881014427016E-05	6.33212049143191E-05	-28.3701771132413
4.919708	9.38295404183712E-05	6.4442064946237E-05	0.000113827775123903	-34.4812532828594
4.191257	-2.25986560799462E-05	9.17310789547798E-05	9.44737535129611E-05	-103.839662225858
3.564097	-6.61777427213613E-06	-7.66002312018203E-05	7.68855666330766E-05	94.9377315544691
3.051758	7.7224193961351E-08	-6.31263500160197E-05	6.31263972512384E-05	89.9299085376872
2.604164	6.33268016416742E-05	-4.6044239431966E-05	7.82965886295959E-05	36.0204986699004
2.214424	6.26903652619275E-05	-4.10122424181257E-05	7.49138566944527E-05	33.1928430889487
1.892567	-1.84739321437968E-05	6.64616130879196E-05	6.89813901215533E-05	-105.534013017619
1.607507	5.44650163476073E-05	-4.16298236442393E-05	6.85527550314034E-05	37.3921481722877
1.376413	6.0261422153267E-05	3.52144441542644E-05	6.9796103594886E-05	-30.3003630630559
1.17375	-1.8966778177026E-05	7.34821740639946E-05	7.5890503882816E-05	-104.472952476816
1.001604	5.67968879747433E-05	-3.39737220794794E-05	6.6182326005885E-05	30.8862467860449
