EC-Lab ASCII FILE
freq/Hz	Re(Z)/Ohm	-Im(Z)/Ohm	|Z|/Ohm	Phase(Z)/deg
6999984	4.99327053338558	-0.534789871622737	5.02182743892769	6.11319611346012
5969734	7.42183636855751	-3.40675612597384	8.16637265764324	24.6559724767277
5091109	30.5980147531426	-11.7410842656856	32.7733362135664	20.9928298389163
4341796	4.26857219326401	-7.89556270139346	8.97555674823252	61.6030470337578
3702781	5.12239825355707	-8.03795902192074	9.53140855834654	57.491616487458
3157797	2.69214513730226	-8.35124593743928	8.77444893699293	72.132521617995
2693047	0.756011611973017	0.342160577961014	0.829835778060125	-24.3508609916647
2296687	4.35483956257474	-3.04660322403445	5.31473600665764	34.9762601699627
1958656	-3.01794928167901	-10.8061045850594	11.2196218372113	105.604085755963
1670375	3.85921160872039	-9.45305494344475	10.2104731528303	67.79225172832
1424531	11.3033501254596	0.230474008901192	11.3056995505588	-1.16809249467998
1214875	24.1293895740574	-1.9840538346576	24.2108221842103	4.70060591182176
1036062	-0.128545579608986	-9.22824914149921	9.22914439065821	90.7980541888694
883578.1	9.87068924868171	-3.99019176488636	10.6466960398336	22.0108497901488
753531.2	3.82406446888399	8.39909595039166	9.22866630917309	-65.5204740706263
642624.9	6.87702139223452	-18.6164895241475	19.8460853931435	69.7255259206504
548046.8	12.3134177420494	-6.21011391663538	13.7907857407693	26.7635060528693
467390.6	6.80624028620783	7.23292258309005	9.93177103675737	-46.7408140365398
398593.7	3.30812124580793	-3.39890121768591	4.74301546113362	45.7754546362577
339937.5	2.92139835247294	-2.96246981144869	4.16062443841985	45.3999380973289
289906.2	-4.35105723774623	23.2287568934898	23.6327494359627	-100.60932617691
247234.4	14.7823365097861	-19.2333217100977	24.2577438500094	52.454859102022
210843.7	1.95613605222063	3.1094603977599	3.67358302206912	-57.8263384313735
179812.5	7.1469001724477	1.13008284975572	7.23569411475119	-8.98533613762577
153343.8	2.22710178738723	1.21042718267863	2.53478131915767	-28.5240277403898
130781.2	36.6108101635232	21.8124308979161	42.6161185762605	-30.7861510592355
111531.3	215.602820363681	255.665187350568	334.438730071406	-49.8590165154023
95109.37	609.2254610035	178.319191517719	634.786102871243	-16.3146580895629
81109.37	-112.157547217748	531.676297112909	543.377401360782	-101.91194572414
69171.88	636.926111734769	94.8119439380721	643.944234016337	-8.46679787387647
59000	28.5786171096609	-329.107927123338	330.346431873148	85.037078150388
50312.5	12.3188910108679	2.06174157152977	12.4902303439695	-9.50120441804976
42906.25	3.74622040216094	-0.0212942593335814	3.74628092206757	0.325677060274153
36593.75	4.40822450439605	-4.6152663531506	6.38225091889075	46.3144073862475
31203.13	1.81638383021871	-67.7584622821332	67.7828035792113	88.4644543850811
26609.38	4.59314855424225	0.0498899855631742	4.59341949445043	-0.622312379603392
22703.13	-4.95994189587718	20.112567871936	20.7151251508097	-103.853241325602
19359.37	6.86198523837768	-4.0302005949021	7.95797450654765	30.4266887977264
16500	7.0069033287081	7.23621218119554	10.0727087215477	-45.9223610149292
14112.02	10.5430516371292	21.3566630298767	23.8172835057836	-63.726027552056
12011.13	3.17892396912475	26.4887041536515	26.6787744347665	-83.1566306667686
10236.38	32.9350354300881	12.849613018654	35.3529222768121	-21.3132564858432
8750.684	20.1273628338562	71.0176303824198	73.8147313195658	-74.1765485521242
7449.463	223.82797359048	-20.4182830576872	224.757353705378	5.21227269273406
6363.206	236.877079665078	-220.678760170885	323.743518948588	42.9724706179643
5414.761	295.165547379257	-63.6165708179514	301.943319916722	12.1628168299725
4620.567	332.466884055969	-70.4182085681046	339.842541615711	11.9588037478603
3941.215	347.038919175461	-86.921227445949	357.758733231185	14.0613354024503
3361.769	244.296062611497	262.209162021853	358.377190758121	-47.0254823874726
2867.244	228.009421533465	341.542159329645	410.657208517739	-56.2734050826068
2442.658	260.392743022508	201.875586395347	329.481612538926	-37.7854722394891
2083.003	185.527530335684	198.476853298978	271.686447597083	-46.9313855287782
1777.843	4.23779227777064	490.681630940689	490.699930533931	-89.5051749241567
1513.548	-184.09541042594	490.919596872954	524.302556482227	-110.556102683499
1292.065	189.873799519944	-181.163195914732	262.435064917361	43.6551498308627
1101.762	347.678212432359	-399.131088187215	529.325764494485	48.9412756374735
939.101	-174.40330584861	732.537798817468	753.012708914839	-103.391723821624
801.2801	-94.4929592637819	-456.976938727936	466.644234808041	101.682877197647
684.3433	421.466454416518	-129.288296595084	440.850809044159	17.0538252114832
582.9476	239.8148564289	281.440221206755	369.756356912117	-49.5657251496528
497.0677	551.631471504815	-588.552625311161	806.654494263329	46.854689398322
423.5089	1158.01952509525	307.722999715238	1198.20810590463	-14.881415624199
361.5036	299.175149770544	1147.90045209474	1186.24669363482	-75.3920785144942
308.1262	-484.252023070962	-846.626080567156	975.333656829715	119.768633775628
262.7298	1172.34557294712	511.602829546064	1279.11359839861	-23.5760960019329
224.2111	1297.67109220098	-559.918449084733	1413.31487403181	23.339206601536
191.2854	2368.10967808299	-409.544100837509	2403.26232816169	9.81175900216656
163.1722	1494.27156295678	-598.184349702503	1609.55646688468	21.8171327596151
139.1537	2662.53605862666	-351.903745925644	2685.6906951255	7.52906649847561
118.6706	718.696537817697	-3261.11375490379	3339.36934703153	77.5716099671719
101.1982	-392.931722489386	1240.50359939764	1301.24729342926	-107.575690824788
86.24196	2590.83661123914	6088.39457349302	6616.7199448576	-66.9484567834308
73.61024	7360.55347990235	2420.42468508484	7748.30324565777	-18.2027946667929
62.69291	1239.21806691157	5683.18966539141	5816.72641527619	-77.6992076681475
53.57697	6894.51207939307	-2402.21331339628	7301.02223089036	19.2095617269291
45.65746	8608.1077059688	-3451.95462379958	9274.45464716556	21.8513784470301
38.96512	5108.79710053629	2443.43913035198	5663.05594164345	-25.5608905592015
33.18414	-87.1584582433716	-2143.85319685558	2145.62418109772	92.3280806849867
28.30617	5204.95344808317	4038.72764513396	6588.0848042722	-37.8092900950327
24.17237	0.488124376797914	-0.404872958566435	0.634182560311059	39.6738838364608
20.61345	0.737652390555675	-0.135332056506709	0.74996387567058	10.396055632063
17.55618	0.387182498175898	0.634188469874562	0.743037887469789	-58.595247792439
14.98558	0.648214072512743	0.389465075297368	0.756217249657756	-30.9986209984039
12.76553	0.593068575093393	-0.330423900971714	0.678903740670703	29.1240520617626
10.8809	0.512013699656442	-0.327027331650936	0.607540043357315	32.5667033512738
9.278505	0.422337834444636	-0.284280116066014	0.509101591820229	33.9449189499933
7.923394	-0.0796502469380594	-0.434446342825266	0.441687430918678	100.389081200462
6.75822	2.69383742934117	-0.40435864496027	2.72401652151259	8.53665288825882
5.761429	1.47807117160925	-0.630564762357216	1.60695560233286	23.1037381364711
4.919708	1.6842361300649	0.366323701054019	1.72361376061167	-12.2707964560429
4.191257	1.99761403191325	0.0214381380541482	1.99772906427773	-0.614867366013462
3.564097	2.03506030110323	0.138836325407582	2.03979066435236	-3.90279770548539
3.051758	1.13139050861186	-1.64318937248984	1.9950227559706	55.4512965902633
2.604164	2.04579285276913	-1.10979966417963	2.32742855766928	28.4789015844453
2.214424	2.04120783204832	0.193650154902743	2.05037308705252	-5.41945193962218
1.892567	1.90702535657253	-1.39313010898122	2.36168524811428	36.1490703991278
1.607507	3.91176651893332	1.08871459233795	4.06044538963612	-15.5528362164231
1.376413	2.77682221338442	0.45267075906987	2.81347692737332	-9.258774515774
1.17375	4.50897982135336	5.90464930004112	7.42938640708961	-52.633484424232
1.001604	1.06712606916955	-0.811482156523098	1.34061975886402	37.2507020814037
