EC-Lab ASCII FILE
freq/Hz	Re(Z)/Ohm	-Im(Z)/Ohm	|Z|/Ohm	Phase(Z)/deg
6999984	1.7472938079608	1.52170357632844	2.31702771359104	-41.0523343478763
5969734	4.01591483307979	0.952192815158142	4.12725612287256	-13.3387840565888
5091109	6.34852345100286	-3.19231835976736	7.10595852211657	26.6952725090471
4341796	3.86775041388248	-4.94844009000756	6.28064905789856	51.9884599976296
3702781	2.45617087079011	-6.07004362081479	6.54814514997279	67.9698686448105
3157797	0.570051380542913	-5.98283779170785	6.0099339945083	84.5572259969659
2693047	-1.88662793289195	-6.40617482203774	6.67820640648958	106.409779007476
2296687	-1.30738853134951	-7.63090526437636	7.74209144390526	99.721986439591
1958656	-4.01439345833399	-12.725947521927	13.3441033857339	107.507852621844
1670375	-7.88380886166885	-8.44675838365069	11.5543138852595	133.025673943586
1424531	0.236759087192439	-18.244438652616	18.245974805815	89.2565112410699
1214875	6.79412501922941	-5.65083736994754	8.83697333698108	39.7511128176665
1036062	9.28178696758023	-2.48547171732913	9.60880528313407	14.9909250475824
883578.1	8.19252025747796	-3.36733630231046	8.85755846393602	22.3439216156143
753531.2	6.50915972689623	6.50766326869408	9.20428387051148	-44.9934130825277
642624.9	3.14184487713212	-5.89514673433837	6.68011558667526	61.9444152880967
548046.8	1.38767287734136	0.530842864685356	1.48574229309669	-20.9339412367327
467390.6	0.0381858269434836	-0.153382861818597	0.158064732559228	76.0199829621781
398593.7	0.0344380007304126	-0.135856792718234	0.140153644340749	75.7758456456729
339937.5	0.0413277831669489	-0.135264960794459	0.141437602073214	73.0104075516944
289906.2	0.0445742676414118	-0.131694743948994	0.139033704257491	71.3007587868036
247234.4	0.0475637066441612	-0.129607096774	0.138059066069262	69.8476805225723
210843.7	0.046172155724006	-0.122486519091899	0.13090002033404	69.3457121982582
179812.5	0.0435140538553958	-0.112860410884127	0.120958444218931	68.915535485674
153343.8	0.0417746536781431	-0.10342689605652	0.111544809461557	68.0059649859038
130781.2	0.0403210592082965	-0.0948660495386073	0.103079363457195	66.9729793770624
111531.3	0.0378162359360683	-0.0861165998428371	0.0940539019332197	66.2923628122265
95109.37	0.0354084231433653	-0.078587418634887	0.0861959326023832	65.7455318925536
81109.37	0.0342378439710504	-0.0714553014517521	0.079234399507706	64.3985654119806
69171.88	0.0359605913307844	-0.0682167732660832	0.077114799381804	62.203965169291
59000	0.044464144895708	-0.0700158857240267	0.0829414518502448	57.5820865233092
50312.5	0.0398796767461245	-0.0644610752107846	0.0757998603871129	58.2564578481782
42906.25	0.400521553575859	-0.281344829376827	0.489461365069702	35.0859758581523
36593.75	0.245958601954824	-0.234446862811664	0.339795475775948	43.6273098115973
31203.13	0.143322820946386	-0.168322116467355	0.221074118557736	49.58628860492
26609.38	0.0830750772227759	-0.125540972207027	0.150539045294753	56.5059285446047
22703.13	0.0471859781396983	-0.096905477374211	0.107783060255885	64.0372582263711
19359.37	0.0247556617586735	-0.0747754188690328	0.0787667826951765	71.6820049036836
16500	0.0159310557145657	-0.0567805701570921	0.0589731437481932	74.3273510438026
14112.02	0.00427174312141663	-0.0451014817186211	0.0453033270578495	84.5894262250523
12011.13	-0.000442596676196248	-0.0343620676821331	0.0343649179718107	90.7379509161602
10236.38	-0.00282244253316203	-0.0257499822879284	0.025904203706766	96.2551907085929
8750.684	-0.00361015547516513	-0.0188342059091205	0.0191770835838512	100.850885183337
7449.463	-0.00374201561575479	-0.0138695214459952	0.0143654553011547	105.098966163776
6363.206	-0.00328907768315325	-0.0105528866184546	0.0110535717298878	107.310984323437
5414.761	-0.00259104422195091	-0.00875234971581557	0.00912782206816293	106.490852535487
4620.567	0.0326705790059988	-0.00664424169657681	0.0333393563271659	11.4955158042955
3941.215	0.0290782761129498	-0.00650254972054422	0.0297964644642464	12.6052261914828
3361.769	0.0356738125067464	-0.0070174917724381	0.0363574763912835	11.1287139534307
2867.244	0.0428353746630283	-0.007129289578095	0.0434246023863241	9.44938611505813
2442.658	0.0496536607314348	-0.00778371555212578	0.0502600462776233	8.90919004665288
2083.003	0.0553567628388392	-0.0084720925236969	0.0560013173391981	8.70133241773532
1777.843	0.058778488887101	-0.00919976842579234	0.0594940878990448	8.89553073281696
1513.548	0.0619426486882511	-0.00973783080193417	0.0627034056112042	8.93418819525444
1292.065	0.0649531445734219	-0.0102011322379703	0.0657493276689002	8.92560528748338
1101.762	0.0675962207464142	-0.010096795400684	0.0683461362226222	8.49541711574325
939.101	0.0700549911732244	-0.0106524611713752	0.0708602619053035	8.64608209755086
801.2801	0.0728166186946506	-0.00935716119285045	0.0734153691246671	7.32255532037661
684.3433	0.0751378742782752	-0.00997926715530187	0.075797664370446	7.56533472690739
582.9476	0.0790614420165842	-0.00825828537759041	0.079491577485413	5.96314992607126
497.0677	0.0839514345508414	-0.00642146991761639	0.0841966664366652	4.37405377310711
423.5089	0.0893862383202237	-0.0039803036487014	0.0894748144349889	2.54965473988083
361.5036	0.0931360025406823	-0.00323562635937055	0.0931921898401118	1.98970537853065
308.1262	0.102046063285022	-0.000338287204460105	0.102046624001989	0.189937342550812
262.7298	0.107277864071816	0.000573800652409166	0.107279398614085	-0.306456904557592
224.2111	0.113127027354443	0.00152324226135656	0.113137282029575	-0.771434386068706
191.2854	0.126964931411874	0.00304171559254593	0.127001361576039	-1.37238002357608
163.1722	0.139238595644312	0.00302722036451393	0.139271499525694	-1.24548534181507
139.1537	0.155306485138279	0.0012640882071188	0.155311629458331	-0.466338027091432
118.6706	0.168578196495189	-0.000276231468534154	0.168578422810854	0.0938845205354596
101.1982	0.173621701983546	-0.00494299044524923	0.173692050924056	1.63076393565725
86.24196	0.177322881555198	-0.00739641675892753	0.177477072614776	2.38851265183146
73.61024	0.181857448678336	-0.0107064949314287	0.182172337838406	3.36928576271814
62.69291	0.178566067487082	-0.0141168180765674	0.179123211813567	4.52020556636246
53.57697	0.18758732474617	-0.0169354181987776	0.188350239699854	5.15868853381783
45.65746	0.211587706691059	-0.0223130939997759	0.212760973363596	6.01990712525692
38.96512	0.232062783422133	-0.0289361554147468	0.23385986517531	7.10758728522147
33.18414	0.247389994375359	-0.0328906568912597	0.249566833989973	7.57309830503141
28.30617	0.234678318661517	-0.0336817282606913	0.237083048884612	8.16748472170013
24.17237	0.242753210445244	-0.0372219535988743	0.245590299098294	8.71740961346669
20.61345	0.256559504813722	-0.0425192145215824	0.26005896084118	9.41001245537674
17.55618	0.254558783787101	-0.0438132200720358	0.258301708581745	9.76574476163961
14.98558	0.257230317771996	-0.0453005184619015	0.26118876957863	9.98787476923388
12.76553	0.258546626220471	-0.0467092332814805	0.262732012521755	10.2406408301338
10.8809	0.285730211727056	-0.054746783952583	0.290927764654285	10.8465895351082
9.278505	0.294889876177762	-0.0595251568512143	0.300837636226417	11.4121217972142
7.923394	0.298987500030721	-0.0606967338144415	0.305086247920751	11.4755310364013
6.75822	0.280233803050759	-0.0557684680267243	0.285729078671281	11.2552115754396
5.761429	0.272244327365867	-0.0533807055285263	0.27742832138341	11.093614558901
4.919708	0.252323611835153	-0.0470828876328849	0.256678794210561	10.5696790327215
4.191257	0.24522755750564	-0.0461379905802	0.249530096651608	10.6552731977361
3.564097	0.236608425294444	-0.0448459186151525	0.240820894726254	10.7323302916033
3.051758	0.226471293840261	-0.0419464092828744	0.230323138623561	10.493257922007
2.604164	0.264187938437415	-0.0521010704211219	0.269276416261874	11.1562617642206
2.214424	0.316992290958827	-0.0669333307980791	0.323981763837181	11.9229423194631
1.892567	0.305910426626251	-0.064377172640805	0.312610955463622	11.8841702654666
1.607507	0.297029858560782	-0.0613701520888249	0.303303531868727	11.6737744335166
1.376413	0.232768028838059	-0.142776313869345	0.273067814015628	31.5243097754364
1.17375	0.318996344963536	-0.203396231174334	0.378323532120351	32.5221157756568
1.001604	0.325103529871091	-0.206350048101405	0.385061874879993	32.4041552247952
