EC-Lab ASCII FILE
freq/Hz	Re(Z)/Ohm	-Im(Z)/Ohm	|Z|/Ohm	Phase(Z)/deg
6999984	2.39600600186501	1.18058161672205	2.67107051848415	-26.2308042724243
5969734	4.39057639493928	1.23537908026447	4.56106594468366	-15.7150405682246
5091109	6.16696319389545	-1.82136364259852	6.4303033018234	16.454087369008
4341796	3.26835332586953	-6.12828054905317	6.94535499097244	61.9279713993765
3702781	2.24520664415787	-5.8231336277656	6.24098054169256	68.9150198236583
3157797	0.469930388498526	-8.18147176664835	8.19495667093478	86.7126359264686
2693047	2.08990211414639	-8.13281365889858	8.39704405473027	75.5884311508856
2296687	1.50392063269481	-9.45653147045577	9.57537282413409	80.9636347059054
1958656	-1.33178664670095	-7.98338450543683	8.09370643364212	99.4708590379852
1670375	-3.39359653201403	-7.50886138967254	8.24011509576247	114.320378101729
1424531	7.54659218962835	-6.27672201173946	9.81571662637091	39.7512904345829
1214875	4.18955087090844	-7.79210885855875	8.84699366810892	61.7345981435198
1036062	7.23246313566813	-7.87224636259765	10.6902191653039	47.4254011988959
883578.1	5.06500820193049	7.32562406912315	8.90612576195393	-55.3396385751482
753531.2	4.18806115480682	5.16943222223537	6.6530358286039	-50.9870329041441
642624.9	4.57022401176782	-0.611525189863417	4.61095549485968	7.62127259644601
548046.8	1.81382253199816	-1.02563029566205	2.08371535507229	29.4860926333498
467390.6	0.0296023994979729	-0.116685947681602	0.120382359348831	75.7647875602269
398593.7	0.0339967956817602	-0.103730926195032	0.109159915563849	71.8539495380024
339937.5	0.0405925526347987	-0.104464635398797	0.11207415125002	68.7650194728931
289906.2	0.0425817383095281	-0.103146300368101	0.111590159588951	67.5677668641877
247234.4	0.0436227682211526	-0.0983655700303891	0.107604513263523	66.0838634705784
210843.7	0.0418614410867235	-0.0929579992737154	0.101948859134516	65.7567045695587
179812.5	0.0398068462573811	-0.0864190089371416	0.0951463615417664	65.2679715703121
153343.8	0.0388756156495182	-0.0801082500595793	0.0890429403138573	64.1132324300055
130781.2	0.0373103145127192	-0.0736162051353942	0.0825312378895074	63.1231040642399
111531.3	0.0355758670734329	-0.0678510199814873	0.0766120305862908	62.330932616692
95109.37	0.0336375272255413	-0.0618881830649492	0.0704388418482991	61.4749909665461
81109.37	0.03267687762366	-0.0569335143467359	0.0656445229025365	60.1464164311967
69171.88	0.0307123692544761	-0.0532603631101651	0.0614810206799621	60.0302778861237
59000	0.028629801217793	-0.049497860802014	0.0571813233647657	59.9547047529459
50312.5	0.0275982588797457	-0.0477695278842109	0.0551687564430617	59.9833526427025
42906.25	0.0306372461294746	-0.0495407538839977	0.0582488381497248	58.2663127222544
36593.75	0.027527438403148	-0.047414053824547	0.0548256542607214	59.8615991112372
31203.13	0.106816192740844	-0.119994721304261	0.160650030104374	48.3253517372859
26609.38	0.0692549657643853	-0.106799959011506	0.127288968602489	57.0384068715096
22703.13	0.0396122373569392	-0.0857236319210168	0.0944334179099352	65.1987009728808
19359.37	0.0210435253233416	-0.0680525037411409	0.0712318273208831	72.8170915916173
16500	0.0223554106742215	-0.0453805103686856	0.0505880925488941	63.774156006847
14112.02	0.00270543100411131	-0.0422773380811736	0.0423638132389881	86.3384944862481
12011.13	-0.00150521632323753	-0.0324933928665916	0.0325282378275001	92.6522602054717
10236.38	-0.0035757370772753	-0.024330999416684	0.0245923449117907	98.3604668310216
8750.684	-0.00396472428278749	-0.0177280641874198	0.0181659929118064	102.60625598028
7449.463	-0.00396963399283601	-0.0129296067398312	0.0135252624552637	107.067477260507
6363.206	-0.00353232998926329	-0.00981556664155461	0.0104318120979937	109.79229264681
5414.761	-0.00281491969359967	-0.0080569180551305	0.00853450065490085	109.258353277528
4620.567	0.0322173390402873	-0.00595965906955009	0.0327639202639441	10.4802746983693
3941.215	0.0286405974695743	-0.00568886681835318	0.0292001203609017	11.2344074778984
3361.769	0.0358196621062443	-0.00571550960015637	0.0362727892971439	9.06588827404321
2867.244	0.0429591102404059	-0.006462011272652	0.0434424071885436	8.55443176864173
2442.658	0.0495428715760442	-0.00709779328231408	0.0500487241943176	8.15304045568488
2083.003	0.0547027556231724	-0.00789711073099816	0.0552698455820727	8.21469644401891
1777.843	0.0591000454408922	-0.00836867866363353	0.0596896151243303	8.0596082280329
1513.548	0.0621216873482421	-0.00909901114294539	0.0627845207258301	8.33290336673235
1292.065	0.0648727054079339	-0.00932777913927496	0.0655398761870639	8.1822441145027
1101.762	0.067396994926302	-0.0100297373669433	0.0681391998540182	8.46439718071487
939.101	0.0699017981704122	-0.00994949974018889	0.070606330683141	8.1008038935028
801.2801	0.0720601372062458	-0.0115762043043578	0.07298405223252	9.12638688763107
684.3433	0.0741480070471538	-0.00936508243964946	0.0747370839554649	7.19848703941898
582.9476	0.0764188333659071	-0.00875853280819682	0.0769191132941516	6.53826777208973
497.0677	0.0804407666389346	-0.00682608053937071	0.0807298724945699	4.85041202989446
423.5089	0.0856811995046384	-0.00484940672353578	0.085818323766687	3.23938534436388
361.5036	0.0925151842761405	-0.00371592682069754	0.0925897803960297	2.30008234573097
308.1262	0.0987039473959268	-0.000925496652189766	0.0987082862559729	0.537217604603035
262.7298	0.10242271629506	-1.09594662576457E-05	0.102422716881404	0.00613078018819269
224.2111	0.11229817282886	0.00161468834836714	0.112309780692346	-0.823775226569497
191.2854	0.122305452023097	0.00217953281483743	0.122324870561407	-1.02092599316945
163.1722	0.136434727521619	0.00262472621151754	0.136459972378657	-1.10211812344405
139.1537	0.144903553765098	0.00149261155684307	0.144911241051253	-0.590167155465373
118.6706	0.150344380851378	-0.00175035227535212	0.150354569557004	0.667023714104221
101.1982	0.158390816829641	-0.00395811679888066	0.15844026490938	1.43149838183547
86.24196	0.172308494883614	-0.00735152458466331	0.172465249609233	2.4430370344895
73.61024	0.189490627768115	-0.0109051341608746	0.189804162133028	3.29372351573849
62.69291	0.205162234796325	-0.0151951319311306	0.205724171212395	4.23581968362266
53.57697	0.204955156464797	-0.0180891028202294	0.20575186949904	5.04378929645568
45.65746	0.216183260649705	-0.0224000111059968	0.217340660445042	5.91564026569902
38.96512	0.224403050268837	-0.0277287450167256	0.226109735018555	7.04414366856664
33.18414	0.229118026472652	-0.0294417011248396	0.231001913022051	7.32238916261602
28.30617	0.230200179923163	-0.0327216906417308	0.232514154139291	8.09008385315591
24.17237	0.239155609678051	-0.0359319228875322	0.241839841057829	8.54449095089621
20.61345	0.245757671777262	-0.0390610140448177	0.248842512556817	9.03111546545672
17.55618	0.258276259514915	-0.0445256525545379	0.262086168968191	9.78138650944668
14.98558	0.224111298879315	-0.0371904181897195	0.227176146394158	9.42215343105556
12.76553	0.218065512311792	-0.0359829557414126	0.221014345153641	9.36993405760733
10.8809	0.252280421434152	-0.0467327869019968	0.256572337578743	10.4945929136696
9.278505	0.278210483341949	-0.0532262070832531	0.283256248230873	10.8307415224949
7.923394	0.286472442512398	-0.0559274075278892	0.291880686637211	11.0467867183049
6.75822	0.288729676670066	-0.0565090305820981	0.294207574218152	11.073727193832
5.761429	0.282452854669378	-0.055963899348931	0.28794369786682	11.2071690643179
4.919708	0.276529949602282	-0.0542724476062302	0.281805449905092	11.1038762330117
4.191257	0.305147000085134	-0.062093229904553	0.311400483077558	11.5018699062435
3.564097	0.335187015274693	-0.0718904265250044	0.342809814087497	12.1053205152312
3.051758	0.337924481337662	-0.073174644076956	0.345756393466725	12.2182676853853
2.604164	0.336396022924227	-0.0748639544182008	0.344625733093696	12.5465438541055
2.214424	0.342620221779205	-0.0765754890056221	0.35107324291162	12.5985340444357
1.892567	0.305205463448297	-0.0659018018468093	0.312239367161391	12.1845834966095
1.607507	0.300396461758795	-0.0615066551650858	0.306628607384895	11.571467089618
1.376413	0.229285871791339	-0.137783278646416	0.267499986687233	31.0026488917037
1.17375	0.313884523100798	-0.197557908658525	0.370880871865543	32.1861791612157
1.001604	0.327097832578586	-0.209612632687663	0.3884976806364	32.6527845304143
