EC-Lab ASCII FILE
freq/Hz	Re(Z)/Ohm	-Im(Z)/Ohm	|Z|/Ohm	Phase(Z)/deg
6999984	4.67191644376659	119.56832981463	119.659568350875	-87.7624091987073
5969734	16.2026576067377	96.4221814736961	97.7740415123951	-80.4612080153552
5091109	12.8428434470657	87.5033193635706	88.4407684693483	-81.6503246233697
4341796	9.9926813968046	89.0592218373026	89.6180711450761	-83.5980373521374
3702781	10.0494053015831	101.344913851406	101.841946713839	-84.3370383162971
3157797	13.5705515658313	105.868962121828	106.735172321751	-82.6955142332473
2693047	13.4838901519442	115.493218077273	116.277679351947	-83.3408365979032
2296687	11.4269634664448	131.32792624524	131.824124142505	-85.0271659805322
1958656	13.0575696608426	150.169031778542	150.73565679942	-85.030489135744
1670375	13.1875419558492	172.449572733191	172.95307571332	-85.6269954962547
1424531	15.1638712498364	199.984730682632	200.558808077548	-85.6638366824816
1214875	18.7315894606624	230.661476705473	231.420805632666	-85.3573042620866
1036062	21.3196840793908	265.210379892103	266.065921402495	-85.4040003223898
883578.1	23.2784464500898	306.798202781681	307.68006646385	-85.6609718935059
753531.2	25.9391440594419	356.161693172788	357.105013796003	-85.8345208096511
642624.9	28.8292075085137	413.887769688438	414.89059895741	-86.0155181771329
548046.8	32.233079641484	482.114858809504	483.191171802716	-86.1750296272973
467390.6	141.376173244346	669.742257252414	684.501215127317	-78.0803964892481
398593.7	163.305321703422	759.414896281009	776.775136567947	-77.8638757384681
339937.5	184.663322548775	862.553662749061	882.09940699253	-77.916014897825
289906.2	206.43873536127	981.118847400974	1002.60218640445	-78.1176387459316
247234.4	226.168991223731	1120.85872272977	1143.44946932979	-78.5919332087409
210843.7	245.491254346651	1282.1951865863	1305.48475765356	-79.1612240739829
179812.5	265.320892818557	1473.19894967814	1496.90023765741	-79.7905609161545
153343.8	284.981183298453	1697.97270044186	1721.72168664973	-80.4724952839192
130781.2	305.196868290244	1960.14009216212	1983.75762363135	-81.1500178766615
111531.3	327.126992425567	2268.45973500135	2291.9253125911	-81.7941370299475
95109.37	351.698549371962	2627.65351436723	2651.08560050346	-82.376548628698
81109.37	378.043179591944	3048.65871693462	3072.008564112	-82.9312290701642
69171.88	422.225529994884	3548.55760504351	3573.58859894247	-83.2145566998564
59000	422.244621479813	4092.18403755952	4113.91063559062	-84.1088865222761
50312.5	283.444399095633	4735.70386054	4744.17872577669	-86.5747822809601
42906.25	1719.06543143548	6398.89863848813	6625.78974486828	-74.9625320554847
36593.75	1822.05326083462	7108.35237441331	7338.15723217658	-75.6231523932705
31203.13	1918.23884963146	8087.96377767794	8312.32809465951	-76.6575703965997
26609.38	2034.73394897683	9267.29224760864	9488.03709129059	-77.6165871540897
22703.13	2164.83324838415	10668.2620113743	10885.6932409765	-78.5291370343945
19359.37	2295.30939814235	12306.4976624042	12518.719181608	-79.4350406042759
16500	2437.55547139315	14247.1280883124	14454.1459602738	-80.2912114375399
14112.02	2612.00738201231	16468.042410647	16673.9018649671	-80.9873551586238
12011.13	2816.06628948881	19172.6830622525	19378.3901589472	-81.6441939749618
10236.38	3198.63690521899	22154.8901717351	22384.602667304	-81.7846259305483
8750.684	3237.12977346729	25629.5456743844	25833.1690012206	-82.8013968337875
7449.463	4124.35362369334	30012.8321005556	30294.8903861594	-82.1754404426071
6363.206	3550.23504263482	34788.0061099909	34968.6936840185	-84.1729432037717
5414.761	5514.93800225923	38597.0472291354	38989.0573876424	-81.868335064417
4620.567	16014.0074326303	54490.1185698369	56794.554807721	-73.6225556600122
3941.215	15155.8087405129	58775.3852794647	60697.9773413293	-75.5407037665512
3361.769	19489.7028312304	67108.0459732939	69880.8868776248	-73.8055010839975
2867.244	20036.9110043411	80749.0973825936	83197.9238364725	-76.0642153039622
2442.658	22765.3851157021	89102.823838525	91965.0801960475	-75.6677858055112
2083.003	24247.983192076	106514.306241457	109239.471451404	-77.1751804687209
1777.843	23991.0035305541	121499.15305114	123845.114730244	-78.8301690599563
1513.548	26511.4742424844	133569.912143397	136175.547351588	-78.7736181255768
1292.065	28388.1504992844	166040.140244556	168449.444229424	-80.2978577479634
1101.762	33014.2409309008	189958.465028051	192806.012717594	-80.1406381289795
939.101	30526.1209509673	211449.658069509	213641.760800704	-81.7851988883435
801.2801	47867.2696030237	254380.015299645	258844.485518035	-79.3431381739369
684.3433	45981.7046113676	298539.407239146	302059.75374695	-81.2439829550629
582.9476	162556.332974648	413533.425172261	444335.971000398	-68.5406492003199
497.0677	128201.425672588	438757.254075333	457103.416688401	-73.7120516676116
423.5089	183413.545547718	455993.006896637	491497.864724784	-68.0885854999616
361.5036	212795.389871885	529346.351986004	570516.816852596	-68.1000446558643
308.1262	237670.961071865	679708.331841321	720063.123699121	-70.7269988507596
262.7298	254329.458353272	752117.624072969	793954.906671303	-71.3169734924058
224.2111	318546.347877207	767082.807085596	830594.852302989	-67.4483624596825
191.2854	264849.141311769	821644.765618864	863275.847294745	-72.1337821251443
163.1722	413042.242482677	1136593.9902962	1209317.90396593	-70.0286778900541
139.1537	494450.877870299	1007431.57546948	1122229.94518932	-63.8580370280542
118.6706	547325.252466238	1014727.39835594	1152925.24690955	-61.6583947567674
101.1982	385893.269341505	1275010.64923611	1332128.28623544	-73.1610954518139
86.24196	1623956.8191368	1073181.91862241	1946523.87113002	-33.4584777819273
73.61024	920154.834599607	2239651.99999996	2421306.67217948	-67.6648259146829
62.69291	779753.961157991	1256952.99377446	1479171.0747916	-58.1864997013927
53.57697	1379032.74933227	1543522.81065511	2069829.45933803	-48.2213770862035
45.65746	2265035.9049846	1715461.87853369	2841337.20412973	-37.1390612550225
38.96512	1101861.10018974	2119268.93934589	2388597.64744664	-62.5289468306892
33.18414	2835569.03625067	2922379.19630428	4071946.9454225	-45.8637588916433
28.30617	1924510.5989646	2498706.28072191	3153929.94894405	-52.3964345956525
24.17237	2697068.72304873	2659552.14016066	3787795.83439774	-44.598719646196
20.61345	3180643.91135335	3686160.1460344	4868703.35028142	-49.2103709955347
17.55618	2464464.05108189	4625179.98378039	5240789.34335637	-61.9496864998119
14.98558	6548391.43899952	4696018.87984726	8058165.03667207	-35.6452743394472
12.76553	4896120.77125456	2460379.13191433	5479549.62378021	-26.6802610148147
10.8809	4900589.54871078	3047688.90454955	5770977.87067735	-31.8775840927582
9.278505	4366031.85447366	4408782.53210479	6204804.39415064	-45.2791414053815
7.923394	7445210.32616513	3109612.78604779	8068509.68147079	-22.6686454460047
6.75822	3186869.67456805	6653438.78866125	7377288.52879861	-64.4064722295534
5.761429	6807137.41852376	2914740.11275006	7404919.29460008	-23.1800675739384
4.919708	4986574.43984096	4791570.78059385	6915567.5970607	-43.857512794525
4.191257	7565461.35701886	5368817.63942416	9276874.92585395	-35.361356563226
3.564097	8283517.48126242	5832215.94543629	10130715.9024711	-35.1484110690877
3.051758	9420027.77037291	3491440.84850537	10046247.1795795	-20.336730138134
2.604164	9738020.104764	3632310.41022713	10393397.6387432	-20.4556647172473
2.214424	11247067.046653	3422274.02929422	11756210.1326698	-16.9240330821522
1.892567	6002808.03259638	-796416.187427965	6055409.40150217	7.55751958258181
1.607507	2134605.80326144	-1748938.73746077	2759588.49155237	39.3286653057386
1.376413	510213.452876625	-701336.706052806	867289.422714982	53.9645914330358
1.17375	290719.137111301	-550507.836839561	622556.419213963	62.1617954755694
1.001604	149263.725944507	-330509.964163937	362652.031973466	65.6952834939207
