EC-Lab ASCII FILE
freq/Hz	Re(Z)/Ohm	-Im(Z)/Ohm	|Z|/Ohm	Phase(Z)/deg
6999984	3.536593626302	2.94551092605907	4.60255679955536	-39.7897874688378
5969734	5.08539690362567	1.02558304283122	5.18778201596294	-11.402026280864
5091109	9.33613969395693	-3.61685980356874	10.0122514562784	21.1765774038147
4341796	6.06763959938949	-10.5035756871558	12.1301835321602	59.9861028401191
3702781	3.13160910071075	-11.2191536923935	11.6480206530209	74.4039555010116
3157797	3.45617286571057	-6.99957563828279	7.80635574347698	63.7212720023565
2693047	0.21693299901188	0.582323759962787	0.621418447970034	-69.568134414328
2296687	1.74585362257238	-6.86103003078536	7.07967075186322	75.7235345989774
1958656	3.96842674358601	-10.4869050135235	11.2126530126403	69.2724881920405
1670375	-2.45255562884751	-8.83739619034437	9.17140123087551	105.510407156459
1424531	-3.94828913326995	-8.53960918242186	9.40818325014991	114.813465580219
1214875	9.87639415923663	-9.27559719704977	13.5491647325775	43.2032236403753
1036062	7.63525308648311	4.15932919591471	8.694659800972	-28.5794843253805
883578.1	15.068098408159	-14.5782964915899	20.966027717111	44.0534758196156
753531.2	7.85752830210136	1.30812898087499	7.96567338326955	-9.45197015471416
642624.9	12.4215445980107	7.23145844089123	14.3731959348889	-30.2067073818638
548046.8	10.9614041507478	0.313016469570468	10.9658725264455	-1.63570741551364
467390.6	4.08670302423557	-0.565584058631264	4.12565472812182	7.87946456766581
398593.7	3.2182256421691	7.0188025388197	7.72143544704329	-65.3678381140034
339937.5	5.7459773802144	9.24806396085415	10.887742790771	-58.1466218388516
289906.2	-0.995416426486642	6.30079493018973	6.3789396152044	-98.9775423763775
247234.4	3.91073019391929	-8.36275506877489	9.23198153106645	64.9374895140807
210843.7	2.9575215149372	-1.96832626017125	3.55263870634155	33.6450500287557
179812.5	1.80660655972362	-1.32759375139489	2.24194835586799	36.31048979875
153343.8	2.69447071277688	-2.08412118721093	3.40642533236733	37.7212608593888
130781.2	11.7484850560112	-8.82776007658055	14.6954499448295	36.9210393548193
111531.3	5.08739440528413	2.93005339269354	5.87084276053713	-29.9395257028384
95109.37	151.891404979289	-37.9133924383271	156.551666336596	14.015132085851
81109.37	293.222392791815	-78.6170132146505	303.578665919314	15.0088070603684
69171.88	-279.402996388724	-513.112484206485	584.252048211683	118.569433110419
59000	416.293826527015	-410.018144586493	584.307649183762	44.5648578405037
50312.5	175.477118349389	-430.809514112827	465.176371405874	67.8379737603714
42906.25	-238.556334886053	517.80411702998	570.114224105542	-114.735887094758
36593.75	-84.24644609986	180.987186646449	199.634229055674	-114.961174099804
31203.13	8.56141040232183	-12.0255678019148	14.7618436868649	54.5516439899269
26609.38	3.00740941069161	3.74194943112598	4.80069754396384	-51.2111166978197
22703.13	-3.38751548116991	14.7421431089815	15.1263361254753	-102.941035219974
19359.37	8.71629802777489	-0.140787863717445	8.71743497432373	0.925375540548866
16500	10.1925254194461	7.81858448697656	12.845926895559	-37.4914532173398
14112.02	9.09083213338386	5.51934851216821	10.635151003918	-31.2633389589102
12011.13	8.98795196676184	-9.1552027829992	12.8296928472452	45.5281603223013
10236.38	29.94438035129	18.6400758685619	35.2720617912884	-31.901848855382
8750.684	117.363544207148	3.69689553721142	117.421754992319	-1.8041931036232
7449.463	304.007593239413	-272.497335930091	408.259004599062	41.871474918841
6363.206	89.9920292987104	306.276226399552	319.22357712871	-73.6258215194445
5414.761	647.367127867586	197.025388371977	676.685452708018	-16.9275625021702
4620.567	407.317526770877	-54.3586965664285	410.928747482024	7.60151128209195
3941.215	100.337164665985	210.684643030187	233.357162782646	-64.5341845220881
3361.769	268.395498885118	-154.593990983766	309.734476398867	29.9416513762584
2867.244	383.884854120217	168.154863647279	419.098603423031	-23.6550839635696
2442.658	331.855538389231	-171.655018369412	373.622193788069	27.3506388238516
2083.003	287.882689537722	337.389876979815	443.518175528272	-49.5270619576373
1777.843	262.435484340981	-536.180003356507	596.960115452171	63.9203748361644
1513.548	-120.447492778979	-305.165172798729	328.075267592698	111.538954485267
1292.065	558.000626942909	-252.750796523734	612.574619790978	24.3685252804886
1101.762	549.178498599509	-151.771944084924	569.7646411768	15.4487641625155
939.101	417.885072642501	98.1119992263952	429.248061532756	-13.2127276120821
801.2801	364.347802518319	-512.021541307536	628.422930806056	54.5648449375267
684.3433	542.545934942391	-254.878105460064	599.432181456272	25.1632750381145
582.9476	328.755980470661	-38.4332667716392	330.994880156726	6.66790520281603
497.0677	752.544115899929	-47.7272488587394	754.056056708803	3.628906690679
423.5089	1700.17209533189	-691.230830703394	1835.31610766651	22.1249486054712
361.5036	467.077684556988	-1891.39128622978	1948.21009160641	76.1283865770169
308.1262	432.581447436698	-333.02989381612	545.926385918106	37.5914630004798
262.7298	930.979094608753	-480.746797200543	1047.77839146315	27.3113052712159
224.2111	1622.16578525226	67.0542657857644	1623.55108001047	-2.3670456421213
191.2854	1911.87647168608	-1244.62590172705	2281.30779997717	33.0640077991356
163.1722	1756.35586413111	-777.403077645709	1920.71379091232	23.8752716442384
139.1537	1246.30863969218	-1769.98579988611	2164.74824336916	54.8492898349194
118.6706	742.597631643276	-4876.81275112999	4933.02684485969	81.3420160338098
101.1982	1582.44042254357	-571.171619125343	1682.36580724709	19.8467194430043
86.24196	7203.03909020427	-1678.4145187015	7396.00212490497	13.116711344774
73.61024	6966.86153251634	-820.523973054011	7015.01384201145	6.71708217037211
62.69291	5147.78293581566	-2431.48944348797	5693.13710251812	25.2831091609661
53.57697	3299.27624435713	-2568.80921079054	4181.38786744564	37.9042463904197
45.65746	11190.4620460462	3642.35226085789	11768.3121472952	-18.0294061788304
38.96512	4315.68574038739	-1205.64703047721	4480.92938706711	15.6084475000185
33.18414	2026.91803118253	-975.399359768301	2249.40005694169	25.6979248750629
28.30617	8961.91070851275	8024.46506529722	12029.458970857	-41.8411597219006
24.17237	2537.50313712267	-679.060969455942	2626.79385775623	14.9818608552634
20.61345	4956.97196177669	-585.167694154395	4991.39181592892	6.73257494915245
17.55618	3876.77340401963	-2818.24665865329	4792.8995665593	36.0155311258166
14.98558	654.528900295065	-8276.52508583056	8302.36566152708	85.4783129484182
12.76553	3547.3175928567	-1359.5035398549	3798.90931445706	20.9692468960687
10.8809	2718.31329910998	1017.67687072282	2902.5666926571	-20.5247978048078
9.278505	1465.0559544524	1838.10375442279	2350.534909696	-51.4434911907909
7.923394	2772.9254417268	-2113.14242175392	3486.32849857723	37.3096651681007
6.75822	6722.51805949066	3418.10377335103	7541.59681139045	-26.9513273476911
5.761429	4549.04069000965	-13008.1673389807	13780.6454391036	70.7249362026971
4.919708	8310.38351280839	6385.62753606077	10480.3966126886	-37.5383670016051
4.191257	8964.09357816024	-12384.6734652501	15288.397905565	54.1027773940655
3.564097	6603.18412354099	-4523.25241764344	8003.86487911315	34.4115644262376
3.051758	10352.9346084256	3007.08099996608	10780.8066092799	-16.1963021978227
2.604164	7317.73126059316	2824.71607580961	7843.99207745646	-21.1070776232654
2.214424	4251.46570166236	-5256.09644757889	6760.28923040005	51.0318611220351
1.892567	7740.27637293186	3562.68957327166	8520.83536543606	-24.7156403015127
1.607507	4604.10495454133	-423.323506460984	4623.52519443275	5.25327870917377
1.376413	2502.10177082778	4169.0371978203	4862.24067980893	-59.0293779138097
1.17375	5503.82584443752	-384.701782604293	5517.25424350168	3.9983091969759
1.001604	-44.95410700865	-1583.48789261217	1584.1258718253	91.626150090172
