EC-Lab ASCII FILE
freq/Hz	Re(Z)/Ohm	-Im(Z)/Ohm	|Z|/Ohm	Phase(Z)/deg
6999984	2.69283797977545	1.03980750882361	2.88662017604102	-21.113477561837
5969734	4.61245927112598	0.213270750088391	4.61738724178937	-2.64735493014874
5091109	6.07185608635249	-2.56552005330581	6.59161053744	22.9053457703291
4341796	3.47811243175105	-4.45151745625761	5.64918345880778	51.9983549787515
3702781	2.02513175094228	-4.89748946812707	5.29967562206312	67.5347071994087
3157797	3.05410302036922	-6.43729641771355	7.12504950358495	64.6185239095313
2693047	2.90728998256456	-6.14269059900881	6.79595341639946	64.6721527591556
2296687	-0.504310536125873	-12.7550017409813	12.7649676274279	92.2641958908297
1958656	-2.05997688338036	-8.95944457661378	9.19321227218623	102.948540967091
1670375	-1.99702375498037	-8.81569656605224	9.03906022895418	102.763819373941
1424531	-2.62485013033344	-10.4858513220995	10.8093901842744	104.053661962339
1214875	5.26514757439348	-11.8828719722308	12.9970929552946	66.1024845989201
1036062	11.3962861561634	-6.22071090025524	12.9835504488455	28.6281055238753
883578.1	8.77733594554229	-0.194504765812356	8.77949078277508	1.26946018779453
753531.2	8.71843269934023	6.00773429962236	10.5879148158542	-34.5701133073062
642624.9	3.83571967820928	-7.90254943570238	8.78424914454969	64.1091071338805
548046.8	5.82963189658074	-3.72426993491063	6.91771599573955	32.5725417912062
467390.6	0.126336143138511	0.0214113040232717	0.128137679872438	-9.61902172946251
398593.7	0.0596568942125209	-0.157869668402856	0.168765450340736	69.2990734337345
339937.5	0.0379461060513829	-0.107357372150298	0.113866203587721	70.5337401864619
289906.2	0.0417415873618423	-0.105424378838436	0.113387211664087	68.3994723995996
247234.4	0.0437558189827218	-0.101434368289051	0.110469465306245	66.6660458862108
210843.7	0.0422768464863911	-0.0966860034260641	0.10552494969124	66.382202594503
179812.5	0.0408832771133741	-0.0890561664541409	0.0979920564690658	65.3414247596479
153343.8	0.0386367970674408	-0.08140363128725	0.0901074540444971	64.6094711763683
130781.2	0.0385131833639931	-0.0755075086993905	0.0847623098010967	62.9757966151117
111531.3	0.0365926808337111	-0.069757907393737	0.0787730279635804	62.319989122805
95109.37	0.0351381581117404	-0.0636225595536578	0.0726809482577408	61.0885309337303
81109.37	0.0345302358404428	-0.0599428036628322	0.069177141442513	60.055774508007
69171.88	0.0406000167207891	-0.0612138599019149	0.0734540536786066	56.4457221394924
59000	0.0423293048834877	-0.0596021800587929	0.0731039665112641	54.6177346715952
50312.5	0.0415580083292088	-0.057419900924014	0.0708809782552003	54.1046280477437
42906.25	0.0365322920703995	-0.0543343593565567	0.0654738953370305	56.0846613257348
36593.75	0.207948559357361	-0.175882610192352	0.272355091575092	40.2244962775815
31203.13	0.132544520568022	-0.151839694908754	0.20155233286318	48.8815104098635
26609.38	0.0772162032558772	-0.115816871181397	0.139197304914647	56.3082351869728
22703.13	0.0439687298049573	-0.090538492247657	0.100650224933382	64.0971323159623
19359.37	0.0229237304762634	-0.0709898879122074	0.0745993405114022	72.103931024018
16500	0.016566740706254	-0.0552629189917365	0.0576926954918513	73.3122990139489
14112.02	0.00337555044141293	-0.0434731376221773	0.0436039910501239	85.5600740257834
12011.13	-0.000995302104270003	-0.0329681144355555	0.0329831350195013	91.729225197516
10236.38	-0.00329764938216926	-0.0245958376882373	0.0248159167276535	97.6363054737558
8750.684	-0.00404867317746386	-0.0180438715703152	0.0184925135053065	102.646534913277
7449.463	-0.00397857490705586	-0.0130466090915048	0.0136397605212698	106.959130941447
6363.206	-0.00348420526740112	-0.0098017126130818	0.0104025600933055	109.56872451515
5414.761	-0.00275366151171047	-0.00799588597467455	0.00845676322484394	109.002928692459
4620.567	0.031858949543514	-0.00598111379830459	0.03241552696293	10.6327903338552
3941.215	0.0286308497047422	-0.0056658631913798	0.0291860850495398	11.1938420660032
3361.769	0.0355610548172009	-0.00579650660309584	0.0360303775793663	9.2578807016136
2867.244	0.0428729841389734	-0.00650117280645101	0.0433630951021719	8.62252780259303
2442.658	0.0499890540545793	-0.00706152485988323	0.0504853509309225	8.04048289683143
2083.003	0.0548252189868927	-0.00781037088292594	0.0553787552251728	8.10777106029159
1777.843	0.0589951050589259	-0.00848518018480837	0.0596021870713011	8.18463907808635
1513.548	0.0629443117659079	-0.0093083041396321	0.0636288528078238	8.41202310866196
1292.065	0.0655940189721283	-0.0099046700988673	0.0663376048307694	8.58676950659891
1101.762	0.0676749362964549	-0.0102863921828115	0.0684522232426956	8.64263862120212
939.101	0.0696579369494855	-0.00978645738983464	0.0703420423950111	7.99731625654627
801.2801	0.0707101590693512	-0.00966824530109829	0.0713680710319059	7.78580888647373
684.3433	0.0736279760905197	-0.0095535929320296	0.0742452018725592	7.39310361369107
582.9476	0.0767166640570355	-0.00855563612810867	0.0771922629127858	6.36347553752917
497.0677	0.0817354500917817	-0.00641076165400962	0.0819864724615632	4.48470223658718
423.5089	0.0881430358709595	-0.00400096636022377	0.0882337945708156	2.59897150913892
361.5036	0.0927877430702778	-0.00207762342943802	0.0928110003350381	1.28270353427118
308.1262	0.100273397768589	-0.000534903587049017	0.100274824467087	0.305638663530366
262.7298	0.108191151988228	0.00125538853643666	0.108198435150039	-0.664797773070138
224.2111	0.11285698002679	0.00117610146127701	0.112863108035418	-0.597067286192133
191.2854	0.121845978983132	0.00242510508221378	0.12187011007223	-1.14020950357994
163.1722	0.133814032332952	0.0019952173765489	0.133828906225762	-0.854238246621013
139.1537	0.144614168485234	0.000909034509713821	0.144617025520564	-0.36015250376497
118.6706	0.159235944581197	5.32845528746485E-05	0.159235953496407	-0.0191726804336565
101.1982	0.175022012065957	-0.00364633218423402	0.175059990991699	1.19350259993624
86.24196	0.186365691762177	-0.00742893966597242	0.18651369979322	2.28272516228528
73.61024	0.196280212353913	-0.0117016629767229	0.196628712751007	3.41177172914268
62.69291	0.198988811908749	-0.0152651314617346	0.199573473947314	4.38676885249665
53.57697	0.203720758290023	-0.0189645377176236	0.204601566585168	5.31838504935008
45.65746	0.220920483341981	-0.0237430860623406	0.222192695865139	6.13422939411938
38.96512	0.221539165728957	-0.0247350482184214	0.222915734218673	6.37074064237143
33.18414	0.232653367085196	-0.0303612968177478	0.234626080307656	7.43508996091825
28.30617	0.240834544347407	-0.0340032390371257	0.243223144490896	8.0364263556419
24.17237	0.244646801386602	-0.0374405164672542	0.24749515086569	8.70098291348029
20.61345	0.244166751521005	-0.0392121206389358	0.247295355705121	9.12355074654518
17.55618	0.244957294260179	-0.0413956196888019	0.248430419515582	9.59185780039535
14.98558	0.249699764305179	-0.0431297213052576	0.253397208259939	9.79979564340423
12.76553	0.24348352612093	-0.043147392035136	0.247277020630133	10.0489864476625
10.8809	0.238898245475527	-0.0434291097591596	0.242813630724797	10.3032364692518
9.278505	0.236355086216328	-0.0424000757789905	0.240128076672412	10.1701956692225
7.923394	0.260165357391935	-0.0498835705282853	0.264904480512361	10.8540437160229
6.75822	0.265952097581512	-0.0511079035138534	0.27081827118861	10.8778959490342
5.761429	0.270720859420559	-0.0525599817434848	0.275775878942089	10.9871876484554
4.919708	0.284722983869469	-0.0578348441408579	0.290537513482048	11.4820856735776
4.191257	0.29962656689064	-0.0612593628732062	0.305824768660588	11.5550117417419
3.564097	0.303732119576717	-0.063840419614027	0.310368812284772	11.8700182079268
3.051758	0.286250527422293	-0.0581794367077661	0.292103083354445	11.4886804177996
2.604164	0.282600151509123	-0.0580455307862304	0.288499790775027	11.6070133912279
2.214424	0.290174445997476	-0.0598621568477225	0.296284807123828	11.656431001058
1.892567	0.282730102448794	-0.058573906287711	0.288733810504602	11.7045308079592
1.607507	0.273220867254349	-0.0543279112820814	0.278569855238309	11.2461473831207
1.376413	0.294961612054943	-0.0604534234157731	0.301092957388142	11.5825710116876
1.17375	0.236322413013625	-0.146200701990977	0.277890136844108	31.7429791179481
1.001604	0.324051305520206	-0.207183603096732	0.384622274447924	32.5929906549144
