EC-Lab ASCII FILE
freq/Hz	Re(Z)/Ohm	-Im(Z)/Ohm	|Z|/Ohm	Phase(Z)/deg
6999984	-1.69112391519117	2.84530787732582	3.30993610411196	-120.725358701938
5969734	-1.3315643318576	3.6407744275502	3.87663539711679	-110.089313967806
5091109	-1.42067653526471	4.43172382170257	4.6538691268339	-107.77427799658
4341796	-0.883147695042909	6.8304852513219	6.88734191250773	-97.3671871973828
3702781	-19.773613238175	-429.364682505252	429.819760322078	92.6367903450032
3157797	-15.2965851438002	-7.22919088398328	16.918827320432	154.704506150612
2693047	-21.8704327559944	-3.38546835226164	22.130911072494	171.200648621783
2296687	-18.9052648759174	-2.40298411126188	19.0573705601684	172.756171739783
1958656	-15.7622461438966	-1.30270331421434	15.815986830598	175.275409869194
1670375	-3.82150799727565	-11.995220058783	12.5892504793523	107.671145593457
1424531	-9.1898575454883	1.21016649520024	9.26919546953636	-172.498168844636
1214875	6.75215451309113	1.3536792716147	6.88651131844392	-11.3364340724774
1036062	5.3877725979316	1.99135419171495	5.74400427262057	-20.2846253562448
883578.1	4.17493998611082	2.93208266308115	5.10168919386198	-35.0805728661442
753531.2	3.14391666162811	4.21035528810565	5.25464590884505	-53.2509152034209
642624.9	2.32032759436193	5.64185405987098	6.10036370866853	-67.6440848424991
548046.8	1.73551933669311	6.89867843484226	7.11363419887425	-75.8789780487964
467390.6	1.46011160698311	7.83716573786671	7.97201936197088	-79.446442464399
398593.7	1.3673527860369	8.55538359183096	8.66396226012402	-80.9195742514598
339937.5	1.39341719291023	9.05624770591656	9.16281801545883	-81.252921096667
289906.2	2.53048588066739	36.6542168698344	36.7414612275166	-86.0507550815334
247234.4	3.55261993671024	35.4897541963421	35.6671243770996	-84.2835813540114
210843.7	4.4455437500247	33.0147132465428	33.3126725133969	-82.3310557797646
179812.5	5.15699963780663	31.1725035568309	31.5961963417272	-80.6063955206413
153343.8	6.157866780352	32.2868483007111	32.8688286447462	-79.2020186689962
130781.2	7.0615722318524	36.7179899620179	37.3908623762079	-79.1138404643255
111531.3	15.1874487608603	66.158989583324	67.8798239725924	-77.0711886289046
95109.37	15.7718799270781	66.9825203477102	68.8143170318908	-76.7503322636314
81109.37	16.257549787911	70.8312419111798	72.6730538493222	-77.0730793896286
69171.88	16.7678563778665	84.1605607897694	85.8146898844087	-78.7321359812094
59000	20.4606152706229	157.049875624203	158.377082340944	-82.5772557443323
50312.5	29.6943138512287	80.0032265652174	85.3362088209969	-69.6368893497437
42906.25	33.311507547026	54.7208134250962	64.0626564931533	-58.6688728691133
36593.75	35.7705833660223	40.5742846103435	54.0907312391569	-48.6003657493707
31203.13	37.8048999109534	31.1224227073126	48.9674958768554	-39.4625025171032
26609.38	39.2663396269708	24.1521291559715	46.0995745150358	-31.5950414152453
22703.13	40.1507970722241	18.4489418649628	44.1865359750195	-24.6783693969394
19359.37	40.5794016538435	13.9015489314196	42.8945323004763	-18.9102543043307
16500	37.6733189019498	11.0108156326971	39.2494206070007	-16.2921064707465
14112.02	40.4766461622465	7.10933142937652	41.0962465185864	-9.96183956702313
12011.13	40.0044074198584	4.50293206723271	40.2570367788805	-6.42223235941984
10236.38	39.3050963737882	2.43670448779193	39.3805552235314	-3.54748996094871
8750.684	38.3981065756632	1.02081560135582	38.411673396091	-1.52285249156452
7449.463	37.5746063791511	-0.159731215087525	37.5749458896379	0.243565275442585
6363.206	36.6391832647617	-0.785011265744622	36.6475919126501	1.22740050196956
5414.761	34.9595458607075	-0.120540502380694	34.9597536718957	0.197555045620195
4620.567	40.5445831516137	28.1337383857452	49.3494727276359	-34.7566397175111
3941.215	39.396319144045	34.1610447388957	52.1444813930705	-40.9289708050066
3361.769	38.8052197573565	42.0184843429631	57.1961371676144	-47.2766785440138
2867.244	38.2868894146996	51.1332483989981	63.8787522802933	-53.1753420702431
2442.658	39.0984500276617	60.6430739409034	72.1544954356098	-57.1888827772448
2083.003	40.131055459467	70.7114370117798	81.3056513199526	-60.4236707082605
1777.843	41.9929233991159	81.6732738567337	91.8364267493081	-62.7896999232533
1513.548	44.0869926002929	94.5194385189637	104.295671887564	-64.9940977442396
1292.065	45.8100595756454	108.502404780045	117.776625021168	-67.1103746563348
1101.762	48.3648106745841	125.3960178978	134.399837113791	-68.9085454005734
939.101	52.2481979324659	144.034797776057	153.218462195584	-70.0619094421717
801.2801	55.2394714099135	167.574331226355	176.444199926228	-71.7556299803579
684.3433	57.1533693392315	192.635956765881	200.93561024849	-73.4748471404275
582.9476	61.5571610733732	223.797726184597	232.109255146814	-74.6207054349096
497.0677	65.9545662929353	261.342602800848	269.536566820925	-75.8361208057206
423.5089	68.1343104679218	305.770600064071	313.269762547363	-77.4381108009064
361.5036	69.6823057728242	356.769585304711	363.510881180072	-78.9484275488713
308.1262	74.6829762742813	417.126712715996	423.759650517175	-79.8492317943759
262.7298	81.5409150652049	488.174776030824	494.937908007071	-80.5173005834985
224.2111	85.1478561098815	568.065236456269	574.411237938662	-81.4753433127367
191.2854	98.2425945770152	667.233487148893	674.427263507412	-81.6240258605732
163.1722	110.589729859284	780.065331027554	787.865476475189	-81.9309593514248
139.1537	124.477029622169	918.052277244751	926.452651060933	-82.2784582541716
118.6706	140.873787279191	1074.00419755578	1083.20378521764	-82.5273511203764
101.1982	162.544234311664	1253.0128021881	1263.51165825854	-82.608711127285
86.24196	184.434945183761	1462.43891873119	1474.02301204038	-82.8121111445565
73.61024	215.541169443964	1702.90234021545	1716.48896764195	-82.7862707479961
62.69291	367.899545143656	1978.80396728014	2012.71339644782	-79.4678137901574
53.57697	438.284032065064	2303.38683869222	2344.71401698027	-79.2266558541868
45.65746	533.299669851306	2689.26041906125	2741.62910317807	-78.7833584080941
38.96512	635.751464737871	3122.33359567978	3186.40032130725	-78.4910926367978
33.18414	763.06050500182	3654.01625686434	3732.84022424246	-78.2045564434529
28.30617	935.3795086838	4250.48899468741	4352.19387426897	-77.5890851799234
24.17237	1147.43937978386	4937.71133995294	5069.28105425006	-76.9176359398096
20.61345	1399.48729558018	5785.7858571595	5952.6366154333	-76.4022604030894
17.55618	1680.02060579909	6691.61704588072	6899.29039283251	-75.9064227271832
14.98558	2041.13303590125	7781.32144418493	8044.57503464165	-75.3017803659816
12.76553	2530.60445554309	9053.19122119795	9400.22500783839	-74.3829279499303
10.8809	3119.63063996959	10514.2039406989	10967.2503316212	-73.4740449995143
9.278505	47885.280702782	51951.590150463	70653.8592516071	-47.3323413938108
7.923394	56031.624120077	59947.515726815	82056.3680853005	-46.9337862219398
6.75822	65992.6798886121	68620.341591152	95203.9131494458	-46.1182782033963
5.761429	97730.2954115642	105606.249729395	143888.46591419	-47.2181623643971
4.919708	113835.042805044	117468.551308663	163576.518843574	-45.8999755538735
4.191257	133509.905945469	129984.362708566	186335.261113725	-44.2334304039103
3.564097	158151.776498832	142012.430583199	212554.73377435	-41.9222618978013
3.051758	185223.668248374	152294.188738555	239794.343559056	-39.4276494944253
2.604164	217457.74564249	160380.293762884	270203.089855358	-36.4096630635092
2.214424	253848.984442676	164871.397586883	302691.071300147	-33.0031654108707
1.892567	291857.57245921	164375.548781127	334962.928753138	-29.3884147884359
1.607507	332625.915194369	157992.076666471	368241.083732215	-25.4069826362734
1.376413	370852.69752052	146291.864671263	398664.06024025	-21.5279609604126
1.17375	408759.999220559	128313.443903864	428426.279363511	-17.4275426629352
1.001604	443393.143000485	106473.216174031	455997.834449123	-13.5029250057379
