EC-Lab ASCII FILE
freq/Hz	Re(Z)/Ohm	-Im(Z)/Ohm	|Z|/Ohm	Phase(Z)/deg
6999984	2.40972736589885	1.93064024603478	3.08774314630784	-38.7012249538687
5969734	3.94323345803993	1.32810648117309	4.16088415242957	-18.6138575073315
5091109	8.36563809228611	1.32480739970276	8.46988874409904	-8.99880064581134
4341796	5.60057846055667	-7.49860081666252	9.35924640665599	53.2445668310508
3702781	-1.44576230330343	-6.1897255788353	6.35633002438838	103.147128138883
3157797	-3.82200765008364	-5.77719261386196	6.92702656086716	123.487359049145
2693047	-1.77669940128793	-5.00262139969031	5.30875518659283	109.552681696887
2296687	-2.60771920807903	-5.12749389226884	5.75251189337655	116.956786100244
1958656	-1.8161573389823	-3.16951684033936	3.65298021909975	119.813038004751
1670375	-1.27506941628139	-3.3013602908463	3.53903684444129	111.117830505845
1424531	-0.481821334338672	-2.83937229476156	2.87996299047113	99.6309434459447
1214875	1.14128795338532	-1.97757905111999	2.28327770890251	60.0101670675146
1036062	1.82163955587064	-0.332610308731381	1.85175600147183	10.3475604842832
883578.1	1.34967017249969	1.06530011450698	1.7194399985181	-38.284174704371
753531.2	0.630472988256058	1.27596153059086	1.42322662161312	-63.7052864798723
642624.9	0.516398955599773	1.30554790536878	1.40396695636235	-68.4191248519726
548046.8	-13.9926586518662	0.343079910848549	13.9968639334986	-178.595471108859
467390.6	-12.2643754637853	1.23831785438265	12.3267326013499	-174.234460147
398593.7	-9.60383496273041	2.05751583996674	9.82176243975983	-167.907802877386
339937.5	-7.01653946216133	2.71422430123181	7.52322002745264	-158.851918446446
289906.2	-4.61061733406616	3.30162713006756	5.67084948726287	-144.393844148335
247234.4	-2.43839677331567	3.70355102474675	4.43419316415275	-123.360678080642
210843.7	-1.18732341451109	3.62399030837098	3.81353414116264	-108.14028343611
179812.5	-0.261912689218988	3.32715666676387	3.33744958643051	-94.5010231230204
153343.8	0.995191107320993	3.37546970401226	3.51911935898676	-73.5728802191744
130781.2	2.22435877678961	3.53993953928698	4.18078269103864	-57.8563614198383
111531.3	3.39377435283287	3.78056205192758	5.08038913730248	-48.0859814296361
95109.37	4.44025198689679	4.10461354836927	6.04679171863869	-42.7506041709558
81109.37	5.3992253892915	4.49924126628834	7.02814390693886	-39.8048619884277
69171.88	6.31621389623489	4.90652053950741	7.99803111944426	-37.8405449427571
59000	7.17044315112964	5.32519425037946	8.93157034277044	-36.5997590007777
50312.5	8.0240170850562	5.744974106035	9.86861579251551	-35.6016149554582
42906.25	9.1739570251433	6.236385110545	11.0929701498834	-34.2075628032813
36593.75	10.0643704503044	6.45754955922929	11.9579052877527	-32.6852368599305
31203.13	11.0494760228611	6.66689133331836	12.9049742514295	-31.1054031426824
26609.38	11.9963874596044	6.70034766199745	13.740741278133	-29.1846881852213
22703.13	12.8690409456073	6.58377559594495	14.4553905501538	-27.094194373907
19359.37	13.5071463197226	6.40834824671731	14.950248457922	-25.3815948763712
16500	13.8634272422581	6.11999111612718	15.1541712463222	-23.8189957296006
14112.02	13.7786097590753	5.79738153462514	14.9485691472762	-22.8190354080706
12011.13	12.9506550331147	5.32275825191883	14.0018292088966	-22.3428100774917
10236.38	13.2026153509602	3.08490067693856	13.5582323439299	-13.1516789590109
8750.684	19.5506791956306	12.0645368899506	22.9735088173192	-31.6783380195014
7449.463	18.7991224794224	14.9139318623399	23.9965074456855	-38.4260677023351
6363.206	18.2133799489603	18.7641055218205	26.1499305008485	-45.8532737639924
5414.761	17.7482876771401	23.4480846581438	29.4077266990497	-52.8772493181704
4620.567	17.4331360834522	28.8927769591522	33.7447298717219	-58.8943317614973
3941.215	17.3359817300984	35.5724902746908	39.5719386294036	-64.0180641402342
3361.769	17.6197773085616	43.1878920550727	46.643869613958	-67.805544349167
2867.244	18.2228339548315	51.4137571364166	54.5476498139726	-70.4838928582856
2442.658	19.2182415076719	60.6055722561165	63.5796838238329	-72.4059943736109
2083.003	20.9207640823496	70.7324982680199	73.7615393075874	-73.5232047783365
1777.843	22.2727830976932	82.2960385889095	85.2567582913177	-74.8561337929289
1513.548	24.3455235448805	95.4892536139564	98.5439093623995	-75.6968347657243
1292.065	26.9381097568644	110.186922909314	113.432004908209	-76.2620003348414
1101.762	29.8215133986191	127.138457421701	130.589088429906	-76.7993774508946
939.101	33.1134427709099	147.078218874022	150.759751125083	-77.3118881986391
801.2801	31.8270029471113	170.064744906344	173.017269590799	-79.3999182914344
684.3433	39.1189000767873	198.224958348566	202.048069665385	-78.8363570041437
582.9476	37.5404130300315	231.990182211201	235.007930191412	-80.8081339603069
497.0677	41.7856423077789	270.000349055558	273.214619654946	-81.2026154022545
423.5089	36.0373804770176	307.16320885952	309.269994775637	-83.3084644824783
361.5036	50.8887418370852	365.743173061177	369.266479235009	-82.078839758348
308.1262	54.0699336413329	427.805912048434	431.209295015275	-82.7966412840879
262.7298	59.9796358776425	498.732427616394	502.326179962937	-83.1423067218904
224.2111	69.7581598010982	583.669381655676	587.82322848043	-83.1845337113915
191.2854	74.595337851154	677.056720580828	681.153629743535	-83.7127435027226
163.1722	85.5265530510302	790.192892612661	794.80790057243	-83.8226368078287
139.1537	93.0559645857783	923.575404216388	928.251549860518	-84.2465109846665
118.6706	111.807128146379	1077.1847436899	1082.97174752743	-84.0741652798911
101.1982	126.391920297396	1257.88833482914	1264.22228283466	-84.2622100282531
86.24196	144.807376656312	1464.42044804835	1471.562579368	-84.3527373598837
73.61024	177.360403787757	1719.39370045498	1728.51711301799	-84.1106053956615
62.69291	216.693535214598	1999.01887659557	2010.72935950843	-83.813297595768
53.57697	254.659554970761	2345.44994131711	2359.23439195056	-83.8033281301328
45.65746	313.7815541673	2740.84308169638	2758.74603075719	-83.4690072566739
38.96512	385.684921764515	3188.23493012632	3211.47860471685	-83.1023715635697
33.18414	459.644759883696	3730.14416148612	3758.35719041678	-82.9751749330507
28.30617	554.874809075866	4347.3659773812	4382.63356841963	-82.7263966584049
24.17237	688.523270550846	5059.31304374676	5105.94876283695	-82.2502114348717
20.61345	848.240155415299	5906.69837270289	5967.29394511029	-81.8278269483012
17.55618	956.201931126417	6857.96187409953	6924.30236194901	-82.0624531654073
14.98558	1207.52396907026	8076.34263038223	8166.11440155039	-81.4964854553771
12.76553	1462.25237373677	9385.94567780533	9499.16618820891	-81.1449758480643
10.8809	1776.20861308013	10934.9748209051	11078.2937030487	-80.7738137883786
9.278505	33178.6268676124	15470.3566709266	36608.1031514327	-24.9984522691892
7.923394	38946.6682610489	18255.9771301668	43013.0639412419	-25.114504870593
6.75822	45814.5933487035	21220.1363519026	50490.3074906502	-24.8523537610088
5.761429	53774.4522707109	24466.2502415674	59078.6688907084	-24.4645415477966
4.919708	63058.3599726172	28238.2225809559	69092.3583109433	-24.1233566399521
4.191257	90630.9654925288	45120.9959635177	101241.672165407	-26.4666050530104
3.564097	105827.772333018	51085.8358122947	117512.892984599	-25.7678199964909
3.051758	123190.098176895	57136.321858789	135795.285501317	-24.8821590255115
2.604164	143963.219622922	63280.3384706185	157257.145596484	-23.7283251585212
2.214424	168361.664137507	69414.6967040513	182109.994425529	-22.4061161842757
1.892567	195764.947034797	75271.0121757342	209737.072930601	-21.0315961633348
1.607507	228554.948735336	80317.7035952439	242256.678137519	-19.3622549793314
1.376413	264682.362514457	84239.0406010078	277764.232736349	-17.654433949807
1.17375	306747.92013443	86794.0136588036	318790.663780801	-15.7988069978727
1.001604	353515.558571732	85844.5848238109	363789.146204029	-13.6490120547624
