EC-Lab ASCII FILE
freq/Hz	Re(Z)/Ohm	-Im(Z)/Ohm	|Z|/Ohm	Phase(Z)/deg
6999984	2.33981583758378	2.68537792186339	3.56174012766783	-48.933804267825
5969734	9.42126937749347	1.43137209102515	9.52938312516933	-8.63887428848811
5091109	10.0885664936623	3.29993432653585	10.614553238667	-18.1127371605542
4341796	2.97594277724436	-7.90587902850191	8.44743503240712	69.3725839188498
3702781	6.58434036499769	-8.72496446144788	10.9306240853698	52.959778158981
3157797	3.40894557288602	-6.77326899495561	7.58274902637072	63.2841625004511
2693047	0.347436859908141	-0.47609697577777	0.589390110171156	53.8795014708809
2296687	6.10308410867114	-3.18295633906647	6.8832293797256	27.5435021472706
1958656	6.19812506881864	-8.66149457765495	10.650739067664	54.4126673471399
1670375	9.38132183218444	-7.13862419890278	11.7885179209339	37.2689622463346
1424531	-1.9751530671822	-10.6069969134311	10.7893286705122	100.548363467508
1214875	10.7640127410307	4.40252845936387	11.629541139898	-22.2447769987448
1036062	6.98365754751017	-12.8007044531393	14.5818211221203	61.3845209306949
883578.1	5.36899684611763	-9.8070032447945	11.180493717946	61.3008117968263
753531.2	7.99759325060144	-2.76828301889693	8.46314886285116	19.0927585508137
642624.9	-2.74188682273387	14.5701611364553	14.8259076919746	-100.65756922326
548046.8	7.97237119823959	6.57969681457518	10.3368811879721	-39.5332799935357
467390.6	3.16138424988508	-2.71295193152269	4.16586828382441	40.6346481152259
398593.7	5.0762013732441	-2.49661505103925	5.65693442553483	26.1892247252317
339937.5	1.48186984931	3.31432658428676	3.63052323468725	-65.9100853713152
289906.2	-3.09513610244886	10.6627478361384	11.1028851615135	-106.186726537832
247234.4	-1.01757371862139	-19.1544856113862	19.181495648401	93.0409547736885
210843.7	2.46022278656763	-2.47721324548406	3.49131517098474	45.1971626040542
179812.5	4.01644642795107	-1.61827026866037	4.33020098506189	21.9450455873781
153343.8	4.63634437591332	-0.370333282361324	4.65111125561275	4.5668695410291
130781.2	11.9625056284936	3.53126237197477	12.4728246540816	-16.4462951429942
111531.3	87.3148967633051	-132.952072316924	159.060192160551	56.7055069333826
95109.37	239.945274977868	338.487722886994	414.906825117914	-54.6681492279888
81109.37	-122.254280372072	-637.556584578003	649.172171005552	100.854953183683
69171.88	316.69983400655	-672.821682028681	743.63149520961	64.7934479243848
59000	-148.795105397136	-620.054219630998	637.657603006778	103.494168675394
50312.5	128.271604346183	-44.9020997106156	135.903653519565	19.2928468720293
42906.25	1.37518295748181	-6.66204978779551	6.80250215300331	78.3367951025691
36593.75	4.21829394871804	-0.853140368954977	4.30370216522145	11.4337108469347
31203.13	36.846936812599	16.442201015058	40.3490114710539	-24.0478522617097
26609.38	3.82073937203448	1.30675316695741	4.03802590238939	-18.8814975525931
22703.13	-1.11525817987355	13.6094438978588	13.6550636767736	-94.6847706879188
19359.37	18.8675135495236	5.7733095247671	19.7310458519112	-17.0136952475122
16500	2.20047099953077	-4.66938486610798	5.16190155346014	64.7676075278244
14112.02	13.6572276461396	2.6592471949068	13.9137149109108	-11.0183966595562
12011.13	18.8784421997666	7.41960554818563	20.2841348442717	-21.4558198444276
10236.38	49.0200801572949	18.7237164329469	52.4742395436944	-20.9048636286298
8750.684	102.63395904171	-27.4734309120221	106.247442108754	14.9858028048939
7449.463	397.881515765843	282.183783464451	487.788261685782	-35.3448611083042
6363.206	558.612008981188	52.8293834565889	561.104553835024	-5.40254166325669
5414.761	125.870676198577	304.985510224329	329.938764884458	-67.5735537379185
4620.567	96.6561508768649	-488.743154484229	498.209075145692	78.8132668049999
3941.215	265.362094875071	149.606585783899	304.629565056318	-29.4135561764863
3361.769	360.030284060201	173.118887269236	399.489617599516	-25.6803579890642
2867.244	142.571234062818	307.40069432549	338.853572585546	-65.1183149942239
2442.658	172.822358058978	307.301689413311	352.56473981574	-60.647181544141
2083.003	521.740865278345	-163.948307960343	546.893571167605	17.4444506474695
1777.843	-168.613500922361	340.316519863829	379.797112134259	-116.356612809845
1513.548	61.9486232232093	-284.070411845693	290.746678064312	77.6978325694392
1292.065	87.1507845852258	246.515003711606	261.46683596348	-70.5299013692346
1101.762	449.897575956438	347.679955331356	568.585244436305	-37.6967783728028
939.101	553.204030964454	-163.446132198172	576.844292687258	16.459965915986
801.2801	486.169411030887	-12.4980205743778	486.330028622948	1.4725857582821
684.3433	-271.479481137129	405.932925936245	488.346853207478	-123.773780650931
582.9476	674.010119717461	61.0787505520273	676.771937398813	-5.17799663855595
497.0677	469.839307086653	1233.74215012828	1320.17751362717	-69.1519378719449
423.5089	199.599173305411	305.137562028806	364.621395073146	-56.8101576746633
361.5036	786.964455926911	-990.149277342511	1264.79589116752	51.5225421777851
308.1262	757.465184155423	-130.400109755394	768.607633212049	9.7679105421052
262.7298	895.212537102496	-2151.81736198245	2330.6058109244	67.4114066818965
224.2111	-285.442750464722	1515.83513170471	1542.47648614269	-100.664330125243
191.2854	293.942367716568	-1612.01299962527	1638.59330723023	79.6659425957136
163.1722	2856.34889250371	-296.096383259548	2871.65493468253	5.91828733071252
139.1537	2638.11707434091	-490.602707329278	2683.34729663677	10.5347801734201
118.6706	2399.10910523911	1294.48425434904	2726.06199188478	-28.3499115960275
101.1982	3208.77785335583	1097.31647420059	3391.21788694546	-18.8793203129716
86.24196	5079.67462418918	-2917.87625584846	5858.07956006708	29.8740022493873
73.61024	5219.54051612005	-3279.47931010301	6164.2994528829	32.1414769940396
62.69291	5755.82605031241	1645.29088367631	5986.36079879615	-15.9524742785268
53.57697	8969.9980163539	-3654.29389023017	9685.80034119878	22.1655254765223
45.65746	4346.85994706854	-7543.56452736659	8706.35154229212	60.0479822819932
38.96512	6132.12338349082	1190.5919445756	6246.63480354369	-10.9876460146915
33.18414	2133.40443204678	93.263537287584	2135.44200531512	-2.50313858832534
28.30617	8597.88265671489	1829.66076010765	8790.40639991783	-12.0135441356071
24.17237	0.680321138045146	0.379395573246945	0.778959467411765	-29.1471537200623
20.61345	0.871517948849129	0.121200044198892	0.879905100496643	-7.91721675678699
17.55618	1.24938482689865	0.120904469706656	1.25522123009437	-5.52737025920846
14.98558	0.0957001230999428	0.680843021358275	0.687535986908037	-81.9988548501478
12.76553	0.583387300566038	0.633186885289704	0.86096827709539	-47.3440526511433
10.8809	1179.12162016998	-1388.54423341803	1821.64290773761	49.6628071184597
9.278505	1757.79466552589	-560.200146981004	1844.90278628139	17.6768136812848
7.923394	2754.58541553891	575.790174607489	2814.12066846364	-11.8065230250704
6.75822	-2543.84939096513	-16820.152044343	17011.4280564193	98.6001350767248
5.761429	10573.1302691635	12382.2581666191	16282.2418908916	-49.5062005643166
4.919708	4000.13626783234	12190.3329077793	12829.8599588505	-71.8332657615982
4.191257	2547.73654905088	-14389.4012270893	14613.2073549077	79.9594688741591
3.564097	9435.91083500069	-5023.6280515588	10689.8667946094	28.0305964872231
3.051758	6784.13879220758	-2178.43898764584	7125.31652453638	17.8022226834831
2.604164	6198.19791733427	-89.044477848631	6198.83749919953	0.82306533186133
2.214424	2516.40555895413	-4585.16873190078	5230.30297756601	61.2413960734712
1.892567	10010.9215064571	-2205.61555292677	10251.0140657282	12.4249564804008
1.607507	6328.08208686693	1202.30972110573	6441.28648358319	-10.7577409698173
1.376413	4691.25446218866	-2517.10946320991	5323.88096023811	28.21594260437
1.17375	4165.66566416053	-1646.1852958373	4479.14014670193	21.5629113859156
1.001604	2491.96330948676	1612.8307024096	2968.35038539308	-32.91146351576
