EC-Lab ASCII FILE
freq/Hz	Re(Z)/Ohm	-Im(Z)/Ohm	|Z|/Ohm	Phase(Z)/deg
6999984	19.9436635059276	4.31201299458011	20.4044889694179	-12.2001106528576
5969734	16.2629909976933	-3.50207902962437	16.6357877397131	12.152520778394
5091109	11.2938224382584	-5.39175821562457	12.5148504554655	25.5201704487015
4341796	8.21757469518052	-6.71160775004697	10.6100995500213	39.2398281996035
3702781	7.59829706648638	-5.34432527592275	9.28956032142761	35.120954931545
3157797	4.26645230419583	-5.01212703799418	6.58209941500204	49.5947110845084
2693047	3.48448993092204	-3.83221461757896	5.17953076580137	47.7209213704685
2296687	2.56359510583626	-3.68101711102672	4.48574484766344	55.1452339952603
1958656	1.79525861256523	-3.21330702375514	3.68080093388705	60.8081253887933
1670375	1.55398860908293	-2.65830401993233	3.07919808709149	59.6903420262726
1424531	1.22163097514057	-2.42258187902458	2.71316884841345	63.2396436797695
1214875	0.793522609675909	-1.95473447979334	2.10965992959999	67.9053535970788
1036062	0.849315692131574	-1.80051903353718	1.99078023273053	64.746465385184
883578.1	1.4159119060211	-0.95456976693702	1.70763285443988	33.9867907056615
753531.2	2.44650369686954	7.06863717367967	7.48004089774397	-70.9089129507136
642624.9	13.3822221099948	4.03494183048145	13.9772895862039	-16.778851306444
548046.8	12.7966540897244	-4.83378917313523	13.679176644169	20.6934823092722
467390.6	2.57041866517329	-8.16027276281666	8.55553059008257	72.5160022702761
398593.7	13.3862333762963	6.53129015443416	14.8945961706277	-26.0082560056396
339937.5	8.19659470632384	-3.2659915117284	8.82331373886353	21.7251615743407
289906.2	0.671049840956482	-9.37519126577654	9.39917651493685	85.9059113509244
247234.4	5.12064541118825	-5.77023196216956	7.71469936707624	48.4133637841959
210843.7	4.88923999155738	-1.05645667412323	5.00207640878701	12.1928971142169
179812.5	3.00839328905322	0.294792276212677	3.0228021218292	-5.59654288085681
153343.8	1.99909527435747	-1.06369082343102	2.26446905119274	28.0168225818282
130781.2	-1.60933067207632	-5.75215151458488	5.97303877928368	105.630499110319
111531.3	0.390376683760739	2.34252518695202	2.37483014271098	-80.5387292050364
95109.37	2.38967248510784	-3.36426298522568	4.12659666309188	54.613408840242
81109.37	0.469660773544979	-1.68277927953821	1.74709110977362	74.405674374397
69171.88	0.527769543224995	-0.162300141355927	0.552161232467541	17.0937546402259
59000	0.382864997121512	-0.0738201061869239	0.389916675840242	10.9132646337276
50312.5	0.333872655827923	-0.0853415260916526	0.34460720593923	14.3384177921756
42906.25	0.417972517884611	-0.123574481055391	0.435857405667164	16.4704281253251
36593.75	0.373358307217577	-0.105596797624712	0.388004006727984	15.7924758142365
31203.13	0.363318776495995	-0.0840222282242327	0.372907854825172	13.0214800296453
26609.38	0.363460341807479	-0.0800357340292871	0.372168159288803	12.4186138376087
22703.13	0.343261850422611	-0.0775440750452439	0.351911610394112	12.7296497062734
19359.37	0.359962908869559	-0.0588134212118028	0.364735951444976	9.27941818513257
16500	0.357346686358493	-0.0536318380401871	0.361348901067879	8.53544394731109
14112.02	0.353911518425128	-0.0505425899185302	0.35750233043947	8.12753237464566
12011.13	0.353004842424357	-0.0423548065666333	0.35553670473573	6.8418494598398
10236.38	0.350354935717803	-0.0395426373784823	0.352579354405036	6.43940963411786
8750.684	0.347743101323709	-0.0354510141236369	0.349545474753465	5.8209647196316
7449.463	0.362462852111256	-0.0891465157054401	0.373264544824507	13.8174559169529
6363.206	0.347068102604726	-0.0298430712893465	0.348348786060215	4.91455866576392
5414.761	0.348467458895533	-0.0250511343756862	0.349366754632748	4.11188833957807
4620.567	0.342975278780132	-0.0249291880348013	0.3438800754193	4.15723794906268
3941.215	0.349677700489436	-0.0176659363720695	0.350123663192709	2.89215974248531
3361.769	0.340436541736203	-0.0223323116185502	0.341168244553231	3.75317092320257
2867.244	0.340001892437673	-0.0189293490988032	0.340528423363606	3.18660962889658
2442.658	0.340160107682975	-0.0198448802603045	0.340738489360153	3.33884107731607
2083.003	0.33658838621433	-0.0193114018323398	0.337141916668778	3.28368472221001
1777.843	0.336193526534205	-0.0181192585665409	0.33668144411967	3.08498983435218
1513.548	0.338551787855297	-0.0165455007652531	0.338955847649205	2.79789901786157
1292.065	0.333878190888906	-0.0154872824949002	0.334237194624306	2.655819808614
1101.762	0.332805362182019	-0.0179620091233394	0.333289728117822	3.08934259472179
939.101	0.333505327795471	-0.0135569141245996	0.333780756767892	2.3277785525898
801.2801	0.330280916755803	-0.0182225993821514	0.330783232799512	3.15798007378949
684.3433	0.345290941122741	-0.0247474412363608	0.346176645470452	4.09945171767696
582.9476	0.320723232671514	-0.0131936369856557	0.320994492214704	2.35565638706969
497.0677	0.335392049378094	-0.0143570395467881	0.335699197750882	2.45114897095296
423.5089	0.333006263722203	-0.0366908757337769	0.335021479968573	6.28752998178458
361.5036	0.286276217600648	-0.0248210489939645	0.287350234447259	4.95533206133882
308.1262	0.321846149246072	-0.0140724241686036	0.322153654187727	2.50361013259073
262.7298	0.290842657615449	-0.0261554754495075	0.292016370063062	5.13878512593058
224.2111	0.318398013969877	-0.0339336139961903	0.320201164049734	6.08339657853537
191.2854	0.325371460971373	-0.00948699838908551	0.32550973987437	1.67012499026715
163.1722	0.357410146773939	-0.0197064343897306	0.35795300888989	3.1559076854445
139.1537	0.326098899342572	-0.0170970849308999	0.32654678449737	3.00122053991508
118.6706	0.314001400837182	-0.000636784409802199	0.314002046525333	0.116193778204468
101.1982	0.303538088303627	0.0136505633170488	0.303844876425279	-2.57494223216893
86.24196	0.334121397279702	-0.0018502572472853	0.334126520306338	0.317282426434573
73.61024	0.306344982627821	0.0137379105890893	0.306652863297563	-2.567684575778
62.69291	0.807049495572393	-0.836209117684982	1.1621422360465	46.0166068426503
53.57697	0.311532425717552	-0.0244208479409396	0.312488127914673	4.4822173186297
45.65746	0.277393426473641	-0.0417788846156449	0.280521992454272	8.56507732447526
38.96512	0.303598050591318	-0.0237514786160077	0.30452571165551	4.47332673252265
33.18414	0.316428032478661	-0.0135946958926311	0.316719932266237	2.46008539368362
28.30617	0.302757598817831	-0.0155713099291334	0.303157763111631	2.94421983366649
24.17237	0.28628513618706	-0.0389181006538627	0.28891832368361	7.74143330524085
20.61345	0.345698058524734	-4.18697736798492E-05	0.345698061060296	0.00693947000897419
17.55618	0.310879575307828	-0.0158305368242225	0.311282373801856	2.91508435682629
14.98558	0.302086922257373	0.00201664896711082	0.302093653478501	-0.38248513811202
12.76553	0.407318768916579	-0.0362483033082338	0.408928501090891	5.08549604027884
10.8809	0.257024638695023	0.0426948098965658	0.260546563378624	-9.43138378113511
9.278505	0.414753515563773	-0.0838367634824391	0.423141916599761	11.4275801985268
7.923394	0.303636219431411	-0.14105036207559	0.334798683378915	24.9166281664666
6.75822	0.763524244950821	0.0660573048703946	0.766376435020324	-4.94470713198591
5.761429	0.692257579073203	0.816068620680478	1.07013482769398	-49.6926066533845
4.919708	0.979185813324008	-0.0599365661706686	0.981018475350659	3.50273966531781
4.191257	1.63595392801057	-0.146990250269255	1.64254418152068	5.13423183033267
3.564097	0.653255915321879	-0.66533365882181	0.932422741284361	45.5247913304659
3.051758	1.55158838172004	-0.154316341545791	1.55924341895571	5.67978849186916
2.604164	0.927805997810789	0.363186632988315	0.996357616498746	-21.3776970490616
2.214424	1.21805693642607	0.124682848366338	1.22442170556243	-5.84455912163509
1.892567	1.48538067082113	0.406360913260238	1.53996263885677	-15.3002420428617
1.607507	1.66821138749734	-0.383280636397746	1.71167557662463	12.9394553916944
1.376413	1.08810584600519	-0.152209408505913	1.09870015752634	7.96313359448877
1.17375	-0.294281531950462	1.97223128778617	1.99406566405668	-98.4866321375094
1.001604	-0.157355313553059	-0.445519128605487	0.472491257756981	109.452987040534
