EC-Lab ASCII FILE
freq/Hz	Re(Z)/Ohm	-Im(Z)/Ohm	|Z|/Ohm	Phase(Z)/deg
6999984	6.15538986602824	100.638408531946	100.826475175153	-86.499953992916
5969734	13.3988826074402	92.9565657384127	93.9172676828271	-81.7978039598364
5091109	14.3151935318195	89.7546870127612	90.8891005930424	-80.9380807882426
4341796	14.4760037005404	92.0959266034502	93.2266827688626	-81.067110883706
3702781	14.1965789677119	101.629587584446	102.616353116699	-82.0478427416315
3157797	16.8865941895347	108.954387580836	110.255229519679	-81.1899530349821
2693047	14.0101803358983	115.153397739131	116.002543782069	-83.0631812503828
2296687	17.9197226768763	142.368276433463	143.491611585664	-82.8259767231986
1958656	21.4371423751742	160.767775245543	162.190716844753	-82.4048527437775
1670375	20.4744255365763	185.416634777896	186.543642489934	-83.6987060367419
1424531	17.1981020687738	206.731700701868	207.445826156746	-85.2444888722253
1214875	21.2047666430589	238.739204743389	239.679056260434	-84.9243200563062
1036062	32.6332280176026	277.385827209823	279.298808998046	-83.2902444245931
883578.1	36.0563282256309	321.074763090839	323.092962317276	-83.5925942530837
753531.2	34.580358517161	379.884920429011	381.455572727063	-84.7987850033931
642624.9	41.8129458252987	426.921051358607	428.963758995708	-84.4062516179489
548046.8	35.5405799227649	481.416536204662	482.726645372452	-85.7777979879331
467390.6	159.069678761944	707.29708507157	724.963674436291	-77.3251808194861
398593.7	173.85260491621	803.115761874669	821.717503286672	-77.7854951120942
339937.5	199.012802419081	909.552230524747	931.070005734927	-77.6580120026776
289906.2	223.214290214238	1032.72617539955	1056.57369487945	-77.8036578741999
247234.4	247.296012054322	1177.62855642291	1203.31389690333	-78.1404997619573
210843.7	268.527751522127	1346.25929841136	1372.77866092702	-78.719702797055
179812.5	290.410629021005	1543.67129477622	1570.75122147477	-79.3454873008969
153343.8	312.362247173588	1776.11157341671	1803.36976094314	-80.0254736121582
130781.2	334.722023251016	2048.16449978541	2075.33531050538	-80.7184660653689
111531.3	358.294632185129	2370.50750433347	2397.43214117814	-81.4049840954947
95109.37	385.802721924571	2744.63140080341	2771.61419871534	-81.9985683712502
81109.37	414.705726956553	3178.94484176385	3205.88071315006	-82.5675154618151
69171.88	443.947573937212	3686.89638186827	3713.52856176415	-83.1339415380814
59000	464.492646081763	4265.95652980615	4291.16983262837	-83.7859102131608
50312.5	354.318357879658	4900.60678945481	4913.39886469449	-85.8646583896749
42906.25	1877.67872573972	6769.7103830882	7025.28690289498	-74.4978632836336
36593.75	1992.33282930774	7483.15150640443	7743.83280879309	-75.0912756720506
31203.13	2112.22560683205	8491.16059286122	8749.93172704315	-76.0308691602856
26609.38	2245.66555898051	9717.22479138706	9973.33802942318	-76.9873076076975
22703.13	2449.58401868525	11157.9717494233	11423.6944735723	-77.6179049570185
19359.37	2552.56551751416	12875.1489960119	13125.7400702097	-78.7862231970697
16500	2729.63143823102	14892.2107699895	15140.3047989916	-79.6134023659001
14112.02	2931.36093638754	17194.7820197963	17442.8611657517	-80.3252451305706
12011.13	3225.13401426567	19961.7722115688	20220.6290514547	-80.8222860178466
10236.38	3503.4704792922	23220.8969110708	23483.7041105923	-81.4201674770656
8750.684	3870.22689617287	26877.4421812344	27154.6599027397	-81.8059972563067
7449.463	4318.99335637844	31228.6820422087	31525.9303701859	-82.1258222975488
6363.206	4873.93676827064	36369.9465159067	36695.0714564097	-82.3672667124169
5414.761	15751.5743482275	49391.8348179671	51842.6990147416	-72.31197199943
4620.567	17766.1782402726	55639.9676401094	58407.5601977823	-72.2914028145848
3941.215	19551.4482220272	61122.1988559462	64173.0653823272	-72.261838192356
3361.769	23074.3495314333	72308.4700953646	75900.8593747857	-72.3016014633381
2867.244	23518.7275420323	81856.2061557289	85167.8873250097	-73.969710788082
2442.658	26194.4971262561	93859.4687793763	97446.1469697195	-74.4065338110897
2083.003	29078.3351846952	107842.586678862	111694.104941583	-74.9098199383326
1777.843	32859.2366299773	124004.833559363	128284.559390405	-75.1586555087579
1513.548	36884.7324404464	143608.306724133	148269.448125283	-75.5953639402067
1292.065	42787.5305724532	165245.591039671	170695.278583032	-75.483064212361
1101.762	49780.1553964093	190013.906757532	196426.445858369	-75.3194847618512
939.101	59034.3751030027	218365.975746289	226205.121090197	-74.8719474280745
801.2801	66703.97126963	247239.883965312	256080.026566542	-74.9013974587442
684.3433	89576.8638513757	280570.926669143	294523.444617622	-72.2934654626472
582.9476	210529.260364519	402499.976439965	454234.301328955	-62.387999213087
497.0677	226248.684663767	444707.9869651	498952.563860169	-63.0349258595692
423.5089	293024.367219531	466999.85744502	551318.552778768	-57.8933171976243
361.5036	311453.2219999	543381.588985837	626311.95162067	-60.1797052790938
308.1262	366853.929353398	575466.409220041	682453.949818327	-57.482907528972
262.7298	444171.08452115	645491.011298522	783547.444633624	-55.4676144282686
224.2111	516702.411693125	655732.053060017	834844.840470249	-51.7626687897245
191.2854	587721.378659313	790560.037961529	985089.636812274	-53.3719983742659
163.1722	600747.01723035	745470.107753427	957404.1258868	-51.1359331759426
139.1537	641394.23135104	828380.626380496	1047664.55613089	-52.2502845212705
118.6706	842017.795337216	958328.238018873	1275690.78520185	-48.6964278533023
101.1982	883963.183227519	1002139.26332156	1336291.14057993	-48.5852511227352
86.24196	917904.819809449	992993.856961096	1352252.21692992	-47.2502881079701
73.61024	997128.947652423	997715.904041142	1410568.3831077	-45.0168585155045
62.69291	1087661.8981083	454230.700084091	1178700.10328982	-22.6664510176493
53.57697	1276637.9747852	1042746.34640868	1648370.24409333	-39.2416387462361
45.65746	1232675.63200391	1124366.33617026	1668439.05242271	-42.3690314681326
38.96512	1558231.49666035	984389.792931279	1843124.70050499	-32.2820464594969
33.18414	1550496.52897582	1180721.05292173	1948882.16451859	-37.2896918593624
28.30617	1594696.00546196	935602.390853062	1848893.50250529	-30.3999946940512
24.17237	1537266.37149625	902299.847297186	1782507.47862829	-30.410840785113
20.61345	2220111.81484543	267844.891509397	2236210.490165	-6.87918911934847
17.55618	1446499.42026083	1244835.71755755	1908396.32585109	-40.7147934516088
14.98558	1339354.99510902	1058401.17615779	1707069.08255515	-38.3169192423627
12.76553	2274830.01383732	911603.115424177	2450688.03235054	-21.8376847557264
10.8809	1107244.43979301	588767.264522208	1254048.30099382	-28.0014100171392
9.278505	1452130.71034614	341005.001994433	1491632.66634772	-13.2153632179397
7.923394	2520494.11562322	-825001.64139019	2652078.10880219	18.124173398145
6.75822	1079730.20448484	859675.419540262	1380166.34556802	-38.5266160658026
5.761429	1620858.2651472	-442751.598621339	1680241.20107136	15.2781258719696
4.919708	1188810.70910956	872802.709943697	1474806.92722086	-36.285422895213
4.191257	1396974.34329618	432950.774846008	1462526.47472364	-17.2192725044052
3.564097	1461800.88964165	-567370.084258688	1568046.76380165	21.2127711477332
3.051758	1181332.52203157	907989.42216516	1489963.52920912	-37.5464055994708
2.604164	1935363.53642549	-221246.542725353	1947968.69861743	6.52161761856323
2.214424	2048761.79147474	166351.950274204	2055504.28108696	-4.64202384205861
1.892567	275937.657933388	1847652.12144771	1868143.4508506	-81.5059392589967
1.607507	1437652.08655651	-1948964.87229444	2421839.71299051	53.5856944431158
1.376413	-1704143.7368084	1915396.87348495	2563757.21523299	-131.659742559994
1.17375	1719192.88738337	472489.744873947	1782938.79396928	-15.3673182119377
1.001604	1683153.80285891	510474.520917254	1758860.69959622	-16.8717392241906
