EC-Lab ASCII FILE
freq/Hz	Re(Z)/Ohm	-Im(Z)/Ohm	|Z|/Ohm	Phase(Z)/deg
6999984	59.680968206249	52.2881029773806	79.3464786805845	-41.2224741651404
5969734	123.203455376923	61.6825227632834	137.781802249994	-26.5951022977244
5091109	76.4024664248766	104.990288034806	129.847208123378	-53.9562491675387
4341796	72.752856108413	111.147858169584	132.8413506692	-56.7928772675621
3702781	66.398185415904	115.236831084379	132.997166379192	-60.0499303384967
3157797	66.2175236589262	121.166204250829	138.079721509257	-61.343325265225
2693047	67.1478106165722	130.698015111895	146.938080921143	-62.8075762064613
2296687	72.8714673247047	146.698635318873	163.800916830386	-63.5844496808792
1958656	81.6837518505485	163.992775152817	183.209894980332	-63.5223983516665
1670375	87.827957172141	192.783360469842	211.847053637941	-65.5070095624407
1424531	92.1070735503878	226.392843111977	244.412422782356	-67.8612358468537
1214875	102.416300672102	252.031799007059	272.046184229981	-67.8850135953517
1036062	101.081896996046	309.594088492889	325.677830885159	-71.9182354026161
883578.1	103.930038328681	362.168739710273	376.785945717629	-73.9883319164237
753531.2	105.191102642186	422.070662895354	434.981393339994	-76.0054871299613
642624.9	106.982314033006	492.024678366295	503.521101481669	-77.7329548822807
548046.8	550.14205032506	1180.35653669473	1302.26642022815	-65.0106562245189
467390.6	650.319794746716	1283.20246178195	1438.58416276653	-63.1243645713892
398593.7	743.654777829691	1393.9196208368	1579.88427992139	-61.9201218775832
339937.5	841.009916070459	1499.23862029071	1719.01545062865	-60.7094047606923
289906.2	942.632195760153	1624.4922052871	1878.17208517275	-59.8750063236432
247234.4	1025.45054846951	1760.05834538313	2036.99636880119	-59.7739365685822
210843.7	1095.07841593823	1922.46890405769	2212.48354211338	-60.3332579681889
179812.5	1157.65698949697	2118.56665720515	2414.22749266771	-61.3463046457597
153343.8	1212.80148619455	2358.03627228163	2651.64524518488	-62.7820222887985
130781.2	1262.17668302776	2650.01040601994	2935.24192038627	-64.5319499866871
111531.3	1305.57631546849	2994.0112556145	3266.28732879681	-66.4397848529137
95109.37	1352.76346497282	3405.46033455495	3664.30472018804	-68.3353584223245
81109.37	1401.37982398469	3897.5059007612	4141.7891855501	-70.2235408361781
69171.88	1444.44002316049	4482.54710846964	4709.52604411075	-72.1391679284185
59000	6334.8541843405	8934.83850718264	10952.7036245071	-54.6631301177034
50312.5	6907.21718070954	9483.29852012682	11732.1183084441	-53.9320531598503
42906.25	7444.83364789853	10154.260379696	12591.0504686283	-53.7521214938674
36593.75	7900.71741308292	10931.1944014628	13487.4885239604	-54.1418015494918
31203.13	8298.67576742193	11902.3264715413	14509.7689481242	-55.1145807532208
26609.38	8689.45233459538	13093.5031696342	15714.5285366258	-56.4299142339247
22703.13	8998.27810452652	14542.4109211503	17101.1907259697	-58.2523898478327
19359.37	9278.52456885923	16339.9715659868	18790.5744710528	-60.4102634958544
16500	9548.1122827555	18467.1074563513	20789.4325552318	-62.6595239121995
14112.02	9735.31209351968	21077.1897266712	23216.8953206996	-65.208326663839
12011.13	9984.60641926275	24260.7819293902	26235.0510800534	-67.630219263857
10236.38	10249.7115497478	27953.7126924558	29773.5896415833	-69.8636660450564
8750.684	0.000769920854565129	-0.000524161553761344	0.000931409392660287	34.2470052178981
7449.463	0.000371102292697462	0.000522230947291204	0.000640657532503897	-54.6020356280086
6363.206	0.00272336082241417	0.00153989424094592	0.00312857290826965	-29.4855082163988
5414.761	0.00140369363659898	0.000724697842550812	0.00157972870722358	-27.3063663750219
4620.567	0.0019558579319521	0.000418099029733418	0.00200004676161433	-12.0663708443182
3941.215	0.00190217194399719	-0.000338272759376887	0.00193201619151251	10.0837764449829
3361.769	0.000925603865216938	0.000641370848256153	0.00112609905438969	-34.7189219058576
2867.244	0.000623305611664624	0.000949874043262418	0.00113612084902809	-56.7271876563504
2442.658	0.0019369791385745	-0.00178402434371234	0.00263336876305447	42.6461367761696
2083.003	0.00105372667476959	0.000707181865024923	0.00126903352806027	-33.8665325940415
1777.843	0.0021145999958684	0.000790594858024957	0.00225755916247219	-20.4994845294189
1513.548	0.00188359841774256	0.0010360968686289	0.00214975340923206	-28.8135433142694
1292.065	0.00152563188397149	0.00035935516306153	0.00156738277986246	-13.2541467310921
1101.762	0.000741003712595422	0.00130509862198556	0.00150078943066268	-60.4131282848301
939.101	0.00154950984703581	0.000846515774806849	0.00176566410255682	-28.6483080157316
801.2801	0.0108733548625559	0.00294893017715584	0.0112661455323819	-15.1740137110164
684.3433	0.00317258612236141	0.00327273996125115	0.0045580839787975	-45.8902467305122
582.9476	0.00163102045082871	0.0022536354727836	0.00278192389457548	-54.1056651013529
497.0677	0.00241253968503079	-0.00217772158008071	0.00325004907842907	42.0715460513227
423.5089	0.000580369806359618	0.00239298658507135	0.00246235941902586	-76.3673099775864
361.5036	0.0042785803384705	0.00366790924365561	0.00563558408085982	-40.605576236701
308.1262	0.000242274353269794	-0.00521956058371554	0.00522518033653665	87.3424311348764
262.7298	0.00260942169197282	-0.00336355254791857	0.00425706087684306	52.1959280152465
224.2111	0.00696159651896502	-0.00172613138427474	0.00717240236243368	13.9256704557192
191.2854	0.00516046502090368	0.00198784364663749	0.0055300923677139	-21.066999225496
163.1722	0.005068478654803	0.00196891820528952	0.00543747319748007	-21.2293238984345
139.1537	0.00381339332208601	0.00701010941969442	0.00798020066821748	-61.4544790774804
118.6706	0.00798770046756678	-0.000602166832053747	0.00801036601243614	4.31118827086756
101.1982	0.0102720554550742	0.0073088806176059	0.0126069369457666	-35.4330106650851
86.24196	0.00130252314008132	-0.00904366797465265	0.00913698511360313	81.8042783829213
73.61024	0.0154456967390808	-0.00411365489275819	0.0159841078678907	14.9134153170571
62.69291	0.0116447723511432	0.00597214970001249	0.0130869131253061	-27.1515188013098
53.57697	0.0347802409967871	0.0160231543379363	0.0382936892807668	-24.7353844271329
45.65746	0.0108427153265948	-0.0160673854642029	0.0193836361735576	55.987436117479
38.96512	0.0054572645365938	-0.0222352888033912	0.0228951917308543	76.2103195417206
33.18414	0.0212501276165634	0.00110672602583094	0.0212789277506288	-2.98132286160577
28.30617	0.0289862494285653	0.0251414370205471	0.0383704901114534	-40.9369750254046
24.17237	0.0452731250540167	-0.00012656700995827	0.0452733019710805	0.160177513601261
20.61345	0.00249664649463928	-0.0927024266237808	0.0927360401659282	88.4572924126419
17.55618	0.0477781439514868	0.0132439069850387	0.0495797550586664	-15.4931569324822
14.98558	0.0750190100911109	-0.0136999057207482	0.0762596832658489	10.3492621689347
12.76553	0.0996045713054673	0.012272476765487	0.100357781516459	-7.02412452320477
10.8809	0.10781748996237	-0.0520233409072144	0.119712318250605	25.7579135562131
9.278505	0.12996588381866	0.0754439180926739	0.150276131617564	-30.1347438827954
7.923394	0.0585326495666627	-0.0376536749343438	0.0695979188004567	32.7529146346914
6.75822	0.129822401098403	0.013881026108987	0.13056239394555	-6.10306049006426
5.761429	0.197365695810085	-0.0401029664380493	0.201398773083975	11.4856322823295
4.919708	0.215123616197991	0.0494337473007693	0.220730300634727	-12.9414607439774
4.191257	0.138437525809501	0.0660672639667272	0.153394367303058	-25.5121203916799
3.564097	0.135501370082969	0.343504093329492	0.369263704455878	-68.4723526311403
3.051758	0.376869564764317	-0.142944775004463	0.403068080535686	20.7714905130793
2.604164	0.261624530154099	0.192526278140139	0.32482882038521	-36.3488951597576
2.214424	0.246632640645032	0.222558481507905	0.332204661500476	-42.0627339604336
1.892567	0.253821217591418	-0.322231209969535	0.410192836575702	51.7725293933787
1.607507	0.423969150430388	-0.394119909901974	0.578861247535025	42.9104021000178
1.376413	0.405576725034957	0.121591593566436	0.423411142409014	-16.6886906678022
1.17375	0.385725317556927	0.014227360047377	0.385987614280964	-2.11237965317273
1.001604	0.379733383565056	0.223665826760429	0.440708344207586	-30.4984059249429
