EC-Lab ASCII FILE
freq/Hz	Re(Z)/Ohm	-Im(Z)/Ohm	|Z|/Ohm	Phase(Z)/deg
6999984	1.13814663874789	110.278119424336	110.28399249909	-89.4086888314566
5969734	10.9913724429696	94.8265587923181	95.4614399669994	-83.3883347991195
5091109	11.5248203307377	86.8439442068951	87.6053202098256	-82.4406053101936
4341796	9.54335768563933	88.6639729457646	89.1760941869699	-83.8566132050799
3702781	7.90957691869533	98.7711263278597	99.0873190832549	-85.4215328309208
3157797	11.0472133181068	105.04297679865	105.62228882588	-83.9963576113124
2693047	10.7926590388294	115.196633028532	115.701105224794	-84.6476387370376
2296687	9.09441443135236	131.110968859853	131.426004006888	-86.0320766574122
1958656	10.8899751378882	150.179579661728	150.573894503254	-85.8525689801977
1670375	11.2443148200687	172.303610988485	172.670116046304	-86.2662445082821
1424531	13.2435364485402	199.687499591284	200.126182071919	-86.2056255735573
1214875	15.9294330745912	229.49609792021	230.048268410524	-86.0294410515546
1036062	18.4480306707688	265.439657128592	266.07995304452	-86.0243417271779
883578.1	20.0732574799268	307.36320655154	308.017980656162	-86.263437015086
753531.2	22.8371577301141	356.509008858736	357.239708278109	-86.3347702605798
642624.9	25.3164046859214	414.492283242339	415.264702585795	-86.5048241341746
548046.8	29.0326841072725	482.899321859945	483.771280461405	-86.5594270120506
467390.6	137.647532992664	672.405835153193	686.350093237431	-78.4308747725296
398593.7	159.497685634699	762.651376349374	779.151226380618	-78.1876541884966
339937.5	181.786541290838	865.537737834883	884.421801071645	-78.1387235927924
289906.2	201.872638988755	984.680864754492	1005.16116508047	-78.4141444049118
247234.4	223.007708090558	1124.39185783089	1146.29380519316	-78.7817541262677
210843.7	242.452217683482	1286.68860798648	1309.33213959707	-79.3288142290586
179812.5	262.91211314905	1479.32957551375	1502.51082266657	-79.9223985048142
153343.8	281.949244856335	1703.24018377545	1726.41898167927	-80.60066594269
130781.2	301.369824229991	1966.68936552085	1989.64590603686	-81.2879288179494
111531.3	324.227743538301	2276.48385611219	2299.45697433533	-81.8941754609774
95109.37	349.022021972776	2636.88934245446	2659.8875495351	-82.4600858752281
81109.37	377.437013819875	3057.26274286156	3080.47304456485	-82.9621114953217
69171.88	402.21520763569	3550.14676589228	3572.85867795367	-83.5362152060428
59000	420.439206962182	4107.26996827195	4128.7329435336	-84.1552961036817
50312.5	302.132976984555	4766.10296285877	4775.66977379641	-86.372757362397
42906.25	1706.43524904786	6374.95562256565	6599.39243028284	-75.014499327503
36593.75	1816.80880935128	7130.358363321	7358.17943781736	-75.7052572453128
31203.13	1938.37066870507	8158.4569862146	8385.56505223172	-76.6348812679125
26609.38	2094.8243242016	9415.26539728524	9645.49176820879	-77.4564454503506
22703.13	2303.44902215698	10912.8999245246	11153.3520593751	-78.0811986301612
19359.37	2408.51952340388	12613.7872100962	12841.6741150134	-79.1898719637394
16500	2547.93938649028	14633.3558060502	14853.5213758789	-80.1227618457714
14112.02	2703.98263550412	16934.0751753303	17148.5983140561	-80.9277675479302
12011.13	2893.60757001463	19700.6089854851	19911.9802924828	-81.6441939749618
10236.38	3113.33530186534	22921.0724728385	23131.5459925825	-82.2649364502065
8750.684	3332.25902730433	26633.1146455037	26840.7664932579	-82.8683756000383
7449.463	3726.60086902502	31164.7531803664	31386.7710163084	-83.1810959646207
6363.206	4088.32284620285	36934.8549213442	37160.4344936322	-83.68363724673
5414.761	18860.0867305417	54201.7010460219	57389.2609097372	-70.8140884356195
4620.567	22586.5590548383	63348.4680684268	67254.5987762486	-70.3765778632576
3941.215	25473.6733524307	72763.1359832337	77093.3329943705	-70.7053410461036
3361.769	27928.1680737867	83095.1357329235	87662.9006731505	-71.4225696140484
2867.244	29925.8333740055	94798.000634863	99409.3377278826	-72.4801351123009
2442.658	32011.1344583544	108884.56074491	113492.556134413	-73.6171125609585
2083.003	33894.098167811	125329.240334428	129831.538438909	-74.8669053994773
1777.843	35892.8934593088	144245.328994014	148643.919275134	-76.0267438641607
1513.548	38180.449470514	167256.464047204	171558.944643945	-77.1411467756901
1292.065	40415.6498100283	193918.452973684	198085.31281565	-78.2271882763606
1101.762	43405.2633873171	225284.542427257	229427.857825463	-79.0945317866296
939.101	46752.3112290872	262825.116368984	266950.970029389	-79.9135176589896
801.2801	49510.2872190679	306403.959153846	310378.244607554	-80.8211973980359
684.3433	220458.67272661	494522.907638882	541437.83813102	-65.9726523625435
582.9476	249544.210857666	549213.262750991	603247.479194206	-65.5645345250718
497.0677	276458.481059646	609732.962366304	669480.079722911	-65.6100273740052
423.5089	302391.648952149	680012.898684575	744216.53551463	-66.0259947332702
361.5036	318451.950965979	756829.340347266	821098.225235274	-67.1800463242227
308.1262	315251.9520224	816253.543339272	875016.365714294	-68.8825331166744
262.7298	327888.690590403	914948.952003639	971927.249432614	-70.2839305877849
224.2111	337254.130039431	1044218.1821749	1097329.46748609	-72.1009516434833
191.2854	353714.53882033	1188866.4530415	1240369.87150622	-73.4310731648795
163.1722	366061.710162002	1370540.54626736	1418584.70477077	-75.0457828231172
139.1537	387401.836352104	1596823.23634236	1643144.73827836	-76.3630700899025
118.6706	404666.874542593	1857944.03970118	1901502.38864252	-77.7126721763331
101.1982	456009.407320537	2124611.21213332	2172997.32680173	-77.8862783882578
86.24196	454054.891352622	2461967.19047707	2503487.22612016	-79.5504915999947
73.61024	368997.500628657	2782479.36202868	2806839.95902612	-82.4458192261293
62.69291	-11077.8588963666	2939444.6924761	2939465.5669158	-90.2159290690165
53.57697	617906.588990397	3881792.98912108	3930664.74824644	-80.9554987052145
45.65746	253461.265529565	4320005.78776729	4327434.87755353	-86.642219413447
38.96512	917076.743596898	5123978.5615611	5205399.70155838	-79.8527841327058
33.18414	558156.894732695	5910957.61312456	5937251.80730049	-84.605698226434
28.30617	1690891.71800869	6913471.16324899	7117246.54112148	-76.2564426442286
24.17237	1658546.65027813	8189508.42586923	8355765.98813848	-78.5512532052866
20.61345	-39743.8155307464	9470259.00386382	9470342.39988907	-90.2404516626481
17.55618	-526080.421079609	11563981.3955639	11575941.7036538	-92.6047620042554
14.98558	1793817.89604619	13540363.227428	13658668.2723778	-82.4534395648046
12.76553	2038760.33142573	15559061.0249669	15692065.6278146	-82.5348568674927
10.8809	2512014.11027462	18680830.491937	18848969.2757642	-82.341369020077
9.278505	1981720.24386663	20692380.8586168	20787059.4534918	-84.5294375439021
7.923394	4281400.61256858	23961377.8792182	24340871.4115988	-79.869342612985
6.75822	3672105.89278928	24999136.6687891	25267393.9272069	-81.6436210171667
5.761429	10799476.2943668	43238944.4025365	44567196.4709273	-75.9765527613072
4.919708	5650100.81427113	35354132.4791038	35802769.7610317	-80.9200899134755
4.191257	97362.3204744311	47095689.9562654	47095790.5961682	-89.8815508997781
3.564097	8102283.83297359	43743412.8091011	44487449.5503788	-79.5064311455492
3.051758	-27699744.560155	69298332.623404	74629315.641253	-111.787446281015
2.604164	19450181.3582885	66223596.6897191	69020825.2152413	-73.6322386467499
2.214424	26067660.8736881	80224991.230408	84353850.8981341	-71.9993662264066
1.892567	53307159.7617391	60069670.4863582	80312007.7834145	-48.4134382687093
1.607507	70792783.5479291	92615441.041116	116572887.592718	-52.6066642698419
1.376413	44275803.5286807	57196823.56298	72331344.5458122	-52.256707378154
1.17375	57230496.9708678	129824665.082098	141879432.784359	-66.2107163264204
1.001604	64683370.6545392	127669734.595742	143120577.035518	-63.1311254733717
