EC-Lab ASCII FILE
freq/Hz	Re(Z)/Ohm	-Im(Z)/Ohm	|Z|/Ohm	Phase(Z)/deg
6999984	4.40689919934576	2.29189443639101	4.96724678879099	-27.4775718937849
5969734	5.20685669173046	2.33847984766076	5.70787566491543	-24.1855855860812
5091109	13.1094275938093	3.90863031298149	13.6797106241647	-16.6021683111595
4341796	6.31368701970129	-8.4177404610131	10.5224045850614	53.1284397451337
3702781	4.15323869542588	-8.17657348703138	9.17091847363214	63.0719962289142
3157797	2.25439829415969	-8.62706129022338	8.91675379126175	75.3551227367083
2693047	0.523381144880908	0.482068077030089	0.711559873593458	-42.6470878861095
2296687	4.73308829451325	-7.6339349764363	8.98215386352939	58.200823646271
1958656	-3.34769366776733	-8.08278835474795	8.74862963445467	112.498143130095
1670375	-1.43111983890805	-17.1026680675107	17.1624403573841	94.7832621329018
1424531	-2.59031987528272	-11.0779024693961	11.3767165815861	103.160879125966
1214875	9.52922455132779	-15.0001121535832	17.7710293784492	57.5731483817052
1036062	12.3245405280907	-15.149727757909	19.5296838266089	50.8711063534552
883578.1	-0.625725096790585	-11.8585887806355	11.8750856740054	93.0204428846228
753531.2	3.45534701423935	-6.41051470177235	7.28245300228242	61.6747813497082
642624.9	19.8035203841194	4.40201163355829	20.2868707795513	-12.5321969909154
548046.8	9.82681755136699	-4.48823941300716	10.8032697002493	24.5477808562732
467390.6	5.21615857609244	-0.495957147826007	5.23968355756552	5.43140727697538
398593.7	3.54228009490599	-6.17217891048346	7.1164275288788	60.1480207130231
339937.5	5.959071441238	10.8596308202802	12.3871753840235	-61.244833820242
289906.2	8.09851660272122	13.2842242466521	15.5581677905816	-58.6320889786659
247234.4	7.50339464494317	-6.7521181154206	10.0941582235644	41.983258984671
210843.7	5.84820109127659	2.72674047619889	6.45264051598646	-24.997420945158
179812.5	2.7182604739982	-3.58381149295676	4.49807123348996	52.8202973133344
153343.8	1.32179714701966	-2.60883203624634	2.92457728419246	63.130380628238
130781.2	5.52263618715116	-6.43030806161846	8.47634191281515	49.3425408997155
111531.3	1.41275725063476	4.81443700350271	5.01743826169463	-73.6461042253921
95109.37	3.455030154965	0.00964910892188766	3.45504362881577	-0.160013590376074
81109.37	7.01184488278156	-8.12303128510552	10.7307784395631	49.1990608086588
69171.88	8.19481527693097	-5.05614319078241	9.62910075701342	31.6742929374678
59000	8.44622396563545	3.17663153493922	9.02383993577263	-20.6113201614505
50312.5	4.24716613649709	-0.0659431895310411	4.24767803573354	0.88952557130753
42906.25	10.6941631565527	2.00372149140898	10.8802585187165	-10.6122326081659
36593.75	7.59054084443059	6.25299193452622	9.83444042354312	-39.4812668848937
31203.13	6.95833244717691	11.6521720646718	13.5717170715482	-59.155600516077
26609.38	4.51621809041288	4.48191287923813	6.36268566701618	-44.7815619377781
22703.13	-0.118542399918657	13.8050539083088	13.8055628538605	-90.4919801347105
19359.37	8.49400678588123	8.29277461342583	11.8708998002542	-44.3131975881484
16500	9.06355162173986	-3.29167627354781	9.64277453276705	19.9598728779647
14112.02	22.4282498221128	-3.83933962443834	22.754492278117	9.71392072907003
12011.13	-1.02059193169287	10.063698172861	10.1153165449966	-95.7907511198599
10236.38	17.8944620725053	13.759040887282	22.5726156880905	-37.5566615440036
8750.684	52.6726739689561	19.8981651290478	56.305839471078	-20.6950694023647
7449.463	-54.3224860582593	-234.687354220548	240.892272027541	103.032593875636
6363.206	288.509704607922	452.765284817885	536.87452238784	-57.4940229101976
5414.761	382.911620779902	443.220866993157	585.718401850631	-49.1752945193168
4620.567	363.746555128472	-394.195297791159	536.378121448378	47.3005021291354
3941.215	220.686529444603	359.608766355488	421.925359652652	-58.4631810206614
3361.769	-133.537609232307	636.816331786147	650.666837566695	-101.843076197165
2867.244	792.176249967862	735.209138157583	1080.77550298087	-42.864021166502
2442.658	588.998682374878	-331.068679094218	675.667017188595	29.3397878603632
2083.003	555.840949480906	-266.748551991729	616.533819923546	25.6363892078658
1777.843	15.6232882584983	-808.209776140462	808.360766851672	88.8925684496028
1513.548	758.142157360867	-107.140316008612	765.675243221442	8.04374875626368
1292.065	531.774237611675	-446.293854266358	694.234862379728	40.0052024110731
1101.762	-3.53148678765771	-557.213884532309	557.22507527436	90.3631219265856
939.101	-99.550605993848	-592.146418001729	600.456246121248	99.5432236075102
801.2801	-452.652028524723	-317.45752158998	552.877144528149	144.95694706939
684.3433	-470.788867007209	-773.482682724537	905.493024695761	121.327250865723
582.9476	296.361518650496	-635.118126877866	700.860317628041	64.985102306856
497.0677	-3.84814883700684	-797.426349161089	797.435634133473	90.2764907079618
423.5089	594.898235802425	-11.2931613264396	595.005417163224	1.08753520164238
361.5036	1730.39328669426	-800.991208846211	1906.78993160901	24.8392043796106
308.1262	853.142695935818	-621.688000102192	1055.62703124716	36.0809514468647
262.7298	519.776632754107	-318.602962386285	609.65202829033	31.5066855936582
224.2111	1131.47286042452	1135.06836074083	1602.68868387847	-45.0908903922133
191.2854	1435.92834324593	-867.072250504632	1677.41005557143	31.1252962373294
163.1722	619.2085448265	398.303175225825	736.250393127994	-32.7509723077659
139.1537	2438.70350198776	1280.48483663603	2754.43572941213	-27.7025208537312
118.6706	1285.68258532852	4180.12808821032	4373.379762159	-72.9036655144616
101.1982	1243.9449304957	-722.045251647533	1438.31440774704	30.1329333361628
86.24196	3556.97042354549	-118.656356628803	3558.94899161898	1.91061141970182
73.61024	2598.73578834816	2548.98377723592	3640.15741338935	-44.4462613064896
62.69291	4287.71180719344	-4625.17244074676	6306.87661590025	47.1683035770648
53.57697	5020.29638052304	-2720.37886058202	5709.97696084619	28.4522074807701
45.65746	6809.6810127572	-4478.11073979765	8150.16756228956	33.3292987174371
38.96512	5044.6358665449	938.691622822821	5131.2272400264	-10.5408821739382
33.18414	1648.65881617727	3783.95491824646	4127.51628894189	-66.4573746572242
28.30617	7188.21524303673	2167.61959467268	7507.93001348804	-16.7807821742136
24.17237	283.209933393466	-4618.78326878223	4627.45791448776	86.4911877386505
20.61345	3700.28408211203	3702.19493293787	5234.34328352684	-45.0147901378641
17.55618	2926.98043798522	-1442.43146949815	3263.10021736181	26.2343222332864
14.98558	3400.50655860284	-181.787642773536	3405.36218369884	3.06006158660163
12.76553	2026.11377722152	4842.62071963766	5249.39162879956	-67.2959556861777
10.8809	0.645705937018305	-0.383780539216387	0.751148227303978	30.7254748287312
9.278505	0.633549484191288	0.187340660632304	0.66066744436607	-16.4729548692016
7.923394	-0.0478189267173706	-0.690315141614993	0.6919693956349	93.962614682936
6.75822	2.86147463534355	2.56192082333667	3.84076494903822	-41.8385584935107
5.761429	1.72014917875108	-0.548372318049832	1.80544326866322	17.6819416535513
4.919708	2.95557309747169	0.259906089695039	2.96697885229385	-5.02552741265148
4.191257	1.11739924854259	-2.30488703179395	2.56146155738779	64.1360934460312
3.564097	2.79037319982539	1.05344415714996	2.98260409483679	-20.6829284266859
3.051758	2.62761344307818	0.833874131234039	2.75675506220384	-17.6068555344994
2.604164	2.47538142552165	-1.19268029241545	2.74772623849862	25.7255471703662
2.214424	2.85893879174561	2.87181373178671	4.0522641973379	-45.1287227954258
1.892567	2.64001140230753	1.94221644780213	3.27747844148927	-36.3413550351737
1.607507	3.50421425035223	-2.29446054015641	4.18856379713936	33.2156468091949
1.376413	3.69667854631788	2.6340514779333	4.53912540730144	-35.4715993725871
1.17375	3678.44578097323	1180.60868444971	3863.26289933235	-17.7941955447733
1.001604	6.68026548944757	1.28219225628047	6.80220287786021	-10.8650616944233
