EC-Lab ASCII FILE
freq/Hz	Re(Z)/Ohm	-Im(Z)/Ohm	|Z|/Ohm	Phase(Z)/deg
6999984	16.9982397960334	1.35527159243465	17.0521821844805	-4.55855592342175
5969734	18.7876472598396	-3.03311436047157	19.0309083410082	9.17081403506552
5091109	11.1584631708274	-5.70196293780544	12.530909052372	27.0669846082162
4341796	8.79555149433588	-6.86742942479497	11.1590014335537	37.9821629209796
3702781	5.39169153910224	-5.52834918573423	7.72223946612866	45.7169842932646
3157797	4.10006961511858	-4.90367950773906	6.39192017811851	50.1002947725098
2693047	2.84039923139565	-3.80073425571447	4.7448338934334	53.2281687789542
2296687	2.12238719684206	-3.67915291790263	4.24743376718585	60.020709490945
1958656	1.80360424090657	-3.23326984271247	3.70229957372578	60.846055194831
1670375	1.45367455811577	-2.83681698019407	3.18758534003883	62.8679659580681
1424531	1.15922938580912	-2.43353457429166	2.69553395326348	64.5289133103729
1214875	0.972310648245966	-2.02582191215177	2.24707419024088	64.3609220848405
1036062	0.783037544037101	-1.83323855298934	1.99346717744189	66.8710501853086
883578.1	0.695393585894232	-1.5646819552084	1.7122505249693	66.038141438527
753531.2	0.624938932343648	-1.34905116654511	1.48677090337266	65.1443845739024
642624.9	0.565646781849774	-1.17981453833876	1.30840308265171	64.385215495354
548046.8	0.537782589578121	-0.998626754077517	1.13422462837515	61.6965537459231
467390.6	0.511026460143095	-0.861855475283621	1.00196951213235	59.3347071228349
398593.7	0.485446495843944	-0.746709850804634	0.890636795565871	56.9715426968178
339937.5	0.466521694749596	-0.646094826129591	0.796919704878391	54.1683123066725
289906.2	0.449222024613911	-0.55898631652081	0.717123510600318	51.2133569627987
247234.4	0.435824333676943	-0.482450186035359	0.650154621479002	47.9067258538515
210843.7	0.425334073819059	-0.415467683943889	0.594577556550208	44.3276934203652
179812.5	0.418202040491469	-0.357233150443331	0.550007700352364	40.5043460534572
153343.8	0.413319862326078	-0.308324657942174	0.51565240549076	36.7218734956539
130781.2	0.409077107917479	-0.268419775815337	0.489278301451112	33.2712580927903
111531.3	0.405513168860708	-0.233071726772774	0.46772145550562	29.8884579745584
95109.37	0.395567672105369	-0.21114702049451	0.448393630060207	28.092510306565
81109.37	0.387436436384889	-0.188575851833774	0.430891916997123	25.9534468629574
69171.88	0.381841000163573	-0.167192415440428	0.41684032097042	23.6466271065135
59000	0.364117895876689	-0.133466485487174	0.387808128906506	20.1302819853925
50312.5	0.346394031391969	-0.0938683379915178	0.358887294092826	15.1622795353721
42906.25	0.397580375551264	-0.112696686057176	0.413244114382473	15.82571882551
36593.75	0.368949445615902	-0.0980246596501495	0.381749299042983	14.8789404465241
31203.13	0.360759123162743	-0.0897648255808007	0.371759154368394	13.9727045611215
26609.38	0.353771381540052	-0.0775019326132523	0.362161207137852	12.3567745027802
22703.13	0.349911263120896	-0.0697245114823568	0.356790414053285	11.2693464442455
19359.37	0.34661748324769	-0.0611934540082281	0.351977724446334	10.0120936952341
16500	0.343080218807418	-0.0556020468216185	0.347556648832531	9.20572435352284
14112.02	0.340416290055747	-0.0494453044980608	0.343988500784873	8.26438907359061
12011.13	0.338079158615207	-0.0443333987005848	0.340973558696728	7.47075085408719
10236.38	0.336368350260855	-0.0408425508622934	0.338838871763776	6.92308341603345
8750.684	0.332273354520527	-0.0360605278145739	0.334224391375898	6.19388003017045
7449.463	0.331484684056252	-0.0311559963666267	0.332945629004903	5.36941324354223
6363.206	0.336931266765434	-0.0314286135573749	0.33839390696982	5.32907300406045
5414.761	0.247520900212187	-0.108443438875856	0.270234297373729	23.6591061272914
4620.567	0.322657405909905	-0.0224518875652965	0.323437611980663	3.9804701560245
3941.215	0.320629943167949	-0.023364852379374	0.321480134351397	4.16787433757148
3361.769	0.323577565629219	-0.0247122746483133	0.324519856860601	4.36731693535196
2867.244	0.322540119822952	-0.0201725255046332	0.323170326114015	3.57877059177387
2442.658	0.322129382198276	-0.020506969154268	0.322781465792783	3.64257173409287
2083.003	0.320432127100223	-0.01903914585535	0.320997254120459	3.40035096141234
1777.843	0.320114551486368	-0.0186984243801433	0.320660189527198	3.34294345512921
1513.548	0.317203127422969	-0.0178086737542891	0.317702648569065	3.21337248750714
1292.065	0.315604130041212	-0.0155722304666126	0.315988071390006	2.82474151760565
1101.762	0.31502163494435	-0.0165250730571976	0.315454764621739	3.00280935188098
939.101	0.313398648546662	-0.0149282578933305	0.313753989288748	2.72713414650055
801.2801	0.311288303599046	-0.0115774546401211	0.311503523918295	2.12996659269427
684.3433	0.312026935566892	-0.0146103008828899	0.312368803517819	2.68085061580988
582.9476	0.307338588877189	-0.0178986421412175	0.307859334117907	3.33300034555251
497.0677	0.308069529008543	-0.00878200187828989	0.308194675912053	1.63286325301861
423.5089	0.307355885401166	-0.012491781082359	0.307609630677169	2.32737576325982
361.5036	0.304857224711001	-0.013363439077923	0.305149977818257	2.50995793200298
308.1262	0.307917524134025	-0.0144322659723494	0.308255562755848	2.68352117209299
262.7298	0.303325955008125	-0.0157721933825956	0.303735735575663	2.97655699866588
224.2111	0.303045386320739	-0.0132375713905762	0.303334369082382	2.50119339661087
191.2854	0.312702424589038	-0.0164052769278106	0.313132463112564	3.00314968881128
163.1722	0.292398660204114	-0.0306730489612783	0.294003082333743	5.98850903808375
139.1537	0.315793733122998	-0.0223421605180988	0.316583091804309	4.04688856955166
118.6706	0.30076021231388	-0.00304312649493072	0.300775607272189	0.579705519084079
101.1982	0.313662776087079	-0.0106437717838567	0.313843315972222	1.94351810474957
86.24196	0.282630984539031	-0.0206671586041407	0.283385611607701	4.18226302668061
73.61024	0.270819167278213	-0.0254783240996745	0.272015011284659	5.37449537918504
62.69291	0.703000807949011	-0.0631783585789549	0.705834003834962	5.13534967099097
53.57697	0.328492987429693	0.0104724694457584	0.328659877999698	-1.82599070998115
45.65746	0.269505908271172	0.00900919805307857	0.269656448546348	-1.9146032166605
38.96512	0.28495033917184	-0.0083207223848115	0.285071798351137	1.67259615723755
33.18414	0.290610951997891	0.00639032650155277	0.290681202856182	-1.25969011147195
28.30617	0.256276071905801	-0.00365779225929808	0.256302174153244	0.817719062674965
24.17237	0.304550132331726	0.0175978574368381	0.305058138212438	-3.30705165996883
20.61345	0.324592081618916	-0.0260334019658449	0.325634392329214	4.58550327444234
17.55618	0.25275532301235	0.0988933501454659	0.271413242149441	-21.3684781581379
14.98558	0.338801205341112	0.0359451504281086	0.34070267181208	-6.05614670579895
12.76553	0.28094823199424	-0.000323991611397406	0.280948418808958	0.0660738940049431
10.8809	0.359465204628178	0.0141764078811856	0.359744637039653	-2.25843175177173
9.278505	0.332421982036417	0.0547293952383821	0.336897136889257	-9.34921017415745
7.923394	0.172953064539585	-0.102041839389895	0.200811602054531	30.5404896749953
6.75822	0.377115921965545	-0.12880767555633	0.398507008573435	18.8581094153958
5.761429	0.483926715760916	0.0816703392603591	0.49076991609312	-9.57931002468199
4.919708	0.419456563065314	0.226271165782957	0.476594637782827	-28.3441476406085
4.191257	0.348213595737991	0.13880726180104	0.374860192852593	-21.7335496764614
3.564097	0.44863550679971	0.303968064671777	0.541913648381122	-34.1191726042265
3.051758	0.516411522956643	0.558031574024344	0.760315788768381	-47.2183227925797
2.604164	0.635472495799923	0.111606737026858	0.645198695494625	-9.96115201766898
2.214424	0.460289671146884	0.192812384556146	0.499042279774704	-22.728496617284
1.892567	0.640385936231434	-0.0559147717114101	0.642822377502953	4.99007851386673
1.607507	0.414718276818219	0.449449576172617	0.611552263219439	-47.3015048052768
1.376413	0.478827535559713	-0.23747370304579	0.534480653016055	26.3790341836026
1.17375	0.51318931103886	-0.0631455816531008	0.517059603379386	7.01472228578667
1.001604	0.263813592364265	0.00722218093385313	0.263912431335813	-1.56814194048063
