EC-Lab ASCII FILE
freq/Hz	Re(Z)/Ohm	-Im(Z)/Ohm	|Z|/Ohm	Phase(Z)/deg
6999984	1.40271195603369	137.10832977896	137.115504942393	-89.4138454516128
5969734	25.5438888686294	101.769469022485	104.926236393246	-75.909975065513
5091109	21.8316018588392	92.4402457897529	94.9832505307794	-76.7119440913576
4341796	20.4497018081431	92.9190840689153	95.1427689750941	-77.5881684474512
3702781	16.9591597058156	101.929912357669	103.331118890533	-80.5536261077098
3157797	20.5298478943234	109.271482907067	111.183324429851	-79.3593528795391
2693047	20.3350723176648	120.650229110393	122.351922545398	-80.4329611960552
2296687	18.1856896897199	137.249791504477	138.449357447094	-82.4522363534348
1958656	20.6289793585131	157.665238080176	159.009062912315	-82.5457430656001
1670375	21.0415718643093	180.799754194764	182.020050718068	-83.3617495574255
1424531	23.2878570344642	209.741477404001	211.03035712634	-83.664328569034
1214875	27.5997043001675	240.72637254897	242.30338445437	-83.4594961572748
1036062	30.8078862064225	277.116692834144	278.823936023866	-83.6563071599022
883578.1	33.0681598002405	319.894161954828	321.598784272198	-84.0981722115071
753531.2	36.4624731908499	371.097788369966	372.884808599484	-84.3883753347409
642624.9	39.3080811679375	430.862356777667	432.65170256583	-84.7872685517109
548046.8	43.2077365828301	500.531009492648	502.39247602282	-85.0662417021601
467390.6	153.524551246082	704.442499285832	720.977823955342	-77.7053383165554
398593.7	177.906429389986	797.237520463644	816.846596157022	-77.4203491092574
339937.5	202.644224705376	904.840299916198	927.254361089167	-77.3765751337094
289906.2	226.35554162168	1026.87729304304	1051.52927024893	-77.5690316570938
247234.4	249.545883210897	1170.0287863799	1196.344644651	-77.9602472396091
210843.7	271.826114536637	1337.29694330929	1364.64374513221	-78.5102867229347
179812.5	293.681184985374	1533.95653219571	1561.81666052078	-79.161682440219
153343.8	315.743165780489	1765.14775829025	1793.1648990916	-79.858399119098
130781.2	338.686276561501	2036.34112446246	2064.31430966995	-80.5569492629215
111531.3	364.697763413424	2354.07035223579	2382.15274109665	-81.1936199648709
95109.37	390.755240763662	2726.14817542115	2754.01044524823	-81.8430103298722
81109.37	423.075317675183	3157.282568504	3185.5024630041	-82.367839670212
69171.88	452.135922829495	3659.25902376281	3687.08604397869	-82.9562673258114
59000	480.27678822935	4230.53299655277	4257.70774340298	-83.5231517683138
50312.5	357.01002993142	4854.87166491542	4867.98059201866	-85.7942418766534
42906.25	1907.37581451933	6760.58681517833	7024.50116260054	-74.2445586424062
36593.75	2026.25602285225	7441.38042932173	7712.31846878987	-74.7678982924787
31203.13	2146.89492874473	8441.28534813221	8710.02044565117	-75.7303527967395
26609.38	2294.91216530107	9649.33037056001	9918.4776274718	-76.6218178301835
22703.13	2452.10596971789	11127.4271373982	11394.4046963776	-77.5725839954236
19359.37	2655.29622145398	12731.3973206851	13005.3479676945	-78.2191095714492
16500	2833.77196970875	14774.8052261631	15044.1062561843	-79.1426602414206
14112.02	3074.62203899771	17037.4139130594	17312.618910136	-79.7703355059864
12011.13	3397.16152318183	19795.3726418128	20084.757515161	-80.2621051815472
10236.38	3757.03335272409	22994.6370847288	23299.5415034688	-80.7205860092109
8750.684	4240.63599057882	26638.3285975443	26973.756580709	-80.9548111558604
7449.463	4825.35778572169	30934.4951951335	31308.5782292643	-81.1340896499568
6363.206	5556.61177598914	35965.9987980111	36392.7053675265	-81.2174550091484
5414.761	16665.1029481106	48767.8429901824	51536.668171179	-71.1335124064049
4620.567	18726.5826188914	54945.8528949211	58049.389720586	-71.1799219878105
3941.215	20972.1923432373	62078.6696573558	65525.5223413659	-71.3333600853465
3361.769	23606.2279873556	70414.0930360038	74265.7289594198	-71.4663435895964
2867.244	26485.7347598812	80214.3097395474	84473.8399314417	-71.7274404568375
2442.658	30018.7130328431	91677.2621434516	96466.8001245367	-71.8695339900299
2083.003	34291.3136004805	104872.948385409	110336.890891012	-71.8933117385279
1777.843	39487.1732915937	120846.460883044	127134.196668392	-71.904942781769
1513.548	46201.5939480535	137304.295607528	144869.102556826	-71.4024014996598
1292.065	54983.8650761029	157023.476574084	166371.865452423	-70.7016168204353
1101.762	65351.8936397566	178996.004255293	190552.983554871	-69.9427342207845
939.101	79521.3731593611	202900.970467021	217927.631578947	-68.5986898249666
801.2801	95528.4738000424	231928.363363505	250831.5272031	-67.6138326709162
684.3433	117955.349637587	257732.609207387	283442.343973114	-65.4080597512216
582.9476	232236.712484889	348038.549186005	418407.364114553	-56.2858898329627
497.0677	272756.270847586	372687.995851564	461835.820978123	-53.801011982526
423.5089	317649.817852784	395936.062256307	507608.877165222	-51.2607806795017
361.5036	362488.980937593	414412.476763289	550577.843904255	-48.8236244838214
308.1262	411028.815463518	438571.046633815	601073.414889415	-46.8567577759624
262.7298	460538.462553551	464749.696969948	654284.308481296	-45.2607666488917
224.2111	506946.336363331	475481.617676298	695037.665670194	-43.1655860428132
191.2854	530283.819456229	481705.418327583	716408.430452377	-42.2517470074693
163.1722	598270.023634739	534464.314381329	802233.834070227	-41.7759972318603
139.1537	638315.708742214	568658.785858119	854879.967457833	-41.6970092702236
118.6706	719385.217403541	563878.591515453	914042.75446403	-38.0905550766624
101.1982	811521.02129823	595324.052916003	1006467.63285724	-36.263415586302
86.24196	822513.877702892	549157.973813254	988991.182577746	-33.7293722274651
73.61024	938778.37172757	674825.933486748	1156155.21091665	-35.7098696012702
62.69291	678656.916873295	425508.503283953	801019.785764943	-32.0871434063273
53.57697	965217.064466695	535457.287015851	1103792.77391913	-29.0194643458394
45.65746	1133828.46081583	837366.677311877	1409521.17076273	-36.4469912638619
38.96512	1138764.52754406	621015.269957293	1297090.8274723	-28.6054565022338
33.18414	1040058.56705394	738819.607831363	1275764.96104039	-35.3885949768065
28.30617	1036773.6145536	739034.105486851	1273212.84037952	-35.4820730410821
24.17237	1449144.03790347	570001.888862222	1557215.65491029	-21.471547535904
20.61345	1451419.58021863	934421.376442483	1726198.74481321	-32.7733634983996
17.55618	1675773.90940352	846978.48149692	1877655.65095318	-26.813187223285
14.98558	1435775.29616899	1007342.76967979	1753907.1117694	-35.0535750948376
12.76553	1382256.30176369	849659.494516394	1622514.63487615	-31.5786376335707
10.8809	1591434.31831051	535025.459627983	1678962.60588095	-18.5821672116829
9.278505	904730.106138477	1366489.43217383	1638850.18631847	-56.4921145321641
7.923394	1893564.78915487	-155116.667254529	1899907.57438021	4.68308772723564
6.75822	1616990.97198403	285236.470832705	1641956.04319085	-10.0040321790566
5.761429	525597.131053734	1225200.16851401	1333179.58171383	-66.7812104030321
4.919708	1301437.48451637	60655.0180231908	1302850.16687096	-2.66840597249964
4.191257	1643410.3348699	842097.506693022	1846598.42400448	-27.1309897235103
3.564097	1643511.44230605	415868.73753947	1695310.19812115	-14.1998823268909
3.051758	1505041.09409987	-43766.6597515002	1505677.32779475	1.6656943076374
2.604164	1520124.34692825	726446.856440744	1684785.76245073	-25.5425043435557
2.214424	2093720.79239761	-105463.2641169	2096375.26616689	2.88362095246448
1.892567	173622.01207362	1803186.11944645	1811525.54065374	-84.5001594005709
1.607507	1550496.50358357	-555445.609620272	1646984.89151276	19.7094158369791
1.376413	2494016.23693607	-2163659.22184088	3301747.75207886	40.9429509752078
1.17375	440899.263752706	1430187.79755375	1496605.92576982	-72.8664805535576
1.001604	935022.15067875	965914.397885013	1344342.60748571	-45.9310355959475
