EC-Lab ASCII FILE
freq/Hz	Re(Z)/Ohm	-Im(Z)/Ohm	|Z|/Ohm	Phase(Z)/deg
6999984	-50.4334988633338	85.9437834937301	99.6487417322218	-120.405247181798
5969734	-27.37039417334	92.7986675088336	96.7508716685233	-106.433098389738
5091109	-13.7379231474934	92.741013761856	93.7530061703794	-98.4260704985641
4341796	-8.92201342709513	93.7526933222099	94.1762699875165	-95.4362048362329
3702781	-8.53759224926744	100.906783567904	101.267316797843	-94.8362034331719
3157797	-3.40607906822309	110.21302273028	110.26564176553	-91.7701343840883
2693047	-1.71178481397543	121.977646614921	121.989657270458	-90.8040129499388
2296687	-2.798167399638	137.330051790662	137.358555851546	-91.1672681920517
1958656	-0.777781773061879	158.094951777091	158.096864997024	-90.281876511236
1670375	-0.502777511736828	180.94111132856	180.941809856209	-90.1592062472985
1424531	1.12385804138025	210.682139426817	210.685136946957	-89.6943655881089
1214875	5.81707272597696	244.129303999163	244.198598288801	-88.6350239206915
1036062	11.5956084320987	278.336440724578	278.577874875477	-87.614414200225
883578.1	14.2812409920004	319.104135354589	319.423548043458	-87.4374848330886
753531.2	13.9110289989504	368.56036117451	368.822798314984	-87.8384406981211
642624.9	16.3245581497698	441.680061131659	441.981637175178	-87.8833032934799
548046.8	17.6629246027935	512.727602073762	513.031746419102	-88.0270011084987
467390.6	108.971754069033	704.290395797503	712.670895152513	-81.2046207545374
398593.7	169.485586426826	820.502177429603	837.824078893156	-78.3289455807758
339937.5	153.374993648691	907.449116981264	920.319394877024	-80.4066624332587
289906.2	186.262319910298	1012.71833291554	1029.70484782854	-79.5784519403971
247234.4	203.552937401794	1165.76383213827	1183.40150018775	-80.0954890547232
210843.7	208.060402773237	1351.08008058888	1367.00640648324	-81.2454726453303
179812.5	242.663565772815	1529.64536822111	1548.77388881459	-80.9856935810179
153343.8	326.287097883131	1769.96128133678	1799.78504485294	-79.5549606707967
130781.2	320.159606399164	2007.57199383223	2032.94060021172	-80.9389975207148
111531.3	379.917082652259	2355.81255176187	2386.250147979	-80.8389017939054
95109.37	351.129415118727	2799.56474124367	2821.49864550319	-82.8511295704049
81109.37	410.897642210721	3235.70993356013	3261.69521054835	-82.7628367741752
69171.88	361.354337440507	3662.82561207351	3680.60707243367	-84.3657435018332
59000	510.227672978567	4248.65047231784	4279.17785493893	-83.1520470044076
50312.5	152.738061987447	4834.27336117601	4836.6856261448	-88.1903513758905
42906.25	1827.49924510068	6573.07132811709	6822.39108929988	-74.4625690834535
36593.75	1770.82274246743	7461.55429848341	7668.8073215107	-76.6492052127908
31203.13	2181.21535324635	8616.5075181628	8888.3014253452	-75.7943521824556
26609.38	2289.30297206492	9597.77068969597	9867.0213494191	-76.5842317988229
22703.13	2394.10356443348	10953.9374677732	11212.5143444777	-77.6712473277451
19359.37	2620.05788282492	13001.5683714014	13262.9364556111	-78.6064290409577
16500	2417.4122597082	14837.4477734338	15033.0881212997	-80.7463118142123
14112.02	2626.83861883245	17425.9636476155	17622.8400145211	-81.4276159284023
12011.13	2650.35817018142	19961.0575792193	20136.2414097357	-82.4367091971867
10236.38	3442.73543615022	23019.2929078566	23275.3146758754	-81.4939644410785
8750.684	3274.37682783431	27370.8289290432	27565.9902755843	-83.178116584086
7449.463	12874.6277751599	15923.299647059	20476.9995848745	-51.0430681765078
6363.206	-5119.51063294096	16333.5515956478	17117.0761769785	-107.402829457997
5414.761	14565.7549344912	49449.5965437198	51550.2067420522	-73.5872614598321
4620.567	15977.4006140462	55902.7716664	58141.1834276478	-74.0496956962822
3941.215	17267.8820945836	63435.4332619173	65743.6989008042	-74.7723673632807
3361.769	18555.7216455767	72292.8990389651	74636.3052223656	-75.6044166733697
2867.244	19743.0633168965	82564.9255410686	84892.6114496261	-76.5518596833981
2442.658	20964.5062726637	94937.53635678	97224.7207902984	-77.5475457397764
2083.003	22066.1876284973	109473.503047304	111675.263625855	-78.6037934351001
1777.843	22043.6132590296	127447.129775517	129339.443997302	-80.1870477103851
1513.548	25213.8111016349	146240.877078973	148398.552550543	-80.2176436566451
1292.065	26748.7382986668	169348.819687925	171448.294626293	-81.0242536406302
1101.762	29123.5260912243	197009.186809488	199150.193219394	-81.5909661957941
939.101	30945.6057811082	229457.577718619	231534.901234471	-82.3191955534054
801.2801	36493.6821929277	263147.882709507	265666.326459518	-82.1045082675699
684.3433	34696.8260666869	305821.795542355	307783.755854418	-83.5272197686592
582.9476	143711.788605225	432977.953660812	456204.98302892	-71.6382309281356
497.0677	158872.807115827	495169.860328366	520032.45996618	-72.2114179063845
423.5089	160410.456354319	547571.622510326	570584.083449925	-73.672116509291
361.5036	167395.912287281	614840.248614363	637220.4663746	-74.7698463489822
308.1262	187313.057471794	702791.110231449	727324.910971557	-75.0760349947001
262.7298	188310.995609223	814762.966471569	836241.426025336	-76.9861043963277
224.2111	194872.496732777	935753.823017148	955829.748058761	-78.2361837137441
191.2854	218677.714008254	1018969.05357287	1042169.7917053	-77.8876534869661
163.1722	135871.089097988	1185107.67967402	1192870.97595466	-83.4596680446133
139.1537	374803.0736078	1470219.11616387	1517241.44206501	-75.6982098644326
118.6706	245915.883767993	1645885.60171624	1664155.65252359	-81.5021577375489
101.1982	60948.0825414021	2020458.47154998	2021377.52634771	-88.2721697490352
86.24196	228951.811720049	2392646.0669888	2403575.28152685	-84.5340212062631
73.61024	362114.032329008	2526491.4384528	2552309.84815419	-81.8435259918878
62.69291	1405643.00761989	593255.076149979	1525707.6555646	-22.882295678231
53.57697	-123596.569080493	2899526.75251228	2902159.79925691	-92.4408387790685
45.65746	739112.409315654	3606934.71978455	3681883.38033562	-78.4195875039655
38.96512	-206079.17393286	4252249.82422584	4257240.56092177	-92.7745866947322
33.18414	3456109.327129	4387613.88161208	5585324.27484592	-51.77260960747
28.30617	-1001083.90087962	5749969.57650477	5836464.60687725	-99.8763412695992
24.17237	1896470.71185914	4963483.57936506	5313451.83506598	-69.0889125144805
20.61345	5848222.74358306	5361327.53420429	7933822.67180073	-42.5128782521781
17.55618	3857987.21503629	12437614.6796681	13022224.2443939	-72.7667858972048
14.98558	1684095.78371466	7437282.13843078	7625571.73039156	-77.2411279109404
12.76553	10732076.6622377	3235474.40585322	11209182.1340845	-16.776851683739
10.8809	4009723.56573957	3247549.8605082	5159889.84089138	-39.0046576725921
9.278505	3935370.19640513	3474920.32823076	5249972.36852777	-41.4444093670843
7.923394	7891404.85355872	2366872.72999161	8238710.88719273	-16.6955890796556
6.75822	5964397.54765347	539174.586919374	5988718.33881293	-5.16543167410873
5.761429	6590764.70959671	4105346.37737599	7764795.44711253	-31.9185219272203
4.919708	6789163.48166299	-6241411.57645403	9222145.04589039	42.5929376448917
4.191257	8307342.10677648	2709953.57313304	8738179.51564043	-18.0669406439894
3.564097	8617856.52250787	-14571.2321975345	8617868.84115436	0.0968766780289713
3.051758	7539189.46254754	3312461.86019311	8234790.90975732	-23.7190432422401
2.604164	10140119.9889844	1093472.04717891	10198907.5154628	-6.15477566065277
2.214424	11430984.5660095	4228433.4973593	12187988.2667296	-20.2999290589528
1.892567	13848857.9654161	-4533513.76228273	14572014.7535979	18.1261959391619
1.607507	14239397.8029414	-11259540.1294135	18153173.1032425	38.334531964985
1.376413	4207839.48027893	15589949.678762	16147830.9403501	-74.8953814018953
1.17375	18884548.3538522	-13522730.6538537	23226932.8768491	35.6054595022635
1.001604	7171638.79264802	-37842783.3222914	38516342.6684064	79.2690547310265
