EC-Lab ASCII FILE
freq/Hz	Re(Z)/Ohm	-Im(Z)/Ohm	|Z|/Ohm	Phase(Z)/deg
6999984	20.4744351464998	7.20039887733812	21.7036457435381	-19.3756278142698
5969734	20.4946860042682	-1.76900158525982	20.5708901368462	4.93326573777495
5091109	13.8607027867972	-4.82676517754505	14.677082265324	19.1998443627236
4341796	10.1620227066287	-6.78496589291443	12.2189388924755	33.7301915571122
3702781	5.94050703349825	-4.87759783587171	7.68638955970503	39.3885393953297
3157797	4.35348505591116	-4.87341402869442	6.53475297368748	48.2251643372293
2693047	3.46889328360331	-4.95277853718456	6.04675415834182	54.9928558696453
2296687	2.17423926909549	-3.72423004438207	4.31244777623509	59.7232298037131
1958656	1.70183458107099	-3.18252685951349	3.60897743867343	61.8646595630145
1670375	1.23718684949894	-2.77762106882448	3.04069237223215	65.9912161951058
1424531	1.06362721513434	-2.43493394955801	2.65710485142845	66.4033447371434
1214875	0.650242110241812	-2.22046712207572	2.3137175804646	73.6778460872423
1036062	0.604963126400614	-1.83486913662823	1.9320261729219	71.7524214167052
883578.1	0.516803934839066	-1.54435672190502	1.62853430776215	71.49768438099
753531.2	0.449711019966495	-1.29335479334404	1.36930881211848	70.8269799860099
642624.9	0.464052624911844	-1.10293631816592	1.19658403825931	67.181421422931
548046.8	0.510024973012008	-1.01597587122163	1.13680800665743	63.3431198575701
467390.6	0.48093615478634	-0.876202429375041	0.999515023510599	61.2381875098185
398593.7	0.455681117890717	-0.756608809773416	0.883233928372817	58.9407986386824
339937.5	0.434162211920244	-0.656231779165288	0.786852574657997	56.51142320986
289906.2	0.416069350981424	-0.566968089528279	0.703254235230369	53.7269285396156
247234.4	0.400140706081499	-0.490269172161791	0.632832083443632	50.7798685541586
210843.7	0.38810573764888	-0.423828823203103	0.574679854330834	47.5192459561604
179812.5	0.378055414767671	-0.36384861768846	0.524701546813957	43.9029712659907
153343.8	0.370390224237731	-0.315830742190326	0.486762751166694	40.4541377618699
130781.2	0.367391544846025	-0.274526126954944	0.458629634460346	36.7682028629682
111531.3	0.362698492917577	-0.238748038218341	0.434224391896388	33.3551047365298
95109.37	0.356990301764021	-0.208340167493725	0.413337272629604	30.2679107335397
81109.37	0.350197686588649	-0.180652067105334	0.394047698941983	27.287281150866
69171.88	0.346098695083113	-0.157647243294005	0.380311661741305	24.4891672738313
59000	0.33786975680757	-0.131989117705856	0.362735578290822	21.3381457724637
50312.5	0.331704929832796	-0.0976050216513412	0.345767119210226	16.396654079624
42906.25	0.381029909384283	-0.102380338843262	0.394544706753311	15.0397926179291
36593.75	0.356784939654929	-0.0931108045083758	0.368734477748919	14.6263577321186
31203.13	0.347023974326473	-0.0892735206107837	0.358323038946122	14.4267793433407
26609.38	0.339018654229562	-0.0707909153102625	0.346330769072122	11.7945310184183
22703.13	0.342504318870234	-0.063135818249622	0.348274805277115	10.44441899955
19359.37	0.339730110704386	-0.0575681209967457	0.34457312239104	9.61755495750697
16500	0.337428555644103	-0.0515123287885929	0.341337882722222	8.67984077083996
14112.02	0.33546000722122	-0.0465603732849837	0.33867578125	7.90191878365699
12011.13	0.334045439455337	-0.0416253085373613	0.336628908342317	7.10299789328247
10236.38	0.332113187032483	-0.037905222684429	0.33426931493577	6.51118978669185
8750.684	0.331150021729523	-0.0350075553232035	0.332995293992529	6.03461495185793
7449.463	0.329495471476999	-0.0320196379308614	0.331047614305062	5.55044842623853
6363.206	0.327316662714261	-0.0290035880472816	0.328599156739663	5.06376375110953
5414.761	0.325176416177415	-0.0267071093310581	0.326271315513345	4.69522927587226
4620.567	0.323167692653769	-0.0245375439196234	0.324097899772227	4.34203459968402
3941.215	0.320998493036101	-0.0224157090805177	0.321780199118948	3.99454830200866
3361.769	0.319923484282676	-0.0214893461836136	0.320644394610239	3.84280042996826
2867.244	0.319176511787059	-0.0204574407539299	0.319831443980661	3.66732465675811
2442.658	0.316822602922944	-0.0193782208357711	0.317414676985217	3.5000937462199
2083.003	0.315529186088243	-0.018605462058491	0.316077253993258	3.37458963302767
1777.843	0.313546334253288	-0.0180466738646348	0.314065257806799	3.29411828365934
1513.548	0.312008831327641	-0.0167495388194894	0.312458089793025	3.07285401529351
1292.065	0.310836750956358	-0.0152425418344705	0.311210251802026	2.80737172908847
1101.762	0.310564565982023	-0.0148498219920439	0.310919389644322	2.73754536259587
939.101	0.308056092759741	-0.014761510572192	0.308409562888006	2.74341531520699
801.2801	0.307670979154675	-0.0123645101561794	0.307919327950356	2.30133253963995
684.3433	0.308249517326805	-0.0116563904800845	0.308469830568943	2.16559597318448
582.9476	0.305622369676503	-0.0131372557289551	0.305904593516947	2.4613585059044
497.0677	0.303156192932784	-0.0146432211106177	0.303509639448229	2.76538366298789
423.5089	0.302332535241194	-0.0137298517958274	0.302644132101885	2.60019133628475
361.5036	0.30042177809576	-0.0108624747717169	0.300618093454775	2.07076515555458
308.1262	0.304234049958172	-0.0142339986364119	0.304566846309859	2.6787066077405
262.7298	0.302419404138319	-0.0140193332586656	0.302744178646582	2.65417484678418
224.2111	0.300291454454647	-0.0157142605429611	0.300702337208907	2.995557425068
191.2854	0.29329836693099	-0.0226518808354672	0.294171786121255	4.41627388711471
163.1722	0.300757734789384	-0.0173735034085766	0.301259113814552	3.30606101594105
139.1537	0.294972933621765	-0.0036302381756489	0.294995271485226	0.705104780999796
118.6706	0.293104674853201	-0.0127555349565506	0.293382095726423	2.49186564370614
101.1982	0.296849928086843	-0.0117070864904576	0.297080688835977	2.25844492980102
86.24196	0.291797767798142	-0.00280075718566558	0.291811208716854	0.549924146921431
73.61024	0.303333727962305	-0.0221105434428412	0.30413849912638	4.16901968020395
62.69291	0.207590200114104	0.0670946429166095	0.21816365941999	-17.9112049856949
53.57697	0.276347273660027	-0.0200764246500326	0.277075582623331	4.15519592748083
45.65746	0.300165465583302	-0.0423486532611218	0.303138112354536	8.03053634950796
38.96512	0.281486600175489	-0.0191897122197059	0.2821399495524	3.89997588834437
33.18414	0.295989363431547	-0.0182575511927807	0.296551920311047	3.5297110805658
28.30617	0.273609216617242	0.012155821668272	0.273879110956516	-2.54384552079599
24.17237	0.268637982815993	-0.0471350369651831	0.272741778100009	9.95177842814064
20.61345	0.258029462749372	-0.050729851513899	0.262969050424859	11.1227666515172
17.55618	0.268691239599682	0.0321450694370186	0.270607257343044	-6.82219700746681
14.98558	0.27653462627378	0.0087972481866733	0.276674521964053	-1.82210548317237
12.76553	0.234878090943038	-0.00795028707466619	0.23501260534196	1.93863994208182
10.8809	0.239147765476423	0.0617571374299128	0.246993112770181	-14.4796346999415
9.278505	0.284457469952533	-0.118356285252855	0.308097813154608	22.5910841492778
7.923394	0.223318117199642	-0.0917893268740275	0.241446188616801	22.3438872381466
6.75822	0.0898676430506131	0.0559944503764312	0.105884709663062	-31.9260792405381
5.761429	0.107474087630524	-0.0817368408898261	0.135024407684915	37.2539335633683
4.919708	0.157022410976861	0.146140421241999	0.214506550645371	-42.9442581761321
4.191257	0.154196524172632	0.0238145544782501	0.156024680970411	-8.77955834550453
3.564097	0.116903950591865	0.00475623792551781	0.117000664370717	-2.32979421811307
3.051758	0.122348018958442	0.0233000604840528	0.124546901051836	-10.7823437775402
2.604164	0.115985699589877	0.0645805723309685	0.132752901406894	-29.1089603534388
2.214424	0.0996296855122928	0.0247835034911747	0.102665945086847	-13.9691522227917
1.892567	0.136070961427712	-0.0516349405591626	0.145538564066058	20.7802854152346
1.607507	0.0931729657418614	0.0371485597529449	0.100305618171926	-21.7374343303124
1.376413	0.10095559986587	0.00030130045943663	0.100956049478199	-0.170997878858086
1.17375	0.10706305500396	0.02108965488452	0.109120443959549	-11.1436509631497
1.001604	0.210477320543232	-0.0195070872256048	0.211379348364702	5.2950599375103
