EC-Lab ASCII FILE
freq/Hz	Re(Z)/Ohm	-Im(Z)/Ohm	|Z|/Ohm	Phase(Z)/deg
6999984	-7.08286902319056	-20.804101619177	21.9767531218948	108.801419435911
5969734	28.0034423864204	1.39765153556509	28.0382990800875	-2.85726088318389
5091109	43.0633212892267	-1.97193605915385	43.1084466465745	2.62183080629125
4341796	-0.126457862785051	0.78206084421707	0.792218880813679	-99.1851249855534
3702781	4.47142899311452	6.99621719634548	8.30305560013332	-57.4165017205164
3157797	27.7155958612813	-10.191296396135	29.5299301756667	20.1889700523477
2693047	6.432507824239	-20.313040923149	21.3072003898781	72.4286262065186
2296687	20.7035468493108	-18.0008086802515	27.4347583420125	41.0055007777023
1958656	16.9771025962171	-16.752193550795	23.8507442509826	44.6179538393785
1670375	23.4539548377447	-19.1172998140389	30.2582079725621	39.1834491525626
1424531	21.9477588102944	-29.0249485857981	36.3888960701349	52.9045679458422
1214875	40.4219910946836	-1.20828033647868	40.4400458138984	1.71215602820236
1036062	50.5031381531864	4.8734417829517	50.7377315036024	-5.51185055141175
883578.1	70.0625787423617	41.0446737158772	81.1999395349064	-30.3629988092196
753531.2	9.25010186193868	46.5976938749055	47.5069411656407	-78.772185731089
642624.9	63.2549716188785	13.4853612168305	64.6764748703385	-12.0347493036049
548046.8	14.6732349331037	-5.869723295146	15.803717124893	21.8028546513604
467390.6	5.47565243849802	11.9730718839559	13.1657593767168	-65.4239306821467
398593.7	-0.113216705765031	7.67116095862	7.67199638135473	-90.8455523900857
339937.5	2.69872994321989	6.42390402074546	6.967760484846	-67.2123611438681
289906.2	7.02277474587925	-4.35256951849187	8.26221680571649	31.7897725810764
247234.4	4.08498963353609	2.2422147217089	4.65989990926259	-28.7619943014415
210843.7	2.00582926812597	1.07230919117118	2.27446654280536	-28.1288014533085
179812.5	1.64488627480105	0.908171191218484	1.87894272653215	-28.9038758402497
153343.8	-0.292810576433543	-1.87895273348213	1.90163124930448	98.8575650140771
130781.2	2.54779552624662	1.76479305618601	3.0993155009977	-34.7093592402569
111531.3	-1.30349174230184	8.00158499455233	8.1070619306438	-99.2524475264813
95109.37	11.1354681584926	2.32507294445549	11.3756149418764	-11.7938491986421
81109.37	60.4319508607762	-9.7473416294289	61.2129998748637	9.16258063154949
69171.88	-4.12833399336613	5.02059153048531	6.49996006732065	-129.429790821345
59000	-3.59801636262617	1.03363053326072	3.74354295087081	-163.971812007956
50312.5	-0.372422124248425	2.15232882615758	2.18431170269689	-99.8168109546851
42906.25	-1.21006565594905	2.07491203804386	2.40198227664709	-120.250262098215
36593.75	-0.260544853678623	1.77195839744409	1.79101093884181	-98.3647067187056
31203.13	-1.97022354369684	0.581604261865769	2.05427464803462	-163.55355281751
26609.38	-1.38537748060372	1.06764557842745	1.74903912046003	-142.380241273128
22703.13	-0.837996796923463	0.253183860749414	0.875408875325103	-163.188865180909
19359.37	-0.172455311695987	0.432212971985273	0.465348136006262	-111.752266672394
16500	-0.569271672894363	0.0876760195674547	0.575983786201607	-171.244422597331
14112.02	-2.0565856374379	0.301759184346952	2.07860604479386	-171.652655026361
12011.13	-0.562459631328535	0.0718758771149383	0.5670334898269	-172.71772627173
10236.38	-0.558844557899167	0.0635388416208491	0.562445041126718	-173.513507353387
8750.684	-0.556265813267774	0.0591177496453786	0.559398394110666	-173.933600008777
7449.463	-0.672784143897674	0.188180744295477	0.698606109910103	-164.373455422342
6363.206	-0.553683999806742	0.0526736751758941	0.556183861415025	-174.565629752586
5414.761	-0.549084982035624	0.0454891702268643	0.55096604442106	-175.26412260063
4620.567	-0.547690122832838	0.0401779034553225	0.549161847340758	-175.804364505659
3941.215	-0.123531403828399	0.618969753504508	0.631176333115593	-101.286562290755
3361.769	-0.560900857265537	0.0958382748183057	0.569029653534298	-170.303797785064
2867.244	-0.541906130951686	0.0352369395811549	0.543050547070963	-176.27963299672
2442.658	-0.534890549500696	0.0349284774381255	0.536029755220083	-176.263876657354
2083.003	-0.124165949918523	0.521609281258165	0.536184133869912	-103.389718469341
1777.843	-0.537073104743135	0.028019592307052	0.53780351188095	-177.013534636503
1513.548	-0.140704618216356	0.526596694360844	0.545070516629894	-104.959737419559
1292.065	-0.52436676005887	0.0299453343657268	0.525221117344792	-176.73152480974
1101.762	-0.531468267548496	0.0269284054078173	0.532150033758157	-177.099421009993
939.101	0.439929225508154	0.289251844620739	0.526501997216254	-33.3247723508555
801.2801	0.441081548616397	0.284326651031281	0.524780503655103	-32.8063314899314
684.3433	-0.545634240586542	0.0459829532961714	0.54756840348425	-175.182819889501
582.9476	-0.506216788464619	0.0357214059988127	0.50747557159923	-175.963589476926
497.0677	0.415853021005871	-0.296186666589681	0.510548995244547	35.4599454110342
423.5089	0.43938693191304	0.312661421419694	0.53927547726569	-35.4351076906152
361.5036	-0.485716628941814	0.0489955559221035	0.488181531943513	-174.239903246054
308.1262	-0.508197315845496	0.0125990911311068	0.508353468494017	-178.579829361052
262.7298	0.427978112737012	0.291902517278798	0.518046662546564	-34.2959472727582
224.2111	0.400590116030982	0.262211886855658	0.478777103326924	-33.2073160028537
191.2854	-0.103397066240665	0.483079990210889	0.494021487639282	-102.081140161042
163.1722	-0.116506978964146	0.494411698748822	0.507953545126961	-103.259714345626
139.1537	-0.116328214244769	0.417871045104093	0.433760837058585	-105.556301075849
118.6706	-0.158243297926682	0.485778824139338	0.510903129096809	-108.043109794055
101.1982	0.446084838940329	0.251249287895534	0.511974499560703	-29.3896065406498
86.24196	0.440877516532164	0.281376972176309	0.523016237849912	-32.5468446340946
73.61024	-0.0969590635766593	0.459135432105197	0.469261552893574	-101.924378908294
62.69291	0.383534134765373	-0.246757239496577	0.45605654010681	32.7563180039944
53.57697	-0.144355759981709	0.516146702905105	0.535953360246679	-105.625227898603
45.65746	0.384128709123534	-0.412012228946844	0.563301821384113	47.0058700421452
38.96512	0.438118890453076	0.218454896023308	0.489561746635078	-26.5017674728976
33.18414	0.49703507174859	0.268809965430651	0.565068721540092	-28.4057176852732
28.30617	0.597786196079113	1.02552577676637	1.18703473202557	-59.7617898633254
24.17237	0.826143319341564	-0.712324403396687	1.09083401109754	40.7688520195794
20.61345	8158.16705324396	-10116.1781553478	12995.8743507073	51.1156447404171
17.55618	5322.37680374547	-7097.31090338574	8871.27481821897	53.1332354018789
14.98558	4438.82542082586	3957.03782527288	5946.53844410429	-41.7157449901244
12.76553	3.97665057614666	-2.609996952484	4.75666205408198	33.2781106680201
10.8809	2629.77355926829	-3978.0971656049	4768.74889588667	56.5327773468846
9.278505	1700.66944441741	4633.56502660069	4935.8080812479	-69.8452168040532
7.923394	3.87859209547892	1.82649965766499	4.28714096369153	-25.2166002201073
6.75822	13.8460717361878	4.17731910323754	14.4624927800823	-16.7884082424668
5.761429	4.26500019926632	1.62721978322074	4.56487359328237	-20.8832860380652
4.919708	4258.51289862427	323.294997839897	4270.76711649998	-4.34141580526527
4.191257	1.96525157166501	-1.13278048257791	2.26834859791021	29.9593557721279
3.564097	2.6561376280703	-2.32328484441219	3.5288411082856	41.1757150794797
3.051758	3549.82561811173	1073.16827418309	3708.49727837509	-16.8208949494507
2.604164	2487.74098383219	-234.879069751525	2498.80439011254	5.39356971714274
2.214424	3.79273165419576	1.27325825119217	4.0007499265722	-18.5574211645112
1.892567	3.29958537895208	1.46707304063126	3.61103405959309	-23.9710529988504
1.607507	4.29358969496236	-1.28261492999357	4.481072809867	16.632351727807
1.376413	1898.90040966212	168.62582218712	1906.37284750996	-5.07465854358394
1.17375	-26.2904844906824	77.4988041519879	81.836753477536	-108.738852444683
1.001604	54.9457443401882	7.19014877691024	55.4141954785182	-7.45530964150842
