EC-Lab ASCII FILE
freq/Hz	Re(Z)/Ohm	-Im(Z)/Ohm	|Z|/Ohm	Phase(Z)/deg
6999984	22.0323745054405	26.7734000488541	34.6733395640508	-50.5483420387242
5969734	8.73646545372047	9.40981312167591	12.8401873665814	-47.1250796410001
5091109	3.47942253869154	27.1943068300637	27.4159936017355	-82.7088068540944
4341796	6.48678349748303	25.5812353764726	26.3908689423011	-75.7710900959733
3702781	12.58969300687	9.99926928045282	16.077492222055	-38.4580960430829
3157797	4.31510749620046	0.436809502546695	4.33715981320501	-5.78024460913165
2693047	23.4920492137212	30.1859669954903	38.2500847020334	-52.1083743345725
2296687	15.6786331526507	-20.1924394317658	25.5647051174257	52.1720700526572
1958656	13.9592507337844	-15.4554077381436	20.8261928686194	47.9118022599163
1670375	-4.74556160084937	-29.0725534634792	29.4573203091237	99.2707248801459
1424531	33.4527398151231	9.51298136646951	34.7790542657088	-15.874202514134
1214875	14.1372958027847	-29.879523836523	33.0552428112815	64.6791428442562
1036062	21.0145763312587	-28.1006306329501	35.0892841242422	53.2096507830155
883578.1	80.8805492890131	-21.6113303513307	83.7180557158778	14.9599738674894
753531.2	29.356634123356	31.5582542388294	43.1014544726182	-47.069915264485
642624.9	44.9442448599912	-3.30770056983161	45.0657966654813	4.20913130952547
548046.8	68.836316777854	-9.04876905230241	69.4285152433996	7.48878756547791
467390.6	13.7179803192117	4.27412641243949	14.368407727643	-17.3055255708842
398593.7	4.84987834206864	-10.3671776422182	11.4455096958665	64.9292962176103
339937.5	9.0846408170512	-2.5169429852502	9.42686059968179	15.4856454557881
289906.2	8.79697699402376	7.62076004042161	11.638848217374	-40.9021563801945
247234.4	7.87575612143266	-2.98872666684185	8.42377715596606	20.7809729645887
210843.7	4.52541171763019	-1.34669401474915	4.7215395776617	16.5722083480521
179812.5	6.5000479781207	-0.805074981930192	6.54971521857255	7.06051307277352
153343.8	5.04049735639171	2.18607455857158	5.49413647222434	-23.4464814895184
130781.2	9.56334591423744	-8.09434930036026	12.5290093651336	40.2443435356048
111531.3	2.44132497844559	-3.13606246131772	3.97428678024983	52.1003758437525
95109.37	12.8683934779563	12.815201049363	18.1610828046981	-44.8813368082222
81109.37	6.26248380693242	-2.2022847932	6.63843066864833	19.374894428292
69171.88	6.48072531989706	1.45943893380905	6.64302360928159	-12.6911182945509
59000	2.94630566857206	-9.15098324267891	9.61359513399904	72.1532053943992
50312.5	3.32109033783853	-0.786876574193874	3.41303615203524	13.3294734924179
42906.25	3.85000826069027	-0.107976483965506	3.85152210541143	1.60648370317299
36593.75	-1.25825541176311	-9.15607023548584	9.24212252885564	97.8247512925743
31203.13	4.30473691150337	-2.53418620716009	4.99528373666802	30.4851992477651
26609.38	9.71616494107015	-3.76115467399308	10.4187401178732	21.1615601800044
22703.13	-2.82959427515372	13.0675565988629	13.3704016105152	-102.217962482519
19359.37	4.33423894713994	2.1294265674834	4.82908736276419	-26.1650459062772
16500	4.1536940461768	1.41921307095722	4.38945782187509	-18.8640108806857
14112.02	8.53287174716018	10.8834599314769	13.8296637823755	-51.9027741593678
12011.13	11.000446844796	-3.1004880285868	11.4290356898818	15.7405486492638
10236.38	7.49745349172418	22.3480646314065	23.5721827930739	-71.4541395885601
8750.684	115.71926082257	-31.1410462983362	119.836188565379	15.0619603550227
7449.463	-0.365874363185426	178.242619628443	178.242995138826	-90.117609511372
6363.206	279.03178462798	-112.391363919629	300.816481457366	21.9391097446205
5414.761	2920.47897767882	-624.412768913899	2986.48434870278	12.0684163036468
4620.567	3922.08804767295	2194.69765571279	4494.38232170899	-29.2302326003562
3941.215	-85.5164548182237	263.791671584276	277.306887837111	-107.961749787147
3361.769	326.281706779194	334.381002632678	467.194185644876	-45.7023738694888
2867.244	249.669719068603	70.0887557814089	259.32104100281	-15.6808063399655
2442.658	275.942796079612	-90.3244290999426	290.349667126492	18.1248380291874
2083.003	122.191706284435	270.453481740677	296.775839431643	-65.6864026480961
1777.843	239.720372271974	217.637342965964	323.777500662876	-42.2356812708938
1513.548	131.804147935423	121.523084368134	179.276862554339	-42.67597641814
1292.065	140.203897298685	216.894585690069	258.264194419991	-57.1207695545596
1101.762	222.673372698611	-42.7933349088391	226.748099047367	10.8784631772514
939.101	189.623765031813	-106.137697545029	217.307117014147	29.2369533952931
801.2801	328.995232168369	-125.012725228261	351.946081464926	20.8059596540344
684.3433	213.764010209472	229.926242064608	313.944467781784	-47.0861815362887
582.9476	243.312313155252	86.2588740114727	258.150101837452	-19.5203913307875
497.0677	322.763358997454	78.8674704236666	332.259332152383	-13.7312028504739
423.5089	342.615708325084	146.75376103167	372.722671658218	-23.1870691181949
361.5036	387.951944628356	-337.864243147846	514.450151267146	41.0523458070322
308.1262	54.7958170012477	-232.032134638756	238.414540382612	76.7126889364913
262.7298	517.287901661983	85.7728632351165	524.350796007222	-9.41470497971886
224.2111	738.338645145785	-157.170471267012	754.881786741479	12.017205335918
191.2854	112.090161354009	1120.8600178853	1126.4507907433	-84.2891963404037
163.1722	-23.1767390008577	-894.769668707372	895.069785697973	91.4837700780819
139.1537	1408.20867912392	-127.767807947283	1413.99303276487	5.18429344472443
118.6706	444.20380359285	-92.2041262025497	453.672370786596	11.7264579027788
101.1982	1764.98467408669	-256.38715547109	1783.50925796629	8.26515110745813
86.24196	2274.13189844733	-1690.56913878743	2833.67251187503	36.626779690396
73.61024	1987.94764167819	-1157.37690050798	2300.31674251251	30.2078303791423
62.69291	3226.16195504144	1600.63987793161	3601.41208125115	-26.3880181618303
53.57697	185.62570374647	-2535.81283414069	2542.59781162575	85.8133213712312
45.65746	3037.31443635043	2570.48391047432	3979.02833858595	-40.2412896705568
38.96512	268.398711768481	-1425.53763698036	1450.58451078402	79.337236708647
33.18414	3806.74708654094	-1462.24936917219	4077.92797858574	21.0128031476545
28.30617	4524.37874112675	491.700227860462	4551.01879882271	-6.20244574920765
24.17237	2943.44564205757	-2512.26296670721	3869.79811639266	40.4811183444426
20.61345	4051.00049887619	2025.12499384327	4528.9884392195	-26.5608050441079
17.55618	475.975519075907	5037.84661266961	5060.28173005676	-84.6027188458993
14.98558	4580.14713947146	-6614.66752009278	8045.59346602716	55.3003852366038
12.76553	5745.72879362975	1190.02391243582	5867.67043059808	-11.7013451626183
10.8809	17759.2045143315	-22756.7901860646	28866.2578896957	52.0318271731431
9.278505	4738.17319649198	-19309.7329065539	19882.5569322058	76.2132989222553
7.923394	12678.6517052728	-4158.56968622216	13343.2346490191	18.1593759250779
6.75822	15299.5702387168	-1022.00213327971	15333.6668103183	3.82164625521424
5.761429	10719.323446384	5087.25009132689	11865.2437244206	-25.3884016149773
4.919708	6269.74511628208	-10152.3555757573	11932.3102356482	58.3019506971116
4.191257	5307.94303765625	-11981.0741284503	13104.2129318179	66.1053493878958
3.564097	13037.5926640551	7578.31118265226	15080.1068582068	-30.1679868940689
3.051758	13839.989908155	-2707.2179447884	14102.2817181624	11.0677856214965
2.604164	-3222.49265600363	-5722.25565710158	6567.24209415401	119.386069855819
2.214424	5625.19303911022	5190.60386426908	7654.09466906564	-42.6990379693941
1.892567	3468.19744863834	3453.56990926027	4894.43956555697	-44.8789189263267
1.607507	3442.67402112444	3321.73805021688	4783.92601217701	-43.9757598242841
1.376413	5174.29199177732	-4056.83693770091	6575.04551735312	38.0977628857251
1.17375	1270.76233147149	3940.21004096733	4140.05942832064	-72.1249012793198
1.001604	3201.06030401451	-1639.09576605919	3596.30671665399	27.1146145897254
