EC-Lab ASCII FILE
freq/Hz	Re(Z)/Ohm	-Im(Z)/Ohm	|Z|/Ohm	Phase(Z)/deg
6999984	-0.533004596624041	0.805117005085187	0.9655606101637	-123.505407219692
5969734	-0.976129428313479	0.405534880087909	1.05701806975449	-157.43946288989
5091109	-0.599356663542595	0.320361116894672	0.67960257161882	-151.875125966697
4341796	-0.0322431675245621	0.475920633016071	0.47701160445259	-93.8758115769736
3702781	0.738547692320902	0.503243947596515	0.893704181832587	-34.2703876255174
3157797	1.64094210601001	-0.383808442923516	1.68522992975319	13.1645475910895
2693047	1.85170838203012	-2.56854905684772	3.16642830165376	54.211559161049
2296687	0.117279169079839	-5.26363725968056	5.26494364689667	88.7236031958187
1958656	-1.68950919047725	-5.2456183089229	5.51098473483771	107.852715918733
1670375	-5.65091052378974	-6.87620854569273	8.90028278830147	129.413576115742
1424531	-11.2039729848228	-8.58670533968127	14.1159668190015	142.533507483325
1214875	3.74255299281245	3.37544971088668	5.03987734520736	-42.0476479816878
1036062	5.82332053045347	3.30242159470387	6.69455378569531	-29.5576951690073
883578.1	5.9319089496281	2.31514927253166	6.36768874402494	-21.3200746836053
753531.2	5.6751680059092	1.29222291807566	5.82042712911134	-12.8274192244345
642624.9	1.48464991409932	5.5082785396444	5.7048503782082	-74.9154922205044
548046.8	0.863912948067934	6.83271629845751	6.8871153320564	-82.7938910866713
467390.6	0.657102961567816	7.75486826914447	7.78265804040528	-85.1566544422318
398593.7	0.660905734664197	8.48760835103722	8.51330088219069	-85.54752625007
339937.5	0.779733572035725	8.98119400954869	9.01497810760031	-85.0381094744192
289906.2	1.10066343923073	9.35575354071435	9.42027517225736	-83.2902444245931
247234.4	1.52453030680577	9.54035736424347	9.66139799893597	-80.9210066459477
210843.7	1.91476457969065	9.2905896083151	9.4858514992472	-78.3545567942182
179812.5	4.06053504844748	29.7982658315487	30.073652778592	-82.2402419692364
153343.8	5.03139302055526	30.9103998440172	31.3172114698023	-80.7548488853597
130781.2	5.85547760072265	35.3434490979293	35.825214752608	-80.5930456040148
111531.3	12.9906062567515	63.9325254878774	65.238973521784	-78.5142974275006
95109.37	13.6950101504647	65.0151439491362	66.4418711788601	-78.1049190828797
81109.37	14.4054672800864	69.3170512553108	70.7981008381512	-78.2599041664626
69171.88	14.790345022836	82.833844028598	84.1439244535731	-79.8762754023061
59000	18.3667866434628	157.908794386303	158.973350584751	-83.3655883746528
50312.5	21.511584916628	74.0184986225655	77.0810380311788	-73.7948440690081
42906.25	21.7120256215969	50.5086329597673	54.9775777936549	-66.7386969346334
36593.75	21.6286392513872	37.5202332559463	43.307804602026	-60.0385857741531
31203.13	21.6045468944991	28.7910033153398	35.9955319230112	-53.1157200820818
26609.38	21.4516478097186	22.2859757778713	30.9327966747928	-46.0928274181366
22703.13	19.4928418106521	14.0368424929614	24.0209040010428	-35.7577516842093
19359.37	19.1432788541861	10.3936193112279	21.7828475566409	-28.4992301270165
16500	19.1671020531173	6.58110369453918	20.2654564950532	-18.9501207077159
14112.02	17.9934649306043	4.41528557827949	18.5272644215667	-13.7869860214078
12011.13	17.0744900191375	2.28817290973396	17.2271281610856	-7.63280050728404
10236.38	16.2883587427136	0.957207876506019	16.3164603223303	-3.36319751318708
8750.684	15.3683596695198	0.20002496208317	15.369661314329	-0.745683943882142
7449.463	14.3579461949709	-0.441217928068108	14.3647238817086	1.76013837875559
6363.206	13.3983475607426	-0.804762848445627	13.4224945744335	3.43730330145151
5414.761	17.2825482979986	27.7742231928634	32.7122904982156	-58.1080044834598
4620.567	17.077214994755	28.6351239124678	33.3406897568042	-59.1892904344307
3941.215	17.342934292857	38.1428277136821	41.9005092556402	-65.5494657350599
3361.769	17.5257568312782	45.6141351683585	48.8651356251712	-68.9823423645862
2867.244	18.1937904641653	53.6570914028493	56.6577220621132	-71.2694752911894
2442.658	19.3760669343915	62.6306072392738	65.5593237686768	-72.8094712529421
2083.003	20.9540634902475	72.5490436713053	75.5144788393211	-73.8898977672202
1777.843	22.5954551305545	83.6983477360746	86.6946826876122	-74.8924020213607
1513.548	24.7947594167542	96.3671855838342	99.5058518474359	-75.5710705296931
1292.065	27.7203785727402	110.917970039241	114.329416450195	-75.9681875774983
1101.762	30.4343282196628	128.270324595457	131.831424577018	-76.6524137764435
939.101	32.8329661333214	149.387384126707	152.952914981481	-77.6043831530534
801.2801	39.6750761059377	169.908274625059	174.479034414099	-76.8564440472896
684.3433	37.2507669224889	197.218597670949	200.705742079317	-79.3039478607499
582.9476	42.3598418016612	227.672919034824	231.580038559672	-79.4603080430411
497.0677	44.1893508657063	267.689742990005	271.312545290459	-80.6263344519119
423.5089	49.4636410719817	310.512884381713	314.427898181998	-80.9490242821296
361.5036	56.0116699830684	361.659432754958	365.971108798127	-81.196312866508
308.1262	59.9178818474762	421.783062131717	426.017727408492	-81.9147446458226
262.7298	67.853885607222	490.530304692985	495.201100174657	-82.1243899030609
224.2111	77.6459088429375	570.670964172765	575.929020374836	-82.2518730124775
191.2854	86.7810096610358	666.480979701717	672.107015245302	-82.5813810404573
163.1722	105.299073701624	777.72526187308	784.821303149941	-82.2894017480586
139.1537	127.601197511143	907.37015589739	916.298349567177	-81.9951306244794
118.6706	139.302421486413	1056.91750056639	1066.05805078123	-82.4916558497398
101.1982	176.40926749934	1234.86247165157	1247.39951641528	-81.8698820504638
86.24196	205.17901913488	1435.79908842152	1450.38527716094	-81.8673610361652
73.61024	262.588189694101	1672.20290815154	1692.69463383013	-81.0756479548535
62.69291	339.192081667012	1960.69587850982	1989.81898580525	-80.1852142454407
53.57697	555.030587481208	2231.6552328418	2299.63997862925	-76.0334474703637
45.65746	673.718688802389	2590.37193794428	2676.5506997871	-75.4211847704869
38.96512	821.595783328318	2997.11302689208	3107.6850109284	-74.6701516926294
33.18414	1029.05407476133	3474.74286943502	3623.91919025141	-73.5032085512864
28.30617	1286.6637308235	3999.6991441734	4201.55885358257	-72.1675293392775
24.17237	1604.52749132854	4584.28328838163	4856.97042801005	-70.7096382295671
20.61345	1998.57020270158	5298.38365863902	5662.78661519747	-69.3333363098834
17.55618	2464.58020945191	6069.34523404176	6550.65700359952	-67.8993948360094
14.98558	3071.72670085632	6839.62729483748	7497.7334213107	-65.814802489985
12.76553	3847.56362185434	7755.3759793557	8657.34384239094	-63.6132694579743
10.8809	4655.48387794995	8638.69632770108	9813.28713429338	-61.6793077162897
9.278505	53178.0471384612	35818.6023208849	64116.1209812486	-33.9626290754408
7.923394	61094.175968691	38210.4390765512	72059.2533385977	-32.0233044487938
6.75822	70608.8246278747	40101.4809638634	81201.8158099008	-29.5939175608155
5.761429	80871.5222763431	41354.5684321955	90831.7314901913	-27.0834456856703
4.919708	114926.354118219	44859.2732901016	123371.071451221	-21.322223275337
4.191257	126116.818126036	41970.7416399046	132917.248572332	-18.407059850335
3.564097	136992.843930369	37371.3916867652	141998.803532762	-15.2588974083651
3.051758	146157.516082818	31643.3863313211	149543.717373925	-12.2161076344976
2.604164	154805.362327079	25227.1871272648	156847.413671926	-9.25560032958898
2.214424	161482.666772671	18293.6810618946	162515.569822733	-6.46323894881735
1.892567	166959.788855201	11333.3813365516	167344.006845459	-3.88333203735361
1.607507	171651.061183428	4936.31096591675	171722.025294804	-1.64724793142317
1.376413	175308.399133567	-916.536438982024	175310.79500652	0.299547491914551
1.17375	178770.732938088	-6099.70059591271	178874.764297765	1.95418772481049
1.001604	182002.518483761	-10557.7652042552	182308.483457408	3.31994435627486
