EC-Lab ASCII FILE
freq/Hz	Re(Z)/Ohm	-Im(Z)/Ohm	|Z|/Ohm	Phase(Z)/deg
6999984	26.0987171533638	2.66914037012323	26.2348498636205	-5.83939104232301
5969734	16.9854979565528	-2.19777093662082	17.1270936799538	7.37259745420333
5091109	11.6431449375269	-4.61975712167285	12.5261717974609	21.6421457194042
4341796	8.69304546767209	-5.21071062772407	10.1351144418251	30.938953173619
3702781	6.6846648468914	-5.87040142201315	8.89642383044106	41.2892581257408
3157797	4.35503604814094	-5.05509960693648	6.67235872961402	49.2546606330983
2693047	3.93080004381915	-4.56407492123583	6.02345157456607	49.2633925098961
2296687	2.24023461313684	-3.72495627979609	4.34671719902373	58.9767803882166
1958656	1.85404884666872	-3.2303652548692	3.72461498757922	60.1465883185352
1670375	1.50202422396378	-2.83203819776881	3.20570072261832	62.0599235795951
1424531	1.20575311072387	-2.48497765766829	2.76205621288396	64.1165555852172
1214875	0.745836781805336	-1.91225370038594	2.05255614289439	68.6927121991476
1036062	0.803793385950435	-1.84253877073748	2.01023205848689	66.4311331902072
883578.1	0.708901935147815	-1.5583768448112	1.71203981965959	65.5393243820861
753531.2	0.653365033711786	-1.35178030416332	1.50139796789562	64.2038170574156
642624.9	0.588518973229283	-1.11425373184707	1.26012537502662	62.1581858414601
548046.8	0.553944299336141	-0.993058807664379	1.13711040899589	60.8465135610671
467390.6	0.52119168599379	-0.857027717261016	1.00306394696583	58.6945986741147
398593.7	0.494763562926679	-0.741308844974434	0.891251808883007	56.2801029592319
339937.5	0.478066989706799	-0.645700707931713	0.803416113151109	53.4843152908454
289906.2	0.457379267773823	-0.557932084064108	0.721445774135131	50.6559263239159
247234.4	0.445740655036632	-0.483129881769745	0.657342539481002	47.3050456844507
210843.7	0.437654435938636	-0.414349336267597	0.602682982804529	43.4331630627172
179812.5	0.432693403236593	-0.355760221485674	0.560168649958207	39.4270192408507
153343.8	0.374406983853098	-0.368652421060391	0.525438100171335	44.5562863918886
130781.2	2.22763179763131	-2.34334677060368	3.23320545482604	46.450141087914
111531.3	2.4782052460552	-1.4818543193524	2.88745449580749	30.8775091796692
95109.37	1.15270965098111	-2.65417150534637	2.89367688577311	66.5246399023725
81109.37	0.614128954515015	-0.398660022260729	0.732177701191883	32.9895003674568
69171.88	0.433783554870043	-0.231630153133681	0.491752682063275	28.1011619692714
59000	0.380449231427515	-0.149449235768672	0.408750158123061	21.4460451844427
50312.5	0.371964844283887	-0.0954520399738476	0.384016845097068	14.3924419826785
42906.25	0.40300312956579	-0.115884595072203	0.419333711755768	16.0427265904158
36593.75	0.38062628093616	-0.0942556033114107	0.392123047645622	13.9085275584889
31203.13	0.362051387519697	-0.0880303077262114	0.372599707841148	13.6658913914069
26609.38	0.362064437993468	-0.0810810561148511	0.371032067239782	12.622615460565
22703.13	0.357960533009624	-0.076294075710526	0.366000722924228	12.0317298160245
19359.37	0.352512951146908	-0.0607515201857928	0.357709558065182	9.77821232326166
16500	0.350723165472981	-0.0552710248273981	0.355051580738432	8.9556798421498
14112.02	0.347950930025335	-0.0505658926620419	0.351605971516703	8.26861177254072
12011.13	0.345687664692395	-0.0443813507121705	0.348524985921409	7.31593765784285
10236.38	0.343638930967615	-0.0393735954885929	0.345887257496232	6.53635409305399
8750.684	0.272743916701401	-0.161446726263492	0.316945246878415	30.6227836031099
7449.463	0.34145041071726	-0.0396169465261876	0.343741015055004	6.61817819577663
6363.206	0.333145579800766	-0.0359218181968301	0.335076639536919	6.15420843243559
5414.761	0.344956026512796	-0.0276770548689583	0.346064559863786	4.58721871008096
4620.567	0.329606628874883	-0.026026056380146	0.330632553462249	4.51476246730872
3941.215	0.338143873081298	-0.0146056890998968	0.338459163055905	2.47328003874768
3361.769	0.344591946798361	-0.0266066304686001	0.34561759588189	4.41516120307656
2867.244	0.324693727256318	-0.0240794715541145	0.325585376621748	4.24132351620269
2442.658	0.337224290148527	-0.0240779369017282	0.338082784110078	4.0840087862248
2083.003	0.336376905510367	-0.0247978080842315	0.337289717967377	4.2162354132273
1777.843	0.33023082156362	-0.0264420570824423	0.331287756932451	4.57798836000141
1513.548	0.324273909501978	-0.0209306825837784	0.324948706501687	3.693107757539
1292.065	0.320006940733139	-0.0177536859543589	0.320499041312683	3.17546101611893
1101.762	0.32289066093935	-0.0138583751674219	0.323187922862429	2.45761021600865
939.101	0.324603864830388	-0.0171170094608541	0.325054858563455	3.01852501124362
801.2801	0.324871399234745	-0.0120879049545634	0.325096206509598	2.13089421136459
684.3433	0.31569395431403	-0.0136356205582971	0.315988295571907	2.47321242972786
582.9476	0.316043789932952	-0.0120885507960004	0.316274896593978	2.19047322769126
497.0677	0.31844660679406	-0.0132747687886049	0.318723172777007	2.38705046353829
423.5089	0.314530229083401	-0.0088747957761084	0.314655409944473	1.61623086118376
361.5036	0.315326784888361	-0.0176631866445692	0.315821103522978	3.20610108012914
308.1262	0.31442080213766	-0.0107912950296122	0.314605932660695	1.96568756071656
262.7298	0.32360734283132	-0.0225750505278308	0.324393811964226	3.99052441941346
224.2111	0.310613480441721	-0.0112400155062698	0.310816782334385	2.07242959794944
191.2854	0.295364373387437	-0.0180652133726344	0.295916314184859	3.49999118677457
163.1722	0.309371158300268	0.00569703619686106	0.309423609004675	-1.05497630197628
139.1537	0.296166965265683	-0.00988371966902455	0.296331839715513	1.91137230765375
118.6706	0.302091715909601	-0.0108362785678618	0.302286006547454	2.05436595754235
101.1982	0.288459247056733	-0.00360664965976762	0.288481793419109	0.716340483362312
86.24196	0.305174565245742	-0.00924073754038444	0.305314438740158	1.73439595797815
73.61024	0.314306383774753	0.00056829264857539	0.314306897535031	-0.103595524909352
62.69291	0.714345987271383	-0.214465066252256	0.745845462661878	16.7111105063257
53.57697	0.257283457786687	-0.128053566947734	0.287389098016456	26.4601707369711
45.65746	0.266961795792347	0.0535822744925442	0.27228599037128	-11.3491193580616
38.96512	0.279966013678085	-0.0539477153235164	0.285116335560461	10.9068589655781
33.18414	0.313376549426539	-0.0462272139223716	0.316767765149027	8.39137370972545
28.30617	0.271198710341393	0.0406865872406273	0.274233730369048	-8.53216662872295
24.17237	0.198071086233392	0.175511938525152	0.264644281567792	-41.5443389361331
20.61345	0.344058375049979	0.174100590523951	0.38559976797558	-26.8403454227742
17.55618	0.208415167571134	0.168468331742744	0.267989665610238	-38.9496651834154
14.98558	0.306115650103641	-0.0887487418323336	0.318721085614361	16.1678777616063
12.76553	0.259962794469497	-0.00677017603850684	0.260050936918102	1.49180906526653
10.8809	0.371137737067454	-0.0910793697938087	0.382150064081622	13.7882350694012
9.278505	0.282212566026368	0.0675973521376893	0.290195338417442	-13.4700716057651
7.923394	0.570932618036779	-0.0447083668051763	0.572680445275301	4.47755802583969
6.75822	0.511293305770414	-0.24916544706939	0.56877435291944	25.9810806174166
5.761429	0.425580640078623	0.196253578581946	0.468651627881469	-24.7564635444157
4.919708	0.687691132650096	-0.20413970097182	0.71735075900039	16.5334133757438
4.191257	0.490204826955807	-0.322771890091314	0.586926286175609	33.3626219428019
3.564097	0.796460305982819	0.03539009169562	0.797246183808031	-2.54421966223622
3.051758	0.339868589898857	0.213858866172402	0.401554819470994	-32.1797391155984
2.604164	0.583356691098463	-0.00651706537045345	0.583393093197366	0.640062612096545
2.214424	0.591615187917233	0.363788007455328	0.694514395057914	-31.5876273413763
1.892567	0.633486159564251	-0.314085541550574	0.707074565919734	26.3724394393807
1.607507	0.530303603360224	-0.545108921888329	0.760503549274488	45.7887472571047
1.376413	0.761807914751161	0.427314284388781	0.873469402223231	-29.2889951518248
1.17375	0.103914243221809	0.408938919365918	0.421935077608541	-75.7424995019962
1.001604	0.300214288819088	0.00237056831092481	0.300223647978082	-0.452412631655454
