EC-Lab ASCII FILE
freq/Hz	Re(Z)/Ohm	-Im(Z)/Ohm	|Z|/Ohm	Phase(Z)/deg
6999984	2.34697198731724	19.579549847307	19.7197122122112	-83.1646520759004
5969734	4.98781744302656	6.80724184984728	8.43900849906387	-53.7689378051545
5091109	3.88445486765277	16.3302812706695	16.7859189798477	-76.6198124779006
4341796	9.53341279192816	13.723943776668	16.7102541047838	-55.2140118489878
3702781	16.3201194457274	12.6186035173376	20.6294802031116	-37.7109476190764
3157797	1.02861262493023	0.232007167832279	1.05445306111339	-12.7105644821176
2693047	-0.521784515810995	0.694073621696448	0.868330163748179	-126.934788806668
2296687	3.74681273254576	-15.0534717902621	15.5127566406808	76.0230769342718
1958656	1.1923781004349	-29.7189324403818	29.7428430203028	87.7024205175571
1670375	-8.4501429237917	-23.8132291660404	25.2680588638476	109.537269132198
1424531	70.2400849685248	-1.7325581384492	70.2614495586925	1.41298439660141
1214875	26.1759910742677	23.9454031036912	35.4762573916472	-42.4518066807951
1036062	20.8622304948007	6.62416875416038	21.8886334178675	-17.6156676253885
883578.1	14.842809652062	-4.25237786206732	15.4399389846316	15.98669704763
753531.2	5.66572210742278	-18.9513051474542	19.7801004494533	73.3553281443632
642624.9	34.7900322289395	4.09202633854812	35.0298590069389	-6.70834456399636
548046.8	20.5873761754861	4.08053578588992	20.9878734056336	-11.211047988591
467390.6	5.09983070448599	0.874545565261755	5.17427320114981	-9.73073131077916
398593.7	7.45471431341394	-0.115302686690631	7.45560595821538	0.886127931582404
339937.5	6.33433206963768	2.35643107268463	6.75844140085227	-20.4056741496221
289906.2	11.7216724397425	7.2132418208605	13.7633012882385	-31.6071652021903
247234.4	4.98596759643425	2.02900603276085	5.38300458421431	-22.1435353563452
210843.7	4.09001729024574	1.60010990039242	4.39187808663253	-21.3665931269919
179812.5	5.6939919666004	1.13003761736808	5.80504345654508	-11.2251427503512
153343.8	1.70323780409825	2.73202635883007	3.21946999405985	-58.0591884793146
130781.2	2.38766287680963	5.38442371370247	5.8900723885175	-66.0856396397433
111531.3	69.0756570775275	444.873366305575	450.204129755322	-81.1741393998364
95109.37	229.497667603374	550.418859430022	596.347298351921	-67.3662576076402
81109.37	-324.62178699004	829.576906736213	890.829472333863	-111.370905963955
69171.88	988.556606829754	819.749729280588	1284.22497388984	-39.6668479147366
59000	590.357434914107	1521.06441613296	1631.61234948264	-68.7877086015803
50312.5	392.008041511311	1172.31931336155	1236.12413498404	-71.510747818719
42906.25	89.6215761339818	1821.46661426106	1823.67010552248	-87.18314886783
36593.75	102.258898246666	2114.66734734628	2117.13836869563	-87.231506505739
31203.13	1574.41404136253	1142.63671395468	1945.35298434928	-35.9704049698721
26609.38	480.987628013235	2282.17676216746	2332.31213007156	-78.0986165471332
22703.13	2235.18324165938	2402.88696463123	3281.75408715973	-47.0708033490674
19359.37	258.777402581219	928.876867962496	964.249957180449	-74.4326033907682
16500	394.259815926562	-666.926975916375	774.746664180884	59.4101656644536
14112.02	38.6484953884545	-30.6859045163642	49.3490722484102	38.4486651577751
12011.13	1051.77366982272	1274.42231041335	1652.38617696096	-50.4673315360706
10236.38	79.5246583709489	-28.8411147029067	84.5930327291932	19.9341298842295
8750.684	5.94749005020485	15.8012311755453	16.8834695652378	-69.3739590175581
7449.463	91.3716725623595	-14.7333425812982	92.5518985783703	9.15988772991237
6363.206	1976.35682636115	1421.13561703096	2434.25815128517	-35.718716069627
5414.761	0.432857194920252	0.281280141290217	0.516220756148447	-33.0166986739916
4620.567	0.869566252662754	-0.304094312096787	0.921205090313532	19.2751424761597
3941.215	1.1159207785156	1.19140135851396	1.6323959020384	-46.8736772196526
3361.769	0.00980623460945658	1.25632606092835	1.25636433155553	-89.5527877169321
2867.244	-0.162340992532891	0.559766704278135	0.582832189463631	-106.172975550748
2442.658	-0.173325306575984	0.54812885848789	0.57487990694309	-107.547615892826
2083.003	-0.144132761815914	0.556250726721886	0.574620852395133	-104.526695917999
1777.843	-0.129783227967591	0.537989632012084	0.553422560449233	-103.562751723471
1513.548	0.461493927253175	-0.303781338589123	0.552503164304566	33.3551677618872
1292.065	-0.561775204565831	0.0543091373684536	0.564394244182811	-174.47813909727
1101.762	-0.150380191600951	0.53730186870946	0.557949370592544	-105.635884913593
939.101	-0.148933487355892	0.535728790595814	0.55604543045442	-105.536018369901
801.2801	0.43954553241941	0.286810803032753	0.524843511731026	-33.1251194775642
684.3433	-0.495019175332942	0.0545293295040253	0.498013485483541	-173.713870694345
582.9476	0.408869433444205	-0.303705765331868	0.509324459947489	36.6047437335953
497.0677	-0.531709684243746	0.0542742501884686	0.534472527406325	-174.171721268434
423.5089	0.461939202358041	-0.322547122711548	0.563404360157677	34.9245106219065
361.5036	-0.13678720486839	-0.465339096481259	0.48502702412309	106.380787343042
308.1262	0.439427826956703	0.296703170926245	0.530216547027324	-34.0273561175568
262.7298	-0.0998208073854941	0.443140568154569	0.454244159820956	-102.69443418495
224.2111	-0.121071932977767	-0.500791238927226	0.515218670023941	103.59111313433
191.2854	-0.094041691968824	0.50780852796185	0.516442969648286	-100.491812533129
163.1722	-0.458975244216695	0.0657681668779391	0.463663376360759	-171.845398028643
139.1537	0.421120575446283	0.238167712555868	0.483804090896618	-29.4906361886652
118.6706	0.397631126527818	-0.272682825826464	0.4821477328418	34.4410946709987
101.1982	0.366111278054263	0.264784591271888	0.451827785437712	-35.8757809900063
86.24196	-0.0527173284405728	-0.523613774848488	0.526260868703911	95.7491543839334
73.61024	0.51145012217706	0.325887038997711	0.606451638353484	-32.5045718079699
62.69291	2193.58837320997	-139.188848554554	2197.999883222	3.63069775674658
53.57697	3616.51752201086	-3683.74857028183	5162.28655888696	45.5276446602857
45.65746	2316.07041416127	4477.1991164078	5040.78308314452	-62.6473199111632
38.96512	3306.23283673511	-4123.499733559	5285.30279391509	51.2772704048455
33.18414	1847.91119192975	-1704.93552311829	2514.2754246999	42.695514278954
28.30617	-3723.87885939329	-3821.34205146161	5335.72195993242	134.259939625857
24.17237	10692.4121367921	-6527.06392231426	12527.1800796906	31.401513460784
20.61345	-0.0372699958224688	-0.565745024679028	0.566971326909643	93.7690695397408
17.55618	-0.0325481355559803	0.622427411801457	0.623277838600115	-92.9933992766926
14.98558	0.637416478144728	0.0334870141018832	0.63829550109952	-3.00729962212142
12.76553	0.526456246223008	-0.636705955758313	0.826166238287021	50.414573582295
10.8809	5745.11455125397	8099.51459613601	9930.18015446096	-54.6513157279678
9.278505	2849.31380942375	-3335.49789471867	4386.81380847713	49.494741408414
7.923394	6232.71846628043	-1867.49577900683	6506.48291817641	16.6796780416848
6.75822	3235.06060811137	3160.82557474379	4522.87911093236	-44.335015820987
5.761429	8171.85861724503	8352.47573657418	11685.1668447781	-45.6262392376718
4.919708	5666.91843247165	-410.695992162153	5681.78103399497	4.14512390240022
4.191257	2300.24864439677	-3668.82847985619	4330.29401318814	57.9134853120129
3.564097	2874.73615161587	3295.52622991457	4373.16831067159	-48.901329019997
3.051758	5152.86456812972	-3235.13816595701	6084.25280624649	32.1219563219594
2.604164	5973.88539614014	-1950.59125978689	6284.27505675662	18.08288032985
2.214424	2822.29155770547	-3386.70407098986	4408.52516167877	50.1940478565271
1.892567	4663.69904338281	434.26914951589	4683.87430034913	-5.31986442637711
1.607507	305.890741076686	-4043.11543119145	4054.67033621907	85.6734050776603
1.376413	-189.798802045855	-3831.13485229672	3835.83339598328	92.8361796577088
1.17375	416.876704222176	2702.05700069536	2734.02600966596	-81.2294871228461
1.001604	85.93001268054	707.071895178847	712.274267421676	-83.0708588848375
