EC-Lab ASCII FILE
freq/Hz	Re(Z)/Ohm	-Im(Z)/Ohm	|Z|/Ohm	Phase(Z)/deg
6999984	2.4126203984218	1.19686056074063	2.69317886311648	-26.3852393165239
5969734	3.98421631671216	1.4535935440233	4.24109818909933	-20.0438914090427
5091109	5.9253188688158	0.973770292072543	6.00480076929015	-9.33260012767661
4341796	5.79130997725749	-13.5733885849477	14.7572405594905	66.8936820182163
3702781	-4.58009802376154	-9.64531445654448	10.6775179172357	115.400804616007
3157797	-3.09473057610747	-3.54542039519281	4.70609850272427	131.117094232225
2693047	0.836165746167448	0.531442647363719	0.9907595280898	-32.4388535488684
2296687	0.953693717992025	0.602643553439325	1.12814491987485	-32.288984978396
1958656	1.18284856095775	0.591331268628048	1.3224233011472	-26.5614467568384
1670375	1.42585789832846	0.535235968664618	1.52300633234994	-20.5750404738628
1424531	1.85700169621939	0.398025013868079	1.89917856228065	-12.0975913145748
1214875	2.51490435150947	0.0687921384358431	2.51584503806412	-1.56686539051308
1036062	3.22916555498139	-0.424144856865901	3.25690175490206	7.48285745229831
883578.1	4.26561728150375	-1.35838587330717	4.47668437273211	17.6640768294991
753531.2	3.9985543842784	-1.00766152400773	4.12356871059494	14.1443913644325
642624.9	3.91507477609166	-1.88306370133897	4.34439171872076	25.6865172853618
548046.8	3.52249347677955	-2.47388019467494	4.30442139103032	35.0807275647489
467390.6	2.9792444643221	-2.89491706074201	4.15408742887882	44.1775383709953
398593.7	2.58266969887755	-3.56184779350697	4.39965254055485	54.0544082970005
339937.5	1.90000730251367	-4.65564966310754	5.02842933083469	67.7992418134206
289906.2	-12.5432066319694	-2.54922461803779	12.7996319777363	168.511929576572
247234.4	-16.6840237414049	16.6471424640459	23.568708077067	-135.063398341968
210843.7	-25.7764509698793	57.2203265383789	62.7581962277541	-114.250477250723
179812.5	-13.7832756257421	71.0421339366946	72.3668672892121	-100.979857983021
153343.8	-1.87129089068767	64.8635041299664	64.8904915809376	-91.652506148748
130781.2	7.62683724657926	52.2840956139242	52.837442221892	-81.7006303177822
111531.3	13.694107360898	37.2986823095595	39.7331131229514	-69.8394299303224
95109.37	1.77816867117406	125.185396533546	125.198024701208	-89.1862093196073
81109.37	12.5604508931657	107.652870631018	108.383142055111	-83.3450764855872
69171.88	19.4511863415924	83.7951662783087	86.0231279465281	-76.9315015184517
59000	23.7034140527059	57.3263774207387	62.0335827269311	-67.5357958192194
50312.5	24.6043364171783	34.6045810737196	42.4599858904512	-54.5866459816314
42906.25	25.7562383533085	19.3182811227043	32.1959593683474	-36.8714670463846
36593.75	18.7200529269827	-2.18157502234644	18.8467411285655	6.64708391654098
31203.13	17.9455864304764	-3.47847327551249	18.2796019831437	10.9698614047306
26609.38	17.0293510945144	-4.39521296542317	17.587401619104	14.4720029021103
22703.13	15.9822460503177	-5.07109407851502	16.7674739888287	17.6039964751017
19359.37	14.8579137622987	-5.40225860818599	15.8095540556217	19.9809978318712
16500	13.8369432739765	-5.74935012031762	14.9838588478816	22.5632384004345
14112.02	12.2665818605626	-5.77729867381081	13.558990025378	25.2194363611932
12011.13	10.977099539068	-5.5918354380768	12.3193075234422	26.9947117119384
10236.38	10.6368089866686	-4.94727571132665	11.7310375663347	24.9435629124157
8750.684	11.6381798021116	3.28367495724558	12.0925493726972	-15.7562419632725
7449.463	13.1439758971931	8.34368178899038	15.5685942904914	-32.4070257433488
6363.206	14.0821369819191	12.5783833010447	18.8817983371694	-41.7717229667087
5414.761	14.7525062943698	17.0468607448743	22.5439992729896	-49.126793641959
4620.567	15.3302864200802	21.9300066491794	26.7571088377416	-55.0443246683819
3941.215	15.6553825973181	27.9123522808651	32.0029750823189	-60.7129570990221
3361.769	16.3967081300389	35.6251618624595	39.2173965891175	-65.2854467830636
2867.244	16.5992439153782	43.9955156331001	47.0227635766399	-69.3288099433018
2442.658	17.149167249671	54.0378916322522	56.6938062703169	-72.3929309358819
2083.003	17.5697689157161	66.3383614734849	68.6256146255784	-75.1657601854176
1777.843	18.2622625208516	80.5250681235515	82.5699511243837	-77.2220484163626
1513.548	19.9120876632275	97.8217352542729	99.8277672958036	-78.4943584962301
1292.065	21.0591095616249	116.82057655302	118.703551765347	-79.7811071125349
1101.762	23.1366782399049	139.737070750641	141.639524222396	-80.5986605904071
939.101	25.1551318542139	164.298667688587	166.213215066816	-81.2952626777271
801.2801	27.8749699501039	196.25978004936	198.229450926805	-81.9162916318694
684.3433	33.2005918041657	233.335289224792	235.685460929953	-81.9019103912116
582.9476	35.5415213355805	273.46193952206	275.761911992962	-82.5948455486429
497.0677	40.4912683046511	322.477622708088	325.009784400991	-82.8432227528321
423.5089	44.6219312045013	376.17855682344	378.815817196412	-83.2352404762606
361.5036	50.1289198988383	439.937060935431	442.783836871593	-83.4994313155954
308.1262	56.5921786398955	513.388830332767	516.4985632058	-83.7095349390699
262.7298	62.7905270235017	602.163877937044	605.428762263628	-84.0470070804019
224.2111	73.7516800761813	701.6830050123	705.548261876642	-83.9998526538627
191.2854	81.2056330492548	823.384139735605	827.378871138895	-84.3674623752186
163.1722	92.1582818933068	960.551435839041	964.962284140665	-84.5196399656053
139.1537	107.298809368494	1119.44210483862	1124.572656869	-84.5249111773205
118.6706	124.449933607417	1308.96240406112	1314.86514944322	-84.5689143359866
101.1982	147.534731790638	1533.08707960704	1540.16963050911	-84.5031387811056
86.24196	169.17683664723	1797.46315527781	1805.40704458558	-84.6231734391855
73.61024	208.359725587216	2098.46042855002	2108.77925479105	-84.3295898649604
62.69291	254.931276534998	2446.79446349515	2460.03924813127	-84.051819925881
53.57697	307.470812819175	2847.42363639665	2863.9761985474	-83.836960752707
45.65746	374.994664287627	3322.65705412581	3343.75102206731	-83.5608523912334
38.96512	455.661849234117	3863.28472704805	3890.0638302077	-83.2732275780778
33.18414	578.113167951782	4529.75985944422	4566.50185800809	-82.7269123204205
28.30617	715.723345770475	5276.63497629873	5324.95413884288	-82.2755361694164
24.17237	906.63743218927	6144.7679527024	6211.29331347387	-81.6067798309397
20.61345	1080.80536731345	7086.90152837037	7168.84324803046	-81.3287807087423
17.55618	1391.61483350132	8337.26454903547	8452.60740868902	-80.523832302363
14.98558	1791.75649048708	9641.58199040065	9806.65562762458	-79.4724547482979
12.76553	2313.58592476835	11143.3843789557	11381.0234710434	-78.2709049561291
10.8809	2974.97574891439	12872.203211662	13211.5137750733	-76.9865054667843
9.278505	3788.18688559603	14794.1181411266	15271.4207411692	-75.6374190423693
7.923394	4842.07269511216	17040.5844394269	17715.1682470698	-74.1375301262758
6.75822	6229.6649608668	19516.61280691	20486.7494000267	-72.2970178009771
5.761429	7932.97268647204	22085.0339953575	23466.5886361953	-70.2416463025043
4.919708	10085.3216975429	25136.3706926883	27084.143799337	-68.1381463492405
4.191257	12913.0711135598	28154.492435987	30974.5516498932	-65.3614209866979
3.564097	16367.6124426228	31306.2616473432	35326.7710865827	-62.3984270449584
3.051758	20288.636171891	34158.6548418622	39729.6168911914	-59.2916779924205
2.604164	25022.3838053552	36871.886934587	44560.6972277081	-55.8379915357751
2.214424	30529.0130775965	39245.4123099558	49721.4543921484	-52.1206470905442
1.892567	62341.950655	23923.4911629212	66774.637706938	-20.9941189939553
1.607507	68322.8040075694	21054.3464069831	71493.2937420145	-17.1271981867276
1.376413	73309.2805604042	17400.5458902105	75346.0656807067	-13.3525178549381
1.17375	77871.6159897647	13350.8247764205	79007.8040390192	-9.72858271904742
1.001604	81848.8974382225	9077.24325629018	82350.7034395367	-6.32838187257741
