EC-Lab ASCII FILE
freq/Hz	Re(Z)/Ohm	-Im(Z)/Ohm	|Z|/Ohm	Phase(Z)/deg
6999984	2.6689641370674	0.769879263777138	2.77778394511632	-16.0905341888415
5969734	4.31666470920849	0.875336406157193	4.40452131742715	-11.4630462860454
5091109	6.3380973452101	-1.72457511619926	6.56853387665566	15.221483264343
4341796	3.78935308518057	-5.98255466334601	7.08167756284417	57.6498101346937
3702781	2.14029254742567	-5.60316534713985	5.99802584989051	69.0941837261958
3157797	1.87335078753471	-6.46655236525613	6.73243957757933	73.8437746647122
2693047	2.48420289094609	-7.97031637869557	8.3484853224934	72.6886917497285
2296687	2.04560650882825	-9.86376196735829	10.0736441339599	78.28373921074
1958656	-1.58551981117177	-9.18567543483187	9.32150772491724	99.7932050935257
1670375	-4.03377637478903	-10.1857290730363	10.9553835437698	111.604672744368
1424531	4.21814892306342	-10.8435856811277	11.6351248708855	68.7439919218118
1214875	8.09222894525636	-2.65646689146912	8.51709960302898	18.1736540333325
1036062	-3.89043809359131	-9.19701574902424	9.9860205911998	112.928892800475
883578.1	6.3375230222162	-5.29018110684929	8.25531430052094	39.8530878460438
753531.2	2.57028796988418	-10.4344737062202	10.7463771464588	76.162019199591
642624.9	4.2988539957069	-8.03272419040687	9.11069720688559	61.8457519557752
548046.8	8.09070504040894	2.83831167845498	8.57411926876181	-19.3314527682652
467390.6	5.93546792119419	2.10978628289053	6.2992838960471	-19.5679640165172
398593.7	0.0841044387999072	-0.0254088609918867	0.0878587892174275	16.8101348020582
339937.5	0.796199361395458	-0.87167919371012	1.18057530036574	47.5911521594493
289906.2	-0.128372853950745	-0.542159580501517	0.557150428843988	103.321192717044
247234.4	0.521239181063104	0.0811564575192481	0.527519340377591	-8.84984307823323
210843.7	0.671300961171232	0.0575294630554741	0.673761545050525	-4.89819269930381
179812.5	0.674109897521843	-0.223119316363447	0.71007491384459	18.3136963776184
153343.8	0.33140451862304	-0.433719657807507	0.545840358101552	52.6166108171654
130781.2	0.506293618855979	-1.85866289152977	1.92638546839517	74.7625124892045
111531.3	-0.133804079345963	-1.5078640514173	1.51378912970275	95.0710015376165
95109.37	-0.388745409616339	-1.20535188893948	1.26648970373539	107.875347751641
81109.37	-0.550345703581899	-1.03092386801322	1.1686250104676	118.094966760272
69171.88	-0.888858979041332	-0.494436705338615	1.01712238211953	150.91456222316
59000	-1.68017345379837	-0.669000226388724	1.80846458017759	158.288872821171
50312.5	-1.16769014388907	-0.406952798077824	1.23657221867509	160.78599477969
42906.25	-0.127600463684136	-1.60026625962332	1.60534543946815	94.5589491561081
36593.75	0.34894380100765	-0.398026279758555	0.529326643614415	48.7594302924549
31203.13	0.209483423814441	-0.210841640306397	0.297216254838313	45.1851419495124
26609.38	0.123977884481679	-0.137662778274625	0.185260779343176	47.9940789992971
22703.13	0.0740044568450473	-0.0990237118289501	0.12362182306257	53.2277390606078
19359.37	0.0437911977454418	-0.0748539561840301	0.086722452435232	59.6714344190333
16500	0.0297328221203753	-0.0703236930974441	0.0763509169696435	67.0813829919012
14112.02	0.0135771521890756	-0.0442744908644033	0.0463094979768454	72.951392898796
12011.13	0.00588762484943873	-0.0334327234631899	0.0339471813930679	80.0124101744292
10236.38	0.00144118288301797	-0.024819542580297	0.0248613495610653	86.6767687684934
8750.684	-0.000822749189138502	-0.0182244681218929	0.018243030300751	92.5848803687644
7449.463	-0.00185771073217915	-0.0131662927034889	0.0132967045811509	98.0311879861599
6363.206	-0.00204543905715646	-0.00992320972779467	0.0101318266980017	101.647067335451
5414.761	-0.00175092599181437	-0.00814275163473448	0.00832887423447985	102.135456560021
4620.567	0.0335009973244537	-0.00598166219862717	0.0340308257964972	10.1235798230106
3941.215	0.0304613966652821	-0.00588647433999297	0.0310249458815814	10.9372371878759
3361.769	0.0372303486745682	-0.00590046211589415	0.0376950171191236	9.00563603230725
2867.244	0.0444214072313173	-0.00683466160195299	0.0449441210796667	8.74691693991593
2442.658	0.0512543366254801	-0.00743320167803886	0.0517905349470772	8.25183556829929
2083.003	0.0567308505389301	-0.00807368489320784	0.0573024763044777	8.09969235538025
1777.843	0.0606642894265011	-0.00897362288976679	0.0613243990544549	8.41432639899839
1513.548	0.0638652940094148	-0.00942379379745125	0.0645568251112606	8.39384315782246
1292.065	0.0663158021797865	-0.00979412546778016	0.0670351438607183	8.40123431337965
1101.762	0.0679280200854173	-0.0100953691794242	0.0686741027723968	8.4533448248468
939.101	0.0707668237213467	-0.00979457158780113	0.0714414233634571	7.88003179588299
801.2801	0.0729984082240912	-0.011195896574296	0.0738519851009666	8.7196097714
684.3433	0.0751299743442906	-0.00981120386977258	0.0757678874349021	7.44013771909335
582.9476	0.0778297735714011	-0.00860621495741484	0.0783041543602176	6.30998419777576
497.0677	0.082640787500112	-0.00652128815970457	0.0828976897018281	4.51193205580077
423.5089	0.0872643461918848	-0.00478596595511295	0.0873954895084444	3.13921112233659
361.5036	0.090164802184436	-0.00365056830373615	0.0902386735380054	2.31850981433797
308.1262	0.0983788460979943	-0.00103188239851219	0.098384257586553	0.600945637507374
262.7298	0.105539717235883	0.000378381243401894	0.105540395520367	-0.205416083865169
224.2111	0.116011152130247	0.0018384700774692	0.11602571866105	-0.907910641037688
191.2854	0.121975767807074	0.00212934598592349	0.121994352518684	-1.00011788492368
163.1722	0.133303811123622	0.00232431680104763	0.133324073252635	-0.998921549047448
139.1537	0.145637262102309	0.00181509398013149	0.145648572525834	-0.714046933308403
118.6706	0.15154615379666	-0.000360789640898218	0.15154658326642	0.136405208202385
101.1982	0.161591399041506	-0.00316035659941368	0.16162230074475	1.12043100049202
86.24196	0.17310148440957	-0.00671674894682224	0.173231748306167	2.22209763319351
73.61024	0.1880055061161	-0.0109218130494621	0.188322479620087	3.32474975330262
62.69291	0.190862872260256	-0.0137273082981682	0.191355885722252	4.11376420339933
53.57697	0.189686571781131	-0.0163633664366907	0.190391058811121	4.93043074260464
45.65746	0.204447590998848	-0.0203190476585717	0.205454815380374	5.67570960532562
38.96512	0.223726475530996	-0.0260203032155397	0.225234526733691	6.63392880556477
33.18414	0.230887619912781	-0.0292017844014059	0.232726958561347	7.20827888813776
28.30617	0.227848225767047	-0.0308975323460062	0.229933624096746	7.72253142757948
24.17237	0.219761967568608	-0.030821116858016	0.221912738782615	7.98353089199543
20.61345	0.222717657813925	-0.0333491137827691	0.225200618321124	8.51603786679001
17.55618	0.240297553718716	-0.0385295173321139	0.24336687948249	9.10931847491413
14.98558	0.253591868621919	-0.0428944603739652	0.257194032904985	9.6005724884593
12.76553	0.244660448578489	-0.0425502445155611	0.248332958760938	9.86594362085209
10.8809	0.243205708381252	-0.0425487254404508	0.246899596244776	9.92343993559347
9.278505	0.249031453340979	-0.0447478061117922	0.253019823146208	10.1866223692089
7.923394	0.260457053202628	-0.0475771419215931	0.264766804936767	10.3519665297277
6.75822	0.266470805160185	-0.0486239776095006	0.270870783218284	10.3412121119131
5.761429	0.26680044917758	-0.0511209174944173	0.271653875155186	10.8468244478043
4.919708	0.273364483404757	-0.0515832713834605	0.278188739300801	10.6859378989315
4.191257	0.295094250594414	-0.0588662265346034	0.300908373695885	11.2814358537228
3.564097	0.293638081758085	-0.0590419942441808	0.299515074984378	11.3689035907275
3.051758	0.290987624623929	-0.0579021700402794	0.296692532733215	11.2540026344919
2.604164	0.289301838915299	-0.0583800788455692	0.295133508104025	11.4088673969378
2.214424	0.277992745577904	-0.0542059948256918	0.283228276252539	11.0336946326862
1.892567	0.289795330412183	-0.0576325657030892	0.295470550407697	11.2478490677722
1.607507	0.276782204881173	-0.0531616549769265	0.281841356970139	10.8724127429348
1.376413	0.262496361065325	-0.0503964565716824	0.267290370959223	10.8679264833989
1.17375	0.236749343072927	-0.130288805596525	0.270232167421333	28.8250368476397
1.001604	0.32227332955309	-0.200432601241901	0.379517228307003	31.8788675182193
