EC-Lab ASCII FILE
freq/Hz	Re(Z)/Ohm	-Im(Z)/Ohm	|Z|/Ohm	Phase(Z)/deg
6999984	3.36488369541608	2.933424272487	4.46401391643136	-41.0811312066595
5969734	23.3789342770981	13.6452627638533	27.0696834822182	-30.2702426717659
5091109	20.5483860341974	32.1222647743393	38.1323492961443	-57.3932396340341
4341796	64.6872801832605	109.701056483498	127.352919130671	-59.4734775008156
3702781	59.6788504388237	110.147255414876	125.27562837651	-61.5507359870624
3157797	60.2154454789463	115.012147912137	129.821777994262	-62.3653673801794
2693047	65.3118219518033	119.685776569369	136.346320814597	-61.3789632400821
2296687	71.7010844470441	133.288141711695	151.349840541175	-61.7223941424836
1958656	83.9912464184894	151.074681653903	172.852795498828	-60.9277589764166
1670375	96.4118767966699	181.469189253389	205.490429547799	-62.0189570972433
1424531	101.469289302628	213.433390393832	236.325683764136	-64.5729164690389
1214875	83.562080521604	274.872440323797	287.293368789915	-73.0905643472332
1036062	117.7960316211	300.918481224964	323.152962864985	-68.6218946156694
883578.1	121.96763356311	347.398403244516	368.187118478939	-70.6544050981165
753531.2	117.150391464299	420.952096213671	436.949518282058	-74.4481878427957
642624.9	140.900454319918	466.37801634253	487.197487837481	-73.1895714542318
548046.8	151.415076481556	-5.15353684283826	151.502753532422	1.94935654468195
467390.6	156.39968039289	107.809483426575	189.957218193211	-34.5792863616063
398593.7	140.83471812441	799.001176262672	811.318246743111	-80.0035293286047
339937.5	842.075706236905	1506.87209708139	1726.19668983487	-60.802510402401
289906.2	936.951342405146	1615.84088100172	1867.83820786256	-59.8925388321742
247234.4	665.889761364705	1799.9874004956	1919.20916427398	-69.6984823127202
210843.7	1120.64045770241	1937.78031991994	2238.48779396013	-59.9587154575119
179812.5	1163.11620389324	2135.92175733623	2432.0775187525	-61.4294981176127
153343.8	1226.90665545489	2380.48967207757	2678.06479011757	-62.7333781719919
130781.2	1291.61545206211	2672.59615715197	2968.33972031995	-64.2063953674937
111531.3	1345.45235839473	3022.38847845075	3308.33404652277	-66.003191013024
95109.37	1491.38097093802	3402.68945966034	3715.17331484812	-66.3324125621062
81109.37	1524.98888764111	3942.43906822399	4227.10502756766	-68.8528539028866
69171.88	1700.01413543778	4453.65400831816	4767.08318434834	-69.1075336428223
59000	12784.7301904804	-19248.0024782531	23107.031948007	56.4074600179335
50312.5	7126.33165020941	10675.6061492615	12835.621116367	-56.2755364856047
42906.25	7628.65484530808	10175.5242640883	12717.6125431581	-53.140872929288
36593.75	0.000379391059164749	0.000447313486420699	0.000586538089903794	-49.69689810727
31203.13	0.000963383085566349	-0.000500256793324078	0.00108552467904798	27.4415385780491
26609.38	0.00213332423992606	-0.00138333980678197	0.00254257769471922	32.961121767864
22703.13	0.00102803343824325	-0.000635232376471504	0.00120845890383739	31.7123430646425
19359.37	0.00063861983698168	0.00195299520937672	0.00205475681870992	-71.8925095976147
16500	0.010773278475486	-0.011806054801472	0.0159826924854898	47.6188775871557
14112.02	0.000651865683141612	0.00179137931812323	0.00190629712538663	-70.0040407048635
12011.13	0.00206901919441893	0.000744325809605908	0.00219883181205826	-19.7861005082795
10236.38	0.000912388989379416	0.000515614081863061	0.00104800360178593	-29.4718890096086
8750.684	0.00183399150671789	0.00121531248044029	0.0022001157405526	-33.5308366218743
7449.463	0.000741913936630391	0.00137550643696805	0.00156283532322089	-61.658681235665
6363.206	0.00119074495502794	-0.000369553633448351	0.00124677320949696	17.2419902809821
5414.761	0.0012554756866513	0.000820182413134584	0.00149963942019001	-33.1559503365202
4620.567	0.00156300826001055	-0.00150253724389017	0.0021680897098917	43.8699287899455
3941.215	0.00191829417146792	0.000772540549274268	0.00206801146722178	-21.9357636710969
3361.769	0.00205709436349404	0.00211419976286573	0.00294982675044153	-45.7843354820822
2867.244	0.00253096002547905	-0.000929465200844485	0.00269623148304329	20.1651636559601
2442.658	0.00118982640637151	0.00185874292253151	0.00220694633585865	-57.3757071255031
2083.003	0.00145662148712506	0.00212266292253296	0.00257438226366066	-55.5411650204296
1777.843	0.00184626221551016	-0.00332028507689282	0.00379907582975881	60.9235190887326
1513.548	0.00356153346079072	3.77661588199754E-06	0.00356153546313377	-0.0607558716378774
1292.065	0.00122450387917615	-0.00199717474800343	0.00234267298703425	58.4867868818208
1101.762	0.0011465196938719	-0.000309735940144097	0.00118762105111565	15.1177549851125
939.101	0.00062701686751622	-0.00122158760377531	0.00137310830812698	62.8294631942353
801.2801	-0.00136128250433193	-0.0142760763980742	0.0143408314745084	95.4469191470019
684.3433	0.00225958733292852	0.00128106035635975	0.00259747002904125	-29.5508254050437
582.9476	0.00358236339374085	-0.000460209335544542	0.00361180289015567	7.32042391737872
497.0677	1.15593535520244E-05	0.00267246430482503	0.00267248930385483	-89.7521770296376
423.5089	0.00239003964854234	-0.00333291318481249	0.00410129245715315	54.3556064803228
361.5036	0.00400634738427238	-0.00398863715818303	0.00565332165572635	44.8730804863944
308.1262	0.00286363236311983	0.004015216177186	0.00493176958714044	-54.5037217999421
262.7298	0.00533535377686477	-0.00354565175617337	0.00640606324511087	33.6063410001167
224.2111	0.00649007211953163	0.00216934609174756	0.00684303284973133	-18.4825183919537
191.2854	-0.0056587601272324	-0.00282214793605083	0.00632345515920776	153.493559850603
163.1722	0.00191340929866264	-0.0116482123409406	0.0118043206447407	80.6715408219477
139.1537	0.0038648550487428	-0.00792831778726921	0.0088201659555658	64.0119334918263
118.6706	0.00686892152067171	0.00995334147324877	0.0120934316610398	-55.3899729174505
101.1982	0.0125213458189456	-0.0125425859171872	0.0177228824576492	45.0485545407311
86.24196	0.0133969989189462	-0.0128231613629508	0.0185448927571588	43.7462615794444
73.61024	0.0062577036917929	-0.0147415867020272	0.0160147817340001	66.9991062525204
62.69291	0.0171250746583649	-0.0174725760339889	0.0244654674044478	45.5754637178673
53.57697	0.0204881173707205	0.0285798162382053	0.0351648809127232	-54.3642581430293
45.65746	0.0202219071085528	0.000989698371777031	0.0202461114778625	-2.80192805707693
38.96512	0.0284174989650572	-0.00250752622748163	0.0285279150168837	5.04265082931676
33.18414	0.0409845458281694	0.00448328372242909	0.0412290289683994	-6.2427418709392
28.30617	0.0330259890576494	0.013063220158435	0.0355156820875471	-21.5809595564622
24.17237	0.0320538831658557	-0.0135247796824332	0.0347903879177666	22.8767723650859
20.61345	0.0494384308335279	-0.084858430126394	0.0982095291038381	59.7749678926134
17.55618	0.0557325802332765	-0.0289441348489942	0.0628003458717813	27.4446382797208
14.98558	0.104301401466335	-0.0196062634470019	0.106128167392991	10.6460543068125
12.76553	0.091613275877025	0.013088213374647	0.0925434689551898	-8.13047164813468
10.8809	0.0854548364110975	0.0591831574146082	0.103947944605027	-34.7051766483524
9.278505	0.0373503091024415	-0.0902338275937205	0.0976585338424717	67.5139661272249
7.923394	0.13928216557799	-0.109070700051351	0.176906583421269	38.0641990180864
6.75822	0.170866874864203	-0.0458650014304223	0.176915480617361	15.025451484317
5.761429	0.25025859666635	0.0206043204569773	0.25110536279997	-4.70666723233645
4.919708	0.196890652965747	-0.0645946365291589	0.207215820567862	18.1633006859745
4.191257	0.204336342604117	-0.19883033068123	0.285108472879419	44.2175652025631
3.564097	0.292187549968046	0.0497173230057351	0.296387207151702	-9.65670516364826
3.051758	0.668952367385127	0.115496906195786	0.678849618966501	-9.79573910221471
2.604164	0.338486954783555	0.300838188027183	0.452854318665642	-41.6298414279004
2.214424	0.602199661971999	-0.632304995156401	0.873186142686041	46.3969706045259
1.892567	0.71719154171793	-0.190708381951467	0.742114138430395	14.8909324531761
1.607507	0.598269252573913	-0.0781097550265057	0.603346693374257	7.43843603444182
1.376413	0.516054649710051	-0.374639402674458	0.637704542498826	35.9784664860496
1.17375	-0.0958979882651324	-0.538678928600331	0.54714843714599	100.094294414867
1.001604	0.277304168013184	0.581656631274514	0.644377248436892	-64.5105786609287
