EC-Lab ASCII FILE
freq/Hz	Re(Z)/Ohm	-Im(Z)/Ohm	|Z|/Ohm	Phase(Z)/deg
6999984	6.23749619110765	-1.2169218289885	6.35509696794244	11.0396075571319
5969734	9.63757473946405	6.67774640505567	11.7249794843739	-34.7175697254611
5091109	7.07171824721211	5.61024638564608	9.02685235702942	-38.4262224009398
4341796	0.646488003322399	-14.5995927445577	14.6138993785157	87.4645284410187
3702781	0.792963380502213	-11.641816825337	11.6687912791992	86.103409902906
3157797	1.49367313930378	-11.5005594870114	11.5971517176143	82.5999448730195
2693047	3.97434116427958	-5.23967608855032	6.57644229070803	52.8193576625504
2296687	6.90522654066779	-9.07302825221626	11.4018417478694	52.7262577504196
1958656	1.66271424230727	-8.90890262836015	9.06273494554341	79.4282224065138
1670375	-1.72789634978701	-12.484311308907	12.6033191919157	97.8799844240249
1424531	8.58209336014146	-9.8979022313884	13.1004120173492	49.0726892373647
1214875	695.280083941778	-843.397899697107	1093.03907173512	50.4985233584376
1036062	19.6127016257346	9.15128147031293	21.6426434986345	-25.0137445127413
883578.1	10.363941197977	9.56110245664379	14.1005658518218	-42.6926323012445
753531.2	12.938868028078	1.34975752805488	13.0090795689995	-5.95544364372675
642624.9	45.4216020603956	-54.8728276842141	71.2330622098642	50.3833588416163
548046.8	17.7803517206754	5.74091724865745	18.6841922000085	-17.8942225166472
467390.6	4.04593916205053	6.36492684658395	7.54201017404374	-57.5574493381186
398593.7	10.5121441101181	-5.81719086059106	12.0143615436042	28.9591834562137
339937.5	-0.612539249825543	6.90423480620781	6.93135359016031	-95.0699702135853
289906.2	42.0392223516947	-34.0542536387527	54.1016488364978	39.0095163546948
247234.4	6.80338612581737	0.270757834478938	6.80877173812546	-2.27902671971771
210843.7	10.836597450092	-3.01091477496453	11.2471086096579	15.52778650162
179812.5	4.4439577905314	1.50897371694315	4.69316125042066	-18.755240572858
153343.8	46.8825614634246	48.7719782263982	67.6511672440915	-46.1315880129772
130781.2	-19.56116668238	-163.428656008985	164.595154384566	96.8253983063071
111531.3	-20.559360847964	-192.201264653447	193.297732663529	96.1055914282843
95109.37	-24.0519404037985	-223.644438670084	224.934058748881	96.1383073183862
81109.37	-29.9071133680315	-259.411251198632	261.129532375118	96.5765054401023
69171.88	-34.0662772536722	-301.517454655494	303.43580327287	96.4461002459305
59000	-38.9571157237605	-349.984403162373	352.145906297996	96.3515049139544
50312.5	-44.0690265796559	-407.776626111256	410.151015976259	96.168101123733
42906.25	-52.6274231886822	-469.033307518824	471.976576996707	96.4020397914849
36593.75	-44.0521247860139	-509.02738338595	510.930001795656	94.9461540340575
31203.13	102.490009834836	-623.232202930099	631.603183086539	80.6613421731944
26609.38	-3.20453501889768	-751.409413413558	751.416246571229	90.244347775655
22703.13	-86.7859560382725	-862.960766103275	867.313718327473	95.7427945524074
19359.37	-75.371096179873	-943.495484792495	946.501205473707	94.5673716356965
16500	-207.902850084124	-1064.98698841128	1085.09026378382	101.046149199918
14112.02	-188.216088508044	-1284.79218538131	1298.50539297692	98.3342826597841
12011.13	471.559663557704	-1221.22866885718	1309.10961265026	68.8866584127994
10236.38	7.26732457870272	-50.3813003001984	50.9027447832726	81.7919024945465
8750.684	30.5226345658549	36.5103326825188	47.5881877510473	-50.1043799615891
7449.463	77.6729387056374	-478.542187645754	484.804817183115	80.7806319861406
6363.206	75.8573016821442	-330.395193249592	338.991613378459	77.0692405724012
5414.761	1557.59311439944	-615.651186862419	1674.85005117164	21.5668074989224
4620.567	28.8771412119386	-2055.8611937254	2056.06399150187	89.1952620527704
3941.215	8.49396948542859	-889.829305509902	889.869844674969	89.4530930605793
3361.769	220.960685950207	-49.0964976819877	226.349488226113	12.5273554975466
2867.244	-8.5279075678156	127.063778044035	127.349632501665	-93.8396579401009
2442.658	232.630940942778	-49.7357175069935	237.888201220358	12.0679636669886
2083.003	2192.64424358937	-2979.26480660319	3699.14957345738	53.6481124653173
1777.843	-1426.07408536131	-8557.60571189561	8675.61541432119	99.4610614596884
1513.548	1965.43803817022	523.354817762392	2033.92402689027	-14.9106765787963
1292.065	685.683423801103	-488.377796704976	841.828147539633	35.4603579406467
1101.762	-2337.70148894595	-13553.6124429458	13753.7361653114	99.7859858253071
939.101	-2664.36103345658	-15268.6175992241	15499.3387958305	99.8984001447118
801.2801	-14014.0167244916	-25468.1798430856	29069.2423237016	118.822050202293
684.3433	-17230.2427634086	-31594.1178908733	35987.0747767639	118.606388888205
582.9476	-15903.267586392	-33945.8615569055	37486.4700494056	115.102580083642
497.0677	27934.6259087559	-35086.8614226756	44848.9818073518	51.4747288497815
423.5089	-17657.5192625315	-46190.5888198429	49450.5660435799	110.920618432761
361.5036	-17425.3362966107	-52218.8893079828	55049.566261773	108.453748645826
308.1262	-20025.595085065	-60133.88320903	63380.6624161363	108.418626332984
262.7298	-20777.8982446786	-70314.2690648589	73319.9665138466	106.462433828849
224.2111	-22492.3005793081	-86123.412090383	89012.0536525243	104.636646518885
191.2854	-24071.2453310828	-93245.8613711801	96302.7284901239	104.47478594176
163.1722	-27334.5288994277	-112335.003120678	115612.842696114	103.676025479568
139.1537	-12151.8555941677	-132433.891026157	132990.236809735	95.2426596930377
118.6706	-32493.8661281745	-148303.274155603	151821.317545421	102.358451733885
101.1982	-35135.2656237235	-171014.175026376	174586.182014504	101.609996966106
86.24196	-187907.857009478	-267214.657440638	326669.612723638	125.115246736671
73.61024	-201411.827788519	-281792.307721249	346372.09625485	125.555392914891
62.69291	134980.184992288	-1288656.46694865	1295706.42514002	84.0203645429283
53.57697	-394537.718220413	-907763.602115088	989795.316428367	113.491021693277
45.65746	-227684.534897834	-461201.136143818	514341.069147692	116.274507957802
38.96512	-286127.220095263	-760836.734233856	812859.964716606	110.609731533123
33.18414	-143777.161563484	-613065.411861667	629699.191208285	103.198579748886
28.30617	-529979.822770734	-499970.419205427	728593.873584282	136.668940675484
24.17237	-286316.987600403	-800990.212350964	850624.910092934	109.669622382873
20.61345	-354291.850275106	-936123.744551222	1000924.76254909	110.729995374321
17.55618	-337984.586228235	-1067262.80965591	1119501.44502028	107.572138486458
14.98558	-361966.519709895	-1231440.22531971	1283536.04932871	106.380042497909
12.76553	-332066.224022516	-1522604.22725956	1558393.92003603	102.303046715096
10.8809	-470093.573839295	-1653549.80281208	1719073.85488375	105.870110060242
9.278505	-528691.369084874	-1882888.77210464	1955705.67618508	105.684070664163
7.923394	-582570.141288892	-2175675.67858662	2252321.60845531	104.99016147848
6.75822	-656718.148551907	-2513886.0650711	2598249.77144156	104.640542631892
5.761429	-830794.232551826	-3087246.70073775	3197078.54893455	105.061781202872
4.919708	-866651.291385323	-3311838.74201544	3423355.12530825	104.664492267728
4.191257	-1072942.69674728	-3833858.13200223	3981164.93087425	105.634796293782
3.564097	-1238836.80436475	-4372921.16210973	4545014.42438589	105.817283351531
3.051758	-1463960.74477997	-5094687.71447163	5300851.2495867	106.032027933146
2.604164	-1891119.87748669	-5700078.22962952	6005599.57164325	108.354340468371
2.214424	-2178767.68703129	-6576722.48934512	6928225.41029877	108.329244916944
1.892567	-2709086.07628632	-7595253.52139416	8063933.4956942	109.630374773906
1.607507	-3385274.65245271	-8837095.7848572	9463315.82392132	110.960610886862
1.376413	-4055774.60766139	-9992011.87661666	10783765.9938724	112.092317123804
1.17375	-5139008.52677331	-11546017.2503582	12638034.7753841	113.993333792269
1.001604	-6814730.29991291	-12665444.0578119	14382420.5974556	118.282782325515
