EC-Lab ASCII FILE
freq/Hz	Re(Z)/Ohm	-Im(Z)/Ohm	|Z|/Ohm	Phase(Z)/deg
6999984	0.78139096112182	2.60689507436798	2.72148374290329	-73.3144189577909
5969734	8.03735660978604	6.57571297936803	10.3845607735667	-39.2880998938433
5091109	12.6321146015144	1.75165450702797	12.7529844670879	-7.89467659712654
4341796	8.36138720259036	-12.9634399875121	15.4260679455742	57.1780825228065
3702781	1.7894482235595	-6.80909844378645	7.04030869791768	75.2754816031851
3157797	1.46043202815964	-9.76975069321774	9.8783040202508	81.4980897372034
2693047	-0.578178620969194	-8.84354740931015	8.86242750596371	93.7405935373228
2296687	-1.12478460459379	-10.4502379801769	10.5105953327613	96.1432347554243
1958656	-9.50024046725879	-15.1527589322128	17.8846490654275	122.086248056932
1670375	-2.62870633389012	-8.20773033378986	8.61840671017841	107.758808136112
1424531	0.888831390810546	-12.1525783619067	12.1850392729598	85.816873709561
1214875	-23.6831391635487	-20.5304869837729	31.3431328432702	139.078571978686
1036062	10.6820811176098	-19.5193367560535	22.2510980492967	61.3100364173279
883578.1	15.4492114014539	0.38635204498913	15.4540415694239	-1.43254746755836
753531.2	3.51765237863698	18.4780472552629	18.8098939025359	-79.2216138255896
642624.9	15.3825977572734	-8.78456121844993	17.714198530071	29.7294507272537
548046.8	18.4039786060469	-0.510400425094426	18.411054753212	1.5885856475687
467390.6	10.9991125110627	0.376051209107573	11.0055390846104	-1.95813597697674
398593.7	0.924045641969486	-3.27097199748347	3.39898781356506	74.2250780773718
339937.5	5.56616941220919	-4.834530579591	7.37257945704308	40.9761481498577
289906.2	13.3329013188587	0.519091761842494	13.3430024295748	-2.22957874312453
247234.4	11.3386040466774	-17.8913435923072	21.1816929744844	57.6356007813744
210843.7	11.8061356001252	1.77524893630877	11.9388586805611	-8.55130914865827
179812.5	2.13245036365684	-2.75003797646924	3.47995020445454	52.2090773966447
153343.8	6.36791460050814	2.88074887077298	6.98920957017491	-24.3412811373301
130781.2	36.8250171692713	-36.9375742948479	52.1580893467594	45.0874297271307
111531.3	-10.4995238724467	-182.085968676915	182.388431624812	93.3001608802057
95109.37	-2.03017761579963	3.65626444326578	4.18209168129819	-119.041664925166
81109.37	5.55858324964245	13.3133218520898	14.427140620391	-67.3384691545764
69171.88	-27.174465432608	-290.721558553186	291.988828860183	95.34006251821
59000	63.621521743998	-144.00081011175	157.429131172926	66.1635046041016
50312.5	-42.3630373893471	-420.803768950842	422.930773176988	95.7486960176973
42906.25	-45.5948069813283	-495.541812863615	497.634981406877	95.256983637916
36593.75	-59.6195107263879	-540.79562105708	544.07204469056	96.2911151623476
31203.13	99.2742153041861	-486.815813045551	496.834988356761	78.4739611987234
26609.38	-23.6275487930395	-668.950020234959	669.367156823756	92.0228660675205
22703.13	-94.290560679646	-814.730111376652	820.168192639225	96.601600991529
19359.37	-80.6744384674928	-951.495663426496	954.909609618352	94.8463447861457
16500	24.5017550260342	6.91844817617504	25.4597903471771	-15.7678443586239
14112.02	38.5392233137612	-3.46038839139014	38.6942634178146	5.130757414263
12011.13	29.6776467599925	-7.31501601075578	30.5658661982366	13.8463960151849
10236.38	28.4278599861921	26.3386199473834	38.7539175326476	-42.8153312130718
8750.684	455.064383928323	-216.102077389733	503.769492300022	25.4022213569959
7449.463	47.5678742358282	37.1811884701239	60.3750232742518	-38.0127817855513
6363.206	727.777331519616	552.726644753105	913.874492528289	-37.2156599826535
5414.761	186.008310068722	-117.564828427809	220.046768433171	32.2945541281647
4620.567	1719.36033455393	-2049.15445451273	2674.92690339133	50.0013850683364
3941.215	314.632816972521	-1149.90982312659	1192.17717258765	74.6975390752367
3361.769	91.095825449199	-33.8435347743415	97.179392158487	20.3808249700473
2867.244	196.101870763716	-1631.81785393349	1643.55877659825	83.147406046267
2442.658	384.449305992553	55.7263779311706	388.46711324832	-8.24764724681688
2083.003	83.2295855927844	-27.2761495020915	87.5851143152024	18.1450978168232
1777.843	248.655902988331	-77.1482919706679	260.349029275958	17.2370914918337
1513.548	701.719732252532	-784.399580251922	1052.47008704854	48.1843525534821
1292.065	67.8167604798909	-14.3251220216055	69.3132175196101	11.9274113902651
1101.762	446.782166050633	-48.0745721739987	449.361178107998	6.14150022853959
939.101	916.130891588461	952.4638218468	1321.54573982503	-46.1139179945753
801.2801	900.776899147485	-838.358357233167	1230.54612151697	42.944504547984
684.3433	87.57334055691	86.8568708190217	123.341825771993	-44.7646596828217
582.9476	413.971607244404	-25.991961264834	414.786780954875	3.59270377943587
497.0677	-4541.85587473149	-29004.3739345874	29357.8296562298	98.8997920035783
423.5089	-4946.81828739757	-34168.6174295025	34524.8523271604	98.2378538628636
361.5036	-20021.7325345955	-56283.9854924994	59739.0726125436	109.581845248659
308.1262	-21075.7610446017	-64713.785840067	68059.2519894482	108.039213681049
262.7298	-22240.8739686432	-74337.9948875991	77593.7752580564	106.65643733828
224.2111	-28971.4542698101	-58917.8598893105	65655.6119188917	116.184553583967
191.2854	-25459.9289491553	-98487.7093577809	101725.30106438	104.494151915236
163.1722	-27405.2133701514	-113431.487109064	116695.106956707	103.582461471623
139.1537	-25866.4731200217	-121982.969894999	124695.306150925	101.972220884188
118.6706	-30736.8324680245	-144623.089982801	147853.275331799	101.998576942764
101.1982	-151737.14001966	-125292.224921368	196779.82947216	140.452868546087
86.24196	120431.38593167	-303929.666828668	326920.420126991	68.3841744264696
73.61024	-205266.983401267	-282498.351912634	349198.873577809	126.00264376977
62.69291	-1232166.62862252	-1185631.54307818	1709958.11546158	136.102629190777
53.57697	556915.966620554	-470545.563850124	729087.458084376	40.194903007463
45.65746	-221907.371080811	-450654.013123209	502326.508243443	116.216180854258
38.96512	-235550.919968396	-522170.960752295	572840.944897388	114.280099168732
33.18414	-243355.795078377	-567494.91849572	617472.692122245	113.210845331458
28.30617	140497.082808203	-411382.248360263	434712.300888254	71.1437110551582
24.17237	-280488.719789851	-811412.587020338	858524.494877338	109.069219909355
20.61345	-303239.656956177	-939684.157415938	987400.934397674	107.885088034158
17.55618	-325132.648881757	-1079765.28482267	1127654.33962587	106.757793572238
14.98558	-354850.67283463	-1251356.53970984	1300696.80920873	105.831893775307
12.76553	1821333.35581206	2312804.99457749	2943861.77255934	-51.7795767742588
10.8809	-430194.23368155	-1687672.74697157	1741638.99231827	104.300377588922
9.278505	-481074.535837324	-1925189.88080678	1984386.24924482	104.0299988054
7.923394	-537310.498575672	-2212513.69989818	2276822.22496987	103.650070491449
6.75822	-605630.189509717	-2545222.61385886	2616284.78582591	103.384504553406
5.761429	-676394.358188704	-2942457.55647444	3019199.52958446	102.945905361233
4.919708	-793671.428339431	-3370382.27626879	3462570.00280848	103.250833499802
4.191257	-889673.308302508	-3898772.51382669	3998993.08702534	102.854404001351
3.564097	-1019234.79582065	-4511554.00597603	4625252.33018155	102.730358638705
3.051758	-1149480.48015519	-5186946.94260424	5312788.7177686	102.495388646922
2.604164	-1578596.96828649	-6426805.81354277	6617839.62885702	103.800185433773
2.214424	-1569587.64680847	-6872181.45892997	7049147.70631702	102.865519382576
1.892567	-1851358.58512578	-7980515.85317568	8192445.41596142	103.060726103377
1.607507	-2474996.04882155	-9979171.52239228	10281511.0618531	103.929215529237
1.376413	-2697496.39948886	-10584442.7563841	10922770.4950909	104.297741983065
1.17375	-3056982.93691641	-12298259.7933085	12672503.2499624	103.959123926142
1.001604	-3812751.70767739	-14123332.0410045	14628929.6780339	105.107503234923
