EC-Lab ASCII FILE
freq/Hz	Re(Z)/Ohm	-Im(Z)/Ohm	|Z|/Ohm	Phase(Z)/deg
6999984	14.1474019301405	96.1722216359818	97.2072281045672	-81.6315316076894
5969734	18.573188392802	89.0759348542429	90.9916781757092	-78.2220316562044
5091109	18.2766047584851	88.1355167199041	90.0105748730802	-78.2846559432122
4341796	19.2564739086412	92.0791799935947	94.0711814302711	-78.1879979631736
3702781	20.0406961334142	99.8359933832332	101.827575225618	-78.6495154671515
3157797	20.6077574691319	108.056789112363	110.004315102546	-79.2026489225708
2693047	20.2184083512119	120.768475461357	122.449208660231	-80.4959865535196
2296687	19.8959118786133	137.763260328583	139.192540050976	-81.7821049162498
1958656	21.5981168183355	157.519387870067	158.993195467791	-82.192629176461
1670375	22.6403397117775	180.809308125407	182.22126903041	-82.862760613646
1424531	24.6140482752898	208.621461902673	210.068478689467	-83.2711076342358
1214875	27.3169164110784	240.392410264041	241.939506560555	-83.5170211199059
1036062	29.6233767642158	277.920839823728	279.495147827723	-83.9158570410965
883578.1	31.847618313506	321.828125749265	323.400082429686	-84.3484974721998
753531.2	34.8914704994793	373.766096020782	375.39114167523	-84.6668328231744
642624.9	38.1191379487327	434.658106989242	436.326412963306	-84.9880329631248
548046.8	41.6864513900271	505.532541021002	507.248371373082	-85.2860283123723
467390.6	153.689532660346	712.735869122039	729.117885929638	-77.8314463272637
398593.7	167.998191341256	797.101310392145	814.612724748888	-78.0984446597947
339937.5	221.981826760497	966.904588187545	992.058674711356	-77.0701000090939
289906.2	249.37714723069	970.410114158455	1001.94049285471	-75.58791548887
247234.4	220.825717946858	1153.02428864735	1173.97998616564	-79.1580728061096
210843.7	289.543209250456	1254.27804230074	1287.26402785941	-77.0012877778987
179812.5	295.260135266848	1552.46512301741	1580.29317079561	-79.2316405870044
153343.8	317.832141330719	1786.21263779494	1814.26923511402	-79.9105955742345
130781.2	312.493783100139	1968.60334263219	1993.25148566328	-80.9801931861847
111531.3	209.58355833366	2533.39661319161	2542.05107495001	-85.2707876350218
95109.37	738.995651293156	2799.63193686341	2895.52301916869	-75.2133729781929
81109.37	639.110725166898	3314.95506616078	3376.00201565229	-79.0874844057495
69171.88	446.840970046829	3712.05135042619	3738.84903154879	-83.1360041861439
59000	474.264893294653	4294.27919002004	4320.38898142875	-83.6977320084902
50312.5	1335.65428576088	5712.34660862886	5866.41936347761	-76.8395990881128
42906.25	1845.16310300913	6698.25670099504	6947.75285319874	-74.5987611513561
36593.75	1959.233513648	7480.19264202953	7732.52080002855	-75.3226360297244
31203.13	2080.8714417055	8508.51635388199	8759.27374279299	-76.2573020809213
26609.38	2210.52397768606	9750.04612230377	9997.49046726106	-77.22588723359
22703.13	2337.63768826588	11174.2618611038	11416.1586403711	-78.1842164417258
19359.37	2477.22827169495	12908.3108791473	13143.8635744137	-79.1364722972332
16500	2615.09062885671	14938.6540479853	15165.8195875634	-80.070679982194
14112.02	2770.10959919557	17297.6545679609	17518.0581327969	-80.9016979682518
12011.13	2996.14303050431	20124.0094992131	20345.8258958357	-81.5317796555571
10236.38	3282.96519319408	23177.6882622224	23409.0387167112	-81.9380640280844
8750.684	3381.13638466723	27087.311812449	27297.5190168733	-82.8849340803176
7449.463	3765.78584149273	31481.5000013214	31705.9298134779	-83.1787468376607
6363.206	4141.72476589754	36660.4352447718	36893.6498109438	-83.5543206723689
5414.761	14722.8263653125	49739.2261603628	51872.4612411524	-73.5112299604183
4620.567	16223.3274029797	56214.9867724778	58509.1538979511	-73.9021590640361
3941.215	17731.8059083051	63908.2280306713	66322.5342609138	-74.4929358465954
3361.769	18867.2661971212	72461.2883481355	74877.3132719429	-75.4055430226798
2867.244	20206.2544899756	82823.075495331	85252.2994119159	-76.2894450132281
2442.658	21283.1146931399	95455.5561535072	97799.4589535991	-77.4307196453492
2083.003	22371.1444834623	110470.766484683	112713.168499574	-78.5519980504203
1777.843	22329.4169645771	125827.331689601	127793.271583847	-79.93700892859
1513.548	25207.2048549431	145974.13288843	148134.56939259	-80.2026321624126
1292.065	26504.3519435703	171104.30753575	173144.924064314	-81.1947658804612
1101.762	28314.1517092589	197701.574289179	199718.811491143	-81.8497139360752
939.101	31998.701250054	228325.380063225	230556.70899522	-82.0222315281891
801.2801	38328.2414234736	268174.573352805	270899.715547239	-81.866215120575
684.3433	115002.982721619	391654.056460617	408189.399638116	-73.6359628724183
582.9476	137965.543917836	419884.384994385	441969.894982291	-71.8105193371315
497.0677	142958.786825296	473056.068081606	494185.449279306	-73.1850450876503
423.5089	159267.109585271	535389.463936143	558576.664648173	-73.43336499606
361.5036	180383.444551254	613134.093825488	639117.832703312	-73.6061690670715
308.1262	194432.382590098	725649.12308403	751246.032423656	-75.0003472699633
262.7298	205381.530420604	804915.678820766	830705.015664047	-75.6858912718373
224.2111	195326.206409473	918599.605643868	939136.604759599	-77.9957133271277
191.2854	299677.215800787	1106443.72849102	1146308.9278145	-74.8451902990419
163.1722	265176.985645441	1247192.79056362	1275072.03347492	-77.9965727638204
139.1537	265969.565232798	1440559.75932809	1464906.90141917	-79.5393189229897
118.6706	294251.767161796	1670558.63437047	1696275.40610232	-80.0104048221462
101.1982	489327.967704631	2063158.93776984	2120393.04433813	-76.6574558050407
86.24196	333265.901568377	2084928.99627646	2111396.47642563	-80.9183710400901
73.61024	269674.526356336	2347885.72508786	2363322.1803717	-83.4478078182541
62.69291	1587325.265608	547939.588995679	1679237.71159007	-19.0445097748857
53.57697	573491.045395836	3252668.96481776	3302839.28973813	-80.0007218354085
45.65746	685513.574174582	3165795.14358812	3239164.66879097	-77.7819427737644
38.96512	186228.569549385	4826893.63635667	4830484.78486548	-87.7905414264482
33.18414	61409.6120533243	5236660.92173529	5237020.98045082	-89.3281309654613
28.30617	1570632.29950388	5798385.76032994	6007342.44452919	-74.8437579045541
24.17237	5645066.51810647	4091106.9295705	6971652.02107983	-35.9316902116551
20.61345	-675107.160083707	5053730.89840667	5098623.89975046	-97.608860795369
17.55618	276206.134714098	9966872.52843088	9970698.96380609	-88.4126017046217
14.98558	-682909.167191775	10636605.7537673	10658505.8470552	-93.6735574752924
12.76553	-609154.540917287	10539022.1182789	10556611.978485	-93.308010401999
10.8809	5397220.34340644	1919500.54315309	5728391.55177484	-19.5777329469242
9.278505	452379.839129773	5594615.11859184	5612875.00698416	-85.3771286017981
7.923394	-79840.4263477837	7654844.95956001	7655261.31811192	-90.5975762563531
6.75822	6431299.01193486	-121540.613831273	6432447.36486237	1.08266391446818
5.761429	6888614.67174208	-1817229.53172996	7124277.87686104	14.7780654971133
4.919708	-873287.772607205	7879730.73517547	7927975.02472443	-96.3241175313472
4.191257	6706706.40414847	4477990.80648922	8064261.43266995	-33.7305811684128
3.564097	8897887.45209324	-2289508.38233406	9187722.77242279	14.4297128872517
3.051758	6544277.63289414	-7155238.63282829	9696649.40219646	47.5535432097769
2.604164	9012330.6412254	424070.279819085	9022302.32196838	-2.69403437467584
2.214424	12984747.8698755	2090156.10834304	13151898.3345173	-9.14446370606745
1.892567	9207202.5886638	4561444.91196095	10275181.7109748	-26.3547980688686
1.607507	13117433.3860772	-10081841.8128429	16544201.1888565	37.5452826021923
1.376413	-12431238.4778205	11276120.8101143	16783521.4009676	-137.789474235421
1.17375	7140408.92628598	12516127.1240539	14409680.0040827	-60.2953854579307
1.001604	26852134.472867	-2146721.31319629	26937808.7109078	4.57084815995848
