EC-Lab ASCII FILE
freq/Hz	Re(Z)/Ohm	-Im(Z)/Ohm	|Z|/Ohm	Phase(Z)/deg
6999984	23.4717229246742	87.8094461107022	90.8923572327233	-75.0345528503326
5969734	22.9666405496443	86.2746110348664	89.2791973942085	-75.093338320113
5091109	22.8885717502957	85.8052830960567	88.8055928642046	-75.0641174725614
4341796	21.6575580139503	89.5492187303297	92.1309524228424	-76.4040365722543
3702781	21.806796435269	98.2821602088121	100.672336746893	-77.4899061855862
3157797	21.9842111126192	107.24129166114	109.471458268327	-78.4150038416045
2693047	21.6216190243738	120.335164427379	122.26220269159	-79.8138802984164
2296687	21.2652087380265	137.649534225215	139.282458964115	-81.2179133753844
1958656	22.7266662385525	157.541025831787	159.171844804445	-81.7912149451924
1670375	23.5372541757621	181.367451214153	182.888366754292	-82.6056744509708
1424531	25.320418696423	209.713853981837	211.236891084104	-83.1155495928577
1214875	27.7599753244124	242.286982778133	243.872094044692	-83.4638506365178
1036062	29.7033981871388	280.221601167717	281.791478978451	-83.9492604805526
883578.1	31.8435991117026	325.914195017867	327.466146828235	-84.4196015345755
753531.2	34.8531102778148	377.808672029274	379.412877952977	-84.7293425186232
642624.9	37.8329242911305	439.678697689037	441.303396046241	-85.0819980415262
548046.8	41.9156613543854	513.452399538212	515.160450013705	-85.3330108515731
467390.6	154.579920817588	712.548182363498	729.122667395204	-77.7599411944314
398593.7	178.317050227351	808.589684986338	828.018266143984	-77.5637031495991
339937.5	201.962656065065	917.9463608861	939.901290513472	-77.591720785781
289906.2	223.750373821691	1043.68957954785	1067.40440707453	-77.8998574880024
247234.4	246.909684485831	1191.54486167696	1216.8580647231	-78.2929638312416
210843.7	267.60760143416	1365.64977786419	1391.6224862102	-78.9130187571322
179812.5	287.481656110655	1567.66147531589	1593.80306305068	-79.6084176330825
153343.8	308.745899166756	1806.63615523285	1832.82793181652	-80.3020976356473
130781.2	330.33174308992	2087.17661532395	2113.15529103943	-81.0065492447607
111531.3	353.698046831578	2414.77392897046	2440.53998868445	-81.666997695208
95109.37	379.408899406953	2797.44639500793	2823.05817260149	-82.2762810145501
81109.37	408.675017105009	3248.61644560994	3274.2211410186	-82.8298728362055
69171.88	441.901833928756	3771.16017358094	3796.96277116759	-83.3166004831691
59000	472.861309958119	4378.4145132225	4403.87459722149	-83.8360440202348
50312.5	1419.34163011845	5743.4066509691	5916.18547895376	-76.1188754776177
42906.25	1787.1679918737	6798.9559649735	7029.91974668464	-75.2724449268709
36593.75	1919.94579777539	7551.92528682152	7792.16063772621	-75.7357386000137
31203.13	2031.01854814878	8606.3221543126	8842.72680606702	-76.7216270780953
26609.38	2156.95973803017	9861.30249553294	10094.4421450562	-77.6620227072435
22703.13	2263.4913485163	11309.7660349228	11534.0452942366	-78.6825751319306
19359.37	2428.99021684865	13100.5583900158	13323.8366698094	-79.4960033136778
16500	2547.316903751	15177.2180850792	15389.5020130669	-80.4723806923602
14112.02	2738.56814003818	17509.7783820924	17722.6435513335	-81.1108275634745
12011.13	2975.21929690363	20362.4548439207	20578.6660679301	-81.6871658095966
10236.38	3191.25676861411	23673.828480171	23887.952500618	-82.3227478917352
8750.684	3448.25518962946	27447.2450927633	27663.0028564331	-82.8393266398252
7449.463	3786.47481629782	31982.2830467022	32205.6488898117	-83.248017435092
6363.206	4171.83374847612	37128.9654560917	37362.605271375	-83.5890992105334
5414.761	14637.138198022	49388.0333442348	51511.3934216426	-73.4917493953838
4620.567	16083.0087991789	56125.2597025794	58384.1412432901	-74.0100470168592
3941.215	18831.9554111279	64993.435326214	67666.7509202967	-73.8409671715161
3361.769	20131.3528307748	69682.2834002869	72532.0066362089	-73.8858870626543
2867.244	21515.7041592596	90186.9645157046	92717.9275762015	-76.5818826718629
2442.658	28417.5511057376	98446.299798905	102465.756011182	-73.8986640214857
2083.003	32922.2350171797	115255.891852232	119865.733907485	-74.0582900632092
1777.843	15135.6159946042	118150.755972061	119116.279358892	-82.6999260082698
1513.548	20599.7978225	134481.154835497	136049.743389014	-81.2911373816022
1292.065	37415.5476333675	157493.944269498	161877.316774984	-76.6360844792823
1101.762	46331.2702968182	194119.03555658	199571.5074171	-76.5760957981321
939.101	44297.1570019315	251015.56886515	254894.201446696	-79.991955581143
801.2801	36602.9912668125	247687.004918593	250376.978524826	-81.5937163932108
684.3433	107261.354745193	341003.03161938	357474.566641296	-72.5392070609789
582.9476	145683.374798334	484030.623822305	505479.268111405	-73.2492736564845
497.0677	93736.842554022	489914.29302509	498801.172976037	-79.1683287506425
423.5089	174612.989158097	621600.06008681	645659.608991186	-74.3094747605946
361.5036	116224.755007384	610945.00490012	621901.915649835	-79.2288903895878
308.1262	255377.470925605	787787.872469559	828146.958375428	-72.0388430184911
262.7298	268518.842481555	901493.495929677	940634.302995136	-73.4133114732304
224.2111	128996.191882152	926268.808237577	935207.95689192	-82.0717350816884
191.2854	404959.557509435	1103098.69461778	1175082.53892469	-69.8412633952668
163.1722	322365.412535261	1106750.51290383	1152742.88417319	-73.7606384886387
139.1537	331162.084782544	1281377.8468039	1323479.32083479	-75.509420270937
118.6706	452862.415135995	1509741.42120144	1576199.07560376	-73.3028452103292
101.1982	616552.952386888	2050121.24435005	2140825.69576142	-73.2618787279774
86.24196	275391.919911349	2263160.76007668	2279854.67420696	-83.062092630572
73.61024	822622.012345194	2316612.21645956	2458332.59276375	-70.4502029399319
62.69291	454872.659467412	2878684.1326666	2914400.70546201	-81.0207013023004
53.57697	1268709.27158694	3337710.26084752	3570704.83254741	-69.1875185510225
45.65746	933724.414223906	3609438.04897377	3728254.86133893	-75.49612765009
38.96512	1475587.03162551	5066860.13711161	5277350.541413	-73.7632167987168
33.18414	2150473.74167296	5095333.97906137	5530548.40606266	-67.1179376992305
28.30617	2495878.37034286	5374765.4688736	5926003.09525243	-65.0912713862938
24.17237	2222369.02950723	6743111.50540201	7099892.73704877	-71.7590104313492
20.61345	1661404.94691164	6279987.04768321	6496037.53966149	-75.1815738205632
17.55618	6552296.49345748	7796202.97761321	10183976.1491433	-49.9547233855009
14.98558	8054810.05352136	9323315.29623912	12320883.6173139	-49.1748648009704
12.76553	6089411.81500496	13387435.5025843	14707289.5391563	-65.541100551251
10.8809	10307529.8961829	10218410.5592212	14514168.4886703	-44.7512352816818
9.278505	9756733.53479629	9533964.99788165	13641493.2412053	-44.3383790832444
7.923394	11245980.1890333	8025517.0102582	13815968.7931782	-35.5129554662397
6.75822	10956664.456928	7384116.93063571	13212633.305553	-33.9775431668481
5.761429	10268776.4484532	11496335.8746726	15414717.2627846	-48.2280806924065
4.919708	15752946.0934338	5346188.34351062	16635415.2466032	-18.7460331410903
4.191257	11378561.2983633	2539515.49298664	11658507.4584927	-12.5813223922699
3.564097	15604498.1619494	4071197.13737573	16126841.259765	-14.6224501599558
3.051758	14395306.5849238	-291505.062624756	14398257.7722267	1.16008139878846
2.604164	12142271.5492842	12058192.424805	17112415.4615934	-44.8009393704094
2.214424	15132820.2865156	8251439.90928906	17236255.695498	-28.6022135611133
1.892567	15344762.3287194	786560.917603494	15364908.3629545	-2.93437011621039
1.607507	13870590.8177858	1016179.0394753	13907764.3593322	-4.19008390058414
1.376413	15367576.4326469	-4461310.29708274	16002052.8364364	16.1883667323601
1.17375	16507112.5717607	-2365204.28246564	16675699.5881604	8.15406605013817
1.001604	15716292.0105924	1566657.1160776	15794184.0270894	-5.6926456647919
