EC-Lab ASCII FILE
freq/Hz	Re(Z)/Ohm	-Im(Z)/Ohm	|Z|/Ohm	Phase(Z)/deg
6999984	23.3961161186574	4.51590373598753	23.8279591234836	-10.9248441107672
5969734	21.7297938332752	5.67973252520966	22.4598152618086	-14.6482504494705
5091109	13.221597992526	-5.41732758409112	14.2883900992842	22.2805410243169
4341796	8.32302293858358	-6.53502399906415	10.5820248300849	38.1380933849244
3702781	6.10712892678792	-6.30269586422832	8.77616082836741	45.902851802005
3157797	4.40976851158285	-4.95502816246226	6.63312614206467	48.3322501491392
2693047	2.75042977299857	-4.04189991379089	4.88894864457583	55.765518104269
2296687	2.28050467549844	-3.81565146852922	4.44521064790629	59.1344583734367
1958656	1.83048570230134	-3.32487074055979	3.7954503484778	61.1653072782779
1670375	1.47007413286275	-2.76841183618782	3.13452102415297	62.0309319151615
1424531	1.1819711903936	-2.47884916233792	2.74622451095024	64.5071409141579
1214875	0.694021175180189	-2.21290227756713	2.31918129555675	72.5872782199903
1036062	0.805880471211824	-1.8385473541354	2.00741119536553	66.3309801676183
883578.1	0.712521287329145	-1.58459829123697	1.73742289886151	65.7887329103065
753531.2	0.64950753426134	-1.35958112050473	1.5067583947983	64.4649712204363
642624.9	0.626224532356814	-1.21249206450532	1.36465899455281	62.6846767594058
548046.8	0.576233892166251	-1.04382326413577	1.19231392897681	61.0994744276173
467390.6	0.541238210238641	-0.906739576442422	1.05599027443879	59.166773193082
398593.7	0.506835036649845	-0.785859626874933	0.935124113435141	57.180271221584
339937.5	0.48100951910496	-0.683208264588057	0.835549932841245	54.8527218521122
289906.2	0.458088079508455	-0.594020899234731	0.750136999031099	52.3618508631384
247234.4	0.438718007622886	-0.514800307703642	0.676382175271022	49.5620295718742
210843.7	0.411598665873143	-0.434442709884297	0.59845963098622	46.5466730172376
179812.5	0.398013952220406	-0.369700511827584	0.543225160138671	42.8878791290912
153343.8	0.39089282254011	-0.319956366396646	0.505142826447252	39.3012550048195
130781.2	0.385788058047627	-0.277428111005458	0.475182893745362	35.7206870444423
111531.3	0.379556751158132	-0.240142664034237	0.449145662830197	32.321225313528
95109.37	0.382577096566343	-0.220883348614897	0.441763158844718	30.0002649587003
81109.37	0.374697141333458	-0.192947992218598	0.421458035188147	27.2459250572135
69171.88	0.366677771045456	-0.167034651377297	0.402930716798309	24.4909377134183
59000	0.355490114729943	-0.140806717197633	0.382360763257271	21.6081120263734
50312.5	0.348524335577307	-0.102920331493529	0.36340309179249	16.4520361801014
42906.25	0.38285687661469	-0.103622732504336	0.396632145271688	15.1446324352821
36593.75	0.3629861203043	-0.0949597821260516	0.375201657452356	14.660437261773
31203.13	0.357326546852467	-0.0822965945831454	0.366681047458811	12.969741940745
26609.38	0.353611065899796	-0.0694503749092641	0.360366675071138	11.1116455407137
22703.13	0.354463642578862	-0.0651804920862565	0.360406673715793	10.4194265805264
19359.37	0.352221093478872	-0.0631535605971921	0.357838051229261	10.1651708293592
16500	0.348400780494106	-0.0563341226162317	0.352925823962831	9.18485723062417
14112.02	0.344740512547243	-0.0504164113114228	0.348407570986708	8.3202123515702
12011.13	0.342341903894184	-0.0453499333296907	0.345332586957707	7.54602031963353
10236.38	0.340654817429479	-0.0347955802652848	0.342427272634511	5.83214885579255
8750.684	0.34188379967918	-0.0307285961813174	0.343261968627968	5.13595757921161
7449.463	0.342533305842971	-0.0287279704391076	0.343735889742786	4.79412752088979
6363.206	0.337576378374201	-0.0300416230152893	0.338910475420331	5.08547369492483
5414.761	0.333731387313643	-0.0298022817309871	0.335059419916322	5.10298901472198
4620.567	0.334055948610402	-0.0213342911856245	0.334736506497855	3.65419933958726
3941.215	0.336391757176022	-0.0206253391314477	0.337023469376035	3.50860961792892
3361.769	0.326986228043587	-0.0203823384638112	0.327620867850975	3.56685650738192
2867.244	0.324703866993313	-0.0206617177173854	0.325360581231722	3.64096458747753
2442.658	0.330804640531326	-0.0193837407962782	0.331372056160922	3.35345379292309
2083.003	0.326494385835533	-0.0208374929288719	0.327158654315735	3.65177286332488
1777.843	0.325522661339477	-0.0219922582398034	0.326264712262944	3.86502030622123
1513.548	0.31960430215722	-0.0184611574045982	0.320137039859684	3.30587652353101
1292.065	0.327841620375313	-0.00567524952901627	0.327890738673003	0.991745252663435
1101.762	0.318885252479415	-0.0128582449110594	0.319144385366644	2.3090571566339
939.101	0.319383616815935	-0.00863851968059414	0.31950042052038	1.54932829831972
801.2801	0.324308526913065	-0.00956999461978143	0.324449696294426	1.69024612211655
684.3433	0.330296199701962	-0.0142467583694181	0.330603311631319	2.46982395732745
582.9476	0.322210076181173	-0.00734577707520371	0.322293800178527	1.30600859258813
497.0677	0.311237302189595	-0.0145284952975852	0.3115762113029	2.67261549342047
423.5089	0.30744025237506	-0.00547389408560973	0.30748897914706	1.02002874126227
361.5036	0.322395948669168	-0.0193899724805778	0.322978511283786	3.44181419817257
308.1262	0.304647679338046	-0.00982172020656265	0.304805962398823	1.8465535922906
262.7298	0.311304764336254	-0.00956274585262143	0.311451605240192	1.75947432067103
224.2111	0.319561008960757	-0.0180070704346039	0.320067950650567	3.22517198034007
191.2854	0.316000202366762	-0.00983458429906339	0.316153201698433	1.7825885840422
163.1722	0.305012654822854	-0.00828459099363717	0.305125144899625	1.55585486056405
139.1537	0.310942034678125	-0.0142850627307783	0.311269998469166	2.63038964983492
118.6706	0.304798764523054	-0.013034447892196	0.305077340500134	2.44871103553468
101.1982	0.303414686323761	-0.00941891302642312	0.303560846947602	1.77806393633405
86.24196	0.302834895774535	-0.0101935873920292	0.303006408055494	1.92787922173147
73.61024	0.314378320527327	-0.0272226598225267	0.315554752183193	4.94901348277412
62.69291	0.226444623728425	-0.000874355270168905	0.22644631176649	0.221231208701047
53.57697	0.27602132783593	-0.018528257369343	0.276642494460729	3.84028571820544
45.65746	0.310434078853669	-0.0448276231733342	0.313654002227129	8.21688514279631
38.96512	0.313465024842384	-0.00965846715383878	0.313613787622926	1.76483605971786
33.18414	0.289545514842904	-0.00854835163734189	0.289671675317691	1.69107175429934
28.30617	0.309295541103473	0.0108948512739958	0.3094873657046	-2.01739413693815
24.17237	0.326079562872914	-0.0244339749008187	0.326993731519191	4.28531063205047
20.61345	0.282881516790768	-0.0187461058225332	0.283501973582822	3.79135626841685
17.55618	0.296076717421473	-0.0154104987578736	0.296477496736331	2.97949970990167
14.98558	0.301222634900547	0.014649426053028	0.301578648879709	-2.78428439473367
12.76553	0.310132451671191	-0.015386494570254	0.310513899519401	2.84026695498031
10.8809	0.255534653446297	-0.0252246146005195	0.256776635022862	5.63757926405967
9.278505	0.283187295145803	-0.0129898240663914	0.283485060737373	2.62632107653169
7.923394	0.281927468541126	-0.0376572649429496	0.284431304748601	7.60800862348873
6.75822	0.254580018825272	0.0817840775031119	0.267394131046496	-17.8096654052418
5.761429	0.227608305421719	0.042237732989531	0.231494204646772	-10.512904644802
4.919708	0.216108310162721	0.0829935410633856	0.23149671613141	-21.008626285328
4.191257	0.271657925338515	-0.0987429932786502	0.289047067310592	19.9753370088553
3.564097	0.149467890241339	-0.0993684340924748	0.179484639752786	33.61653964887
3.051758	0.243438366629998	-0.0691590060869949	0.253071544173624	15.8594488509094
2.604164	0.175111748897912	0.0146946894770069	0.175727227545736	-4.79679807717289
2.214424	0.184490531233793	-0.0374581082848994	0.188254790088354	11.4770608337143
1.892567	0.214744481614455	-0.0102604977276952	0.214989465317446	2.73551365425434
1.607507	0.203442481029479	-0.0736970833527986	0.216379535035408	19.9129304458096
1.376413	0.244447217970536	0.0512400263600345	0.249759850005784	-11.838700334845
1.17375	0.249312883864521	-0.0387731498579103	0.252309871409638	8.83982777597434
1.001604	0.218694984196994	0.0749583708646816	0.231184457686088	-18.9193070374937
