EC-Lab ASCII FILE
freq/Hz	Re(Z)/Ohm	-Im(Z)/Ohm	|Z|/Ohm	Phase(Z)/deg
6999984	2.41670253385855	1.21209280026342	2.70363090927899	-26.6359713772511
5969734	4.52118210801962	0.533919614769797	4.55259901692568	-6.73503293809356
5091109	6.08597273142712	-2.1126056973789	6.44221754679802	19.1432705100324
4341796	2.39712003029518	-6.26000843131211	6.70327457290398	69.0468574123179
3702781	1.26436955489731	-5.77752227342197	5.91425346017891	77.6558347630561
3157797	2.44300438821601	-7.91653959406748	8.28491820027698	72.8500366648373
2693047	0.562955514830689	-6.18637393809123	6.21193539998386	84.800446580999
2296687	9.25458061593184	-9.01506168762787	12.9196981237379	44.248883075645
1958656	-1.76369452988948	-9.06981635505988	9.23970709001502	101.004265985094
1670375	6.61411996408817	-5.70236109508889	8.73289785570249	40.7662565207674
1424531	6.49028896079838	-7.59139224914176	9.98764672357763	49.471089710631
1214875	8.35718143857767	-7.72858140116893	11.3830335179952	42.7621320817939
1036062	6.31220021084663	-8.35906652953412	10.4746295756456	52.942371701165
883578.1	6.15627145103344	-18.2258565459352	19.2375030867267	71.3362248743222
753531.2	6.72787398563068	-9.79337925501615	11.8816903510867	55.5116405052465
642624.9	5.44406198402094	2.90948933769102	6.17275781899791	-28.1215420780442
548046.8	4.54534707708059	8.72112017917413	9.8345369606669	-62.4719948258532
467390.6	0.0941418525380825	0.00837637881021771	0.0945137668346486	-5.08456784865073
398593.7	5.23451168310056	-2.06280527291966	5.62630235185609	21.5083027784616
339937.5	0.290979123617479	-0.13774012424426	0.321933521410897	25.3313636664721
289906.2	0.604629216570376	0.0747913508248983	0.609237421444809	-7.05154628327973
247234.4	2.89055667349251	0.0867059236058544	2.89185680832583	-1.71814458307706
210843.7	2.59317354691476	-0.255720734483904	2.60575174152556	5.63190239822551
179812.5	2.07806368150584	-1.42084046349354	2.51736693533028	34.3616999093274
153343.8	0.145364934913156	-1.88438602424443	1.88998456413539	85.588836507099
130781.2	-0.330736683437507	-1.23843538553073	1.28183811688758	104.952460855561
111531.3	-0.428653767286107	-0.921469690870183	1.01629249893963	114.947136633823
95109.37	-0.512477214171823	-0.705582254140408	0.872054592558959	125.991585684324
81109.37	-0.62987456371125	-0.219781694467741	0.667117650218872	160.764623453931
69171.88	-0.540531986435326	-0.0593765283728987	0.543783413209099	173.731288611317
59000	1.01064796108577	-0.670264547871752	1.21270930786424	33.5524485899067
50312.5	0.577175420855136	-0.418621805166445	0.713004685959438	35.9531474810828
42906.25	-1.19351566042455	-0.377336516963822	1.25174377518445	162.455364611583
36593.75	0.400105496156477	-0.585332059211375	0.709012008075497	55.6453230180064
31203.13	0.218901088041848	-0.224132376388375	0.31329380538307	45.6765105546165
26609.38	0.130702263162222	-0.143506187853718	0.194105918374565	47.6734346284081
22703.13	0.078882144720679	-0.103338849838251	0.130005040831603	52.6442445716245
19359.37	0.0471067242122186	-0.0779359855915455	0.0910662468543181	58.8500421239337
16500	0.0344657029365927	-0.069250752514316	0.0773534188172217	63.5407330011107
14112.02	0.015046130439863	-0.0460480813218931	0.0484439039987598	71.9052865564461
12011.13	0.00711115680628247	-0.034663068477995	0.0353849808172013	78.406581362016
10236.38	0.00212327003660962	-0.0256890358020587	0.0257766335289893	85.2750848184853
8750.684	-0.000288439696973394	-0.0188659989035679	0.0188682037324229	90.8759191532277
7449.463	-0.00148154972634648	-0.0137032061858712	0.0137830638598295	96.1706794338111
6363.206	-0.00180970038926204	-0.0103763400422827	0.0105329695799416	99.8932435245556
5414.761	-0.00157541541189301	-0.00847501117499621	0.00862019420525667	100.5304871843
4620.567	0.0343365817930946	-0.00622719933992881	0.0348966883937873	10.2792982925713
3941.215	0.0313360868439269	-0.00610949028425061	0.0319261054659582	11.0323653706015
3361.769	0.0376137029038187	-0.00700674580481524	0.0382607518602293	10.552209549548
2867.244	0.04585635200906	-0.00722932513086571	0.0464227116983334	8.95903164525131
2442.658	0.051934687710738	-0.00769916255872249	0.052502275109918	8.43251207941584
2083.003	0.0567668824918186	-0.00872317258443422	0.057433201963479	8.73611095589976
1777.843	0.0610009885923075	-0.00921412545620769	0.0616929551663848	8.58952543359349
1513.548	0.0644195090298317	-0.00963689335231102	0.0651363405260718	8.50811959006131
1292.065	0.0667911958598469	-0.00997144206318937	0.0675314260267616	8.49113139143568
1101.762	0.0691427297016348	-0.0107263207050358	0.0699697865257613	8.81817570089635
939.101	0.0701564647492779	-0.00991306388544884	0.07085335829524	8.04261429982932
801.2801	0.0717907326789801	-0.012070978867994	0.0727984740871423	9.54450283862779
684.3433	0.0745671390510031	-0.0095377545501614	0.0751746432523012	7.28902583020555
582.9476	0.0779266465300285	-0.008639936806829	0.0784041500651719	6.32669737665972
497.0677	0.0828081228225709	-0.00680481857755516	0.0830872478860109	4.69776747890468
423.5089	0.0879796700799308	-0.00434093808561051	0.0880866964463793	2.82469682689763
361.5036	0.0964350687718696	-0.00190312210552563	0.096453845764613	1.13057120755025
308.1262	0.104464746752631	0.000353985163529776	0.104465346501064	-0.194149499077496
262.7298	0.113392484235911	0.00196099190531145	0.113409439512079	-0.990765494833761
224.2111	0.120941668045237	0.00296777714980917	0.120978075578905	-1.40569408161617
191.2854	0.129796246882608	0.00341792380788946	0.129841241167695	-1.50842083062076
163.1722	0.138179436925707	0.00311971652339358	0.138214649803455	-1.29336341404959
139.1537	0.146020867408664	0.00181205865174819	0.146032110425537	-0.710980463188863
118.6706	0.156125333930907	0.00100623046816339	0.15612857648359	-0.369267173665691
101.1982	0.162565397233032	-0.00451021196861793	0.16262795082499	1.58920558790303
86.24196	0.165511908606606	-0.00690845958527203	0.165656025258494	2.39013584126507
73.61024	0.181117761606308	-0.0105217502109709	0.181423126411109	3.32477095274104
62.69291	0.188802671679603	-0.0138425511884793	0.18930944259799	4.19328386986995
53.57697	0.195875686772954	-0.0167443392072127	0.196590074938341	4.88602364869302
45.65746	0.211187781808421	-0.0212288992935182	0.212252079731567	5.7401719409402
38.96512	0.222916296822122	-0.0252514959301117	0.224341956476262	6.4627977713151
33.18414	0.231676320930517	-0.028986059662056	0.233482567517646	7.13147389570048
28.30617	0.218807783602782	-0.0292867225107179	0.220759050280123	7.62354723889268
24.17237	0.221546674733755	-0.0311929411249931	0.223731823086506	8.01435029179551
20.61345	0.233308382971164	-0.0351977575986932	0.235948476800754	8.57915489750162
17.55618	0.243758717009467	-0.038460393006534	0.246774216538759	8.96624518389201
14.98558	0.242143191431257	-0.0403503354290303	0.245482127100426	9.46074213855762
12.76553	0.241385022460293	-0.0413075450932373	0.244893941023019	9.71080383866451
10.8809	0.257095980363555	-0.0458869809683173	0.2611588752876	10.1197008987376
9.278505	0.258829874998723	-0.0472559441056206	0.263108396759146	10.3468328278833
7.923394	0.255975720930677	-0.0472362369824229	0.260297583143293	10.4554026004827
6.75822	0.254284083231389	-0.0468662007806742	0.258566888368256	10.4427917994118
5.761429	0.265865717514098	-0.0497260280986277	0.270475983443543	10.5938807699878
4.919708	0.267830635796888	-0.0511343522129185	0.272668244296251	10.8088602642989
4.191257	0.228585816361158	-0.0409223218032781	0.232219964394253	10.1497926421378
3.564097	0.207684600719634	-0.0353791771828084	0.210676480780856	9.66756271386599
3.051758	0.256732521860855	-0.0470286817674243	0.261004376763716	10.3804482617237
2.604164	0.285532831326796	-0.0575011571439552	0.291265138384927	11.3860464879578
2.214424	0.295789728630528	-0.0600017051154581	0.301814128529603	11.4669996948318
1.892567	0.284511718873894	-0.0570942962563191	0.290183867300686	11.3470968170448
1.607507	0.290780796752743	-0.0591892247709057	0.296743721229516	11.5055253769764
1.376413	0.277519138263152	-0.0553088450904673	0.28297692564512	11.2712200162356
1.17375	0.231962896059709	-0.141900771020309	0.271923912086755	31.455755375249
1.001604	0.320154635031298	-0.205111863062047	0.380223443123656	32.6462642707057
