EC-Lab ASCII FILE
freq/Hz	Re(Z)/Ohm	-Im(Z)/Ohm	|Z|/Ohm	Phase(Z)/deg
6999984	7.97960292904784	116.018904342606	116.29299302952	-86.0654800968683
5969734	16.7252827884194	98.5819928217563	99.9907215348575	-80.3709671626221
5091109	16.092470626789	91.6118215384733	93.0144798215372	-80.0371046553993
4341796	14.4326748907837	93.3353732129238	94.444661031203	-81.2098346704731
3702781	14.5793304783432	105.023356631655	106.030478237989	-82.0967160415561
3157797	17.8999745593272	110.058156261766	111.504290719972	-80.7622400409169
2693047	17.7714772708708	121.511944851946	122.804634057886	-81.6793162878033
2296687	15.8999300443286	138.853204033504	139.760581158581	-83.4675748621861
1958656	18.7835847998723	158.69816855007	159.805919036438	-83.2498509000364
1670375	19.6103938162703	181.784923855776	182.839618482645	-83.8429195137763
1424531	21.8509362113508	210.328250113054	211.460247349075	-84.0688367723964
1214875	26.4541014469619	241.080069061174	242.527151432385	-83.7378963499288
1036062	28.7617900521753	277.632657378005	279.118492776415	-84.0854525484552
883578.1	30.9199655737748	321.007716096465	322.493407784644	-84.4981540482879
753531.2	33.8292395169548	371.806420741601	373.342245066073	-84.8011914261326
642624.9	37.2122614944747	432.086204201856	433.685646830859	-85.0777008580628
548046.8	41.0949611375608	502.228585883115	503.907083011393	-85.3221819492451
467390.6	150.247351925207	706.448941248489	722.249522915487	-77.9932496086087
398593.7	174.849685053927	800.16130853009	819.042448247979	-77.6735964547052
339937.5	199.285265439279	907.576198648513	929.198134616342	-77.6155558300584
289906.2	220.4917118358	1033.95652189071	1057.20512869954	-77.9619661129945
247234.4	246.308035264564	1174.01530878164	1199.57475527353	-78.1512140727262
210843.7	267.965113182779	1341.36164157505	1367.86562036333	-78.7026859505396
179812.5	289.468970172687	1539.32672257886	1566.30745498393	-79.349956371699
153343.8	310.24650968534	1771.05711304588	1798.02563787126	-80.063976375991
130781.2	334.292097106972	2044.85290341084	2071.99773232886	-80.7154293890547
111531.3	358.220710597391	2363.25309631045	2390.24837092756	-81.3807479807606
95109.37	388.658454472561	2731.72498989855	2759.23482412593	-81.9025406447863
81109.37	410.808808889411	3172.84064892016	3199.32518836414	-82.6225767059272
69171.88	442.980832262199	3677.00899577092	3703.5965186197	-83.1305037913107
59000	458.870515021003	4251.65593994367	4276.34661612152	-83.8400547248007
50312.5	341.126825962829	4877.8392216279	4889.75285504727	-85.9995899504283
42906.25	1876.88959824	6782.98047040847	7037.86463537941	-74.5329283006956
36593.75	1987.80766122275	7471.95518041663	7731.84929471409	-75.1023337574966
31203.13	2102.09682717575	8482.73569397651	8739.31438527563	-76.0819769956113
26609.38	2241.22572654291	9695.40572176701	9951.07958298949	-76.9839271567062
22703.13	2403.26809022322	11171.7300982108	11427.3028707895	-77.8595212592251
19359.37	2508.98092974813	12892.9868280115	13134.842772303	-78.9878470451763
16500	2707.44364522095	14853.6487375469	15098.3817646288	-79.6698387087205
14112.02	2887.97555865265	17157.9185222611	17399.2692617801	-80.4456808591071
12011.13	3173.10623988944	19932.4457182556	20183.4336900546	-80.9548111558604
10236.38	3446.52916713244	23137.8116506746	23393.0949487661	-81.5277116552117
8750.684	3805.91799231769	26800.8197924855	27069.7054530249	-81.9176094347982
7449.463	4236.85696078158	31213.0517965754	31499.2945851462	-82.2699211830242
6363.206	4773.45033723233	36299.0098043567	36611.5274319278	-82.5083862173576
5414.761	15573.6590348434	49293.5050192256	51695.1496062636	-72.4667278998948
4620.567	15742.3492398645	56152.6800477014	58317.6220033823	-74.3392112701618
3941.215	11846.464944386	72233.9269403364	73198.8998066257	-80.6863231330621
3361.769	20837.9850494656	71525.0805297607	74498.7165373371	-73.7571434460884
2867.244	22925.3782194947	81688.6109304334	84844.5762689083	-74.3235695223548
2442.658	25092.4521537541	93669.9336054249	96972.6127147926	-75.0036131293955
2083.003	27724.6021691622	107714.570785575	111225.367272753	-75.5659712053164
1777.843	31055.3795801932	123776.562441253	127612.985274397	-75.9153035730077
1513.548	34752.2416842164	142794.465127401	146962.503969886	-76.321702537094
1292.065	39777.2965384696	164309.962010843	169056.194609703	-76.3912596134229
1101.762	46245.3750272023	189818.159299645	195370.336313658	-76.3077796626723
939.101	53410.8547839552	218274.459768609	224714.172218912	-76.2501401084822
801.2801	63330.4923265605	251787.260638237	259629.68990089	-75.881613654654
684.3433	75444.8097872147	288826.743175414	298517.682721051	-75.3607950188801
582.9476	178310.71391518	398229.660665624	436327.36944959	-65.8791456503782
497.0677	210870.822284426	430392.54136507	479274.705522411	-63.8974565243592
423.5089	235315.261512811	496943.504216657	549841.903354021	-64.6612665610481
361.5036	266982.634158645	536601.796234839	599350.660852847	-63.5476657904318
308.1262	324861.125546172	596362.132089601	679104.221369283	-61.4211902295833
262.7298	363819.063544376	669963.527693845	762374.868052645	-61.4961331091864
224.2111	413711.949376328	720375.563702401	830721.692166705	-60.1312330496257
191.2854	430125.302215139	820066.567557822	926022.111416208	-62.3229685033397
163.1722	493573.928928026	906418.835755229	1032090.27179279	-61.4303002585259
139.1537	584908.676898144	1020614.09496452	1176338.08539509	-60.1832003216441
118.6706	626317.508665939	1115588.33871191	1279379.13189622	-60.6891220547446
101.1982	669045.995157928	1198036.07823091	1372192.7664799	-60.8187251080032
86.24196	850723.284963248	1367435.0175776	1610468.45199653	-58.1129892162774
73.61024	789408.132720249	1407282.92813191	1613570.71112994	-60.7099777184874
62.69291	1050922.87785341	589551.618610881	1204993.77849116	-29.2917568083974
53.57697	1065466.62378054	1777486.25328781	2072360.12966314	-59.0605468178648
45.65746	987799.143830236	1758642.88146835	2017070.13588796	-60.6778347861806
38.96512	1461346.31771007	2262022.43292395	2693005.48594613	-57.1361133643132
33.18414	1412700.92717129	2539774.83488507	2906231.25740986	-60.9158414542779
28.30617	2381196.28421279	2565054.57318351	3499942.95772923	-47.1287752187787
24.17237	2068608.78151273	2645205.2714431	3358013.28452136	-51.9738094668081
20.61345	1349300.79158051	3573758.57587932	3819995.15507949	-69.3155746182343
17.55618	2247478.13184063	3907789.00695451	4507989.89306502	-60.0955950747686
14.98558	2942011.79152311	4042374.07605119	4999622.14094143	-53.9531322771332
12.76553	2070893.896516	5183502.8623963	5581872.7551869	-68.2224857366837
10.8809	2222697.88153372	2695673.22700361	3493857.46981163	-50.4929599382468
9.278505	-431114.435662423	6476424.57444672	6490757.65416749	-93.8083744444867
7.923394	4018811.4785776	6255987.11529863	7435604.91736413	-57.2835354050004
6.75822	3586829.0797698	2961073.48036542	4651161.03823612	-39.5410607603935
5.761429	4375962.08669131	2104930.97358222	4855901.41865602	-25.6885455559566
4.919708	3502030.83597669	1864934.74991384	3967644.33859284	-28.0366182736499
4.191257	5056276.78816608	728143.211289617	5108436.89348261	-8.19470021696884
3.564097	5493572.00413218	800849.700004683	5551638.82169782	-8.29411985357994
3.051758	6373180.84900257	1181718.24596766	6481812.4121997	-10.5045108131033
2.604164	4441309.74347762	2711460.21649897	5203580.37731387	-31.4044470046951
2.214424	5260696.79495496	2910686.71747073	6012239.8434951	-28.9552816136288
1.892567	7112942.64617607	1283104.65604852	7227745.88970611	-10.2256236063234
1.607507	4893658.41975116	2726945.08001581	5602153.35372246	-29.1283263269143
1.376413	5305666.37791441	6145602.68815238	8119022.60831667	-49.1950615632488
1.17375	7286119.22494571	-502196.545442919	7303405.69394706	3.94288183283274
1.001604	4105782.34731976	11930112.2314571	12616854.859224	-71.0089513817435
