EC-Lab ASCII FILE
freq/Hz	Re(Z)/Ohm	-Im(Z)/Ohm	|Z|/Ohm	Phase(Z)/deg
6999984	2.35988316594802	1.08020481711637	2.5953595134097	-24.5953019758013
5969734	5.11391727148828	0.889462191687772	5.19069290654611	-9.86673430260937
5091109	7.0155664748878	-2.25795775488157	7.36997599632451	17.8407540952056
4341796	3.43015337184509	-4.94954695103614	6.02195708842992	55.2771231501215
3702781	1.73426346489639	-5.11092157908436	5.39714638982719	71.2566410365785
3157797	2.15398355663485	-5.88144112960993	6.26346508917553	69.8855530328304
2693047	1.28654821006655	-9.00003416132179	9.09152469070973	81.8647254303076
2296687	-2.60892714570737	-6.66001612546935	7.15278376879384	111.391761627698
1958656	-1.63746662856732	-8.29694510321721	8.45698498316461	101.164293097274
1670375	1.1777062840954	-13.2993434465225	13.3513867519504	84.9394461420977
1424531	-2.49866478871666	-11.7278890263359	11.9911094874671	102.02722483252
1214875	13.3275709371773	-0.133922605545644	13.328243783401	0.575719451703354
1036062	4.893636704547	-13.8507513396103	14.6898261687402	70.5410740462396
883578.1	7.44313037192673	-1.92666879273842	7.68844863222811	14.5125855027395
753531.2	6.31568206732439	-4.2074521610475	7.58884007362299	33.6712055521034
642624.9	4.72714558749478	2.17683770980169	5.20427975998466	-24.7259420826691
548046.8	5.49952482534273	4.25511270119759	6.95347088902039	-37.7299698178748
467390.6	0.0738673577263211	-0.121951999838937	0.142578668818952	58.7963559785299
398593.7	0.0541552359446622	-0.138256295507111	0.14848431845677	68.6096333188536
339937.5	0.0389558499622841	-0.0939076686132467	0.101667145482989	67.4697910812204
289906.2	0.0429716739717965	-0.0918198553895223	0.101377761899201	64.9204153717858
247234.4	0.0432318627861468	-0.0877127719715037	0.0977881604637556	63.7622384847083
210843.7	0.0426303687620333	-0.0838853850665006	0.0940962601198476	63.0604224814526
179812.5	0.0411107412154701	-0.077698318518912	0.0879040485071744	62.1163599224155
153343.8	0.0393769919601769	-0.0727589390924361	0.0827309537820559	61.577836890772
130781.2	0.0386767213656143	-0.0664005734919679	0.0768435093918517	59.7802391043286
111531.3	0.0373444732666221	-0.0614626374676661	0.0719184641663266	58.7172878028019
95109.37	0.0382050043754305	-0.059035645551799	0.0703194838223683	57.0910158562585
81109.37	0.0441083484363133	-0.0603794323924556	0.0747744759781995	53.8511457895999
69171.88	0.0486618677604563	-0.0601737569939709	0.0773877148176995	51.0379058267737
59000	0.0442238913570209	-0.0559031704088672	0.0712805515447267	51.653176555075
50312.5	0.0408800131769663	-0.0529393911432619	0.0668861316863833	52.3245341219415
42906.25	0.403296880514991	-0.28064024230867	0.49133218847964	34.8327113239706
36593.75	0.250342262728466	-0.233785721610165	0.342530308347734	43.0413229562052
31203.13	0.145444570023359	-0.16216975072697	0.217837441685601	48.1121426825618
26609.38	0.0838690941169271	-0.118755286270871	0.145385153868166	54.7689382337302
22703.13	0.0475835865505618	-0.0906445814024776	0.102374986430501	62.3029149805101
19359.37	0.0256588439994274	-0.0702435731597692	0.0747832591268848	69.9335668960624
16500	0.0203525017905903	-0.0488206717479961	0.0528931216611533	67.369580762852
14112.02	0.00465708206650033	-0.042765639941595	0.0430184654885349	83.7851080722476
12011.13	4.86518248042188E-05	-0.0322982955436485	0.0322983321864291	89.913693832085
10236.38	-0.0026871814682533	-0.0240158166940604	0.0241656863284707	96.3843926913949
8750.684	-0.00356024319439879	-0.0176396189703424	0.0179953185307214	101.410836836519
7449.463	-0.00361397002443618	-0.0127797595675823	0.013280927450398	105.790297039381
6363.206	-0.00320949353382537	-0.00962770656588441	0.0101485753907847	108.436330728854
5414.761	-0.00256717970539709	-0.00789765029723608	0.00830441399842493	108.007070748742
4620.567	0.0326478172823666	-0.00573719801598936	0.0331480831176927	9.96681857026282
3941.215	0.0297373509357468	-0.00535857377577252	0.0302162928498213	10.2148921068206
3361.769	0.0363235843855509	-0.00577613251239203	0.0367799740268389	9.03545275596586
2867.244	0.0433339833581248	-0.0061347598477729	0.0437660758130322	8.05777476308848
2442.658	0.0500594563637527	-0.00684045443718948	0.0505246572313136	7.7810819846639
2083.003	0.0537179029239306	-0.00726930973093666	0.0542075267698972	7.70666622623231
1777.843	0.0575235458308918	-0.00766072389417622	0.0580314140405136	7.58575494272585
1513.548	0.0603934058342268	-0.00824042800161866	0.0609529992855764	7.76978898652187
1292.065	0.0647226658230042	-0.00913210855253302	0.0653637428384539	8.03118952139441
1101.762	0.0686848176031126	-0.00913665998554755	0.069289845755813	7.57717203495479
939.101	0.0710873474623164	-0.00983455819074095	0.0717644027637322	7.87657113080041
801.2801	0.0731380288558166	-0.00965519011021298	0.0737725827186402	7.52031743294396
684.3433	0.0756116540696232	-0.00931740556939322	0.0761835696045343	7.02497823031951
582.9476	0.0790399749941842	-0.00790114337485391	0.0794339078335648	5.70854467064898
497.0677	0.0823009710551545	-0.00612284821085466	0.0825284139362592	4.25472843677757
423.5089	0.0873085508897118	-0.00444479123308982	0.0874216176215422	2.91435498155309
361.5036	0.0942618272394246	-0.0018985711047388	0.0942809453004948	1.15386480671129
308.1262	0.100781012584385	-0.000334420845873402	0.100781567435896	0.190123439242671
262.7298	0.11012149454061	0.00169371292176561	0.110134518763733	-0.881162679329801
224.2111	0.120050603523658	0.00331098000006408	0.120096253042946	-1.57980965302068
191.2854	0.130822666676375	0.00356683196920288	0.130871281825366	-1.56176148247406
163.1722	0.139335175515535	0.00284374636847209	0.139364192062929	-1.16920976238049
139.1537	0.152267758130212	0.00207160426834285	0.152281849575862	-0.779461524778489
118.6706	0.165002303160288	-0.00178372952623174	0.165011944231993	0.619362219916264
101.1982	0.1758117204171	-0.00338841150987225	0.175844369738075	1.10412232981142
86.24196	0.183449671233722	-0.00767286391306347	0.183610061588108	2.39502546308871
73.61024	0.180464340298897	-0.010313303124324	0.180758796026225	3.27082181970932
62.69291	0.192364614493789	-0.0147851336109819	0.192931970096297	4.39510939912037
53.57697	0.196259150591813	-0.0175242279337452	0.197039977557078	5.1024808011577
45.65746	0.218162939122219	-0.0224887608772602	0.219318974036082	5.88539955327201
38.96512	0.230271106655714	-0.0266248108079347	0.231805226668869	6.59546614877764
33.18414	0.245835319330419	-0.0318104578594091	0.247884871380877	7.37295841761426
28.30617	0.256564925238809	-0.0366695801706681	0.259172180167333	8.13392085406137
24.17237	0.253636597551887	-0.0387335053939341	0.256577099636347	8.68270555981562
20.61345	0.245807794630038	-0.0391521507587361	0.2489063334066	9.05002307269604
17.55618	0.248290199077681	-0.0413764487725148	0.251714190047083	9.46114320901421
14.98558	0.261388192842359	-0.0452434069009971	0.265274863538563	9.81996948737079
12.76553	0.270730183177182	-0.0491861096274224	0.275161962239389	10.2971516574675
10.8809	0.272920629564905	-0.0513912179112629	0.277716991414834	10.6639821562221
9.278505	0.27842711032014	-0.0530423896811684	0.283434561873305	10.786016437007
7.923394	0.289994990401156	-0.0564624307247219	0.29544051946392	11.0177262989359
6.75822	0.261200381794693	-0.0508507394150871	0.266104184763702	11.0165975720795
5.761429	0.268639987378734	-0.0536035255593013	0.27393572379526	11.2844037751016
4.919708	0.273856188201478	-0.0529573870467317	0.278929555011764	10.9445767772315
4.191257	0.29716381635566	-0.0599745150623587	0.303155531382862	11.4103341688934
3.564097	0.312269914693085	-0.0641428978628252	0.318789602980817	11.6075863490231
3.051758	0.298739387288456	-0.061178727724341	0.3049394337298	11.5735583855702
2.604164	0.291459133383975	-0.0583972704528217	0.297251858916438	11.3298622465672
2.214424	0.307769337305122	-0.0648917011522412	0.314536004081673	11.9061546560657
1.892567	0.294395914479324	-0.0598173318246929	0.300411497197998	11.4853859104776
1.607507	0.295429329012387	-0.0591837731168072	0.301299199204131	11.3281892098055
1.376413	0.239166880036542	-0.132993924099283	0.273657048792351	29.0771955732768
1.17375	0.315885048545148	-0.198420736142297	0.373033714864516	32.1346645258554
1.001604	0.319588849676435	-0.198414533180176	0.376171981698018	31.8337929284763
