EC-Lab ASCII FILE
freq/Hz	Re(Z)/Ohm	-Im(Z)/Ohm	|Z|/Ohm	Phase(Z)/deg
6999984	2.56908814628456	1.07291570913811	2.78412679709369	-22.6666400937217
5969734	4.07261875956141	0.732771013424305	4.13801606072843	-10.1998806125882
5091109	7.20907157951884	1.88256865531468	7.45082396655561	-14.6353187920344
4341796	4.37408241205086	-13.3726613569135	14.0698496336706	71.8875248647971
3702781	-2.02556478749803	-7.19865988234141	7.478209465506	105.715583342895
3157797	-2.79411055918521	-3.11744883407971	4.18635175899676	131.869273225673
2693047	0.935110092585645	0.537256400239033	1.07845970015265	-29.8790099005167
2296687	1.0923717049274	0.630017291756621	1.26103042375604	-29.9738802522345
1958656	1.27977836429975	0.557142639467867	1.39579388967102	-23.5255668539803
1670375	1.52206090811434	0.504738636889579	1.60356805268096	-18.3463091353173
1424531	1.93568393202326	0.358177268606632	1.96854343117939	-10.4833858591969
1214875	2.50304980946465	-0.0199468331789083	2.50312928647621	0.456581071502369
1036062	3.53175839334051	-0.539515333178115	3.57272922898804	8.68542137976454
883578.1	4.26398203540478	-1.39766996266008	4.48720671718798	18.1483751354114
753531.2	3.90109936796153	-1.10408262594114	4.05432790035721	15.8024853869175
642624.9	3.79274158707092	-1.8853220894433	4.23548440290365	26.4313681486099
548046.8	3.48109864579517	-2.38499627580911	4.21974584748658	34.416113711131
467390.6	3.03543944095312	-2.77552290248575	4.11307913635475	42.4389437782944
398593.7	2.74543937089377	-3.44810618976722	4.40759272564567	51.4726146355174
339937.5	2.12834506907378	-4.60601955763596	5.07397959183673	65.1993312264554
289906.2	-13.246878877876	-2.81215494413336	13.5420831276038	168.014716801958
247234.4	-16.6810398623256	17.2756997980226	24.0147224510277	-133.996722814773
210843.7	-24.6932808918458	60.6002082993742	65.4380880461153	-112.169838313485
179812.5	-11.6716275603633	71.6110886114945	72.5560121701237	-99.2570311888423
153343.8	0.926559869015308	64.607757359335	64.6144010588473	-89.1783597978141
130781.2	10.7223010840276	51.6423960998843	52.743765655041	-78.270561181452
111531.3	16.9054116186834	36.6354636538377	40.347864121026	-65.2290677360227
95109.37	4.31131216886412	124.55349283516	124.628086682159	-88.017547304879
81109.37	15.1838429611959	106.623297204375	107.699009251723	-81.8952067850086
69171.88	22.2493801918932	82.2607796095635	85.2166109446779	-74.8651292303124
59000	26.7918702770226	55.9536868860627	62.0372419525913	-64.4138633851106
50312.5	27.7898180310468	33.7123788163774	43.6897982560875	-50.5005287107205
42906.25	29.1721238224023	18.8693750330902	34.7428571428571	-32.8959592778237
36593.75	22.2291862585413	-2.23187145429096	22.3409483215329	5.73343968684741
31203.13	21.4200872005428	-3.49933795463858	21.7040434435529	9.27828372869821
26609.38	20.4584409041897	-4.50238405852862	20.9480134246834	12.4114977017932
22703.13	19.3382068848634	-5.18167789738096	20.0203903896498	15.0000579948368
19359.37	18.2432685616754	-5.58579716877456	19.0792551695317	17.0237506568168
16500	17.0875065918987	-5.81325417121029	18.0492882293811	18.7885580686449
14112.02	15.51031631706	-5.96203935005835	16.6167332970985	21.0263535995094
12011.13	14.2078852307577	-5.77792036347606	15.3378083981074	22.1300994960494
10236.38	13.8562431334186	-5.12170939492571	14.7725211422587	20.2859202408618
8750.684	14.6906677340701	3.03817577916904	15.0015409387829	-11.6846090654225
7449.463	16.1885799287736	8.13832207716067	18.1191171512823	-26.6895887677194
6363.206	17.0807700031	12.3831284876502	21.0972646340812	-35.9411669335866
5414.761	17.7651339032129	16.9023909794449	24.5212316864611	-43.5744200775288
4620.567	18.3333495302345	21.7119591639471	28.4169117909505	-49.8226050475217
3941.215	18.4571219064685	27.8703085170887	33.4278244267847	-56.4854682217406
3361.769	19.2131193101215	35.0549532414654	39.9749133881024	-61.2734817099985
2867.244	19.4483916223486	43.696112916087	47.8287593469835	-66.0069725344718
2442.658	19.9646591830499	54.1222179237631	57.6871050520188	-69.7519392750059
2083.003	20.3842515726871	66.3816624872989	69.4409304859624	-72.929505911022
1777.843	21.9680907132072	80.7448496523302	83.6799124937467	-74.7800449977355
1513.548	22.876974952092	97.7035260056237	100.346076041319	-76.8217801006842
1292.065	24.2481899354384	117.458066645824	119.934866220461	-78.3356491869789
1101.762	25.6898029569669	139.391632265194	141.739172854659	-79.5575962766544
939.101	28.5713256106913	165.80963026165	168.253244053888	-80.2231440514783
801.2801	28.7883569270561	198.103883096784	200.184709687288	-81.7316846302783
684.3433	34.927501073667	231.878804897497	234.49458520815	-81.4340330557078
582.9476	36.3067429996913	275.133648213362	277.518835336342	-82.4826604123562
497.0677	42.2083584767388	324.067918124983	326.805081177086	-82.5792610966153
423.5089	46.9192513559889	376.178208531284	379.09294470039	-82.8904344751508
361.5036	51.7022158528728	440.799897180942	443.821662921974	-83.3102406516432
308.1262	56.5082324610408	517.195219493946	520.273077722903	-83.7646534789614
262.7298	65.4046861303969	603.578644384873	607.111977254029	-83.8154748353896
224.2111	69.0867019921903	702.575835663118	705.964430584067	-84.3839635597184
191.2854	79.6710372868037	825.302685479707	829.139310877473	-84.4860073430311
163.1722	90.719892407933	968.340026527583	972.580333881961	-84.6478106243761
139.1537	103.151481303112	1129.42457579203	1134.12525785207	-84.7815962695392
118.6706	114.924391043612	1318.9256637411	1323.9231556747	-85.0201185996521
101.1982	132.195454343688	1539.38503151661	1545.0507802032	-85.0917383240435
86.24196	154.192028396297	1809.17547319445	1815.73430722375	-85.1285795102704
73.61024	183.785652882763	2110.03905803218	2118.02785454461	-85.0220666561556
62.69291	215.289128069309	2461.90404403643	2471.29944173258	-85.0022996122235
53.57697	256.595720596967	2865.50164151178	2876.96733059925	-84.8830097992773
45.65746	305.94465056496	3349.40060353497	3363.3445455632	-84.780908720185
38.96512	371.09123613374	3881.74924330697	3899.44687019191	-84.5391778264193
33.18414	434.51805302908	4549.44286170223	4570.14620010143	-84.5442198550165
28.30617	527.792555082911	5306.18474769096	5332.36922557216	-84.3196203993252
24.17237	642.579234142092	6160.75016988231	6194.17070541776	-84.0454600943551
20.61345	803.69575943504	7190.79738339757	7235.57142752466	-83.622674537328
17.55618	951.840534392674	8367.66800038786	8421.63096838302	-83.5103748094824
14.98558	1211.70151487938	9737.96960987841	9813.06642615225	-82.9071075469891
12.76553	1493.01524440438	11411.1444757244	11508.4018336987	-82.5458576571592
10.8809	1899.55294704599	13282.1392534395	13417.2845444371	-81.8610012046393
9.278505	2390.04204065359	15440.5346588745	15624.4171573853	-81.2010111204281
7.923394	2967.10358127624	17891.4644776025	18135.8265545118	-80.5838209835132
6.75822	3776.43138513458	20797.9255110577	21138.0022606237	-79.7085133598918
5.761429	4735.52081240838	23919.9629146263	24384.2117609294	-78.8017503533178
4.919708	6003.08451633769	27858.2577016083	28497.7112393173	-77.8394677363955
4.191257	7703.95016527115	32202.8919702328	33111.5855765843	-76.5459009223287
3.564097	9896.06315582148	37229.2531571825	38522.0632446601	-75.1141939838558
3.051758	12600.3197802402	42586.9108761078	44411.8569363392	-73.5179335666213
2.604164	16142.0616694468	48586.9916259242	51198.2608122371	-71.6219589267539
2.214424	54612.1296946086	54219.2832206942	76955.931433169	-44.7931815218634
1.892567	64488.2364492277	58308.9150318765	86940.5671279299	-42.1192275990335
1.607507	76493.5111259384	61757.8058655678	98312.1753889274	-38.9160211016853
1.376413	89024.1945447685	63798.7475200581	109524.368975461	-35.6270886590297
1.17375	103266.857005963	64545.5890333009	121779.213413233	-32.0069006671192
1.001604	118138.690015518	63631.1593860966	134185.22468365	-28.3075299079216
