EC-Lab ASCII FILE
freq/Hz	Re(Z)/Ohm	-Im(Z)/Ohm	|Z|/Ohm	Phase(Z)/deg
6999984	-0.463961150432304	0.345765952198707	0.578631180295657	-143.304765971351
5969734	-0.89952384415236	0.521619081891881	1.03982191397968	-149.891259601057
5091109	-0.810158068571753	0.531313136308762	0.968839380334102	-146.742570037915
4341796	0.25777794458579	0.917325542862817	0.952856558094363	-74.3040889573203
3702781	40.166971071831	-21.2236144846558	45.4293668993813	27.8512893452369
3157797	95.6669685292564	-42.4222223436092	104.650914072206	23.9142442334632
2693047	-20.5194001982812	1.55308659018209	20.578091807887	-175.671610184527
2296687	-18.2298958416605	0.411038091280055	18.2345291880617	-178.7083437945
1958656	-4.7865394868966	14.8532905639742	15.6054862416224	-107.861768651897
1670375	-13.052487143855	0.203643851658086	13.0540756646657	-179.106148391659
1424531	-10.1923220990182	0.855399503761374	10.2281541873971	-175.202644229212
1214875	5.54227296515674	2.06373437199848	5.91403324123861	-20.4234415708491
1036062	4.27507013085792	2.57786400473729	4.9921545900216	-31.0899447413698
883578.1	3.15074582224002	3.45896866130694	4.67885279061721	-47.6698708309223
753531.2	2.20746266884088	4.69540637121399	5.1884229227351	-64.8202623491969
642624.9	1.50966021059676	6.13048952824456	6.31363412048681	-76.1659153125979
548046.8	1.01727398398311	7.43791705218059	7.50716034420524	-82.2120524457159
467390.6	0.883141782215943	8.33171089135434	8.37838563117073	-83.9493750721116
398593.7	0.892038842626302	9.04334231677942	9.08723134707197	-84.3665456427464
339937.5	1.060936245262	9.50097684814762	9.56002859752772	-83.6284041152794
289906.2	1.38836034555943	9.79686579889707	9.8947523430716	-81.9340533235185
247234.4	2.2349436227968	34.0670800064263	34.1403121421191	-86.2465347601296
210843.7	3.25473703400983	31.8808043277415	32.0465130356533	-84.1708232599297
179812.5	4.17938688279347	30.6922552766791	30.9755033645122	-82.2456850682901
153343.8	5.24075171002611	32.0076368406864	32.4338448940517	-80.7012200357355
130781.2	6.08821109251033	36.6436766245077	37.1460004693434	-80.5666895454387
111531.3	14.8704604057632	71.5854340925532	73.1136441910719	-78.2648316035007
95109.37	15.7126821347832	73.0242594763538	74.6955879014189	-77.8567710618085
81109.37	15.8833209902797	74.5485130745256	76.2217861723469	-77.9723939448659
69171.88	16.189451970964	86.043309742966	87.5531239113953	-79.3441122021886
59000	20.0722139310023	131.157872215307	132.684894453508	-81.299044199175
50312.5	25.0734110347696	111.16851967933	113.961027147934	-77.2899439150856
42906.25	24.3163324848639	65.8698735839365	70.2148436691147	-69.7380164005843
36593.75	24.4576425356781	47.8423000802568	53.7313870598215	-62.9232563852982
31203.13	24.4172551495999	36.6207629079859	44.0145728708525	-56.3062355642678
26609.38	24.3046422264357	28.4097426491534	37.3875528905833	-49.4528868414797
22703.13	23.7468192195231	22.0928280326073	32.4346184426929	-42.9335438653631
19359.37	23.2548784256564	16.5414203580359	28.5378338009966	-35.4246111038084
16500	17.5380347240781	2.11016439107663	17.6645253471565	-6.86080863328068
14112.02	16.7755385458445	1.28782513813141	16.8248978329593	-4.38987428374626
12011.13	16.474458418769	0.17559752276989	16.4753942193123	-0.610679617488851
10236.38	15.1958157935106	-0.184087470141893	15.1969308028618	0.694067322034396
8750.684	21.1088443565586	14.1738662864131	25.4260062844037	-33.880008561383
7449.463	20.4765751576232	17.7730562419189	27.1140490957032	-40.9570056299224
6363.206	20.0354738731897	22.2175097055964	29.9171848749433	-47.9562523256626
5414.761	19.7125890844361	27.4356982687189	33.7831867635961	-54.3026995575205
4620.567	19.7741262356323	33.0688490017105	38.530051163743	-59.1219105977233
3941.215	19.4251920841543	39.9225735350769	44.3976346799006	-64.0537594108709
3361.769	19.5861266557985	47.4415781114611	51.3256241178112	-67.5668501317155
2867.244	20.2467039787996	55.6034033956439	59.1748890255304	-69.9920658869453
2442.658	21.4729091535939	64.5860109232786	68.062020499691	-71.6095830383791
2083.003	23.2782748214604	74.5581822809496	78.1076220589434	-72.6607887051056
1777.843	25.0083145439259	85.9572545706613	89.521312600148	-73.7782282929493
1513.548	27.2329170218963	98.5375518832792	102.231506399306	-74.5507472881241
1292.065	29.8462814986226	113.037969498523	116.91186025226	-75.2093049778475
1101.762	31.8245638358447	129.768689751625	133.61405503612	-76.2206900778124
939.101	33.2683891646707	149.747788485046	153.398780548523	-77.4744363251177
801.2801	38.2451511053782	172.115874639771	176.313827835727	-77.4720871981577
684.3433	40.9982270104886	198.901497086988	203.082889878613	-78.3531243997303
582.9476	46.1818685480827	232.399309051985	236.943461252748	-78.7607265751864
497.0677	50.594005663239	267.566002849248	272.30739852192	-79.2923741132883
423.5089	56.7956178534577	311.159700201396	316.300650073278	-79.6557439469603
361.5036	58.1221313859441	361.924444613941	366.561707991921	-80.8766597126045
308.1262	72.0102918007947	421.263888272273	427.374245465856	-80.2996912129078
262.7298	81.4026803907886	489.824624741134	496.542605802964	-80.5643977142582
224.2111	95.3796858615168	569.731862845174	577.660523158778	-80.4961584408582
191.2854	113.320754843272	662.481466455102	672.103628077361	-80.2932167898228
163.1722	137.516812900341	772.506834672643	784.651313289039	-79.906298390771
139.1537	164.513268122098	894.829701123906	909.826801870395	-79.5825772365221
118.6706	201.737720969408	1041.89343598606	1061.24457125244	-79.0416477821391
101.1982	254.413696462673	1207.59583536986	1234.1045460375	-78.1030283221557
86.24196	329.282978446119	1394.49387249026	1432.84348074283	-76.7140640351996
73.61024	407.99286266895	1618.51930122164	1669.15035404717	-75.8517625535277
62.69291	516.785781900723	1866.27879884047	1936.50822342075	-74.5222139899266
53.57697	786.282518998211	2095.34057689633	2238.01079820237	-69.4312547970712
45.65746	986.751771451217	2392.17472060847	2587.69761610207	-67.5842680486875
38.96512	1235.42854748622	2712.75029324141	2980.82167353656	-65.514744492675
33.18414	1549.95472490356	3066.46016859709	3435.91874392329	-63.1854991681296
28.30617	1929.2033294888	3403.95014200243	3912.63364701438	-60.4574179223937
24.17237	2368.02095856707	3720.13172381513	4409.86431795227	-57.5215248843639
20.61345	2869.90959105102	4017.91640523521	4937.61413035333	-54.4626120781415
17.55618	3450.76217944738	4296.32389670141	5510.54975882371	-51.2289356852483
14.98558	4115.86788202263	4529.56215972877	6120.23706902864	-47.7395826058559
12.76553	4375.55551959284	4138.96665288365	6023.00017090505	-43.408359719766
10.8809	4803.32403804371	4187.54775791496	6372.39970805874	-41.0819849137743
9.278505	5459.69867592442	4483.38425665324	7064.63332556595	-39.3920860040816
7.923394	5951.4366735632	4579.82998944482	7509.62324032645	-37.5794881825616
6.75822	6414.49126187159	4625.00293074248	7907.99280841881	-35.7925130336399
5.761429	6861.30401067176	4589.08766171251	8254.5271393183	-33.7760339103006
4.919708	47521.4496974369	1626.0083504753	47549.2595578716	-1.95968525485477
4.191257	54185.2196112833	6273.59341175231	54547.1905657751	-6.60432980586831
3.564097	55595.5963185418	5090.89885432577	55828.1970079568	-5.23199390004246
3.051758	55806.2057411122	3660.16510325187	55926.1066748116	-3.75248738455297
2.604164	53445.1531117312	2412.75156061957	53499.5865519507	-2.58483091075509
2.214424	49668.0628635937	2043.38421986022	49710.0783311782	-2.3558660896227
1.892567	38389.4515966077	675.720280174436	38395.3980547842	-1.0083999898523
1.607507	36123.4695056639	370.512634679279	36125.3696000343	-0.587653016660339
1.376413	30086.4454206111	330.592335211201	30088.2616536667	-0.629545398809124
1.17375	25317.0323106016	2585.42857834983	25448.7046025882	-5.83095137400073
1.001604	-4.91050584159857E-05	-1.78927867847862E-06	4.91376462625818E-05	177.913192966417
