EC-Lab ASCII FILE
freq/Hz	Re(Z)/Ohm	-Im(Z)/Ohm	|Z|/Ohm	Phase(Z)/deg
6999984	0.329670510860417	0.6642263346777	0.74153844769529	-63.6037583585751
5969734	4.21721210535057	6.68728961004256	7.90599268087814	-57.7631984823501
5091109	5.08901719022209	10.8499130087424	11.9841023134674	-64.8716566634201
4341796	16.5614762325728	9.79915256435202	19.2433335464914	-30.6121036698087
3702781	1.50764919596771	-0.327446557293113	1.54279854355169	12.2537681503716
3157797	27.1580298165574	14.2113856969965	30.6516242138295	-27.6223812469263
2693047	6.09994080907077	-22.2093885098919	23.0318522020589	74.642076760668
2296687	-2.3124924716771	-20.4942933073135	20.6243467677829	96.4377923579011
1958656	0.842450845020403	-24.6232254867846	24.6376329382373	88.0404656166842
1670375	21.8146078793402	-6.97093750465863	22.9013337302269	17.7214700118373
1424531	7.27439186863379	-23.4976257673494	24.5978696996477	72.7985277590551
1214875	17.6088252359496	-9.48995001987491	20.0032466757259	28.3216246696819
1036062	-9.75001745521467	-18.0760151796294	20.5378958306635	118.341968865752
883578.1	14.1911801505107	-2.65089133411242	14.4366484659537	10.5808230618368
753531.2	23.7310381194548	8.82119999953886	25.3174986848796	-20.3908918385077
642624.9	42.4639543040062	-24.6938928655528	49.1220496313837	30.1791137344503
548046.8	1.18857940410711	-12.9768667626296	13.0311853633854	84.7667566626453
467390.6	9.15353943628378	-3.69823128233432	9.87239579986736	21.9997917047028
398593.7	15.199033653545	0.521064084447096	15.207962775523	-1.96348568390988
339937.5	3.10496119687439	-14.0918334024179	14.4298493642725	77.5741309814705
289906.2	8.51687727602084	6.46772848863546	10.694330756878	-37.2130874021534
247234.4	5.01436683483689	-7.26453354214009	8.82707892449086	55.384501170507
210843.7	0.78803053189918	-3.20457943635778	3.30004870920604	76.1846510324987
179812.5	3.78473827681966	-1.34330039820452	4.01605525159207	19.5410751071918
153343.8	18.0290582130187	-5.81491315928805	18.9436045962345	17.8760712136975
130781.2	28.3091701432859	1.71962435754517	28.3613508516885	-3.47612806756516
111531.3	194.885726874892	216.087477238923	290.988392137964	-47.9532213789263
95109.37	253.329953589356	-300.612137861145	393.120494015554	49.878703345243
81109.37	754.206370395112	398.82512671113	853.163953083297	-27.8699333918905
69171.88	438.770864584225	134.046371626081	458.790040600388	-16.9881356002714
59000	283.15674289393	733.973324750392	786.698533423982	-68.9040763297713
50312.5	24.3274196612685	9.62857175957426	26.1635766191235	-21.5932093941221
42906.25	8.97008214837599	4.9838531708935	10.2616356482599	-29.0569185969071
36593.75	2.60830830267162	7.94503777364887	8.36223040979457	-71.8253016482458
31203.13	145.399598910679	67.3975820110065	160.260654635868	-24.8693018525888
26609.38	4.06295355695774	0.805133436116022	4.14195985687301	-11.2087790757222
22703.13	9.88444390972684	-0.275604018592994	9.88828544185495	1.59714162632338
19359.37	2.58073696379749	-7.47155576570875	7.90470422194318	70.9446655171298
16500	10.8906055975345	6.78503444172623	12.8312892047705	-31.923615522019
14112.02	21.6178786656301	8.09097725746977	23.0823870295686	-20.5194922156249
12011.13	-2.99313879943988	17.3245616524171	17.5812205583433	-99.8021432351298
10236.38	36.0047485215232	27.4354944831518	45.2664144110529	-37.307275934095
8750.684	10.7989873505547	23.1605581503351	25.5544434811736	-65.0019472660329
7449.463	45.4136515675458	-16.6804055700414	48.3801165633106	20.1682518984758
6363.206	46.6403625317832	-34.5535744467156	58.0454384438681	36.5329463922875
5414.761	13.0131710569853	1.40416509693435	13.0887088965187	-6.15858010041244
4620.567	18.4743967492605	30.3103456629474	35.4967659013669	-58.6373601903811
3941.215	86.460986827066	71.2782444628462	112.053961897005	-39.5020939007467
3361.769	6.27768813917747	22.5658549027834	23.4227918034175	-74.4537455334085
2867.244	0.965865552194863	0.711893051027724	1.19986998504765	-36.3921420141341
2442.658	-0.582327322116003	0.324414348452721	0.666595664225922	-150.877835628492
2083.003	0.277360363045129	0.55525267034474	0.620672457028254	-63.4569092756831
1777.843	0.92886935163355	0.069050665121771	0.931432373690055	-4.25145684776737
1513.548	0.611799781324352	-0.32542772765514	0.69296621732615	28.0093454826017
1292.065	-0.128258295815134	0.37818779971029	0.399344716122691	-108.733810416086
1101.762	0.584814536245879	0.126602953595035	0.598361387176236	-12.21512214709
939.101	0.373913361703209	-0.459378070523876	0.592316987548419	50.8559401606181
801.2801	0.429353775106298	-0.23868671493464	0.491239261546061	29.0705950994769
684.3433	-0.279200012029714	-0.129154573248537	0.307625666205543	155.175305570871
582.9476	-0.0896740036444868	-0.40993442707741	0.41962800363288	102.339200351969
497.0677	-0.100079247766192	-0.517419424241493	0.527009218530231	100.946970205581
423.5089	-0.083519377477864	-0.366757018186004	0.376146509757806	102.828850083688
361.5036	-0.563445077029093	-0.106347591818776	0.573393551685031	169.311434883898
308.1262	0.408368233643274	0.277197713636996	0.493561735444013	-34.1684068675621
262.7298	-0.48207844352529	-0.0961184634954668	0.491567273866453	168.72403855233
224.2111	0.467679217042734	0.239225751289887	0.525312107355157	-27.0905045257063
191.2854	0.343072676758166	-0.284919299640258	0.44595725002012	39.7093785718691
163.1722	-0.540924367766929	0.0790865365711091	0.546675270988971	-171.681933169693
139.1537	0.384954230231263	0.238185211188179	0.452683061536106	-31.7465887520574
118.6706	0.469634415142427	-0.211120231844376	0.514906045973625	24.2059026694966
101.1982	-0.489960447237719	-0.0501429037869265	0.492519594186435	174.156652478422
86.24196	0.634673512359404	0.0057859842847466	0.634699885697772	-0.522320988408531
73.61024	0.476432014261794	0.177530612565161	0.508433459374294	-20.4366654367607
62.69291	0.486779273466568	0.0215854580086144	0.487257624952224	-2.53902751869674
53.57697	0.802568225818242	-0.249881607799738	0.840569197038306	17.2941065220272
45.65746	-385.764566795211	-2384.05750886787	2415.0661495255	99.1913702255203
38.96512	67.4934982772589	-5930.46102566187	5930.84507884029	89.3479553051728
33.18414	3039.80769881138	-2448.47230453586	3903.26113292873	38.8503830566751
28.30617	13232.8001362561	472.389564587578	13241.2292234079	-2.0444984783946
24.17237	3198.9081608133	-1011.00628490747	3354.86916726127	17.539000142822
20.61345	12284.1314674759	1791.74824225958	12414.1148566409	-8.29857173564811
17.55618	7873.6379119931	-13265.2121345577	15425.9530319521	59.3085229515974
14.98558	607.712014868667	4695.52022010745	4734.68309715166	-82.6255560864619
12.76553	1935.1672407361	3138.27778646493	3686.95805707597	-58.3406253482829
10.8809	3230.3602145722	-413.267304980671	3256.68803867625	7.29037801060206
9.278505	-350.728177066622	1716.76672660344	1752.22665422061	-101.546398650847
7.923394	2009.45411975285	302.749162832856	2032.13260270773	-8.56787908809345
6.75822	6323.6566452066	-13300.6047134665	14727.3459628798	64.5716559618896
5.761429	5964.03034814486	-4186.47344301291	7286.71516409454	35.0670797100689
4.919708	3086.56871447191	-8724.82014669989	9254.6957281921	70.5178119597573
4.191257	-2967.75232303744	10130.9423110598	10556.6825262918	-106.327387676536
3.564097	8953.8305424261	1006.82572049265	9010.25967516631	-6.41575220675691
3.051758	4017.60448156832	4461.44515181136	6003.80201313625	-47.996445314991
2.604164	9198.90223698124	-5999.9077087032	10982.6542729203	33.1140671216962
2.214424	3062.09483253468	-3982.38100281362	5023.5229884023	52.4429358503053
1.892567	4539.07081566295	-6824.12285862329	8195.84142472194	56.370103169691
1.607507	6952.10632350891	1040.37040232578	7029.52010505753	-8.51105313397238
1.376413	3802.39119333026	-440.062143583225	3827.77134600939	6.60164263380915
1.17375	2766.32180003992	-3352.27194129506	4346.29307223642	50.4702765391376
1.001604	2022.90477593465	-178.852254603395	2030.79586898239	5.05258706339992
