EC-Lab ASCII FILE
freq/Hz	Re(Z)/Ohm	-Im(Z)/Ohm	|Z|/Ohm	Phase(Z)/deg
6999984	13.4547552691503	100.980195480788	101.872618100699	-82.4105250259493
5969734	15.9313783060074	87.9850578868782	89.415766093494	-79.7367028834122
5091109	14.6392303457898	84.9059562463929	86.1587399584713	-80.217414473527
4341796	10.6388692426974	87.7768007749652	88.419185096059	-83.0892508300612
3702781	12.5466696594154	98.2169268912716	99.0150677801509	-82.7202087142175
3157797	13.8733648896782	104.49145088075	105.40841313921	-82.4370529718638
2693047	13.5526833271675	115.161503146422	115.956228950022	-83.2880671849716
2296687	12.5103509154965	131.042643145856	131.638456397366	-84.546626277756
1958656	13.8970694092902	149.604364151878	150.248441960156	-84.6929024028529
1670375	14.3607158154259	172.099641215713	172.697761031545	-85.230050335788
1424531	16.1630555827973	198.956007176883	199.6114654962	-85.3555280929217
1214875	18.9652741492199	230.129987628111	230.91014016121	-85.2888358055685
1036062	20.9003388904059	265.297691105546	266.119689372409	-85.4955016822721
883578.1	22.8744988207842	307.265444530474	308.115718681816	-85.7424464919735
753531.2	25.3252519677571	357.041051488354	357.938096373018	-85.9427525371513
642624.9	28.2561382100003	415.145978115322	416.106467736168	-86.1062746918816
548046.8	31.6519364940357	483.467271743669	484.502268241429	-86.2542696903639
467390.6	141.942147993939	673.079566777272	687.883476026437	-78.0916837578121
398593.7	164.189786145756	763.31992551783	780.778838447313	-77.8606671748154
339937.5	186.123272428879	867.313689537521	887.059698441329	-77.8881691489817
289906.2	208.028202893731	985.152097461021	1006.87655069082	-78.0763857846821
247234.4	228.199846147912	1126.10765181478	1148.99678557328	-78.5444350075245
210843.7	247.482580627534	1288.19417631532	1311.7514488678	-79.1250704371101
179812.5	266.28325339084	1480.16309256056	1503.92471607287	-79.8015044100415
153343.8	286.854733272916	1706.29238122704	1730.23678386356	-80.4569108318917
130781.2	308.204776526945	1970.4617864006	1994.41967397513	-81.1102546056794
111531.3	330.788991278637	2279.65150181273	2303.5260637701	-81.743716743976
95109.37	354.390256393902	2642.73933978589	2666.39525799888	-82.3622246838197
81109.37	381.783044330396	3066.13857425671	3089.81618376937	-82.90229470151
69171.88	411.509910146117	3557.21192476275	3580.93522474546	-83.4011690537305
59000	432.403409080309	4119.96565780596	4142.59456496587	-84.0085616123486
50312.5	332.072548902524	4784.60054817762	4796.11035979742	-86.0297848262316
42906.25	1700.10946875388	6349.36620809344	6573.03761211097	-75.0100875524805
36593.75	1804.45508202532	7109.97862134029	7335.38370768448	-75.7594590527321
31203.13	1905.30664361138	8095.24174995299	8316.43748226196	-76.7558326584646
26609.38	2018.18916580947	9289.72750482165	9506.4254387667	-77.7429816436955
22703.13	2144.34991485561	10685.6403620352	10898.6763647747	-78.6528386223633
19359.37	2268.77289377039	12343.7671419531	12550.5345582676	-79.5853274339387
16500	2408.70732045699	14295.4004803325	14496.9081479022	-80.4357686892514
14112.02	2546.67730001993	16521.3015650119	16716.4281673001	-81.2371074615213
12011.13	2763.62110244438	19213.9512707685	19411.6852703041	-81.8150499894698
10236.38	2953.88014989242	22334.6573977929	22529.1439920986	-82.4660446362974
8750.684	3215.80215982515	25902.905763495	26101.760678614	-82.9230357736938
7449.463	3564.48153118655	30225.5275062345	30434.9805588291	-83.2742016063295
6363.206	3809.66071117381	34989.3592981718	35196.1472157226	-83.7860821004993
5414.761	3489.17559860044	40393.6985480047	40544.1146005797	-85.0630904342869
4620.567	14844.4823198144	53156.5020749141	55190.3285747026	-74.3970800074701
3941.215	16044.648410622	60419.5273623665	62513.5987550887	-75.1281168582775
3361.769	17238.8622390897	68911.029249083	71034.5572483301	-75.9550668439898
2867.244	18393.8172754329	78984.6856621224	81098.1694189597	-76.8907069234384
2442.658	19526.1757927963	90872.4111727815	92946.5795682996	-77.8729857674107
2083.003	20259.5057355618	104371.491136389	106319.592430946	-79.0149479488859
1777.843	21458.4904292171	121177.392446822	123062.696426301	-79.9579791838918
1513.548	23727.3039666796	140478.407963701	142468.129971384	-80.4130222647847
1292.065	25504.6205112847	162714.71167618	164701.436130008	-81.0916907731171
1101.762	27526.2597384891	189272.603054025	191263.726937538	-81.7253820945318
939.101	29907.6332896085	220482.615155116	222501.798003128	-82.2751923947394
801.2801	32834.0460900013	255191.483595595	257295.09883082	-82.6683560337581
684.3433	36173.7470324506	296567.155975158	298765.155226578	-83.0457060376313
582.9476	127341.155244042	405129.033942988	424670.818355189	-72.5508953999995
497.0677	140198.775376374	456785.954739713	477817.020484313	-72.9374700243743
423.5089	151622.620632291	518555.781127484	540268.00500135	-73.7013946526222
361.5036	167160.14983622	588302.641732094	611590.151950004	-74.1380457882914
308.1262	178876.367923405	672775.067753112	696148.724621165	-75.110756237085
262.7298	193952.269692412	771523.160813172	795528.422238946	-75.8888902186522
224.2111	209419.578408908	888973.875008305	913307.78506933	-76.744258911003
191.2854	227417.193582374	1018760.98067232	1043835.48305148	-77.4162238131324
163.1722	250259.579408595	1179194.56942591	1205458.29029847	-78.0179440895788
139.1537	274709.850573132	1369100.77809999	1396389.07278592	-78.6542710168511
118.6706	310115.008754715	1589698.27969419	1619664.1439254	-78.9614909866003
101.1982	358378.683608853	1835542.63781215	1870201.07370614	-78.9523236618782
86.24196	406191.016939506	2126649.92580693	2165093.77376061	-79.1867206958662
73.61024	385807.068173884	2535337.95895704	2564524.45103988	-81.3475737244226
62.69291	1274395.16663012	2069935.112856	2430784.73176141	-58.3806750981625
53.57697	751775.147168442	3344816.73530961	3428259.74288813	-77.3328011581614
45.65746	652390.198868135	4251993.93059715	4301751.42905936	-81.277042619842
38.96512	887746.116272733	4404235.058688	4492814.22041172	-78.6037934351001
33.18414	1230409.17573436	5377935.89343386	5516892.35109908	-77.1131864352877
28.30617	1166637.28798798	5403204.95719414	5527718.00756617	-77.8159764667952
24.17237	1690868.16401646	6460709.09924237	6678307.96033828	-75.3337514109499
20.61345	3491407.76158998	8482402.76297645	9172844.96713213	-67.6276409537789
17.55618	4691294.27410062	8767566.06422665	9943764.71246118	-61.8499345476797
14.98558	3969560.65749199	9822776.20882613	10594543.1360767	-67.9954798582529
12.76553	4999782.82345592	11043470.2433744	12122543.5985201	-65.6419984189735
10.8809	6167076.2569398	12360756.3124274	13813802.0173349	-63.4842966582903
9.278505	7653951.69736292	13877368.4021723	15848164.889197	-61.1214187111708
7.923394	9589454.49576937	15120498.5418267	17904946.6259974	-57.6170369488122
6.75822	10556040.9331315	16404100.1815228	19507037.2672886	-57.2387129166873
5.761429	15945112.5949699	15704021.8089116	22379966.8596949	-44.5635514967308
4.919708	16384863.5455916	15783355.0990525	22750341.7906291	-43.9287600963495
4.191257	14823661.7680245	18492711.921427	23700661.2233009	-51.2845183209539
3.564097	19886034.8591453	18913163.7158038	27443799.7398308	-43.5636370118244
3.051758	18513891.7563919	22735453.6901247	29320045.0624346	-50.8434496806843
2.604164	26171096.3668611	17685304.0189789	31586330.3232149	-34.0491399729276
2.214424	28944018.9571942	16850082.5924795	33491514.1008554	-30.2063005818293
1.892567	31307705.2815122	9675772.25650496	32768780.5503009	-17.1739744611221
1.607507	33973688.5257446	12875546.1840636	36331683.1647291	-20.755997734299
1.376413	30651239.5832382	9283202.472638	32026182.0412153	-16.8497491040135
1.17375	37842533.6048226	11938094.9929547	39680920.6255719	-17.5087995374407
1.001604	35184265.9883422	8032149.573187	36089444.4388448	-12.8595736158973
