EC-Lab ASCII FILE
freq/Hz	Re(Z)/Ohm	-Im(Z)/Ohm	|Z|/Ohm	Phase(Z)/deg
6999984	-2.49165733657664	108.357780257224	108.386423958703	-91.3172685428169
5969734	14.2144971888915	103.639909323919	104.610146424729	-82.1904519368395
5091109	16.643234005987	93.4626928197386	94.9329878772119	-79.9029752355592
4341796	16.0712875556507	92.8567699369621	94.2372856507567	-80.1807451746386
3702781	14.5895425630027	105.158688864757	106.165929544051	-82.1012997039172
3157797	18.3295155465467	110.107694674412	111.62291685261	-80.5486986706717
2693047	17.9480877670044	121.127891723624	122.450398153301	-81.5715429265392
2296687	16.0256953804992	138.776355403588	139.698603183895	-83.4127428011921
1958656	19.1535601766885	158.861725439467	160.012207900043	-83.1251752838159
1670375	19.7644709463187	182.053886037704	183.123596877129	-83.8040156794869
1424531	22.5920489354255	210.559650755587	211.768192138044	-83.8758645869963
1214875	24.2702352587449	240.690133888077	241.91069606484	-84.2419846180849
1036062	28.8644670763936	278.097402674728	279.591349712458	-84.0743371672297
883578.1	31.1554473410824	321.163959412874	322.671583385921	-84.459192918219
753531.2	33.9892506807787	372.154568666083	373.703481574469	-84.7815962695392
642624.9	37.4849464105173	432.394579221617	434.016351474963	-85.0453287426379
548046.8	41.0131317920327	502.762504729554	504.432565504375	-85.3363913025643
467390.6	150.51926220389	706.928318970303	722.774997116379	-77.9800715793207
398593.7	175.613322902426	800.225053776896	819.268073266051	-77.6223740278205
339937.5	199.873089269673	908.072545205106	929.809119749577	-77.5867360529633
289906.2	223.657962357524	1031.16787030809	1055.14456871163	-77.7622330256119
247234.4	245.816785507314	1175.04142960289	1200.47834354491	-78.1842164417258
210843.7	268.177449476898	1341.82383122902	1368.36045633526	-78.6977585135015
179812.5	289.552770182369	1539.98432150275	1566.96921386305	-79.3513887661868
153343.8	310.386308281332	1771.54246040278	1798.52782835809	-80.0622575026056
130781.2	332.429931720589	2043.30367141339	2070.16896728629	-80.7593752519413
111531.3	355.163347130416	2362.32249967196	2388.87182485818	-81.4499039866329
95109.37	379.938609680485	2737.46041687333	2763.70093915284	-82.098263027603
81109.37	408.094042584856	3171.92285625553	3198.06744044422	-82.6686998084352
69171.88	435.977705103719	3675.63376076363	3701.39974909667	-83.2355842509376
59000	450.190359932007	4246.68682148939	4270.48244581187	-83.9486875227575
50312.5	306.540164684087	4893.28374740733	4902.87596265755	-86.4153854223547
42906.25	1859.98243699613	6775.91828137894	7026.56411212902	-74.6504419444769
36593.75	1964.206910638	7471.67826012001	7725.54754114865	-75.2709552366036
31203.13	2061.27454953016	8474.57135958822	8721.65193626148	-76.3293801715487
26609.38	2185.86084059878	9700.22046878037	9943.45336175561	-77.3010020005316
22703.13	2300.46275031375	11122.7519985973	11358.157460076	-78.314564340118
19359.37	2462.37817808924	12852.7328590848	13086.4834175927	-79.1544631720003
16500	2587.32072614607	14880.7513866585	15104.00577236	-80.136570128634
14112.02	2737.50747626313	17183.2034165014	17399.8973225551	-80.9481075496574
12011.13	2971.07787698284	19968.816987789	20188.6343184205	-81.5372800503904
10236.38	3165.19202301619	23194.1496893698	23409.1225883299	-82.2291265880108
8750.684	3397.35921444985	26923.4785942628	27136.9812110288	-82.8081004399905
7449.463	3929.32916301063	31430.9731759107	31675.6326291379	-82.8741624737691
6363.206	4133.42634391749	36736.1561804678	36967.9642968925	-83.5802756604883
5414.761	15882.7901573668	48661.2188896632	51187.6669424448	-71.9235639101108
4620.567	15725.2901374699	56999.3220037103	59128.7363199169	-74.5765876846845
3941.215	18191.0686434681	62566.6617460744	65157.517911896	-73.7883696459231
3361.769	19040.1028894181	71035.0645331963	73542.5449061629	-74.9952479455866
2867.244	20080.2946119385	83908.4402230999	86277.7177049543	-76.5415464430857
2442.658	19531.6983196482	95075.1661747423	97060.6741291477	-78.3909969099885
2083.003	21949.3782723281	110303.863289078	112466.51707525	-78.745715080954
1777.843	24321.8935320689	127817.316567322	130110.802470265	-79.2261974879507
1513.548	27602.9303330642	144638.516506446	147248.844546086	-79.1955442459112
1292.065	30949.5037165189	168972.130185454	171783.155634389	-79.6205643383392
1101.762	34602.5085131421	197941.172490379	200942.880844951	-80.0842017861591
939.101	36431.0780915947	232010.948736365	234853.792356998	-81.0761063210896
801.2801	42807.9492416988	263068.92122452	266529.131301838	-80.7575417869968
684.3433	109532.892884875	381642.827335544	397049.999723457	-73.9863265641408
582.9476	145421.106711979	411294.134233336	436245.530787521	-70.5279533127311
497.0677	178492.559197969	480469.386993435	512552.851447427	-69.6201589821258
423.5089	168227.389868307	529883.47445627	555946.896028526	-72.3863992170175
361.5036	199515.209388618	593487.226853067	626125.711990115	-71.4186735010415
308.1262	218489.121722199	678469.708309537	712782.323998404	-72.1497676476284
262.7298	233066.832004094	779987.261843589	814064.049580059	-73.3634068492745
224.2111	267590.139039461	888774.001514499	928183.014431558	-73.2441170363283
191.2854	327378.981660373	1061170.71674081	1110522.52912815	-72.8546203271984
163.1722	343020.11252521	1178676.60082704	1227575.3854383	-73.7738738137063
139.1537	423936.406336533	1357090.04411594	1421764.91181072	-72.6519078592811
118.6706	425871.041872339	1569728.34784644	1626472.63436497	-74.8208968885283
101.1982	576792.25473324	1810603.76477043	1900256.64006763	-72.3300201699766
86.24196	681323.275655531	2077714.2629999	2186572.1951546	-71.8446676217213
73.61024	972624.336158476	2241386.80606516	2443320.05960961	-66.542115115124
62.69291	938962.539465396	1060105.78978839	1416147.9216742	-48.4678749888247
53.57697	981979.312742638	2467713.66053199	2655916.80612001	-68.3008663630576
45.65746	1820739.50393928	2893663.55365569	3418827.44562523	-57.8212391069968
38.96512	1811815.35856729	3863539.4720241	4267272.21365459	-64.875667367986
33.18414	2360430.27102068	3777125.33660051	4454021.42706345	-57.9975955163381
28.30617	2988815.06254054	5963806.80125571	6670832.5597914	-63.381851804521
24.17237	3255593.49392332	4604418.80029918	5639109.99061239	-54.7374542028878
20.61345	3449312.17327786	4426520.64246415	5611759.03499821	-52.0729311653657
17.55618	3765186.67021638	4685137.91150184	6010586.32009947	-51.213081943057
14.98558	5368596.57298176	6486787.44110971	8420228.0532994	-50.3881544983615
12.76553	5943572.16041369	6743239.83311597	8988733.69685445	-48.6066625555392
10.8809	6561881.87953229	6540933.55995584	9265101.49090072	-44.9083976048862
9.278505	7561162.17322822	6498658.31291408	9970142.08915121	-40.6783590654164
7.923394	8853315.4184662	6642519.66828763	11068164.3212612	-36.8803879992548
6.75822	9125802.7110808	8016922.84354786	12147070.7168835	-41.2989697603683
5.761429	12177524.0146864	8819528.78508716	15035829.8447158	-35.9138024692911
4.919708	10359625.1134103	7045350.20163371	12528319.5981768	-34.2187469394423
4.191257	9898272.40628535	8033447.76232599	12748022.5752487	-39.0628186183758
3.564097	11524152.3481258	7499913.34162841	13749719.5416761	-33.0560608745171
3.051758	10561121.3710844	8214499.27688087	13379659.3000215	-37.875976652808
2.604164	13914411.5583224	7282026.82025682	15704736.9804564	-27.6250512302516
2.214424	14365706.8788044	7962136.51419601	16424650.742053	-28.9972393129663
1.892567	18557362.5438704	5629413.45434299	19392421.2109932	-16.8752801033645
1.607507	16789630.1075186	7142570.33378567	18245766.3615527	-23.0456574047787
1.376413	16436052.1081626	7556955.14669315	18090090.6573563	-24.6919886037297
1.17375	18931780.3463537	8137335.50493821	20606516.8381877	-23.259198775024
1.001604	20045683.0036864	8261006.61928667	21681181.6432633	-22.3970004257552
