EC-Lab ASCII FILE
freq/Hz	Re(Z)/Ohm	-Im(Z)/Ohm	|Z|/Ohm	Phase(Z)/deg
6999984	5.04159511224874	0.405978479138936	5.05791457039107	-4.60385453966259
5969734	7.95915181028781	2.83595943818484	8.44930550247992	-19.6117093441755
5091109	9.18293498760626	-4.20418151894473	10.0995760916407	24.5995132155955
4341796	0.715304479497774	0.0564441482303922	0.717528006602554	-4.51181861015734
3702781	6.17431364544033	-4.61760306198484	7.71001991114955	36.7918259128614
3157797	4.1458975845674	-8.7526743452079	9.68492514039124	64.6543910675065
2693047	2.08112988502662	-7.28145522905727	7.57302395685609	74.0494092173847
2296687	0.685731791414763	-11.0934928235355	11.1146664869257	86.4628263277915
1958656	1.7906981833517	-14.2991730776172	14.410862246497	82.8619584727329
1670375	-2.2181055905681	-15.2953141934888	15.4553106953063	98.2514329626082
1424531	11.2778853312256	-1.84686368555359	11.4281058368083	9.30019363478401
1214875	18.9219249576908	-6.74983402840807	20.0897860495212	19.6323472839561
1036062	21.9407818847272	7.20821618150278	23.0945077936823	-18.1869294654457
883578.1	2.38810390074324	-8.0558022499194	8.40232052057951	73.4877959865974
753531.2	26.0598366234056	-1.52151573954259	26.1042160384921	3.34144746232612
642624.9	15.7781339986817	-0.11900605536069	15.778582791923	0.432143332920229
548046.8	3.64661595924939	2.3117052294468	4.31761381113504	-32.3719034305073
467390.6	5.25798848364281	8.92566233739313	10.359241818554	-59.4982292775652
398593.7	3.47341832592583	0.390542321329463	3.4953051614454	-6.41524800389719
339937.5	11.8501565882782	6.40660065957421	13.4711077190396	-28.3971748845478
289906.2	5.9340326504032	1.59649375232228	6.14504156188184	-15.0583106138677
247234.4	2.25831835724216	5.54134324196181	5.98385216460874	-67.8271448580435
210843.7	2.45866383414001	0.902538891840222	2.61908463028445	-20.1574344553037
179812.5	2.04597205690562	0.855951686813695	2.21780408237469	-22.7024556854953
153343.8	3.00939771704458	2.40281021480833	3.85097020862801	-38.6051112837355
130781.2	1.66732677224421	0.583712941129429	1.76655013036264	-19.2945943933044
111531.3	1.73302489793453	1.17506785759548	2.09383852453216	-34.1390141326718
95109.37	1.46532117102337	0.642615178838681	1.60003762528359	-23.6798070924295
81109.37	1.18627883432139	-0.898478421273644	1.48812665665705	37.1400066353845
69171.88	-0.541193682684377	0.268240017102781	0.604022606325938	-153.634908538662
59000	-0.547266477401842	0.222725589382239	0.590853015100614	-157.8547426998
50312.5	-0.538570722561312	0.179333358706973	0.567643265392392	-161.583265551614
42906.25	-0.580070898924798	0.174689709864892	0.605804211368742	-163.240202199353
36593.75	-0.548605543717607	0.156409226763393	0.570466378338298	-164.086976524777
31203.13	-0.550991309621307	0.123087198058048	0.564572299713672	-167.40732424334
26609.38	-0.533219013648045	0.121804843967034	0.546954236229712	-167.132533684795
22703.13	-0.528423044069984	0.110346892212177	0.539821591014174	-168.204824198382
19359.37	-0.523516309870966	0.0969668691995124	0.532420792628601	-169.50646971736
16500	-0.519165922486788	0.0872465448139899	0.526445832592051	-170.460501742033
14112.02	-0.515845667862691	0.0783284773588872	0.521758663960712	-171.365889649898
12011.13	-0.512449216260476	0.0706056169796853	0.517290394647975	-172.155139012691
10236.38	-0.508886146692549	0.0659568303271838	0.513142683629416	-172.615052234843
8750.684	-0.506448963994371	0.0585154765608798	0.509818216748008	-173.409229034673
7449.463	0.416759345680301	-0.309486355008965	0.519105149414459	36.5976562456695
6363.206	0.380112086986468	0.266467138877806	0.464208934398005	-35.0313214140747
5414.761	-0.568153736385761	0.0589789851261555	0.571206782921573	-174.073459006569
4620.567	-0.403360675293962	0.0367308756669498	0.405029618177316	-174.796875518701
3941.215	-0.521578163931903	0.113927422722039	0.533875677230815	-167.678505167775
3361.769	-0.135542442669054	-0.478801922127291	0.497617357411779	105.806110674526
2867.244	-0.442719299481944	0.0200731964987824	0.443174132087447	-177.403948078105
2442.658	-0.528638340973924	0.0153224588034874	0.52886035329891	-178.339760044892
2083.003	-0.512110615810332	0.0177018259217956	0.512416468769889	-178.020278778327
1777.843	0.395623713560138	-0.29544959470217	0.493769769974622	36.7521715038604
1513.548	0.381218186587343	0.256089744148084	0.459248585019892	-33.8918974356319
1292.065	-0.127903849783002	0.449683482923202	0.467519656916428	-105.87738662424
1101.762	-0.47934523810902	0.0441901142778255	0.481377838602569	-174.732876132985
939.101	-0.483523583843936	0.0240885684167935	0.484123243876654	-177.147950535241
801.2801	-0.476540399675919	0.0290082885928445	0.477422489342899	-176.516551045006
684.3433	-0.436549529834289	0.0171191747724237	0.436885062852266	-177.754311769828
582.9476	0.377613188849969	0.255870537967731	0.456137536926461	-34.1215503790763
497.0677	0.394334206304229	0.277817878562775	0.482371475017653	-35.1656112620975
423.5089	-0.443552930296114	0.0491033515096538	0.44626263691211	-173.682816381848
361.5036	-0.429938676554234	0.0729548805999189	0.436084487456909	-170.369401452607
308.1262	0.395408597937156	0.255769759352566	0.470920512530403	-32.8967786074708
262.7298	-0.438765192664171	0.0706346711872604	0.444414391156902	-170.854696705083
224.2111	0.411975539339846	0.273655547643376	0.494581847392676	-33.594177106126
191.2854	0.382714556785274	-0.290411669541711	0.480426237607141	37.1919739074028
163.1722	-0.110569743584127	-0.450625744299086	0.46399270427601	103.786262559351
139.1537	0.381052373783287	0.244813213084011	0.45291767559502	-32.7193679557864
118.6706	0.406324732610936	0.202476542189	0.453978566088932	-26.4876326040917
101.1982	-0.466338528990142	0.0694848432763735	0.471486762344217	-171.525229212724
86.24196	0.410720818301767	0.382479556206474	0.561232751630172	-42.9608911409247
73.61024	-0.0612096180683196	0.448455283777701	0.452613255320929	-97.7722683585403
62.69291	-0.0510640316151653	0.355862917477629	0.35950792948207	-98.1658330680157
53.57697	0.246733445361618	-0.508791513577094	0.565461048479985	64.1293898398281
45.65746	0.484127811207489	-0.0416258485891458	0.48591403442926	4.91426874911959
38.96512	0.356370953025113	0.236341797676299	0.427618640249571	-33.5519558462029
33.18414	0.435602205844111	-0.327311969886274	0.54486916536641	36.9212398900476
28.30617	0.416713010969346	-0.220190125688966	0.471310327663272	27.8518623030321
24.17237	-0.0399055180269999	-0.377287689979704	0.379392213124129	96.0376959295613
20.61345	-0.441296226865652	-0.14714929656491	0.465183055716144	161.559144028439
17.55618	0.400919202090454	-0.295479331757002	0.498040402076388	36.390388763281
14.98558	0.499292308315418	-0.546551430146144	0.740277836313998	47.5872961534881
12.76553	0.257656002938137	0.838708469592984	0.877393020725069	-72.9227450090394
10.8809	4460.14645013718	-8073.31636664424	9223.41279096827	61.0813116655117
9.278505	1950.96966934833	-6362.52490175215	6654.92342376179	72.9526534059452
7.923394	7382.96899621848	8466.63969980584	11233.531012351	-48.9113443222559
6.75822	5874.35108429343	2658.1071916627	6447.75422173553	-24.3464549462201
5.761429	6611.63146055441	-1893.68352222538	6877.47830622102	15.9826118585507
4.919708	1390.22880795869	4040.01408265683	4272.52266542189	-71.0108994382469
4.191257	5145.28139849663	-4791.5799627065	7030.87186689715	42.9614239916742
3.564097	2534.25710488137	-2728.40655407819	3723.79663757012	47.1127896962946
3.051758	-206.508721191737	6674.37334908208	6677.56733061265	-91.7721970321508
2.604164	6687.82498729621	1141.6019753672	6784.56027542433	-9.68694014649732
2.214424	3129.18791063714	1326.35249703311	3398.68032131055	-22.9703764800765
1.892567	-289.157023784308	5541.32173368092	5548.8609948861	-92.9870967409462
1.607507	5452.27996409857	371.489142222543	5464.92094999552	-3.89780323238523
1.376413	2589.41472048666	5173.30940494591	5785.17059333386	-63.4104996942775
1.17375	2374.62604181507	-395.439881801621	2407.32663728577	9.45454846479225
1.001604	103.959876247234	-70.4706128991267	125.593642959024	34.1319151855902
