EC-Lab ASCII FILE
freq/Hz	Re(Z)/Ohm	-Im(Z)/Ohm	|Z|/Ohm	Phase(Z)/deg
6999984	60.6358153808512	51.5586438566245	79.5926872472272	-40.3745195466585
5969734	76.6680826020559	74.0611026094326	106.597569435708	-44.0091231566945
5091109	82.9450603742192	92.6250110650606	124.335335746864	-48.155773418661
4341796	78.7971361431142	110.885651753829	136.031674360158	-54.6017835265788
3702781	61.2347395570802	116.52960940993	131.639064102774	-62.2786788657761
3157797	64.9812733761364	119.682760873582	136.185642194422	-61.5004302926499
2693047	67.9526677837815	129.390790726871	146.149039626875	-62.2927163317568
2296687	74.6024468122251	149.337886017306	166.935104967436	-63.4553622896362
1958656	79.5961384506305	171.284842170045	188.875732727815	-65.0756869342662
1670375	88.7777637661244	195.593028410673	214.797868011236	-65.5871663579795
1424531	96.1658492388328	227.539686663879	247.026677844564	-67.0894616968125
1214875	96.9540922699197	267.105752096084	284.15766540901	-70.050106511592
1036062	103.258939904236	310.807558984734	327.511446200275	-71.6220735183129
883578.1	102.832739144081	364.94289175694	379.154172446766	-74.2633516580865
753531.2	105.523517577271	421.741552699647	434.742625050029	-75.9524885339117
642624.9	107.667447075928	493.893330406572	505.492730887342	-77.7020724571232
548046.8	549.77331704479	1183.14780151891	1304.64149112829	-65.077119328754
467390.6	649.93763212091	1281.73627792051	1437.10361901446	-63.1115303167782
398593.7	753.039369002262	1395.99262792182	1586.14744222578	-61.6562748129255
339937.5	849.558547683632	1502.20578435722	1725.79603212507	-60.5100727437662
289906.2	939.465793095204	1620.09509885278	1872.77978035934	-59.8912783250249
247234.4	1028.06696546196	1761.17469570598	2039.27879267873	-59.7262091842478
210843.7	1095.77000490294	1924.34071143292	2214.45231994801	-60.3416804477773
179812.5	1157.35873110475	2123.99336286972	2418.84828750772	-61.4141428487032
153343.8	1198.47151663238	2365.15428297694	2651.46916981195	-63.1277450223804
130781.2	1226.03690679007	2642.72801539437	2913.27613867303	-65.112069754257
111531.3	1308.10377736817	2994.34653032155	3267.60564267073	-66.4015112721989
95109.37	1355.99852049838	3402.32406474136	3662.58665823922	-68.2702131210181
81109.37	1398.21686256299	3905.81324974192	4148.54041038713	-70.3034684485989
69171.88	1447.90682920581	4490.04472127456	4717.7257004945	-72.1270212231617
59000	6338.51209458196	8940.78598729589	10959.6710554555	-54.6655136221312
50312.5	6917.99452179791	9497.29902608253	11749.7802955823	-53.9297670582478
42906.25	7440.10613187542	10162.2947793495	12594.7375691582	-53.7910768943584
36593.75	7886.97823743064	10938.3670562675	13485.2623102164	-54.2069640395321
31203.13	8273.41873349248	11927.1021734452	14515.6888846347	-55.2522911592805
26609.38	8616.37055816975	13143.8905020581	15716.3513299298	-56.753480689569
22703.13	9007.80566981151	14495.8254039121	17066.6199678141	-58.1428976131832
19359.37	9288.9490463504	16372.3583471594	18823.8862149529	-60.4313483427153
16500	9460.29422171885	18595.6217411862	20863.7080765324	-63.0358425920414
14112.02	0.000881466375358296	-0.000367844256856977	0.000955139973087691	22.6512389881886
12011.13	0.00125728847039909	0.000782308783280948	0.00148080428490635	-31.8906589896431
10236.38	0.000403391786072653	-0.000108342297098401	0.000417687666099256	15.0336275920535
8750.684	6.36491538893399E-05	0.000985296879542594	0.000987350573822288	-86.3038878354222
7449.463	0.00115336984693469	-0.000135396205598355	0.00116128985886754	6.69541290656026
6363.206	0.00163532057773223	5.90393133810366E-05	0.00163638596684247	-2.06762821162624
5414.761	0.00329028352939761	0.00148017962438998	0.00360789376565947	-24.2212579384061
4620.567	0.00155575734738151	-0.000331036031971347	0.00159058661455291	12.0123180059255
3941.215	0.00184670532433649	0.000297034527787083	0.00187044114198508	-9.13751372801251
3361.769	0.00150862617570849	0.000121070543967346	0.00151347646650002	-4.58827810904416
2867.244	0.000742078816471964	-0.000262287253707277	0.000787067705673239	19.4659202332044
2442.658	0.00113306797977524	0.00150695595611681	0.00188540693232731	-53.0607906182626
2083.003	0.000266421802859521	0.00273741955698007	0.0027503538695913	-84.4411447476724
1777.843	0.00136881956626461	0.000904842919528106	0.00164085578708459	-33.4662528192072
1513.548	0.00246935619718473	0.000354799463636764	0.00249471495124625	-8.17635410836875
1292.065	0.00137401265441759	-0.000500441050421148	0.00146231050719274	20.0125678063829
1101.762	0.000915354218260371	0.000322182109373616	0.0009703992253127	-19.3908111958407
939.101	0.00112219796419237	-0.000272224642819132	0.00115474435568895	13.6355131691091
801.2801	0.006474949320309	0.00556750685980088	0.00853944385393451	-40.6907005763235
684.3433	0.00164568804393969	1.30132910588911E-05	0.00164573949448576	-0.453057381062315
582.9476	0.00242313643563823	-0.0010377833003303	0.00263601676097896	23.1845309151625
497.0677	0.00209445711803918	0.00249004784164014	0.00325378070449772	-49.9317592370721
423.5089	0.00245201865993137	-0.00277997879681967	0.00370684200087063	48.5868095679379
361.5036	0.00625714309323462	-0.00380585839048583	0.00732368744401652	31.309731351582
308.1262	0.00226340463445215	0.0012237361037146	0.00257303917397192	-28.3983895550735
262.7298	0.0033658726955467	-0.000115788748855791	0.00336786372007366	1.97024429406124
224.2111	0.00220638616399146	-0.00799086047704787	0.00828987280169598	74.5644409794278
191.2854	0.00396014882938949	-0.00428439429987448	0.00583427915579224	47.2521960574279
163.1722	0.0063046008117521	0.00141495783771606	0.00646143150378145	-12.6494356149551
139.1537	0.00361385456510162	0.00373650998967582	0.00519821620564718	-45.9560050966593
118.6706	0.00881567396132436	0.00618539806653044	0.0107691808710696	-35.0548986273444
101.1982	0.00654857397701392	-0.00901231923154574	0.0111402746404078	53.9969177118371
86.24196	0.0136211593236584	-0.00625938653318675	0.0149905270451818	24.6803919379562
73.61024	0.0149712721225388	-0.00911035204654435	0.0175253388948426	31.3214426089145
62.69291	0.00607015647601623	0.0115905380701769	0.0130838592318758	-62.3582054077402
53.57697	0.0170426698974136	0.0154855822896683	0.0230272850349818	-42.2594131827681
45.65746	0.0222631655858997	-0.00732291614847037	0.0234365876957956	18.2073382221083
38.96512	0.0105253873375258	0.0259565968019372	0.0280094394114428	-67.9274697679708
33.18414	0.0340547827868454	-0.00524024916338003	0.034455601024413	8.74789096816765
28.30617	0.0276814347802022	-0.0152214466006579	0.0315904141806857	28.8054817980919
24.17237	0.0397860788273348	0.0130505609936428	0.0418718188129402	-18.1604358969989
20.61345	0.0412295218740237	-0.022881593182664	0.0471533750704818	29.0294338114747
17.55618	0.0712442335649067	-0.0136667893810339	0.072543241919813	10.8591373108216
14.98558	0.0515918233277244	-0.044523213675165	0.0681471407341756	40.7938558977589
12.76553	0.0146368153620035	-0.053215184270143	0.0551914141950237	74.6211065053662
10.8809	0.0748919196932185	0.0556885719468877	0.0933274701297489	-36.6339703107249
9.278505	0.0929757780532272	0.0204527016841406	0.0951987831370937	-12.4062608675457
7.923394	0.0636377357372669	-0.0098486266570696	0.0643953170408886	8.79734868504335
6.75822	0.26720733134982	0.181212922234321	0.322858918278239	-34.1440790795808
5.761429	-0.0456427483679474	-0.130681952692398	0.13842338400024	109.252566403797
4.919708	0.164499256005727	0.144213844240541	0.218763886638249	-41.240522335687
4.191257	0.184111402765062	-0.0022024695876931	0.18412457603591	0.685379562986827
3.564097	0.170895296262281	-0.261510015908586	0.312398288575788	56.835614189501
3.051758	0.474681721917451	-0.0879482503580792	0.482760429057274	10.4966383729982
2.604164	0.223684575437372	0.313563669860774	0.385171344138104	-54.4973619684162
2.214424	0.276914134207335	-0.00380488455393066	0.276940273110046	0.787211924873224
1.892567	0.125409845075321	-0.306061558648907	0.330758683823137	67.7184547643071
1.607507	0.326546716456031	0.335196682729601	0.467963218790905	-45.7488980424534
1.376413	0.301855812967932	0.29840430124413	0.424455013898445	-44.6705513649715
1.17375	0.566682122028039	0.0892287875670418	0.573664016613283	-8.94822566123515
1.001604	0.556568753652597	0.0592672726621713	0.559715451949665	-6.07834309078232
