EC-Lab ASCII FILE
freq/Hz	Re(Z)/Ohm	-Im(Z)/Ohm	|Z|/Ohm	Phase(Z)/deg
6999984	3.73291438816344	3.50060486726741	5.11750762247541	-43.1605382846381
5969734	9.3030985252046	1.66110770009625	9.4502339103846	-10.1237173328814
5091109	8.58376071845257	3.25550336368621	9.18037309822546	-20.7698862312529
4341796	5.64424891892037	-7.50210515384582	9.38824411687797	53.0438310675267
3702781	3.55019335564563	-8.40758233220794	9.12640748242842	67.1075671631387
3157797	-0.33193618764283	-11.6422288978375	11.6469599184641	91.6331401752726
2693047	0.72299943107155	-0.119056429235793	0.732736385524946	9.35098634332236
2296687	7.73869194496841	-4.56013589867737	8.98232667149916	30.509332230096
1958656	2.15867790535645	-23.6867564720474	23.7849179621278	84.7927689465442
1670375	11.7543424313288	0.803474965319621	11.7817714293239	-3.91040372021575
1424531	-7.16993489983446	-13.3141164569146	15.1219596447071	118.30340880614
1214875	0.753523790631735	-20.1770032332519	20.1910687576886	87.8612444183673
1036062	1.42761307686418	-12.4162912363518	12.4980945412947	83.440989620492
883578.1	9.43092200329832	-1.65788911182873	9.57553581474252	9.97031934239107
753531.2	5.06756738271189	-16.8068818064476	17.5542449348932	73.2210268371845
642624.9	7.83857579964926	-4.27712858704225	8.92956323214865	28.6191444639594
548046.8	4.98413903252428	-1.71859073831895	5.27211494766263	19.0248057563112
467390.6	4.13243239173682	9.42615019031666	10.2921963099565	-66.3273132377295
398593.7	4.85515438856153	0.700491386106859	4.90542682330275	-8.209860680228
339937.5	5.75534769583878	2.06225402482481	6.11366655640483	-19.7135984288836
289906.2	-3.73364765081359	9.24301187379034	9.96862043010241	-111.995888326883
247234.4	8.83808641676959	1.98174532473875	9.05754304667723	-12.638268667528
210843.7	5.51189250752703	-2.41305059648101	6.01695705450105	23.6433154104576
179812.5	4.41488601866847	-0.979922311839819	4.52232974196662	12.5144181105325
153343.8	0.169837339322816	4.74331560398694	4.74635519539512	-87.9493653272584
130781.2	12.4716046165927	-4.04015816578671	13.1096834331417	17.9496561833261
111531.3	5.41144193533602	-1.90506327443247	5.73698264762102	19.3942890496572
95109.37	2.98395243252559	-5.81945264046713	6.53987776294139	62.8532982385128
81109.37	2.57745347030254	2.84883674571644	3.84176225127465	-47.86312949522
69171.88	11.2499599458607	-9.58302786042419	14.7782279640401	40.4252778777292
59000	5.65305266306224	8.1745763142559	9.93884813894189	-55.3345621690834
50312.5	4.57222020989597	0.21769134982742	4.57739960802755	-2.7258931199163
42906.25	11.0567912295782	10.349784177734	15.1449881089471	-43.1083475590796
36593.75	5.06764000875477	6.96774368102904	8.61570816955009	-53.9716044364482
31203.13	94.9407914475296	5.46293565068913	95.0978314506008	-3.293193529778
26609.38	4.63762493039333	-1.21561427803645	4.79429693156065	14.6879335063613
22703.13	-4.45116146718758	10.8932675315859	11.7675875149361	-112.22570169851
19359.37	1.42138558596609	8.45355905779087	8.57222244972389	-80.4555357331834
16500	3.75925568798467	-3.1182847488563	4.88423004194058	39.6755454140667
14112.02	2.00722703907835	15.3554801633063	15.4861141488787	-82.5526758549212
12011.13	21.4770039873103	-4.17428502865579	21.8789020696058	10.9989160945217
10236.38	27.2650631990014	-14.37957783114	30.8245994272002	27.8071372175441
8750.684	7.80470062495094	6.26623323276621	10.0089475357069	-38.760262525079
7449.463	65.1045880016844	-20.8247163839364	68.3540502921404	17.7376847174395
6363.206	101.761462382155	23.7259575867532	104.490747387332	-13.1242056327343
5414.761	506.215073809809	-289.858720644688	583.328191403472	29.7954497356748
4620.567	550.393298500893	-451.393524344559	711.820831989972	39.3561730094828
3941.215	242.267113671038	-217.36000575361	325.482298240173	41.89818621125
3361.769	353.058273191765	-267.405163247063	442.89464390568	37.1401670635671
2867.244	230.475536945015	-552.989873915835	599.096631423967	67.3745654956696
2442.658	225.902161639835	-210.095235061567	308.499261634652	42.923671802553
2083.003	296.225829236452	284.378940519501	410.635024952594	-43.8310765218576
1777.843	3.88181645190309	-248.649575873009	248.679874699972	89.1055941578324
1513.548	219.98373749382	-111.632066838287	246.687176619171	26.9057886621341
1292.065	95.5033964135298	129.415368927221	160.839163269052	-53.5741493435439
1101.762	189.211279121136	-306.122921504831	359.877967118452	58.2802355966761
939.101	275.931075760268	-174.532353415697	326.495790109214	32.3142352284274
801.2801	420.167078416647	417.024277945157	591.987856447124	-44.7849137408796
684.3433	231.98905770955	-348.207369878814	418.410438845502	56.3269307998279
582.9476	154.827668657051	-340.95856289819	374.46541708865	65.5774260754623
497.0677	416.107796896681	-536.824407861686	679.209940676857	52.2197229524783
423.5089	311.155095679278	477.037242155149	569.545453822757	-56.8849630443956
361.5036	1228.95551363567	-404.792216405396	1293.90432140785	18.2308008438189
308.1262	808.687031240891	-77.9085883543653	812.43120486388	5.50287001093087
262.7298	1351.88013808727	-585.408955670569	1473.18822732676	23.4142125064966
224.2111	367.493305639658	1404.87030912969	1452.14045986059	-75.3407414960505
191.2854	2981.35698959944	1860.10336364756	3514.03955909526	-31.9605197336034
163.1722	466.166119334642	-871.281311194539	988.150785079076	61.8516534210651
139.1537	2085.89069723524	-174.975993751377	2093.21680654484	4.79505915026467
118.6706	4008.85709326515	1778.8378099758	4385.79515577527	-23.928149919151
101.1982	2903.61475457627	349.18450618457	2924.53559772358	-6.85737661608784
86.24196	5791.63514297901	1100.61742400918	5895.28594246471	-10.7599411277506
73.61024	3889.53167073405	-292.332268572721	3900.50186167012	4.29819702582076
62.69291	2801.02442120158	2509.81505796514	3760.97187351305	-41.8614424278482
53.57697	3258.01181130413	-12659.2671558402	13071.7896971124	75.5674608955838
45.65746	7350.30616358008	6334.53602283098	9703.26477650211	-40.7549520634695
38.96512	4953.73448794361	663.067749656633	4997.91398662248	-7.62384517694615
33.18414	1915.90047520142	-1923.88661645593	2715.14536330106	45.119165859403
28.30617	9254.85132782945	-478.263395512788	9267.20070872072	2.9582452675335
24.17237	4472.81478068575	1884.7021082626	4853.67634883193	-22.8490125599119
20.61345	0.282012220430648	-0.928199223322495	0.970095196693967	73.0997889677349
17.55618	0.603032381742355	0.129690410072099	0.616820602683249	-12.1373717742908
14.98558	1860.66225553598	-291.8142023118	1883.40637087356	8.91329242446602
12.76553	2156.41322692513	942.210580420613	2353.26980669752	-23.6021598520334
10.8809	2680.83049757041	648.272341341543	2758.09883529435	-13.5941685346125
9.278505	1867.49156650919	-184.610443056189	1876.59419339088	5.64561843488315
7.923394	1501.00016948256	-222.961986519104	1517.46945808449	8.44906483011717
6.75822	8864.43883252252	-1773.22739895469	9040.05593035446	11.3120432591387
5.761429	1733.52298070925	5642.81387427575	5903.08820401373	-72.9225731217009
4.919708	7725.74470736236	-2030.73066459146	7988.17866071169	14.7271925744837
4.191257	8772.76215780505	-8976.10629024237	12551.1688703142	45.6563940064295
3.564097	5348.71310593532	-2589.95515718221	5942.77709541751	25.8372051854812
3.051758	11228.7146951023	-4047.99295225578	11936.0915146257	19.8244199256178
2.604164	10782.2814886841	1120.94682379102	10840.3927919143	-5.9352583406043
2.214424	8565.88778171209	1073.8410923747	8632.93508492662	-7.14546552505757
1.892567	2234.70681851272	-2449.70257385626	3315.86448231306	47.6278042696038
1.607507	7091.04093472602	-2381.58968477706	7480.29618160916	18.56508733981
1.376413	2744.86799696235	-733.533273967939	2841.19189509724	14.9619792197724
1.17375	3926.27693191386	-2916.93105324103	4891.23065449184	36.6095966861201
1.001604	551.171093112627	-1165.63726373022	1289.37962000314	64.6928938313393
