EC-Lab ASCII FILE
freq/Hz	Re(Z)/Ohm	-Im(Z)/Ohm	|Z|/Ohm	Phase(Z)/deg
6999984	2.88335641749895	1.74406764940532	3.36979468158441	-31.1686576832649
5969734	4.14718668967106	0.321786150719127	4.15965188035963	-4.43677202519331
5091109	5.84864226625843	0.458179951992481	5.86656161879106	-4.47937659388144
4341796	4.9725411444988	-5.24387252310364	7.22664268331394	46.521325364381
3702781	2.20798644401587	-7.4649461780189	7.78464036277057	73.5228037078799
3157797	3.11204018995637	-7.84013054228429	8.43519063589926	68.3500261418798
2693047	2.0450980152995	-6.48073719441715	6.79576194957444	72.4860938733702
2296687	-2.04748380798426	-10.9332695236645	11.1233345908971	100.60697704995
1958656	1.0555814805071	-9.97042633747994	10.0261484934696	83.9565370445508
1670375	-3.4624188405586	-7.13230544345829	7.92831162141347	115.894522348072
1424531	7.14635925866621	-15.5402055713563	17.104632116884	65.3040679114054
1214875	6.62615612657199	1.74578425796995	6.85227755487789	-14.760212132217
1036062	-4.02846645162209	-5.50531621545026	6.82180684158854	126.194470039579
883578.1	0.350070195641049	-0.184180005047363	0.395564680090891	27.7498930042326
753531.2	2.66950289762966	-3.29970020708891	4.24432175702028	51.0266643948332
642624.9	2.12768780208008	-0.413540607488863	2.16750345262992	10.9989619311453
548046.8	5.33194195152332	-4.09604003069665	6.72362617249678	37.5317550686493
467390.6	7.01999603547035	3.03522480686042	7.64806733535998	-23.3821325995472
398593.7	1.12643092144641	-2.40085470305625	2.65197095119421	64.8650103529966
339937.5	1.83530414629195	-1.49698494806646	2.36839718884607	39.2027635598365
289906.2	0.0298135696098297	-0.0611450755622097	0.0680262390433904	64.0067195758906
247234.4	0.00502014077173976	0.0132792251250857	0.0141964655210652	-69.2911666161617
210843.7	-0.00800680527688478	0.00586337261944072	0.00992411553824103	-143.784732716332
179812.5	-0.00870639520268092	0.010743454572578	0.0138283452942972	-129.020985434519
153343.8	-0.00948343076152912	0.00995700576639346	0.0137505426380456	-133.604533204006
130781.2	-0.00841768322715858	0.0117753135718257	0.0144746468222064	-125.559403619456
111531.3	-0.00769250439418113	0.0110621824872441	0.0134739194459365	-124.814272006889
95109.37	-0.00576486460745341	0.0102592286220366	0.0117679835087191	-119.332498301975
81109.37	-0.00504353375973958	0.00879254404964423	0.0101363732986985	-119.839222175988
69171.88	-0.00376577465328839	0.0080590518338407	0.00889546936366376	-115.045398895688
59000	0.0123826510256886	0.0262797196373899	0.0290508814090692	-64.7708160914771
50312.5	0.0304112321325973	0.0249370450672755	0.0393280975450128	-39.3515664288099
42906.25	0.0157826431314508	-0.020591087745803	0.0259438763250615	52.5305812042265
36593.75	-0.022322485739974	0.0053394498477342	0.0229521914920517	-166.547830254864
31203.13	-0.00252326040616303	0.0129136458546781	0.013157852877174	-101.056004073994
26609.38	-0.000336178574387694	0.00446664001025723	0.00447927326863499	-94.3042121203929
22703.13	-0.00105226619344237	0.00301517660474647	0.00319351751203467	-109.238471642037
19359.37	-0.000628345964988932	0.0028423886070989	0.0029110121342041	-102.465480250016
16500	-0.000522014884438081	0.00243423562680453	0.00248957880501488	-102.103600106611
14112.02	-0.000439954945989852	0.00203135603537532	0.00207845319816364	-102.220483496818
12011.13	-0.000331025335627045	0.00175394550445121	0.0017849096911081	-100.687821394843
10236.38	-0.000282826919584818	0.00150022789422261	0.00152665477467745	-100.676247647381
8750.684	-0.000220051982359225	0.00130266475465547	0.00132112010731872	-99.5881434986484
7449.463	-0.000129457531184817	0.00112341486229106	0.00113084932913139	-96.5735260595676
6363.206	-0.00010255082342314	0.000996248873331889	0.00100151309976446	-95.8771531553656
5414.761	-4.34217863153862E-05	0.000879111987682375	0.000880183695834952	-92.8276998823408
4620.567	6.18741304953064E-06	0.000795656933151345	0.000795680990945523	-89.5544492945379
3941.215	8.98795346394941E-06	0.000711353708598917	0.000711410487724846	-89.2761063976634
3361.769	3.1050771816113E-05	0.000637294139155672	0.000638050131441523	-87.2105935462168
2867.244	5.33315802473981E-05	0.000530931172638253	0.000533603005548802	-84.2639289016385
2442.658	9.51656724517872E-05	0.000464348524793859	0.000474000060855939	-78.4179259263596
2083.003	7.78734794860833E-05	0.000405374801201112	0.000412786879946674	-79.1258152822438
1777.843	0.000117698062032594	0.000345340189033206	0.000364846104498484	-71.17997928359
1513.548	0.000126423018755838	0.000313185737807923	0.000337739671992546	-68.0176533249245
1292.065	0.00012549446391531	0.00026741406301917	0.000295396583551354	-64.8598537328404
1101.762	0.000118017749418203	0.000199652987962769	0.00023192564493863	-59.4120564251775
939.101	0.000134941211232151	0.000166491602253822	0.000214309552073268	-50.9752815397659
801.2801	0.000154413232524597	0.000136494567282775	0.000206092729799979	-41.4752803330859
684.3433	0.000137380806371544	8.45605441445316E-05	0.000161319470571022	-31.6131010449479
582.9476	0.000129943027149028	7.76308133080446E-05	0.000151366223047025	-30.8550205862103
497.0677	6.14020722356528E-05	4.40579837989057E-05	7.55732784207286E-05	-35.6606697154023
423.5089	-3.87085384284942E-05	-0.00015806351487157	0.000162734217916286	103.760479458571
361.5036	6.1266505151895E-05	-6.56301619282811E-05	8.97825306407631E-05	46.9694814925765
308.1262	7.30633605210438E-05	-4.47806102775103E-05	8.56945605476467E-05	31.5041760385155
262.7298	2.89963671402439E-05	-7.07639520237138E-05	7.64743500354615E-05	67.7180536938505
224.2111	5.45409711379848E-05	-6.74038098338157E-05	8.67063498988839E-05	51.0213416169165
191.2854	-2.47237643801536E-05	-7.89610340582853E-05	8.27412196228642E-05	107.386041794599
163.1722	-2.35492793886593E-05	-7.50912657040895E-05	7.86973109119194E-05	107.41188219116
139.1537	6.80604494435264E-05	-2.71372405121229E-05	7.32711034519586E-05	21.7382880374271
118.6706	-4.14217308219777E-05	-8.78992944289488E-05	9.71701895922582E-05	115.231724770664
101.1982	-6.43094453350207E-05	-6.41586866529572E-05	9.08407498446064E-05	135.067237159196
86.24196	7.04461270077402E-05	-2.70124274949299E-05	7.54475185116085E-05	20.9792220912819
73.61024	-2.88150010150082E-05	-8.333866414813E-05	8.81795737429578E-05	109.073230613921
62.69291	-8.49377795016414E-05	-5.59410538367342E-05	0.000101704610962502	146.630614084747
53.57697	-6.66880474035726E-05	-4.41802763297402E-05	7.99949528599983E-05	146.475858184282
45.65746	-2.078568557666E-05	-5.16492108855692E-05	5.56748211491853E-05	111.921804883973
38.96512	-1.69348451445824E-05	7.9108684465789E-05	8.09010070269756E-05	-102.082973625987
33.18414	-1.01605231291975E-05	-8.36953934304457E-05	8.4309875529122E-05	96.9217698074481
28.30617	2.38928063542812E-06	-7.82682863185273E-05	7.83047463771756E-05	88.2514859726309
24.17237	9.19490934074752E-05	-5.34607776802103E-06	9.21043773441758E-05	3.32752859860901
20.61345	-9.85230380238818E-06	-6.93566505228961E-05	7.00529290035021E-05	98.0849314273432
17.55618	1.28117258699746E-05	7.32406330221713E-05	7.43527447055974E-05	-80.0778419546331
14.98558	-7.04671833329251E-07	7.93915360374253E-05	7.93946632764098E-05	-90.5085386149898
12.76553	1.60114247013687E-05	9.14918831626294E-05	9.28823471151103E-05	-80.0735447711697
10.8809	3.01300018222384E-05	-6.24499915862675E-05	6.93384342117196E-05	64.2442678777519
9.278505	1.52002703068244E-05	-8.86809954718683E-05	8.99742584036237E-05	80.2737935205679
7.923394	9.11012713974948E-05	-3.96065901647409E-05	9.93384297979274E-05	23.4971596064977
6.75822	6.27898222992788E-06	7.53158479671593E-05	7.55771299591087E-05	-85.2343475192515
5.761429	-1.8222419617499E-05	7.73474416557322E-05	7.94649816422499E-05	-103.256677669312
4.919708	6.63546861707488E-05	2.93932052650568E-05	7.2573444816767E-05	-23.8919561752326
4.191257	6.5283178712536E-05	4.70622636327894E-05	8.04782584370156E-05	-35.7876142444915
3.564097	-7.68781486220302E-06	-7.83989461416685E-05	7.87749786003129E-05	95.6005291318764
3.051758	5.45398336580571E-05	-3.62960880381107E-05	6.5513353313037E-05	33.6436405525797
2.604164	5.27564683065198E-05	-3.48718694152669E-05	6.32399575007151E-05	33.4645855120234
2.214424	-2.72223441016915E-05	6.4167690305094E-05	6.97032890004579E-05	-112.988480411168
1.892567	-9.06025152673349E-06	6.69181682468952E-05	6.75287301764771E-05	-97.7105608040047
1.607507	5.11771028880522E-05	-2.56867007015465E-05	5.72617014499666E-05	26.6528908209413
1.376413	7.06469871130346E-05	-5.76458958709696E-05	9.11813911876538E-05	39.2134492227157
1.17375	5.29385719665093E-05	5.12387818534073E-05	7.36743182369159E-05	-44.0652271839937
1.001604	0.000143791628034214	-6.80969436982916E-05	0.000159101307454647	25.3413331321073
