EC-Lab ASCII FILE
freq/Hz	Re(Z)/Ohm	-Im(Z)/Ohm	|Z|/Ohm	Phase(Z)/deg
6999984	1.18314027360888	4.57506055264596	4.72556874539059	-75.500596720892
5969734	5.80535740921838	4.84241927151061	7.55984120533389	-39.832478554153
5091109	3.59292194434924	10.4916663316948	11.0898219333677	-71.0959836708238
4341796	7.23100532191078	13.2118466314358	15.0612193854974	-61.3075726988088
3702781	19.3517788141449	1.98022749768468	19.452831264733	-5.84262252428754
3157797	25.2048796583225	8.64016735162648	26.6446702072785	-18.9215816799404
2693047	1.1062894611014	-0.838004770404897	1.38785026820814	37.1436162694938
2296687	2.70521403060147	-6.91023735316992	7.42088695699563	68.6206914042996
1958656	-4.65000167625674	-17.8814928520438	18.476209086468	104.576657837734
1670375	6.90474613395435	-31.3710039170773	32.1218835988744	77.58713712342
1424531	14.346755788789	-23.7920364909089	27.7829156505917	58.9097443261863
1214875	31.0773314214835	-11.7987173329468	33.2416945865205	20.7896017089834
1036062	17.698372705374	-8.62009443869528	19.685995645391	25.9686646219961
883578.1	27.8861517603335	-3.26285299659226	28.0763898975228	6.67361759203348
753531.2	11.7304716230014	-3.57589613366544	12.263400737838	16.9532252818141
642624.9	17.9552193673729	2.0416829273863	18.0709261441262	-6.48722296212153
548046.8	13.3027580297938	-11.5510814459962	17.6179128664914	40.9685106224486
467390.6	17.4280139787022	8.85541309192246	19.5487598652813	-26.9357486252415
398593.7	9.97138496557265	8.99974304441242	13.4321961345529	-42.0680510087724
339937.5	6.67070616188166	-4.15575437682821	7.85930118640918	31.9223149078241
289906.2	4.54203453447976	8.36067124631085	9.51477279819627	-61.4864501224487
247234.4	7.39154533746039	-1.12119819461203	7.47609710125101	8.6252493521199
210843.7	5.6382919547942	3.07357605500517	6.42162019535554	-28.5959224845228
179812.5	3.14972071714198	0.00875713752877647	3.14973289081012	-0.159298481751971
153343.8	7.13033002187245	3.22247911789108	7.82470305417782	-24.3200988876441
130781.2	5.61292935538457	-6.66395826773006	8.71282478548637	49.8931819887259
111531.3	5.03682644478112	-1.9343000576924	5.39547378346288	21.0083627247423
95109.37	88.3162366745287	117.417860423977	146.92416958042	-53.0512222230839
81109.37	296.937602984349	-125.362041067163	322.315965174882	22.888649780179
69171.88	48.6861130582817	-536.96197952408	539.164636320988	84.8191823008997
59000	300.12079344031	-656.815937297143	722.135490155944	65.4427809936065
50312.5	343.459666217747	-439.987826250371	558.170072260178	52.0239833809277
42906.25	136.680126027311	279.655157658776	311.269118378288	-63.9531480220459
36593.75	2.40204270736009	-3.91868126036191	4.59628893655451	58.4928602344492
31203.13	57.4182442743819	-76.5350599725198	95.678995503453	53.1219825107826
26609.38	4.1064523689098	-0.207520940303996	4.11169259536624	2.89300027157077
22703.13	13.5847756108507	5.87321721200698	14.8000273248592	-23.3806715571696
19359.37	1.42218244238707	-1.98345459560172	2.44063414551375	54.3586087791693
16500	0.782491130319943	-0.0801092053464968	0.786581117120561	5.84541282874983
14112.02	0.296026653621947	0.485251051163191	0.568419178344283	-58.614785653253
12011.13	0.523098551591742	0.228319010607341	0.570755346258004	-23.5800264924075
10236.38	-0.507999017713443	-0.0373892994401331	0.509373106583422	175.790556222796
8750.684	-0.161525916317142	0.551879733661724	0.575032053079329	-106.313865872571
7449.463	-0.494824991232501	0.0617212870366181	0.498659492260702	-172.890014680726
6363.206	-0.122275682878041	0.510627898959772	0.525063990213919	-103.466552109668
5414.761	-0.52301540507479	0.0417536825444877	0.524679410641939	-175.435608868713
4620.567	-0.542298407493296	0.0363577648353351	0.543515822983643	-176.164411184119
3941.215	-0.549146602913998	-0.0322056649260803	0.550090171104079	176.643633083966
3361.769	-0.44848346993472	0.160007687720229	0.476172114822215	-160.364870800269
2867.244	-0.522620160828104	0.0255721429406402	0.523245417560986	-177.198714595889
2442.658	-0.531714929942215	0.029017136825541	0.532506113535804	-176.876311244569
2083.003	-0.519253264978765	0.0333374356739905	0.520322340293424	-176.326500944362
1777.843	-0.513129733366303	0.0292655193109824	0.513963611440649	-176.735764697423
1513.548	-0.140333226890866	0.520630109202047	0.53921157737695	-105.085272472472
1292.065	-0.140918772692092	0.481976176983562	0.502154493833058	-106.297708462748
1101.762	-0.130534833786915	0.499722049352159	0.516489563728542	-104.639396716301
939.101	0.427452404561728	0.284660580269496	0.513563242575799	-33.6615053766319
801.2801	0.415490295074431	0.274543475573589	0.498002314533842	-33.4555270492823
684.3433	-0.140883814255515	-0.442948030921183	0.464813088473351	107.643758210849
582.9476	-0.105829546006696	0.450826917324752	0.463081852583884	-103.210726454143
497.0677	-0.11548816742726	0.519251136506738	0.53193915025992	-102.539219918249
423.5089	0.362704672186266	0.245391792267978	0.43791758464149	-34.080744324907
361.5036	-0.587043397811065	-0.0237592492739543	0.587524001926409	177.682348270759
308.1262	-0.122827291336188	0.465801135996408	0.48172320038849	-104.772093741654
262.7298	-0.556739684858166	-0.0960225321315683	0.5649596475616	170.214301777465
224.2111	0.457843289674369	0.372535781262221	0.590257050970593	-39.1343982357215
191.2854	0.424254388039346	0.29440478898804	0.516397100640324	-34.7581179486225
163.1722	-0.135843438164651	0.56779125993045	0.58381534284892	-103.455035657986
139.1537	0.383951106978457	0.311502584849425	0.494421189794547	-39.0526944541358
118.6706	0.550947889088869	-0.30285486696366	0.628700761042213	28.7975004960057
101.1982	-0.108358099140606	-0.49413696349052	0.505878262368523	102.3684784953
86.24196	0.651829609389329	-0.18518558761697	0.677624926886318	15.8599129467234
73.61024	0.287631084712938	0.645076125384811	0.706296572577428	-65.9685270664186
62.69291	0.72262511245241	0.497096461977981	0.877092894543038	-34.5242251174942
53.57697	1.09917760833039	-0.396439786539951	1.16848445390033	19.8328252164724
45.65746	1.06842208362756	0.483018806841424	1.17253269316705	-24.3270660544329
38.96512	0.858192451321689	0.0188129692514402	0.858398631940653	-1.25581519790348
33.18414	-0.344701872263514	-0.602452451912743	0.694095337513262	119.77665518476
28.30617	1.20340863693068	-0.430493922610002	1.27809129753844	19.6835926291526
24.17237	-1985.35190277097	5391.15077002058	5745.09606559628	-110.216797077223
20.61345	6393.0171690664	-6504.60419647243	9120.33685105679	45.4956965336292
17.55618	6019.69433464215	-3811.51675553272	7124.9126212347	32.3409465208364
14.98558	2942.90433391387	1816.33310750546	3458.28741951699	-31.6824976930941
12.76553	3693.80604099172	-2198.79190937776	4298.70782087036	30.7638400826931
10.8809	7256.96398027851	7781.47571943019	10640.2486147242	-46.9975564245379
9.278505	13735.6844012539	1775.3553940987	13849.9426983005	-7.36472501409824
7.923394	10614.0042322683	6293.91022143171	12339.7889657017	-30.6671649139207
6.75822	15791.3267310848	-15525.2309464514	22144.9496695866	44.513171317805
5.761429	4404.13623866283	-5674.76302838102	7183.26885456638	52.1852595411011
4.919708	-2747.52547191964	-10721.5439943814	11067.9899639593	104.373429707802
4.191257	-2035.69473404741	14491.2047066512	14633.491275164	-97.996466743775
3.564097	12670.1518228865	2222.93423787747	12863.6769176205	-9.95106796047467
3.051758	-1523.68187610565	8606.51179246696	8740.34619986221	-100.039519649652
2.604164	4878.77946150456	9959.32221395456	11090.1121723528	-63.901123454248
2.214424	3406.06607208442	5779.94824740164	6708.88126516232	-59.4895776148587
1.892567	3811.70300153279	5580.42521768169	6757.97494683369	-55.6650155774251
1.607507	5071.22584886029	-163.468214398988	5073.85981943408	1.84625909198391
1.376413	4476.06557823143	1874.53052680997	4852.73404964364	-22.723437399953
1.17375	3020.70110944681	477.445155887282	3058.20029911277	-8.98173796267235
1.001604	-1835.42606688885	2107.84319755159	2794.9582809909	-131.048052817912
