EC-Lab ASCII FILE
freq/Hz	Re(Z)/Ohm	-Im(Z)/Ohm	|Z|/Ohm	Phase(Z)/deg
6999984	-0.462658101254781	0.350569684870995	0.580475341945916	-142.847717538175
5969734	-0.900012736433995	0.45336962062175	1.00775341162713	-153.263918366315
5091109	-0.795499978772155	0.434309578745859	0.906336044972782	-151.367313472873
4341796	0.262542947902968	0.792869496167172	0.835207062617388	-71.6787390442514
3702781	101.536655964295	-678.769204702478	686.321590624138	81.4922455676931
3157797	659.728641469135	-611.199146817904	899.3365762859	42.8132628354313
2693047	-20.1102738935505	1.20000670763734	20.1460450752001	-176.585134093084
2296687	-17.8429694341452	0.128608169778694	17.84343291772	-179.587031869113
1958656	-15.2052844935294	-0.176034175355445	15.2063034482434	179.33670660842
1670375	-3.86700446266168	11.9823596085772	12.5908961278976	-107.886176653969
1424531	-9.55309260578258	0.73003675914924	9.58094630004609	-175.630013448601
1214875	5.49424987704663	2.1053337963053	5.88380931924992	-20.9662617859561
1036062	4.22044334109696	2.61369700263009	4.96422743404925	-31.769701869513
883578.1	3.10231119949798	3.47378575023844	4.65741583038172	-48.2331227210036
753531.2	2.1708936129829	4.71184100697217	5.18789213013094	-65.2629868374945
642624.9	1.45908353806037	6.12545547904268	6.29683488720903	-76.6018216031335
548046.8	0.969479967020369	7.37101513566097	7.43449766538378	-82.5071257102083
467390.6	0.821698689467604	8.30796330023593	8.34849944207579	-84.351534148514
398593.7	0.843461439937111	9.00297230285412	9.04239666717952	-84.6477533285966
339937.5	8.85169341494754	4.36082262993152	9.86758584061717	-26.2273493369197
289906.2	3.29774424094714	0.936537495102224	3.42815104078458	-15.854194827928
247234.4	3.11461387427271	1.29239330336966	3.37210617217293	-22.53575934458
210843.7	1.97869181740453	-3.18547048096245	3.749992465772	58.1530389661571
179812.5	1.8370678149952	0.889803513139104	2.04121739383288	-25.8437254451898
153343.8	0.563048573032211	2.19177455497068	2.26294043125543	-75.5927283343491
130781.2	1.71819441057262	-0.99376715221835	1.98488417429108	30.0441764441191
111531.3	1.3977295029192	3.10371478934487	3.40392321548662	-65.7560170202045
95109.37	0.749380731551175	-1.1436468047708	1.3672964180757	56.7649627637834
81109.37	1.12395930897129	0.745524457262077	1.34873690710944	-33.5563962691151
69171.88	2.05060797571536	-0.974201813593371	2.270255986376	25.4114345183416
59000	1.44628509317581	-0.761064852314281	1.63430727838149	27.7542646722095
50312.5	2.43068109975944	-1.05257220598969	2.64879573722659	23.4143442867895
42906.25	2.35025579256806	-0.188779611621956	2.35782527602532	4.5923100130485
36593.75	1.48978099629918	1.6302187336742	2.20840678692954	-47.5772636624953
31203.13	2.00258452809462	0.0423781691639301	2.00303287576256	-1.21229733448991
26609.38	0.0789147206411933	-0.106645239532765	0.132667781502814	53.4995158611502
22703.13	0.0626131552293093	0.0163408825006123	0.0647103673971057	-14.6268848532901
19359.37	-0.000187757054633111	-0.0194688507281519	0.0194697560690068	90.5525417736558
16500	4.78916896374034E-05	-0.00249973973704798	0.00250019846550489	88.902423323679
14112.02	-0.000105776215839762	-0.00205790836417811	0.00206062501275502	92.942406032926
12011.13	-0.000125470968504138	-0.00173720253883234	0.00174172777002117	94.1310642747044
10236.38	-0.000116164382031199	-0.00146003160235697	0.00146464550097754	94.5490369862523
8750.684	-0.000106309721044364	-0.00122240125060001	0.00122701531133764	94.9703901487916
7449.463	-9.69295021213139E-05	-0.00102700857667994	0.00103157255922967	95.3916287197717
6363.206	-8.46539938649099E-05	-0.000864229303738419	0.000868365469210673	95.5944557792481
5414.761	-6.78534117759365E-05	-0.000729421384533128	0.000732570571142371	95.3145658963266
4620.567	-5.41462554462011E-05	-0.00062650497815017	0.000628840444489531	94.9395650194135
3941.215	-4.80737383573529E-05	-0.000554741984879338	0.000556821114997912	94.9528576402605
3361.769	0.0104517828282305	-0.005740885072644	0.0119246604021163	28.7788163423065
2867.244	0.0270954783407915	-0.00141911567947591	0.0271326157203473	2.99810594134075
2442.658	0.0295267232843269	-0.00271576958431541	0.0296513539715188	5.25508925580639
2083.003	0.0405098184687602	-0.00463885747236836	0.0407745556814646	6.53259548991794
1777.843	0.0493778902956363	-0.00611198603811103	0.0497547226238671	7.05617005268643
1513.548	0.0550529847055942	-0.0075589616788539	0.0555694972683465	7.81802057371599
1292.065	0.0597072621655232	-0.00830871080062813	0.0602825997321863	7.92225878538414
1101.762	0.0628366497156919	-0.00917142401638111	0.063502437480626	8.30406067132546
939.101	0.0659357001453878	-0.00936187026575412	0.0665970057024736	8.08111706366211
801.2801	0.0676905637056076	-0.00820696579424175	0.0681862647630062	6.91293633348168
684.3433	0.0703269830388232	-0.00883876117417768	0.0708802387301078	7.16342775193492
582.9476	0.0737233228293677	-0.00848844383638467	0.0742103901604528	6.56806730701448
497.0677	0.0781729214165906	-0.00677993176264765	0.0784663820850089	4.95685498315828
423.5089	0.0829294201004493	-0.00484236972364875	0.0830706763108217	3.34178951812981
361.5036	0.0854277905582224	-0.00360383870410074	0.0855037721569329	2.41563532793737
308.1262	0.0870362105306709	-0.0031088585210052	0.0870917157073099	2.04568621990391
262.7298	0.100379384033201	-0.000479607111567965	0.100380529794709	0.273753963301792
224.2111	0.114638391517809	0.0019932179148384	0.114655718250101	-0.996101450779814
191.2854	0.126739142604927	0.00314233083224297	0.126778091606126	-1.42028273299579
163.1722	0.140899564072082	0.00310608861604587	0.140933796309449	-1.26286372469918
139.1537	0.15009852835851	0.00173029089389514	0.150108501164884	-0.660459336645407
118.6706	0.158609594547387	-0.000722150032861875	0.158611238514666	0.260866079841237
101.1982	0.176227070235696	-0.00414002509524881	0.176275693422678	1.34577702019036
86.24196	0.187089631950919	-0.00752861394765965	0.187241048948951	2.30437781032107
73.61024	0.19574736312466	-0.0112672717010333	0.196071368592771	3.29432569438118
62.69291	0.192126932357448	-0.0147835865070853	0.192694869073092	4.40006662996384
53.57697	0.207585806786931	-0.0185208501035588	0.208410386180583	5.09844202165983
45.65746	0.214433466127501	-0.0218924814213147	0.215548120238235	5.82938719922002
38.96512	0.217161363208788	-0.0241593963985092	0.218501107789045	6.34810307988581
33.18414	0.216612561719061	-0.0271862688312229	0.218311921588028	7.15358433701457
28.30617	0.218319161791853	-0.0302988241809864	0.220411603941915	7.90116820894537
24.17237	0.215518033380453	-0.0311757150396102	0.217761217668365	8.23101428202423
20.61345	0.231568517480358	-0.0357507593889474	0.234311961036856	8.77633259311795
17.55618	0.249451565167203	-0.0408469242612115	0.252773722103324	9.2994774375401
14.98558	0.262183403018885	-0.0460428439009444	0.266195567756208	9.96032695844399
12.76553	0.258574123982586	-0.0464621297801332	0.262715258592012	10.1865421551175
10.8809	0.242408710785269	-0.0448834524242515	0.246528917910448	10.4898660118598
9.278505	0.254359198933718	-0.0467006493635481	0.258610813256483	10.403704618628
7.923394	0.250523379430771	-0.0466483071338394	0.254829409997879	10.5478722590388
6.75822	0.271422406663649	-0.0522308182823027	0.276402209140098	10.8924891840762
5.761429	0.267232120781285	-0.0510089769135901	0.272056836163024	10.8065627035404
4.919708	0.263003387034801	-0.0502405363103648	0.267759020539981	10.8147044338092
4.191257	0.256130305733119	-0.0484444117255816	0.260671430238104	10.7103860080497
3.564097	0.276580661201081	-0.0539611418253765	0.281795434628607	11.0397794444705
3.051758	0.287288176919742	-0.0576071119552331	0.293006955456166	11.338594123365
2.604164	0.302880904035341	-0.0618825330741535	0.309137978787691	11.547351296021
2.214424	0.290960873025564	-0.0592398186754985	0.296930270852441	11.508160982834
1.892567	0.279763895246522	-0.0566521753205782	0.285442298988886	11.4475936143107
1.607507	0.25276700995355	-0.048581522033116	0.257393328592471	10.8795116900165
1.376413	0.302047021225269	-0.0622540621694285	0.308395802966988	11.6459917100307
1.17375	0.22822066709958	-0.138464316184044	0.266940142630689	31.2457090475541
1.001604	0.320750621302612	-0.200524623636763	0.378273823771454	32.0125099239336
