EC-Lab ASCII FILE
freq/Hz	Re(Z)/Ohm	-Im(Z)/Ohm	|Z|/Ohm	Phase(Z)/deg
6999984	3.50494165095523	108.955991398711	109.012351032589	-88.1575208942295
5969734	14.0087727313801	96.1990451990607	97.2136925059962	-81.7146677837629
5091109	13.9138033359344	91.2354267963928	92.2902867369639	-81.3289525960808
4341796	13.3693630893077	93.0000509154241	93.9561032593691	-81.8194044687128
3702781	13.6051666908864	104.789290812714	105.668803483897	-82.6024658873181
3157797	17.0923900856626	110.262538037531	111.579465374765	-81.1884060489352
2693047	12.2782822149531	128.075664817375	128.662862289639	-84.5239371490688
2296687	20.6371081930608	145.928891142097	147.380906173541	-81.9506690995773
1958656	16.5698776496395	166.285442584401	167.108974207892	-84.3094217505718
1670375	26.0806649818325	185.987874117397	187.807588783317	-82.0175905700486
1424531	22.9849760481075	202.568699380269	203.868553466556	-83.5264749235256
1214875	25.883470646826	251.984951606613	253.310816762554	-84.1352425808521
1036062	35.2566309692062	271.155384494229	273.437876980334	-82.5917515765491
883578.1	21.9514727842375	313.280686074003	314.04881057631	-85.991855020194
753531.2	38.9178377285225	385.310968275812	387.271404014171	-84.2324735186858
642624.9	27.698070782246	446.984893325429	447.842246763527	-86.4541173693055
548046.8	125.136810657627	624.100936526784	636.522741428122	-78.6621205386444
467390.6	149.334461820217	707.184147342021	722.779495931501	-78.0761566015641
398593.7	174.058121848437	800.64173749336	819.343286783868	-77.7348456430047
339937.5	198.795233311573	907.98385850439	929.491383549048	-77.6504489597819
289906.2	222.339885391507	1032.52019124104	1056.18794253501	-77.8476610328659
247234.4	244.466462436942	1173.85091307354	1199.03703753471	-78.235725347508
210843.7	266.632669086122	1342.81932711106	1369.03496138228	-78.7693209421134
179812.5	288.380586029451	1540.62913874843	1567.386839794	-79.3978556433719
153343.8	308.56907867636	1772.85948574831	1799.5126097149	-80.1264860714398
130781.2	332.435118797174	2044.05775131443	2070.91409742613	-80.762583815594
111531.3	354.949703981237	2364.34282851158	2390.83799181176	-81.4621652834487
95109.37	378.761771584138	2739.17937722456	2765.24214856961	-82.1273119878161
81109.37	412.232461224053	3170.91171168304	3197.59545367695	-82.5928401963599
69171.88	437.601171037415	3678.94104461739	3704.8754357824	-83.2166766436983
59000	454.731438965249	4250.95600052686	4275.20848614412	-83.8941992364405
50312.5	325.682381408372	4886.76989032837	4897.61053724975	-86.1871190367746
42906.25	1860.54782975547	6790.47919655861	7040.75606349937	-74.6773709608481
36593.75	1969.72021402545	7486.59123455234	7741.37236120421	-75.2595533764805
31203.13	2071.65714487007	8490.89050925177	8739.96481491734	-76.2885282807559
26609.38	2204.45847651962	9713.24727914605	9960.26153675381	-77.2131102747585
22703.13	2291.1511828385	11221.3589111906	11452.8716729203	-78.4600956200813
19359.37	2476.66223569325	12867.954863662	13104.1259992016	-79.1056471678552
16500	2623.13826950969	14885.399750793	15114.7603395447	-80.0058211597852
14112.02	2765.98968351359	17189.8988475805	17411.0114961582	-80.8590126125145
12011.13	2995.19195016069	19984.6505015252	20207.8556627471	-81.4762600452089
10236.38	3285.33729816458	23244.6529700491	23475.6753440816	-81.9552527619383
8750.684	3465.05724256953	26909.2957646747	27131.4728727547	-82.6625118642478
7449.463	3863.53340576865	31353.1239316877	31590.2717723868	-82.9750603414917
6363.206	4187.47297217116	36402.7694927334	36642.8240810359	-83.4380102399574
5414.761	14907.508631606	49586.9049364317	51779.2907905865	-73.2674364185901
4620.567	16367.0982934245	56005.6920928764	58348.2600713054	-73.7095306533131
3941.215	24062.9799338378	50946.6268571161	56343.4627211933	-64.7178174954275
3361.769	28832.0830374794	66471.8876835849	72455.509552409	-66.5512824398461
2867.244	20714.791242904	82473.9616472166	85035.6215125382	-75.9008077407909
2442.658	22242.2435091937	94907.1851181924	97478.6704022018	-76.8103209447816
2083.003	23770.5735803993	109226.428471466	111783.061529793	-77.7223551630708
1777.843	25025.312284844	125329.38336949	127803.445144216	-78.7078998664753
1513.548	28467.2688941178	145890.431344402	148641.862731014	-78.9587407891836
1292.065	31009.5189592348	168909.934527692	171732.80481094	-79.5971303645184
1101.762	34284.3663410363	195704.741397764	198685.086458376	-80.0635180097549
939.101	37441.1865695561	226759.990903279	229830.232837613	-80.6242718038494
801.2801	42855.8376073383	264997.796111635	268440.784459162	-80.8135770593606
684.3433	130329.389954227	382838.276392587	404414.26255399	-71.1999182148605
582.9476	148879.173210588	430340.360424301	455365.604790245	-70.9165905851684
497.0677	180888.842400031	475534.402982274	508776.711067371	-69.1736529723804
423.5089	193947.264767652	533916.270234248	568051.164184798	-70.0362409329499
361.5036	217587.401925493	600118.723223232	638346.895848776	-70.0706756964372
308.1262	239428.762209182	678375.630220122	719388.37066606	-70.5598097661404
262.7298	273475.021110291	777394.505794964	824093.929604794	-70.6189390105979
224.2111	281213.612344196	882996.497901427	926695.15541728	-72.3345465365581
191.2854	380994.265756542	1023127.93269082	1091763.43462838	-69.5755828656647
163.1722	335256.058060494	1163791.47394602	1211118.1690057	-73.9297756297614
139.1537	379076.875452587	1245200.83226835	1301623.75139081	-73.0681616974436
118.6706	470847.736818378	1445293.0413286	1520055.77745682	-71.9554203635201
101.1982	463634.457882104	1695262.00353658	1757518.18516068	-74.7042999772192
86.24196	783060.347013049	1990859.12531776	2139323.15556234	-68.5289035655197
73.61024	711273.545869148	2047428.50995597	2167457.85666845	-70.842850916935
62.69291	744705.568124563	1071936.52202828	1305233.42374221	-55.211164248746
53.57697	868483.967394012	2622067.28267345	2762155.17965356	-71.6740407903313
45.65746	932178.526321864	2638728.01478047	2798542.89603052	-70.5433085816406
38.96512	1814390.65033898	3141720.30246255	3628004.94637795	-59.9929210378812
33.18414	1392215.5353019	4133137.01866402	4361316.96988271	-71.3842960333337
28.30617	2720538.40001159	3454599.7267535	4397225.08612226	-51.7791470559124
24.17237	3344027.20474031	5879638.73968646	6764071.97295129	-60.3710731826675
20.61345	1930360.5955488	5672583.07562074	5992035.6122662	-71.2067364126226
17.55618	1853963.55778151	6993050.07291578	7234634.07477457	-75.1516081278778
14.98558	4691895.78072669	5748781.38939229	7420402.51470391	-50.7802295175695
12.76553	3059631.68984624	6340242.08460552	7039887.48268851	-64.2392831449342
10.8809	2586262.93672462	6197337.2022052	6715336.50502431	-67.3483240286526
9.278505	5698115.52713745	2199286.26805523	6107813.08239383	-21.1049576794234
7.923394	8410537.73478532	1141951.22774345	8487708.61863156	-7.73212274106997
6.75822	5420137.90413697	1147362.02721859	5540246.79246019	-11.9522147332163
5.761429	6261646.47678012	2755536.46168593	6841140.09444723	-23.7526529465024
4.919708	7160742.5493378	4997197.09068359	8732022.2526648	-34.9096538262787
4.191257	8114165.61603244	771413.320393928	8150752.24474921	-5.43078447185207
3.564097	8528138.93290853	1924187.81539662	8742519.79739887	-12.714632482463
3.051758	5331271.35797303	5010929.31113801	7316547.46814135	-43.2258726620168
2.604164	8879828.09076898	7133921.25822412	11390530.2528088	-38.7778752477013
2.214424	9043831.34528055	6599963.94832092	11195999.7106562	-36.12104130379
1.892567	6403480.33693356	7524935.83395686	9880749.95790617	-49.6032768035456
1.607507	12768433.1126693	-12885140.659965	18140003.6929377	45.2606577869106
1.376413	3976053.02992359	10509947.3263508	11236903.0653216	-69.2777021079762
1.17375	9285354.41471045	-12910800.3019778	15903036.5353392	54.2765841412184
1.001604	30555679.9955653	-11590730.82812	32680186.9811254	20.7733125188678
