EC-Lab ASCII FILE
freq/Hz	Re(Z)/Ohm	-Im(Z)/Ohm	|Z|/Ohm	Phase(Z)/deg
6999984	9.30121698747488	9.28144941966769	13.1399368635447	-44.9390508469257
5969734	12.5694563229046	-3.86262262808562	13.1495659936138	17.0823126730571
5091109	11.8084292129183	-6.86148952510881	13.6571973325305	30.1594612820773
4341796	7.44320802804535	-7.43187821712758	10.5182774056865	44.9563599019166
3702781	5.96518940451734	-4.42065369691811	7.4246659008902	36.5412256324271
3157797	3.88905665986706	-4.63507280008453	6.05050919888068	50.0016772768119
2693047	2.78807306551178	-4.51682102657061	5.30801503433276	58.3144411770454
2296687	1.79684570610792	-3.4105520841287	3.85493450140377	62.2175442690356
1958656	1.59853597726877	-2.8915031237205	3.30395332671453	61.0644667063348
1670375	1.28718377220079	-2.3485359931677	2.6781455103525	61.2737681888961
1424531	1.05342714350923	-2.13125075507229	2.37738060219188	63.6978953243151
1214875	1.11701581349399	-1.77575035482818	2.09785930182842	57.828515670995
1036062	0.768708540430105	-1.56323976003924	1.74201933614346	63.8147787145218
883578.1	0.669961256590824	-1.34923043781253	1.50640992417488	63.5932732309242
753531.2	0.709695018726414	-1.05914258286894	1.27493138264433	56.1753204376583
642624.9	1.99624212072805	-0.163398067320727	2.00291825419136	4.67938985762586
548046.8	0.593823419902205	-0.921370987774295	1.0961527042965	57.1982277188834
467390.6	0.524785949311521	-0.786502352586866	0.945508457508164	56.2871904471576
398593.7	0.484382995635212	-0.676369480656234	0.831927016524722	54.391599689013
339937.5	0.444345774453103	-0.584255370052326	0.734028272418242	52.7457956112335
289906.2	0.472635015045892	-0.318824575443958	0.570116626098951	34.0023522393772
247234.4	0.205320289882537	-0.277391914229493	0.345112583829323	53.4918496858513
210843.7	0.282975553632255	-0.14231552635079	0.31674733304952	26.6989738164037
179812.5	0.214966383225836	-0.190490864685799	0.287223459080105	41.545519229191
153343.8	0.253254290186226	-0.315199640786221	0.404337172480458	51.2190750815941
130781.2	0.323866262552874	-0.270102491671773	0.421716388141684	39.8279006213699
111531.3	0.342726264211276	-0.215730952820686	0.404970537428513	32.1885913135332
95109.37	0.334106943204422	-0.18848035879422	0.383604347145078	29.4287280989013
81109.37	0.329034629979187	-0.159440193900441	0.365629543604658	25.8534198910835
69171.88	0.323168288367653	-0.139387511669277	0.351946900847033	23.3312883248073
59000	0.315104833393891	-0.117007031498511	0.336127507723312	20.3713367889599
50312.5	0.312916704544589	-0.0779346151181392	0.322475841291496	13.985470060797
42906.25	0.340298177085519	-0.0989092176140493	0.35438098517944	16.2067472184279
36593.75	0.323986944844207	-0.0892379081509758	0.336051996989521	15.3995127104461
31203.13	0.317827977651954	-0.0783556067653778	0.327344198802883	13.8492206971149
26609.38	0.314329174767866	-0.0694934064660377	0.321919498714355	12.4666907261981
22703.13	0.311684784510696	-0.0617677635837275	0.317746221871503	11.2092890081599
19359.37	0.308516008216697	-0.055178372715947	0.313411518839919	10.1401898694915
16500	0.306772593727768	-0.0498860949007246	0.310802263065935	9.23635467725053
14112.02	0.304954796823242	-0.0449082135892689	0.308243695399085	8.37727321838728
12011.13	0.301395541744698	-0.0368436802259822	0.303639143320117	6.96946434954929
10236.38	0.299416514361043	-0.0353902420275528	0.3015007766207	6.74093440338341
8750.684	0.296598010419139	-0.0354166297786609	0.298705067666202	6.80942004863539
7449.463	0.298185680287276	-0.0264586506349412	0.299357244979652	5.07069654043062
6363.206	0.299209422076524	-0.0293516731819305	0.300645636884932	5.60264258954377
5414.761	0.295090225972563	-0.0305571433180614	0.296668131878534	5.91201344285584
4620.567	0.298325442597617	-0.0199531712342546	0.298991971034955	3.82646654914468
3941.215	0.287184775781738	-0.0187464627402142	0.287795978613456	3.73477840502107
3361.769	0.291725458107732	-0.0152872566036179	0.292125731702346	2.99972053640743
2867.244	0.293622429210357	-0.00928726033685618	0.293769270244448	1.81165817073596
2442.658	0.282251757182855	-0.0217568912228129	0.283089061513317	4.40783020808786
2083.003	0.281547900138003	-0.00622046408727667	0.281616608611033	1.26567580155769
1777.843	0.280151919039859	-0.0188443721492806	0.280784985537718	3.84819425465163
1513.548	0.292470063208862	-0.0180069750975509	0.293023871084865	3.52317420508115
1292.065	0.288333570573626	-0.00731451804288195	0.288426333912033	1.4531819695922
1101.762	0.275004314853772	-0.0147739313426989	0.275400875516966	3.07511891745767
939.101	0.275175092559476	-0.00979866284107724	0.27534949674657	2.03937394387495
801.2801	0.274237223185996	-0.0142682971984569	0.274608155169705	2.97835837797377
684.3433	0.273604573294143	-0.0145102207842697	0.273989067363423	3.035754425101
582.9476	0.271196669305762	-0.00945471704780412	0.271361428941168	1.99669145292668
497.0677	0.27208227754683	-0.0139901451726032	0.272441718385824	2.94348816656211
423.5089	0.270662927463697	-0.0168845060778641	0.271189061078636	3.56960212113619
361.5036	0.272735863978036	-0.0161478141711042	0.273213475879852	3.38834348489978
308.1262	0.268195572524909	-0.0143402506146735	0.268578681040874	3.06065517087738
262.7298	0.265711013880991	-0.0142755802641424	0.266094222202479	3.07531429606581
224.2111	0.279328672764029	-0.0162162974394878	0.279798991654294	3.32255074128491
191.2854	0.257879034693678	-0.0221555757744154	0.258829028651037	4.91048608175613
163.1722	0.267297957342003	-0.0252602624549538	0.268488880325612	5.39854814742463
139.1537	0.254784435800504	-0.0224704820835564	0.255773398326035	5.04010861557976
118.6706	0.258619037172217	-0.00655686161062904	0.258702143056576	1.45232940839304
101.1982	0.265470013832248	-0.0290418388628852	0.267053845972365	6.24320596675326
86.24196	0.275609837848335	-0.0178968319616585	0.276190295472251	3.71530758026914
73.61024	0.257674790249762	-0.00834154914970209	0.257809772841287	1.85415387744301
62.69291	0.263815583196877	0.01089453647707	0.264040437930553	-2.36474464361605
53.57697	0.222456535098742	-0.0312411930269772	0.224639538260491	7.99418217740691
45.65746	0.207682414788438	-0.0404911556829893	0.211592814388629	11.0323711001794
38.96512	0.26837849627438	0.0337831410412313	0.270496428592152	-7.17458324020612
33.18414	0.293562732023315	-0.07921606991612	0.304062926654908	15.101230882301
28.30617	0.216079793433139	-0.0112144165437511	0.216370608605986	2.97095232551391
24.17237	0.223601539122916	-0.0702778201074744	0.234385623059938	17.4478998533962
20.61345	0.296435970539648	-0.00830763987813834	0.296552358800479	1.60529825349487
17.55618	0.227980300038557	-0.0695364050371393	0.238349174177632	16.9622608262433
14.98558	0.222692127448298	-0.0388968870467671	0.226063600452125	9.90771224411712
12.76553	0.183011725252352	-0.0435679776606248	0.188126181743209	13.390648196204
10.8809	0.317848589929176	-0.0946508719180446	0.331642147012124	16.5827966081061
9.278505	0.232333935181876	-0.148075693457115	0.275509470671883	32.5109889352753
7.923394	0.221227253413685	-0.0804818431308096	0.235412031822282	19.9912423172481
6.75822	0.356877649096042	0.0292641294023391	0.3580754748569	-4.68779171073366
5.761429	0.295605267412471	-0.229351553805069	0.374145171497372	37.8068492948254
4.919708	0.162518915113333	-0.275348057026815	0.319732623105708	59.4495851607586
4.191257	0.213450622922384	-0.204891339010437	0.295874347024955	43.8278908765167
3.564097	0.329115407690845	-0.0941565618245639	0.342319163521609	15.9652856148259
3.051758	0.262621520220484	0.0117506146022686	0.262884270785548	-2.5619068693719
2.604164	0.00630010764070982	0.267740277008091	0.267814389622092	-88.6520407672069
2.214424	0.255452275854269	-0.167278959544621	0.305349169878446	33.2181620939155
1.892567	0.219717951455786	0.0846621744348051	0.235464778622953	-21.0727746400709
1.607507	0.205089772853692	-0.201010294110711	0.287170599587864	44.4244545328069
1.376413	0.149342739370772	-0.126691812096739	0.195841949171064	40.3089158791161
1.17375	0.0792843528212524	-0.0842835519670524	0.115713982450124	46.7506116148365
1.001604	0.0564679354952943	-0.0787815960073832	0.0969286727886607	54.3683490616866
