EC-Lab ASCII FILE
freq/Hz	Re(Z)/Ohm	-Im(Z)/Ohm	|Z|/Ohm	Phase(Z)/deg
6999984	4.65720192550052	2.16557752515175	5.13607396678905	-24.9382114866092
5969734	8.72474028067285	3.81722520413294	9.52325055977543	-23.630211865683
5091109	1.051339654687	-0.194612913725846	1.06920028792843	10.4872819722038
4341796	6.63601380933084	-6.49609946142338	9.28633337169923	44.3895728622394
3702781	0.870879645557474	0.176354083554802	0.888556199591656	-11.4476566396682
3157797	2.35330590593634	-8.69436866964494	9.00722461419823	74.8546441026615
2693047	2.35759105194412	-10.9720444957957	11.2224772660018	77.8731003589697
2296687	10.2044083482282	-6.08732255500458	11.8821481907127	30.8177038450134
1958656	-1.19050044544256	-9.58531466503518	9.65896208390619	97.0799061589042
1670375	1.81120183306129	-11.2731047796602	11.4176767975488	80.8725344164796
1424531	-2.55354639095728	-8.80196778978173	9.16489149652772	106.178017579346
1214875	10.084539039035	-27.8191281288865	29.590569739044	70.074228034767
1036062	2.57513587723048	-6.5648096804691	7.05181188964796	68.5817302742307
883578.1	2.76087267497141	-7.74297238078026	8.22046465942953	70.3755465392263
753531.2	4.39944660170799	7.13594703179172	8.38313011003749	-58.3453808979825
642624.9	4.85505535150255	-7.15571801500801	8.64730378652582	55.843652358791
548046.8	5.12481616877773	7.35016041019664	8.96039055060591	-55.1143000039012
467390.6	6.2395080040012	5.07000368136373	8.03967645250956	-39.096090277539
398593.7	4.59822869307911	0.239098087186956	4.60444079223009	-2.9765776251465
339937.5	2.80660534216545	3.61819874579287	4.57912608591735	-52.1995777564015
289906.2	4.795798270896	6.77381413678135	8.29965294544223	-54.7018563350763
247234.4	2.00102280538238	3.78069624762896	4.27758768285305	-62.1089114710788
210843.7	3.96262147691895	-4.41999981039895	5.9362250035916	48.1231148243385
179812.5	3.95850117814869	3.07836942343662	5.01458770833197	-37.870791384762
153343.8	3.48810841089796	-3.23717423370042	4.75880208723908	42.8631674593872
130781.2	15.0751849492674	4.38819845244752	15.700875354982	-16.2296196936096
111531.3	2.25086032609633	1.06465293605513	2.48995142158342	-25.3140660706371
95109.37	136.91216689361	169.155881281388	217.620434738071	-51.0138244106444
81109.37	-78.3864597368292	-582.384444141979	587.636007957847	97.665698208646
69171.88	614.332667087353	-554.698358055602	827.704593608276	42.0797737252608
59000	105.862794798501	-592.826612621475	602.204553249809	79.8752440782749
50312.5	6.46514814111341	-313.260387066881	313.327094656333	88.8176828657792
42906.25	358.947233045338	-350.994303283355	502.03597186683	44.3581862342221
36593.75	4.60630541098805	-0.169214939104124	4.60941246092318	2.10384315498307
31203.13	68.68343938555	20.5180395090755	71.682667299177	-16.6326439362825
26609.38	2.67398041980626	-4.20002067500026	4.97899035507571	57.5167693346643
22703.13	-10.0123194102731	23.775720051012	25.7978953389113	-112.836703891238
19359.37	8.5947891287712	-7.55353385777678	11.4423019497225	41.3106351810771
16500	8.37319051260352	0.359309519883955	8.38089629403877	-2.45716330892845
14112.02	23.8618545197974	-7.93496586041238	25.1466058212612	18.3939104689367
12011.13	15.9767347305421	-2.8590695792235	16.2305370061791	10.1458048558837
10236.38	2.94969130968409	25.0618835515269	25.2348704370108	-83.2873796356175
8750.684	12.896193903205	-9.98176730012447	16.3078967259085	37.7401856553619
7449.463	8.35796878663911	13.2246302784161	15.6443756103985	-57.7071059142067
6363.206	1.16425963347269	-0.656311158595412	1.33650470669983	29.4106283621532
5414.761	0.399251836732252	0.28084096283883	0.488132846203078	-35.1232467627255
4620.567	-0.156975259577479	0.50773227422224	0.531444535587962	-107.18000617147
3941.215	-0.00689271593941293	-0.601764552089794	0.601804025979265	90.6562471345745
3361.769	-0.266240915300183	0.718808491081483	0.766531063839371	-110.32422666381
2867.244	-0.138137893222154	0.479506471454256	0.499007548750885	-106.070817175877
2442.658	-0.530326764753588	0.0398869339880132	0.531824637373046	-175.698768384016
2083.003	-0.510629943999768	0.0682238619933752	0.515167385472428	-172.389937117136
1777.843	-0.120837543008406	0.495509103558158	0.510030375084973	-103.704959848222
1513.548	0.389927402496044	-0.292440124122948	0.487405996489946	36.8693872095883
1292.065	-0.12624285723923	0.487447208328204	0.503529581962058	-104.519877720237
1101.762	-0.133516096541764	0.496704456251813	0.514336334411792	-105.045681088829
939.101	-0.120311558997988	0.493549505669074	0.508001954498911	-103.699688636507
801.2801	0.421881570724647	-0.306933669491078	0.521720554688383	36.0372061192064
684.3433	-0.128497390499019	-0.482465369180563	0.499283899022985	104.91367161283
582.9476	-0.458576181883322	0.0504109503680104	0.46133868091424	-173.726704948955
497.0677	0.426401048397419	0.319278147089516	0.532687891061298	-36.8249256846861
423.5089	-0.0860263539666214	0.534585688979804	0.541463195830337	-99.141752080462
361.5036	-0.389831463077745	0.044532676458356	0.392366829482157	-173.483025998686
308.1262	0.405536549979906	0.283369602524523	0.494730456920241	-34.9440141052527
262.7298	-0.514413391530167	0.116155025143982	0.527364321178224	-167.275945020916
224.2111	-0.501130906227457	0.100778272785142	0.511163814683619	-168.629385924574
191.2854	0.398311484897059	0.292110074360498	0.493943655231845	-36.2552394785655
163.1722	-0.449461767436431	0.106396748415535	0.461883262806176	-166.682074266263
139.1537	0.416881832877406	-0.297681593321576	0.512254617925204	35.5293821662261
118.6706	0.412744528512265	0.266827675238803	0.491482506392808	-32.8815264709644
101.1982	0.399205181575133	-0.269816559493159	0.481835815162344	34.0541476240571
86.24196	0.501147807670155	-0.0031625402320166	0.501157786324149	0.361565589575101
73.61024	0.414804007477312	0.34755134902455	0.541160147117305	-39.9585922944392
62.69291	0.39740058003065	0.318084511727067	0.509023553098817	-38.6742271825622
53.57697	0.425286213588124	0.331942400497495	0.539494319447538	-37.972583066645
45.65746	0.343944757539518	-0.341500747777708	0.484686245907238	44.7957082657399
38.96512	0.325798659765611	0.269908570554189	0.42307848345629	-39.6401194335937
33.18414	0.496852572398017	0.302727579503789	0.581813085183506	-31.3535568933315
28.30617	0.382486086617703	-0.255813684832455	0.460148071607047	33.7753291722126
24.17237	0.601297622572574	0.187404165115514	0.629824699431574	-17.3104931149679
20.61345	1.08033699407954	-0.716029942873885	1.29608136313612	33.5357755180684
17.55618	4545.28315548613	8201.80638641537	9377.05854539631	-61.0056239407749
14.98558	8499.35098571945	-1019.94344832337	8560.33012308684	6.84291516133874
12.76553	4737.25626351496	-3211.16228154518	5723.03766409328	34.1314911968218
10.8809	-6215.44400972165	6459.88623736245	8964.4784810746	-133.895194693476
9.278505	2215.27608430422	1128.23341673099	2486.03273757985	-26.9896066579838
7.923394	10531.1434034246	-613.058360084175	10548.9725535885	3.3316475921982
6.75822	6605.78067233968	-2069.98914369558	6922.51351360718	17.3989176914905
5.761429	7471.03282003393	3371.52081023795	8196.55317629866	-24.2886606934253
4.919708	8139.86198809571	-2847.97663773832	8623.70709813064	19.283931648737
4.191257	3390.57880172207	-5831.98269817402	6745.96522393114	59.8272789393088
3.564097	5856.1646599933	-2397.6111249023	6327.96994550462	22.2650081384909
3.051758	4607.41543424535	3415.75180708242	5735.4718542862	-36.5517451375457
2.604164	4424.9540778414	-2908.07417104615	5295.00840181684	33.3128662878727
2.214424	6483.7900373129	3138.92687931125	7203.63763675136	-25.8325126611391
1.892567	4196.29123783624	-922.723884645521	4296.54274039448	12.4014251037548
1.607507	3318.63015680459	-3279.18029990145	4665.43991033157	44.6574191723071
1.376413	3561.06393444772	-3615.80684061534	5074.96162092532	45.4370256554078
1.17375	2850.48779457046	3457.19634798776	4480.79091852488	-50.4941287721489
1.001604	65.5034096720721	-39.8293390686205	76.6620696910176	31.3016870241384
