EC-Lab ASCII FILE
freq/Hz	Re(Z)/Ohm	-Im(Z)/Ohm	|Z|/Ohm	Phase(Z)/deg
6999984	17.6836707132003	95.4030955166639	97.0281549038968	-79.4989826942125
5969734	20.2660859890106	87.7814521675602	90.0904966462037	-76.9999126791904
5091109	20.3807088868305	87.1743566621036	89.5250900819507	-76.8410314826006
4341796	19.3291595433998	91.1337833455805	93.16105879354	-78.025220653577
3702781	20.0430169577589	99.7095793480307	101.70409403033	-78.6342174940215
3157797	20.6123870089743	107.961961772621	109.912036137998	-79.1910178793297
2693047	20.3518797837661	120.841376984555	122.543206267243	-80.4400658727149
2296687	20.1416200935524	137.841905053097	139.305691372104	-81.6867074433605
1958656	21.7898567251314	157.419169101946	158.92008261025	-82.1192332829048
1670375	22.8130880345754	180.855262175782	182.288405671738	-82.8106787500686
1424531	24.7755288897733	208.577541272233	210.043846743812	-83.2259585599794
1214875	27.3083045908199	240.812464152926	242.355908512727	-83.5302564449734
1036062	29.412358459561	277.987760576775	279.53941021016	-83.9603185659986
883578.1	31.8972501981132	322.217876686564	323.79282670652	-84.3465494156963
753531.2	34.6932293605394	374.209998580886	375.814772462938	-84.7032156431653
642624.9	37.8654683939442	434.798000861919	436.443690812702	-85.0228115012892
548046.8	40.4880301734006	505.850025728494	507.467761652738	-85.4238246621013
467390.6	153.485185822882	712.926446074012	729.261146489244	-77.8502966387235
398593.7	187.926866083088	811.325782963825	832.806119752775	-76.9586024221614
339937.5	203.400058377826	916.40638496261	938.707753322802	-77.4858381852408
289906.2	227.864351372902	1040.01834467544	1064.68789787808	-77.641969184414
247234.4	251.333768053886	1185.54026583366	1211.88876753484	-78.0305491610717
210843.7	274.302897631153	1355.10411249723	1382.58787617849	-78.5566963043403
179812.5	296.312717608407	1553.8003558158	1581.80174875039	-79.2032218803659
153343.8	318.348971142385	1788.41210906423	1816.52523772035	-79.9066994612276
130781.2	340.858260933226	2063.48611652011	2091.4490926431	-80.6202610992835
111531.3	367.132714270152	2385.33100218039	2413.4188239612	-81.2501136034708
95109.37	395.489290491169	2763.13003789297	2791.28991421522	-81.8545267815543
81109.37	426.084377358367	3206.79940950243	3234.9822796136	-82.431495281251
69171.88	460.469082740771	3718.3602652118	3746.76324820052	-82.9406255780043
59000	492.07271243677	4310.32353144763	4338.32046996024	-83.4872273145591
50312.5	1356.17757051589	5717.09900571078	5875.75004947194	-76.6552785654192
42906.25	1865.50538612696	6694.90345127557	6949.95270254196	-74.4297386017925
36593.75	1986.55651895359	7479.14171088261	7738.47320435117	-75.1249655904043
31203.13	2118.06686314735	8506.68949289843	8766.41165844677	-76.0183213845722
26609.38	2254.92441396171	9739.04173745586	9996.68035282652	-76.9637590423176
22703.13	2418.63405595935	11156.7974972758	11415.9502929833	-77.7683636740198
19359.37	2572.70338095378	12911.6655074147	13165.4817178003	-78.7311619529576
16500	2740.8704351365	14928.7765553191	15178.298329551	-79.5965574067233
14112.02	2950.50915671237	17248.1670195098	17498.7076613317	-80.2928157193662
12011.13	3230.54304612513	20000.7131088139	20259.9341863182	-80.8247497363657
10236.38	3481.91864949875	23339.6763521193	23597.9713048263	-81.5149346963803
8750.684	3815.07475791829	26858.7403039325	27128.338064146	-81.9156613782948
7449.463	4369.42160767868	31358.9583827505	31661.9032282762	-82.0677243771225
6363.206	4914.90672997764	36350.0723415081	36680.8406037437	-82.299714988371
5414.761	15720.422329405	49431.4121477068	51870.9570485383	-72.3580378061585
4620.567	17566.5593852925	55620.5704023181	58328.653854827	-72.4724001820666
3941.215	19292.5063354803	62900.3379417517	65792.5019579824	-72.9484135182613
3361.769	21112.4090212108	71419.3059581035	74474.4995163855	-73.5316845537045
2867.244	23136.4929205281	81290.4028844076	84518.7961684911	-74.1128356453057
2442.658	25219.7957797061	93278.9486246314	96628.1550878764	-74.8706869209252
2083.003	27537.8841952916	106938.195047713	110426.956066062	-75.5593821906724
1777.843	30248.0022536046	122830.200511735	126499.801573311	-76.1656861294799
1513.548	33438.9346741609	141603.673331389	145498.325258696	-76.7133191900659
1292.065	37813.4740606895	163048.912946238	167376.243336647	-76.9430752659134
1101.762	44278.2940730641	188075.056518909	193216.961498238	-76.7521657285758
939.101	49214.1281785021	216896.695857706	222409.997721236	-77.2159750637342
801.2801	55874.1706618449	249284.100957592	255469.148699768	-77.3666056680741
684.3433	62602.6727801257	286111.519397944	292880.344460696	-77.6578974111186
582.9476	176060.046603571	398492.837954146	435653.166992737	-66.1634473083221
497.0677	200965.991286629	446178.0183993	489348.703642447	-65.7524073860952
423.5089	187246.320488192	530332.324644729	562417.602053357	-70.5532207514964
361.5036	190374.280449204	535224.458438281	568073.575839524	-70.4200080641285
308.1262	167792.726487438	694047.089541345	714041.848607558	-76.4089640092924
262.7298	227960.989764067	815205.554355952	846478.770381755	-74.37708378042
224.2111	345534.985916805	685693.041989596	767834.210181777	-63.2555146106946
191.2854	168399.493789404	973170.591964338	987633.226746016	-80.1826359353626
163.1722	385194.616889403	893984.636189533	973438.967076779	-66.6900528178268
139.1537	436715.916635899	1030733.12081487	1119433.58810959	-67.0378954952507
118.6706	397490.192434277	1429880.76388562	1484101.56391386	-74.4646890272955
101.1982	753927.538973446	1471082.4834437	1653024.62386906	-62.8649292817539
86.24196	631176.673611894	1588421.21074222	1709229.63233369	-68.329055886578
73.61024	927458.103801521	1964268.80022523	2172217.8651888	-64.7249794678666
62.69291	847793.919918337	903504.763464383	1238981.59318584	-46.8220308039996
53.57697	803236.343363105	2002815.41971392	2157882.81163347	-68.1465688288289
45.65746	1629190.7212186	2695393.33562846	3149509.11093381	-58.8497556450361
38.96512	892608.7769016	2712677.80736255	2855761.07459274	-71.7861686308384
33.18414	1874131.7216837	3617938.45151938	4074536.58091366	-62.6153488661949
28.30617	1162067.11257084	3295109.06510371	3494015.41568543	-70.5740764152391
24.17237	2036160.27321434	4302462.23935307	4759950.62781909	-64.6739289283205
20.61345	58630.6630076449	5995176.88415532	5995463.57064698	-89.4396858481732
17.55618	3437063.90756151	3826941.11895509	5143820.23719834	-48.0722590904427
14.98558	2626583.11420232	4334063.44994977	5067844.20084154	-58.7827768787853
12.76553	5817703.87956186	116059.211997417	5818861.41534223	-1.14286000634021
10.8809	4293227.85137165	3369637.50838853	5457679.20656134	-38.1274019924673
9.278505	5553657.73278259	2270452.02370613	5999838.88157399	-22.2357758317833
7.923394	6994507.16512111	5994960.96186213	9212094.62702058	-40.5997320671906
6.75822	5893299.49642369	1359229.67755353	6048014.90332902	-12.9875781169074
5.761429	4914305.70924351	1740891.78970871	5213550.11747068	-19.5066804507501
4.919708	6755557.05194892	642917.893036795	6786080.93816481	-5.4363943016242
4.191257	6977024.09287946	-183042.691245539	6979424.74846165	1.50281386563761
3.564097	8693474.58248207	1306297.34445434	8791070.0752747	-8.54543633125818
3.051758	7025645.10272319	4848820.63587934	8536436.64934893	-34.6118933897272
2.604164	7487492.16740138	7734515.8408449	10765002.2874674	-45.9297177930187
2.214424	9596097.77866544	-315451.019412248	9601281.26467276	1.88279718353719
1.892567	9104883.54074808	2679011.5399518	9490838.06214078	-16.3959378823801
1.607507	4693135.11126584	9988703.4994302	11036290.806794	-64.833784153162
1.376413	10559551.4092237	211172.922157982	10561662.7463241	-1.14566463474738
1.17375	11567145.7628023	7670905.34741421	13879540.6965397	-33.5508729559701
1.001604	16526027.7065192	25408612.39068	30310182.7011395	-56.9596022563673
