EC-Lab ASCII FILE
freq/Hz	Re(Z)/Ohm	-Im(Z)/Ohm	|Z|/Ohm	Phase(Z)/deg
6999984	2.57036594057276	1.27804364654246	2.87057078486562	-26.4375961998429
5969734	5.01550378616032	0.857044047897926	5.08820230818565	-9.69698409664596
5091109	5.64297215863203	-1.74878221421214	5.90773848573555	17.2184417156022
4341796	3.96504232280579	-4.97609284829344	6.3626300109686	51.4515183295007
3702781	2.57689317993297	-6.43133922639107	6.92838384514755	68.1651326613911
3157797	1.46178466908353	-6.65452703126687	6.81318900579084	77.6107429845793
2693047	2.46266320804436	-6.67180342203105	7.11179801305412	69.7401363444262
2296687	0.583938581266521	-9.78810979741205	9.80551261652777	86.5858976621856
1958656	-0.252293982368795	-8.8529222515882	8.85651650742011	91.6323953301389
1670375	5.16255016782076	-7.87278016766711	9.41448839840374	56.7452702043647
1424531	10.0035450383323	-0.30712674953088	10.0082585984885	1.75853065918245
1214875	4.83479322337209	-4.66599899163643	6.71913477337052	43.9821712220116
1036062	6.76881294382255	-5.15632195287554	8.50908248580104	37.2992946320088
883578.1	8.67803792899265	-5.77898546289711	10.4261697318532	33.6609266892588
753531.2	5.07376736126618	-4.96409668905301	7.09826536377142	44.3740285172575
642624.9	0.942549093784532	-5.58240346291508	5.6614156548482	80.4164027157759
548046.8	0.10234718520245	-0.170511065905718	0.198869228175625	59.0262266459364
467390.6	0.043857414112406	-0.152383106664264	0.158568861915824	73.9436412084035
398593.7	0.0362029340870605	-0.137461330817288	0.142148759778522	75.2451721358227
339937.5	0.0425006184611929	-0.13550279780393	0.142011657205585	72.585903121282
289906.2	0.0456540941717891	-0.131180901135636	0.138898254623318	70.8108798719667
247234.4	0.0469397689325288	-0.126931160845403	0.13533241112535	69.7053578062618
210843.7	0.0450653777250503	-0.117807890030319	0.12613321221192	69.0665098646909
179812.5	0.0428966828643455	-0.110207204975964	0.118261377589551	68.7321889912321
153343.8	0.0417589171621413	-0.101671352254658	0.109913015752664	67.6708419715318
130781.2	0.0403931718719105	-0.0936692400495195	0.102007523572177	66.6727494924139
111531.3	0.0385754264453617	-0.0855159567635072	0.093813870971299	65.7203217495679
95109.37	0.0368851708380418	-0.0780758312706099	0.0863501665102522	64.7126608752713
81109.37	0.0374151150986027	-0.0727787078563826	0.0818329466357309	62.7925647122289
69171.88	0.0486849636459518	-0.0763954154673776	0.0905896527735971	57.491616487458
59000	0.0458923294436532	-0.0703914523712086	0.0840301283391435	56.8973045553027
50312.5	0.0427629096067008	-0.0656052485289839	0.0783116534915501	56.9028278684478
42906.25	0.402632954509218	-0.285492098995214	0.493577789862465	35.3390398571056
36593.75	0.24761558223021	-0.239923256613391	0.344784926624093	44.0960695021056
31203.13	0.144081992966201	-0.170179716227815	0.222981516078109	49.7472095312605
26609.38	0.0828609849668322	-0.126058839760061	0.150853484916081	56.682284953946
22703.13	0.0468150702422087	-0.096652026823659	0.107393040234944	64.1559750815222
19359.37	0.0249517981947606	-0.0744200866813339	0.0784916653843534	71.4645674204315
16500	0.0261390185499799	-0.0506181512861022	0.0569688119094907	62.6883436892946
14112.02	0.0043158296782658	-0.045463307015957	0.0456676983286761	84.5771649282365
12011.13	-0.000310375663157426	-0.0344826742003647	0.034484071004752	90.5157005874289
10236.38	-0.00285408418757288	-0.0257032788650626	0.0258612517285016	96.3361496450449
8750.684	-0.00384680502649173	-0.018925977864923	0.0193129631868183	101.489160167113
7449.463	-0.00375055970283692	-0.0137016997394872	0.0142057479153901	105.308554125235
6363.206	-0.00330280807842087	-0.0104393736902659	0.0109493864781502	107.556324851312
5414.761	-0.00261987270717266	-0.00868784906265136	0.00907427431463257	106.780998362941
4620.567	0.032435985735028	-0.0066611130671472	0.0331128917175208	11.6050194981009
3941.215	0.0290230729243623	-0.00629902467498153	0.0296987621598759	12.2452826454257
3361.769	0.0358424239654064	-0.00649049246025257	0.0364253462316083	10.2641263701562
2867.244	0.0424658838278612	-0.00719073918522981	0.0430703844806545	9.61071957101106
2442.658	0.0480509660837326	-0.00735820387904838	0.0486110944734396	8.70625985477345
2083.003	0.0538855586096008	-0.00826425987231732	0.0545156071038919	8.71933475165833
1777.843	0.0586880930009368	-0.00912223383740995	0.0593928228851853	8.83511806289837
1513.548	0.0620674939522296	-0.00964774910752659	0.0628128399959104	8.83533005728257
1292.065	0.064664257588134	-0.00995608374968372	0.0654262165577015	8.75285851225144
1101.762	0.0669903561798124	-0.0110977904604692	0.0679033782237866	9.406334066332
939.101	0.069445119288894	-0.0105767137981178	0.0702459355964173	8.65978151843243
801.2801	0.072813746861498	-0.00851323927589762	0.0733097331531018	6.66863285921585
684.3433	0.0743255044798642	-0.00989620665698293	0.0749814345180461	7.58414493132153
582.9476	0.0785944846358636	-0.00836435373736015	0.0790383162056271	6.0747907524525
497.0677	0.0838561314591532	-0.00616548852219734	0.0840824835028803	4.20508278974508
423.5089	0.090435935224555	-0.00423131533131713	0.0905348684727213	2.6788005728189
361.5036	0.0967820593594592	-0.00168324647831447	0.0967966958762779	0.996395378128717
308.1262	0.103633732490856	-0.000398551806100575	0.103634498857901	0.220345473245554
262.7298	0.111697404888563	0.00147326138143108	0.111707120444212	-0.755673463040248
224.2111	0.118255484718402	0.00230138729150183	0.118277876415878	-1.11490081185342
191.2854	0.126167501559735	0.00195157449227975	0.126182594254614	-0.886187519193098
163.1722	0.136316067604776	0.00207675463922287	0.136331886208111	-0.872824997495057
139.1537	0.150864845609162	0.00183029912178862	0.150875947836464	-0.695080884373983
118.6706	0.160489632495241	0.000624419040437735	0.160490847208169	-0.222920288281093
101.1982	0.171031416230869	-0.00366162699090693	0.171070607791512	1.22646314301673
86.24196	0.169071901045814	-0.00771180951051357	0.16924768751499	2.6115994989436
73.61024	0.183834365673069	-0.0112515148868647	0.184178366236833	3.50239818247191
62.69291	0.18655810395449	-0.0146017634159633	0.187128666018732	4.47537391072466
53.57697	0.192206906000198	-0.0178287100414401	0.193032011894169	5.29947228549061
45.65746	0.208318724119552	-0.0217330253330079	0.209449314176302	5.95588482122901
38.96512	0.209840479754979	-0.0247979100977504	0.211300646683856	6.73967389623412
33.18414	0.209574397553182	-0.0266601935020754	0.211263328638331	7.24972092545958
28.30617	0.216054607490544	-0.0294740709042624	0.218055759551456	7.76831075541044
24.17237	0.238727980210274	-0.0360197483986745	0.2414300536594	8.58018049195491
20.61345	0.265406268370582	-0.0440050912711689	0.269029617975756	9.41415494023553
17.55618	0.273224380604397	-0.0482979714605927	0.277460368708515	10.0246357413695
14.98558	0.266562838477947	-0.0473017209321209	0.270727168308909	10.0624223079584
12.76553	0.276372732703114	-0.0514984339055287	0.281129820681672	10.555263414596
10.8809	0.272034922273388	-0.0522474451487883	0.277006849122659	10.8719257288089
9.278505	0.27121042951074	-0.0530371775934965	0.276347678265051	11.0649666691444
7.923394	0.275798488484834	-0.0540948631140849	0.28105348328361	11.0970694944056
6.75822	0.279857426268662	-0.0550135456123369	0.285213374929298	11.1212311246263
5.761429	0.299350006332837	-0.0611585673248258	0.305533626052346	11.5468814706289
4.919708	0.297220471151241	-0.0609141856540373	0.303398329733801	11.5821642116531
4.191257	0.309737000831596	-0.0653975167419098	0.316565703891247	11.9222604996869
3.564097	0.297989318858512	-0.0617372165899189	0.304317462637343	11.704903230526
3.051758	0.291160816600232	-0.0590227654109169	0.297082998436575	11.459448111092
2.604164	0.262031254686212	-0.0510745319249396	0.266962518424932	11.0296667393864
2.214424	0.284004406989668	-0.0576527455804047	0.289797070831491	11.4750841293211
1.892567	0.30757377893817	-0.0638736976007842	0.314136083147897	11.7318322468972
1.607507	0.311891827206092	-0.0657891196319518	0.318754953122147	11.9111164705716
1.376413	0.302154105629612	-0.0640086023775199	0.308859522642826	11.9607632635196
1.17375	0.244924891631332	-0.139698053775565	0.281964091276354	29.699181366937
1.001604	0.331949292226737	-0.216024989065182	0.396051926532928	33.0551556012008
