EC-Lab ASCII FILE
freq/Hz	Re(Z)/Ohm	-Im(Z)/Ohm	|Z|/Ohm	Phase(Z)/deg
6999984	30.3672585695416	92.8189253255009	97.6602441713633	-71.8836287517902
5969734	25.3496528701744	86.7284384595705	90.3572185178021	-73.7070096390145
5091109	22.0373889755962	83.8798859038168	86.726476765167	-75.2796068993101
4341796	22.9053930386003	89.7226319951623	92.6002576799443	-75.6787865951777
3702781	22.5583202178445	97.9169533822292	100.48187682716	-77.0264406251049
3157797	22.4836877081226	107.531225201269	109.856636605361	-78.1901752027951
2693047	22.6067502956913	120.495906569403	122.59824084755	-79.3740205990944
2296687	21.8623742682212	137.72899575085	139.45336022908	-80.9804223693027
1958656	23.4486731881255	157.701968484754	159.435727295515	-81.5426658536646
1670375	24.3003194409554	181.443765283188	183.063774365856	-82.3719076705574
1424531	25.8295973627667	209.856357740981	211.439965437552	-82.9831963421825
1214875	28.4596302746302	242.369310227484	244.034491610335	-83.302849496086
1036062	30.1506597395611	280.517240776889	282.132920191548	-83.8652648677864
883578.1	32.1189260349137	325.110500926092	326.693224940541	-84.3578366842604
753531.2	34.9274828828976	378.300558698975	379.909517875628	-84.7249880393802
642624.9	37.6923313427579	439.955685290534	441.567341253308	-85.1032547757256
548046.8	42.6390793905117	514.403172921565	516.167332754645	-85.2615630145202
467390.6	157.444298158925	723.899764781499	740.823579857895	-77.7295744312895
398593.7	183.028148756987	809.120445072703	829.56325730595	-77.2538475739923
339937.5	191.7517593949	927.0415156482	946.665045814173	-78.3135903118663
289906.2	224.714359732648	1053.40152816066	1077.10320907574	-77.9580127042081
247234.4	252.643668853959	1193.91981211668	1220.35787422244	-78.0519777826096
210843.7	273.923223537916	1368.82767175045	1395.96673575811	-78.6837210475208
179812.5	295.056124317921	1568.89102475881	1596.39505263148	-79.3489823434472
153343.8	316.762810923343	1808.28765025906	1835.82213312278	-80.0641482633295
130781.2	321.436553144179	2090.40861782677	2114.97745784243	-81.2582496041617
111531.3	344.359752082674	2416.2086480614	2440.62448357406	-81.8887896577031
95109.37	388.398774694948	2811.98219787594	2838.67882814449	-82.1359063547431
81109.37	431.063450439172	3239.83111420211	3268.38206867811	-82.4212393367182
69171.88	464.041988416854	3764.86735897699	3793.35750987226	-82.9733987638858
59000	461.295914921432	4379.72867454967	4403.95472090663	-83.9874767654878
50312.5	1483.59285667757	5753.72452017267	5941.91834498093	-75.5412767243463
42906.25	1838.88938923072	6705.5905891233	6953.16182285184	-74.6646512977962
36593.75	1915.26147486477	7577.65596072558	7815.95140569726	-75.8154943250959
31203.13	2027.01480050018	8629.99824483563	8864.85525585797	-76.7819595339226
26609.38	2150.23594126937	9894.82031567306	10125.7584250555	-77.7397157842633
22703.13	2263.06155491441	11321.9152305847	11545.8742453691	-78.6964980063522
19359.37	2417.73497080291	13154.7466136611	13375.0813402637	-79.5857285043953
16500	2563.55234872129	15209.7463037608	15424.272536149	-80.4329039002757
14112.02	2741.28570815529	17586.936538999	17799.297294009	-81.1405640730418
12011.13	2959.06313675212	20443.0441432516	20656.0913168542	-81.7638275625851
10236.38	3171.62589837236	23742.6460803509	23953.5478319189	-82.3912736440329
8750.684	3548.2239145753	27561.470057473	27788.9280951415	-82.6641734418537
7449.463	3795.72374381683	32353.2626040453	32575.161087333	-83.3085790740373
6363.206	4322.11859490481	37535.5865448386	37783.6071122582	-83.4314785210929
5414.761	13481.8322686459	51283.3414927938	53025.8513933195	-75.2708406450446
4620.567	17082.8047015095	56534.7966549065	59059.3383749051	-73.1870504399333
3941.215	16312.4468410151	64892.3371450391	66911.2198520275	-75.8895204722268
3361.769	17472.9134041343	73419.7498434227	75470.2747437635	-76.6133953505951
2867.244	21362.3759005874	84290.8646553973	86955.7414347811	-75.7785958430895
2442.658	22221.5699110153	94780.5729643289	97350.6814601552	-76.8051643246254
2083.003	24807.4430007414	110354.809507837	113108.767165707	-77.3306812143194
1777.843	26298.5385383747	129087.354808449	131738.977909716	-78.4849046926104
1513.548	24589.778825536	149115.567478712	151129.446790449	-80.6359601428701
1292.065	27276.6658362716	174353.93894467	176474.679556772	-81.1084784365145
1101.762	30346.6177285569	203666.455088415	205914.890515097	-81.5251906409131
939.101	36521.547297972	236084.499819012	238892.684006503	-81.2062250363638
801.2801	34543.4278357869	271563.992917148	273752.170138889	-82.7508046604775
684.3433	129937.081614211	366033.732574004	388412.588056149	-70.4558179263242
582.9476	126083.22671594	427700.228105858	445897.370681759	-73.5748282756778
497.0677	159290.734006701	502042.84222446	526707.274839837	-72.3965405699913
423.5089	164601.218814506	530256.027253946	555216.188231538	-72.7546964877275
361.5036	174785.839355988	615212.996277232	639560.099152368	-74.1398219574563
308.1262	192785.453127408	700722.494000969	726758.72511892	-74.6171530965798
262.7298	218127.082737886	794130.111367926	823542.383854635	-74.6411027324163
224.2111	237661.02842284	916597.340213622	946907.30724696	-75.4640993093422
191.2854	290039.902358228	1083076.40797492	1121239.33683751	-75.0083686790951
163.1722	300873.43115663	1203040.3841903	1240093.13665091	-75.9586764780991
139.1537	356767.301898313	1417704.36063465	1461905.79787698	-75.8747381611125
118.6706	436622.893190345	1573383.01159043	1632842.20058745	-74.4903575365174
101.1982	483936.494368202	1866618.10400744	1928330.28208078	-75.4655889996095
86.24196	587434.215420935	2136808.77828692	2216084.5454114	-74.6284403651439
73.61024	790589.114908615	2433720.84764631	2558911.54846748	-72.0037207056496
62.69291	808642.714418141	2919938.30809139	3029842.03592219	-74.5205524123208
53.57697	1106260.29854847	3220167.80012141	3404892.43722667	-71.0402921731371
45.65746	1377624.35625184	3661657.64813617	3912235.37112638	-69.382209609808
38.96512	1546884.28738001	4082998.97774126	4366203.34510194	-69.2503147253689
33.18414	1877308.23230306	4487905.42264605	4864728.28446653	-67.3002528696411
28.30617	2415021.07260451	4964754.48792733	5520970.3772542	-64.0601765381763
24.17237	2664826.42657697	5603942.11917085	6205277.36356724	-64.5676452573237
20.61345	3420475.98181417	6138598.24693493	7027235.89894634	-60.8730988027611
17.55618	3849842.26475431	6909230.59485936	7909409.13573379	-60.8733279858792
14.98558	4623523.77209765	7403418.46365486	8728549.53695846	-58.0147269544125
12.76553	5229462.72299293	7851241.11036773	9433412.28529216	-56.3336745130766
10.8809	6375687.16970927	8341146.14728444	10498766.876941	-52.6069392895836
9.278505	6888215.44369848	9100111.55055808	11413130.255605	-52.8765560392383
7.923394	8290596.54512075	9820331.49188833	12851961.0054085	-49.8280137691078
6.75822	9087430.824943	10239602.3919976	13690538.9281915	-48.4116219924987
5.761429	10721048.4055338	10699087.1169193	15146331.0425075	-44.941256734437
4.919708	11384046.0741352	11095856.7404806	15896997.8871264	-44.2655160404376
4.191257	12991013.0178516	11942774.0352817	17646423.7421578	-42.5926511659942
3.564097	13770273.751756	12770955.5839512	18780781.2863458	-42.8437441901323
3.051758	16256197.859348	12932089.1419578	20772647.8432051	-38.5028612356165
2.604164	17665427.7648615	13826257.8792111	22432849.6865197	-38.0493364928807
2.214424	19561493.6411951	14370784.6985112	24272854.9273768	-36.3027376797818
1.892567	20814324.8867834	14175358.1457397	25182869.1584688	-34.2563730778485
1.607507	22288540.5254978	14739440.3426494	26721342.4133459	-33.4767150285463
1.376413	24611183.7366233	15017691.5350385	28831257.7588872	-31.3914523219015
1.17375	26352996.0153101	13691708.8651383	29697530.042592	-27.4541493791199
1.001604	28462307.0410948	12304044.9050751	31007941.6138456	-23.3784713992363
