EC-Lab ASCII FILE
freq/Hz	Re(Z)/Ohm	-Im(Z)/Ohm	|Z|/Ohm	Phase(Z)/deg
6999984	17.5614945620199	99.3021013520609	100.843013759937	-79.9709853258412
5969734	19.8473206812383	89.8792274073293	92.0445091114202	-77.5476603313354
5091109	17.7428927728166	86.6380081217035	88.4361616944337	-78.426233814389
4341796	14.5484364366166	91.3074979457502	92.4592677013151	-80.9469043382876
3702781	19.3506877917857	104.146698872067	105.929146149509	-79.4743455090218
3157797	20.4540298729728	109.216962257459	111.115760280852	-79.3925844316567
2693047	18.7808533360351	121.682834100914	123.123647472207	-81.2260493760753
2296687	18.171206646277	139.941261097005	141.116084513431	-82.6016064506254
1958656	21.1711624197905	159.438693513101	160.838164337229	-82.4361935351711
1670375	21.4176404112206	182.691338893323	183.942492718293	-83.3135065110754
1424531	24.1688374391832	207.868110864092	209.26845012416	-83.3679947973924
1214875	28.1076436078806	239.495766775952	241.13950720027	-83.3062872428568
1036062	30.5211151714946	277.444771902486	279.118505168207	-83.7222546021218
883578.1	32.9202977820354	321.053220899923	322.736605696151	-84.1454412296054
753531.2	35.6783966618734	372.35212574477	374.057553773495	-84.5266873464854
642624.9	38.7970442280655	432.671950273553	434.407904157319	-84.8760770099562
548046.8	43.0759896210578	503.481990410231	505.321338901576	-85.1099010861491
467390.6	153.227415031153	708.169452984302	724.556840321872	-77.791052802707
398593.7	177.872775659745	801.9293103745	821.419103234532	-77.4939168901522
339937.5	201.921447043762	908.730701277339	930.894063908591	-77.4723163812757
289906.2	225.034828012321	1032.6941714366	1056.92853378914	-77.7068280068228
247234.4	249.108721395164	1177.38908127344	1203.45344894476	-78.053696655995
210843.7	270.68796378337	1346.01364537431	1372.96201960252	-78.6292900569834
179812.5	292.340712518385	1543.48813951095	1570.92925652517	-79.2750707878753
153343.8	314.044891871104	1775.7366933446	1803.29282098076	-79.9707561427232
130781.2	336.606309660193	2050.2390451575	2077.6871636489	-80.6764109632063
111531.3	360.67998528866	2370.24676381828	2397.53201713322	-81.3476883159816
95109.37	385.588293193326	2744.16104944606	2771.11858229573	-82.0016050475644
81109.37	415.992275462978	3183.02489858186	3210.09300149341	-82.5541655451886
69171.88	444.092674091223	3691.58483059284	3718.20075636653	-83.1403586653869
59000	461.590706763625	4270.25527698521	4295.13051154334	-83.830600921181
50312.5	359.090973282786	4914.07447695614	4927.17711191357	-85.8205979352294
42906.25	1858.3467454681	6747.88130973615	6999.09671291077	-74.6025999685835
36593.75	1968.79519884218	7476.1173903544	7731.00806941394	-75.246432642972
31203.13	2083.18657894009	8495.15486158841	8746.84642857329	-76.2217786976232
26609.38	2215.99336078654	9724.77528400895	9974.06040183843	-77.1631483550231
22703.13	2400.22036414085	11190.3228584546	11444.8409107723	-77.894013318492
19359.37	2484.10021974063	12882.3045087094	13119.6235981384	-79.0855936450256
16500	2663.9882615699	14889.7263362244	15126.1622305671	-79.8562791752561
14112.02	2825.4720115196	17224.5662619962	17454.7694055745	-80.6843177807791
12011.13	3059.32434544855	19991.8807135277	20224.6077814769	-81.2996171569701
10236.38	3291.91558480962	23265.3394551629	23497.0791414906	-81.9464292118933
8750.684	3607.53848067926	27144.637926038	27383.3106476424	-82.4297191120861
7449.463	4010.68579319301	31366.7115345448	31622.0839449753	-82.7134478122349
6363.206	4536.55934354117	36446.6495631444	36727.8999543416	-82.9048157158086
5414.761	15116.1880667044	49585.8450652911	51838.7420035154	-73.0462174138901
4620.567	16628.9915385499	55929.3930519173	58349.1248155875	-73.4416728840894
3941.215	18127.8578918013	63374.8805278451	65916.573892034	-74.0372625121279
3361.769	19760.5303165066	72159.1964089617	74815.9620988509	-74.6852204826414
2867.244	21447.1445695403	82428.6772476388	85173.1579958274	-75.4155697840946
2442.658	22883.9028734653	94823.2127715446	97545.449361002	-76.4321115042157
2083.003	24812.5779794976	108894.278684929	111685.397238402	-77.1637786085978
1777.843	27287.5874586552	125647.197513881	128576.166813317	-77.7469923482614
1513.548	30388.3800546051	145561.699652448	148699.906012252	-78.2079368944442
1292.065	34227.9210957048	168639.145794888	172077.633866122	-78.5267879074345
1101.762	38077.5195137605	195981.724989182	199646.522689618	-79.0049211874712
939.101	43237.3093072508	226760.451724095	230845.765354807	-79.2047688664128
801.2801	49578.4673758082	262733.538572631	267370.411074656	-79.3138027348262
684.3433	143464.513256249	381338.961822805	407432.780183366	-69.3830690465007
582.9476	164016.239933765	420391.452684314	451254.141756105	-68.6866961422987
497.0677	192899.288487237	466198.110938909	504530.290608889	-67.5216437616797
423.5089	214875.917422151	528699.927300145	570697.181537801	-67.882034214817
361.5036	256955.999731163	590528.806445451	644011.379588692	-66.4847620398314
308.1262	290387.469466009	670739.827683331	730901.360556633	-66.5904727530331
262.7298	321665.431546393	754982.715837507	820650.687604236	-66.9232466404451
224.2111	374327.949943675	841315.107849558	920832.517239128	-66.0141918026905
191.2854	456075.749786548	961493.884325564	1064178.35870629	-64.6231075718924
163.1722	546061.071798219	1045365.04375926	1179394.2380931	-62.4190535255831
139.1537	552367.026282938	1220692.99001328	1339851.00201187	-65.6531138001991
118.6706	743988.584896306	1300152.73180885	1497970.67410748	-60.2204425783276
101.1982	804623.252226252	1499328.79655771	1701589.08618102	-61.7795180346581
86.24196	1010922.90664678	1621092.09483809	1910472.37696066	-58.052083802655
73.61024	1438947.45033431	1752937.00647783	2267897.24491721	-50.6181798643727
62.69291	1308161.90403631	161473.793584137	1318090.03986311	-7.0367467834315
53.57697	1074774.55400608	1900942.77445983	2183740.77530049	-60.5166044626307
45.65746	1881882.49523902	1790591.47012432	2597633.44965548	-43.5760243593551
38.96512	2137835.98321441	2315460.4682868	3151459.95870569	-47.2840926178828
33.18414	2416900.80921248	2167123.32325314	3246202.86176938	-41.881112068955
28.30617	3075616.48385659	2519651.37647793	3975935.08683901	-39.3255197674433
24.17237	2549669.50817537	2785501.64149815	3776219.53754124	-47.5310145092724
20.61345	2473340.2535122	2285671.54785815	3367745.00732049	-42.7417462434431
17.55618	3103364.68924066	2289622.79755182	3856584.62236923	-36.4194319939161
14.98558	4246228.86996721	2844834.01286995	5111119.26850908	-33.8207876436782
12.76553	3461197.785241	2701697.21077691	4390792.4031178	-37.9744279907453
10.8809	4262246.70326594	1874750.24305465	4656332.83103075	-23.7423053287224
9.278505	4563174.36815942	3603235.61228949	5814281.31344695	-38.2958057476121
7.923394	3937688.68088592	2848161.44491287	4859775.27915286	-35.878513998689
6.75822	3772296.79574799	954612.277041015	3891209.02994018	-14.2010626199489
5.761429	2663829.50018456	319591.104550939	2682932.36593128	-6.84132233866828
4.919708	3565970.93215103	71790.6945771378	3566693.50978942	-1.15333195596182
4.191257	2137596.07916054	2252320.77762467	3105199.81369353	-46.4970090355557
3.564097	3132228.86313964	1081917.21355862	3313819.92692414	-19.055653804001
3.051758	2543332.47535991	2379238.07978252	3482716.45709317	-43.0907462956132
2.604164	2961558.88318221	-419401.029889448	2991108.19637602	8.06034161401067
2.214424	3524766.92907502	294663.297123648	3537062.10900695	-4.77869834042471
1.892567	1470716.4750691	3052909.10987871	3388696.0594335	-64.277900500326
1.607507	2899610.42856576	-1027869.82540982	3076403.25956064	19.5186781869801
1.376413	3588099.48881151	-965206.277878456	3715653.52266131	15.056270884117
1.17375	4283851.84425146	-1200529.09014553	4448893.87598562	15.6552753406145
1.001604	4509599.83612021	1270379.50791439	4685120.57220134	-15.7328251781855
