EC-Lab ASCII FILE
freq/Hz	Re(Z)/Ohm	-Im(Z)/Ohm	|Z|/Ohm	Phase(Z)/deg
6999984	64.2667189751707	42.6088398291607	77.1085235199108	-33.5443813441512
5969734	52.537718406165	-106.464177425897	118.721661588349	63.7346792147625
5091109	124.401290476331	77.4308725037248	146.530614851861	-31.8992991931937
4341796	291.708261485245	-406.347099527133	500.211630325463	54.3262080158547
3702781	3.78074706633065	-9.77852726639095	10.4839708068613	68.8616201571521
3157797	-0.0961159793079237	-9.03339327878918	9.03390460491762	90.6096083700509
2693047	0.980883926729399	-9.55132718207147	9.60156155095063	84.1365030880013
2296687	0.582081443970091	-10.4727724354485	10.4889361372879	86.8187477101268
1958656	12.2961226441448	-0.243938990522377	12.2985421213633	1.13652423904166
1670375	8.54431238390997	1.74153713383665	8.71999000586407	-11.5204566571175
1424531	-3.25596045804103	-13.7390117347722	14.1195510535051	103.332365394049
1214875	217.079615439739	1.57333442010167	217.085316916328	-0.415257063486354
1036062	224.534226234747	306.896418096671	380.264421411474	-53.8097266705899
883578.1	157.771851623805	383.698170135284	414.868946692771	-67.6481528428446
753531.2	141.914735749204	429.257279631278	452.107956509518	-71.7058399479611
642624.9	118.897554012764	499.362754785962	513.322305396564	-76.6073219979667
548046.8	565.077643862003	1171.00931407586	1300.22134932674	-64.2400852858474
467390.6	664.764410243347	1267.07575269328	1430.87130245506	-62.3164940802547
398593.7	765.00676427336	1373.0383561959	1571.77278159698	-60.8750468592646
339937.5	862.27619445198	1473.56640717883	1707.31314991847	-59.6654183621844
289906.2	949.424148315405	1591.56300169112	1853.23474005763	-59.1824149408891
247234.4	1030.98843529525	1727.4643778478	2011.73316581639	-59.1703255314118
210843.7	1092.97952472854	1880.0543431934	2174.67436064257	-59.8281956717811
179812.5	1153.48701262374	2074.21026183022	2373.36901862594	-60.9211699617726
153343.8	1202.05058870599	2295.97424019704	2591.60632223662	-62.3658257464155
130781.2	1244.38150459438	2573.42153308781	2858.49325973258	-64.1938475917804
111531.3	1285.97392701057	2904.76718720992	3176.69661013488	-66.1204754736873
95109.37	1321.77075981461	3308.74451697882	3562.98585741485	-68.2243764974076
81109.37	1348.74441520315	3824.01672420041	4054.90017195321	-70.5720710629562
69171.88	1294.59800855975	4400.83848245432	4587.30458465729	-73.6076587573388
59000	5966.03332426027	8914.34632730538	10726.5616144843	-56.2071081361322
50312.5	6726.86468923807	9354.41170453778	11521.9671447766	-54.2796551950003
42906.25	7250.30361546106	10049.2084189954	12391.6702814744	-54.1903024268496
36593.75	7671.21013512273	10824.3894097323	13267.0596226419	-54.6749215891272
31203.13	7945.67657759953	11820.9000148999	14243.1546168001	-56.0921155066494
26609.38	8357.15757958504	13108.0319016284	15545.5004147221	-57.4800427399964
22703.13	8476.06877847844	14522.8655146722	16815.3907089533	-59.7306209592703
19359.37	8966.33564430793	16358.7075248035	18654.8247584492	-61.2725076817468
16500	9039.26683819542	18569.0613898002	20652.3215612741	-64.0435607621176
14112.02	9218.65411029474	21086.8908994874	23013.9208178906	-66.3862705948485
12011.13	9522.40681309422	24390.8991331677	26183.8154599062	-68.6739191834673
10236.38	9792.02921434566	28045.972096455	29706.2348164443	-70.7537559797922
8750.684	9914.1593955329	32371.5518114169	33855.6926261933	-72.9721912667592
7449.463	10385.5351668939	37383.9434012545	38799.7237739006	-74.4743147182537
6363.206	59623.8817756783	84153.5358738887	103134.983774071	-54.6819288629617
5414.761	65906.5370980763	88771.0206513278	110562.044751979	-53.4085874590629
4620.567	71348.4638811009	94474.5965027727	118389.411192701	-52.9394152389421
3941.215	76202.6858607361	100547.486464555	126161.191999481	-52.8423275405572
3361.769	80316.714216373	107949.757470778	134550.825789046	-53.3500369019785
2867.244	83813.5634267892	118377.252827883	145044.432507328	-54.700710419486
2442.658	86113.8762988135	130592.195463786	156428.64573747	-56.5987190595262
2083.003	89297.0498893153	145815.551551788	170985.783599944	-58.5168098702856
1777.843	91447.544428373	164418.921185725	188138.871650323	-60.9177895107813
1513.548	94106.7418467859	186285.293696141	208706.227766387	-63.1982188311815
1292.065	96355.1311971476	214036.485830494	234725.21929841	-65.7636373588798
1101.762	98915.2219268388	245895.03865528	265044.507892764	-68.0867520350172
939.101	52617.4675256363	80168.6733596162	95893.7645368677	-56.7217273685628
801.2801	0.00118843782406599	-0.000337528495769671	0.00123543917176332	15.8550886420884
684.3433	3.29821572175288E-05	1.13337341357064E-05	3.48751519592484E-05	-18.9643758976587
582.9476	4.12206362798895E-05	-5.41877565930335E-05	6.80841671749372E-05	52.7397451769169
497.0677	0.000114608074564481	0.000118833415220924	0.000165095097832874	-46.0369525739554
423.5089	0.000169873987309454	-4.23613076663932E-05	0.00017507613187302	14.0022118875708
361.5036	6.20659221258381E-05	-7.47242725793651E-05	9.71385381908018E-05	50.2870045292091
308.1262	0.00039599273442612	-0.00011945377126412	0.000413617515571447	16.7862768394689
262.7298	0.000206731636510812	-0.000534687692369788	0.000573261631287292	68.8615055655931
224.2111	0.000310157847690306	-0.000445557746663307	0.000542880830473472	55.1577817709737
191.2854	0.000111181100713642	0.000760936108395665	0.00076901560336331	-81.6872804011556
163.1722	0.000741129400374896	0.00032170092197592	0.00080793828433873	-23.4641457783423
139.1537	0.000201889765631752	-0.000904639733916581	0.00092689402072055	77.4193750810056
118.6706	0.000631366902108117	-0.000420312542119028	0.000758476629923533	33.6524354547349
101.1982	0.00165002081172713	-0.000424698025202632	0.00170380077818496	14.4340272594491
86.24196	0.000161234331702813	0.00102453926784068	0.00103714860124631	-81.0565684602756
73.61024	0.0012686469424762	0.00123992389735136	0.00177394372398822	-44.3439940696367
62.69291	0.0016450927419545	0.000955432224866432	0.00190241448321458	-30.1470395570789
53.57697	0.00323403162694033	0.000401172425986156	0.00325881878591338	-7.07125603143223
45.65746	0.000820920185309078	-0.00293359065458384	0.0030462869331876	74.3665413569896
38.96512	0.000622662420555161	-0.0023317157431689	0.00241342221687654	75.0485903163133
33.18414	-0.000102777990290121	-0.00397664141834397	0.00397796936707371	91.4805042186497
28.30617	0.0100181177655196	-0.00797052654008698	0.0128020301862654	38.5061500133605
24.17237	0.0042964326774939	0.00320173621725362	0.00535821318697856	-36.6937756453807
20.61345	0.00514735074255585	-0.000126645226744886	0.00514890849407402	1.40941888024231
17.55618	0.0030530802080666	0.00637419946724716	0.00706765290638569	-64.406758708451
14.98558	0.00576967753196673	-0.00548080668220284	0.00795791560086942	43.5291793300253
12.76553	0.00269134556926148	-0.0110216023358666	0.0113454422136452	76.2775847868689
10.8809	-0.00291438285066125	0.0110419437233155	0.0114200765579349	-104.785329066721
9.278505	0.0152599707857796	0.00396433656886669	0.0157665047748098	-14.562765146437
7.923394	0.00558315637624081	0.0118919525525836	0.0131373578254708	-64.8503999292208
6.75822	0.020477120717576	0.00636121367629458	0.0214424231913667	-17.2573971160932
5.761429	0.0213332458952237	0.00906866093591364	0.0231807677093888	-23.0301130597968
4.919708	0.0254719353637781	-0.00865729803666261	0.0269029422270519	18.7716615432665
4.191257	0.0329834363744642	0.0108551403323713	0.0347237835885406	-18.2168321327736
3.564097	0.0393879034670099	0.0218949841400037	0.0450643680752044	-29.0688475782017
3.051758	0.0352559380334335	0.0100077246282038	0.0366488160634318	-15.8470844216905
2.604164	0.0475621815482972	-0.0145359357526134	0.0497338369908987	16.9941803050101
2.214424	0.0543049075775949	-0.0115598981439466	0.0555216555238543	12.0171938767621
1.892567	0.0308357563900227	0.0158119802332482	0.0346534643440083	-27.1478747897328
1.607507	0.0318807775204894	0.0469578392020285	0.0567575778009818	-55.8264980024047
1.376413	0.0481295998281568	-0.0409586936461473	0.0631986785053094	40.3980623824605
1.17375	0.0124041894620476	-0.0344307186664288	0.036596971242128	70.1876736782029
1.001604	0.0352908899262186	-0.0585532107059062	0.0683661129197406	58.9220056230021
