EC-Lab ASCII FILE
freq/Hz	Re(Z)/Ohm	-Im(Z)/Ohm	|Z|/Ohm	Phase(Z)/deg
6999984	20.8720430134422	0.298298290675623	20.8741745088328	-0.818801952907762
5969734	14.8533742699658	-4.24296236636502	15.4475064928315	15.942332925553
5091109	10.9141391815581	-5.72782233247747	12.3258420704976	27.6908267851326
4341796	8.40020042061596	-6.51483876366545	10.6304511298004	37.7956365107747
3702781	6.01307754729002	-6.05272515271799	8.53185697044133	45.1882702990738
3157797	4.0789932903679	-5.31988281872115	6.70368103863772	52.5209956203139
2693047	2.62273620890822	-4.26415911387146	5.0061760026922	58.4057706495893
2296687	2.35688975118151	-4.04071777784587	4.67785522001526	59.7456324535027
1958656	1.72255110360311	-3.2892505868347	3.71299767405216	62.3593513233305
1670375	1.42629958946741	-2.79598357373003	3.13876642384919	62.9727599387975
1424531	1.10950569858846	-2.47737296174733	2.71447595067575	65.8745046922376
1214875	0.786738924649277	-2.36161971000587	2.4892179073449	71.5752628664507
1036062	0.794558738217236	-1.84192413147378	2.00599304450011	66.6658739988723
883578.1	0.706129341447832	-1.58950192662836	1.73929152864286	66.0470222843515
753531.2	0.638706437468328	-1.37530770916994	1.51638293585946	65.0893806255698
642624.9	0.577044871711793	-1.18810168727349	1.3208203523837	64.0947831890022
548046.8	0.54581090245478	-1.03098837843187	1.1665532896958	62.103010005789
467390.6	0.501481591578861	-0.887228348801356	1.01914568615544	60.5238810266289
398593.7	0.460123924524581	-0.760766489327247	0.889089240292112	58.833770122552
339937.5	0.434851072320535	-0.657520861901627	0.788307769170251	56.5213640276056
289906.2	0.415337591094218	-0.569993900087076	0.7052647451223	53.9202903363163
247234.4	0.402716333391338	-0.493382332956272	0.63687249246104	50.7774449426852
210843.7	0.394568866674993	-0.423921739545864	0.57913230941537	47.0538724462213
179812.5	0.386974070462943	-0.363884092247267	0.531187879945765	43.2386267025365
153343.8	0.383779340211488	-0.315465226149323	0.496794616398577	39.4200807219517
130781.2	0.382655412475279	-0.273068339866017	0.470097312195899	35.5121934323721
111531.3	0.378627440129602	-0.237408200731697	0.446901993946947	32.0886674740623
95109.37	0.374638505828261	-0.206396934404282	0.427730878685088	28.8513757174819
81109.37	0.37034303899421	-0.17888954938344	0.411285104775358	25.78228145124
69171.88	0.365673422179912	-0.155035205837046	0.397181276922394	22.9755732072783
59000	0.35716061566333	-0.131332190753737	0.380541521662466	20.1890731847509
50312.5	0.351456547351036	-0.101513194301758	0.365823226836757	16.110604900405
42906.25	0.384215923991208	-0.100687234867788	0.397189873377631	14.6846619173511
36593.75	0.367341324576926	-0.0930658422624517	0.378947093586888	14.2167387452237
31203.13	0.361093649518255	-0.081356156605332	0.370145171439536	12.6970083006848
26609.38	0.355233662286214	-0.0699962398946343	0.362064121973806	11.1469225521599
22703.13	0.353420081453924	-0.0618434270763803	0.358790138447882	9.92544528787642
19359.37	0.348581943857085	-0.0560127863093316	0.353053542417179	9.12868444838955
16500	0.342856791814801	-0.0498730973358225	0.3464651577452	8.27638680982064
14112.02	0.337668171351925	-0.0452964155775481	0.340692763657121	7.64031771355616
12011.13	0.333510075563276	-0.0407571896241264	0.335991248410251	6.96738451275296
10236.38	0.329765071769886	-0.0371104045973094	0.331846628261874	6.42081715366586
8750.684	0.326376321876334	-0.0342600575340424	0.328169552249687	5.99245098771425
7449.463	0.323017383962551	-0.0314163865270899	0.324541553093636	5.5550653201517
6363.206	0.319447679885363	-0.028943672794529	0.320756225783659	5.17716871454198
5414.761	0.316141843532045	-0.0267546871200199	0.317271931495256	4.83734343554532
4620.567	0.313664684774085	-0.025050813388956	0.314663435635401	4.56623241196091
3941.215	0.311548195322952	-0.0232802476861293	0.312416785626694	4.27344983273347
3361.769	0.31036505435494	-0.0217901894557268	0.311129039662422	4.01604682439756
2867.244	0.310216913522823	-0.0209151215591548	0.310921172880621	3.85709916470355
2442.658	0.308743915454637	-0.0202027550567897	0.309404196225818	3.74382999226855
2083.003	0.308046016789388	-0.0190878011619889	0.308636829644499	3.5457493151671
1777.843	0.306538505775211	-0.018225575265221	0.307079838342811	3.40257632948863
1513.548	0.306235775253856	-0.0165253639324495	0.306681329230246	3.08884927806018
1292.065	0.304382844078705	-0.0159976205523452	0.304802952139211	3.00855841039732
1101.762	0.305408683597717	-0.0162765392930196	0.30584209937196	3.05065190073219
939.101	0.304198962181016	-0.0147150002995194	0.304554658190976	2.7694069726253
801.2801	0.305724078453587	-0.0112554030245879	0.305931195276881	2.10842395255515
684.3433	0.304056263043392	-0.0132066667061502	0.304342943308038	2.48707571653884
582.9476	0.303507552271599	-0.0139480756132862	0.303827884005421	2.63124908652761
497.0677	0.30049417762293	-0.0116370283375273	0.300719422741214	2.2177454457817
423.5089	0.302283061106936	-0.0132346274199446	0.302572643170404	2.50693615259146
361.5036	0.300308593605175	-0.0144547745149392	0.300656268684682	2.75569494667223
308.1262	0.302526205055913	-0.00994358823421203	0.302689576451691	1.8825496657697
262.7298	0.301553393735815	-0.0118833446515662	0.301787446978325	2.25669282486351
224.2111	0.296107344780595	-0.0165150598849667	0.296567541777616	3.19230139163341
191.2854	0.294833618208266	-0.0158757617691727	0.29526073602416	3.08220124876328
163.1722	0.289931163970905	-0.0194337799213301	0.290581746920818	3.83473948674857
139.1537	0.293199235419423	-0.00585147360429357	0.293257619498413	1.14331894553411
118.6706	0.287950062026193	-0.0178612373553065	0.288503487016624	3.54944890365026
101.1982	0.293463650835926	-0.0207419360094666	0.294195755019292	4.04292771231392
86.24196	0.286406633413301	-0.011994399713131	0.286657679624355	2.39808391179912
73.61024	0.286613790893206	-0.000666086490141812	0.286614564880061	0.133154360264372
62.69291	0.233883076623893	0.0494401742674902	0.239051509852286	-11.9359484614125
53.57697	0.267338645994618	-0.0195223433064414	0.268050505558953	4.17659762000235
45.65746	0.287537008938714	0.00188419027933656	0.287543182291688	-0.375445950528381
38.96512	0.272694645385101	-0.00853855118460372	0.272828291198032	1.79344613425993
33.18414	0.296306269879488	0.0157910255139191	0.296726746446419	-3.05057340551426
28.30617	0.249980142686599	-0.00857391638190916	0.250127135232738	1.96438293581705
24.17237	0.257642044369491	-0.0264962630278642	0.259000916950756	5.87173450985814
20.61345	0.250793692238042	0.000423979429524247	0.250794050617128	-0.0968613227600618
17.55618	0.272032947702341	-0.0108166435280205	0.27224790984108	2.27700990827885
14.98558	0.279699288415785	0.0543355778185501	0.284928143497921	-10.993593316605
12.76553	0.223956548276112	0.0516348822930624	0.229831887659587	-12.9831033165275
10.8809	0.230208483553066	0.161576292390058	0.281252278501562	-35.0638424985264
9.278505	0.253360555783216	-0.0802231433545693	0.265758017671091	17.5696763031733
7.923394	0.264806778264615	0.0167547085146545	0.265336296183345	-3.62036102516463
6.75822	0.126619844013364	0.0285320053170839	0.1297946848888	-12.6987042557584
5.761429	0.102499601156818	0.00128326262282462	0.102507633863366	-0.717287582597663
4.919708	0.101031788301909	0.0453581968063094	0.110746504527239	-24.1776844980864
4.191257	0.0777717722546028	0.0712316088182849	0.105462745339115	-42.4867456471422
3.564097	0.119490131535893	0.0386631486455849	0.125589532197774	-17.929906328128
3.051758	0.102054420888013	0.0432553107450673	0.11084280188826	-22.9694425588704
2.604164	0.0802775814971831	-0.0770161688766596	0.111247383607324	43.8121689146183
2.214424	0.0597957632451911	-0.0906535775274958	0.108598362881807	56.5908638081549
1.892567	0.0592902302338895	0.0832734841937169	0.102224285622101	-54.5493578883243
1.607507	0.0848771109354193	-0.047320288080548	0.0971768162926196	29.1403355223002
1.376413	0.121473169123481	-0.0371641008332967	0.127031103308006	17.0112257994152
1.17375	0.0763143506079377	-0.0784980997424455	0.109479823583554	45.8081476080479
1.001604	0.19262781809187	0.0451932783900204	0.197858304638628	-13.2036175831395
