EC-Lab ASCII FILE
freq/Hz	Re(Z)/Ohm	-Im(Z)/Ohm	|Z|/Ohm	Phase(Z)/deg
6999984	-2.44172136601964	142.896550585609	142.917410319719	-90.9789369647922
5969734	21.3097096271041	102.338404128766	104.533500295427	-78.2375015166729
5091109	18.3886923354756	94.041123813518	95.8221110909075	-78.9360516604964
4341796	17.9816495872381	94.6018892150717	96.2956757333315	-79.2377712354123
3702781	15.819494522978	102.801406434498	104.01146846321	-81.2517178852972
3157797	19.0200094071564	110.055670954585	111.687114149808	-80.1948972321784
2693047	18.5743487017307	120.923953323181	122.342179631558	-81.2674169288838
2296687	17.0209952174564	137.66731113353	138.715546471652	-82.9517982550094
1958656	19.0522005402241	158.15944528782	159.302845169745	-83.1311340448853
1670375	19.5701801945773	181.248977822222	182.302451751062	-83.8374191189431
1424531	21.4924069880375	210.322614319737	211.417893406467	-84.1653228650964
1214875	25.4343599100459	241.206162421137	242.543438282642	-83.9806012719463
1036062	28.9161711296773	278.056682228236	279.556190209724	-84.0629353071066
883578.1	31.2876239346556	321.146328239563	322.666824376522	-84.4355297612801
753531.2	34.3173367429313	372.350944821233	373.929011592297	-84.7342699556613
642624.9	37.1020804192099	432.532104709931	434.120474034842	-85.0972387188767
548046.8	41.5363029518532	503.201745857862	504.913122722423	-85.2812727626727
467390.6	150.925895297364	707.292716974596	723.216159496327	-77.9545749574373
398593.7	175.756430353641	801.780864911315	820.818419718144	-77.6358958317856
339937.5	200.046586168027	908.350209474642	930.117594549263	-77.5799751509808
289906.2	223.709225246257	1029.94734736954	1053.96269185101	-77.7454453622146
247234.4	245.919660467632	1173.03971263456	1198.54021493744	-78.1598084396532
210843.7	267.87261694831	1342.54087434918	1369.00392191148	-78.7161504587252
179812.5	289.808017100046	1540.29010349036	1567.31690786701	-79.3442840895272
153343.8	308.033879062401	1772.44938009276	1799.01686363453	-80.1410391994361
130781.2	331.529681010081	2044.99490909277	2071.69401881793	-80.7914608884686
111531.3	356.196631451339	2364.14581993014	2390.82862166037	-81.4319131118658
95109.37	380.353092022458	2740.54739521395	2766.81558836598	-82.0985495065005
81109.37	408.077613912027	3174.50402022503	3200.62542535064	-82.6748877526226
69171.88	434.645243468561	3676.24853514867	3701.85356002268	-83.2571847598141
59000	448.714000720926	4253.04422627285	4276.64932453852	-83.977335412514
50312.5	326.112621511752	4881.30738625013	4892.18879858181	-86.1778371204935
42906.25	1861.37089441096	6785.44199852394	7036.11574108135	-74.6600676354351
36593.75	1965.01853938756	7479.23669267905	7733.06403473122	-75.279377716192
31203.13	2069.97224628979	8492.50345075063	8741.13264751321	-76.3017636058235
26609.38	2194.60896823636	9715.93346407212	9960.70638066095	-77.2717811529799
22703.13	2329.94521067179	11147.3903304228	11388.2815149406	-78.1944150904791
19359.37	2425.01263809094	12870.266946618	13096.7346148614	-79.3294444826333
16500	2620.34542139036	14884.355569676	15113.2475283092	-80.0155614423024
14112.02	2733.81278898339	17188.2210225343	17404.2717252029	-80.9627179734332
12011.13	2973.05861223126	19987.8967936325	20207.7978944928	-81.5396864731299
10236.38	3166.38143099327	23249.8945549304	23464.5172160418	-82.2446537442589
8750.684	3449.70272031496	26939.7676289632	27159.7409553383	-82.702848093025
7449.463	3745.08770822105	31346.2091478521	31569.138567328	-83.1868828383515
6363.206	4095.43503548041	36498.3625737191	36727.4156277364	-83.5976935774603
5414.761	14718.0152787009	49580.4768667835	51718.8907468221	-73.4664246608391
4620.567	16181.4507108766	55982.6624135976	58274.3325832511	-73.8783813155381
3941.215	17488.8742986113	63432.3456240552	65799.112422602	-74.5859841925247
3361.769	18883.8931708569	72272.2724160579	74698.6129822316	-75.3566697227552
2867.244	20125.9323935259	82702.8497073266	85116.4761043444	-76.3227911569048
2442.658	21560.8091457644	94980.1860602645	97396.6335920423	-77.2104173731214
2083.003	22921.4273297574	109321.327642742	111698.453473649	-78.1583187493859
1777.843	23462.4394660049	125850.337148827	128018.722951643	-79.4395096750779
1513.548	26209.2902940584	146076.818995777	148409.44695552	-79.8281469475151
1292.065	27653.7398963766	169355.839011714	171598.745734397	-80.7261436998237
1101.762	30783.479530095	196996.723282598	199387.390764963	-81.1185624937088
939.101	33195.0659219667	228928.418096002	231322.573506136	-81.7495036177068
801.2801	36187.9517127666	266920.139355071	269362.077216701	-82.2791458035258
684.3433	125043.135323142	377388.900622754	397565.300302595	-71.6680247334824
582.9476	137974.062178453	421181.027723672	443204.580243021	-71.8617990597957
497.0677	154885.420581632	477799.984744094	502277.133592806	-72.0391867931682
423.5089	171312.684358765	544799.25419817	571099.171070216	-72.5441917937965
361.5036	185416.537647886	617445.923821445	644685.009347238	-73.2851981102392
308.1262	197625.9341057	705251.071812856	732417.288247849	-74.3460294679239
262.7298	222758.650912176	811541.828411983	841559.003171184	-74.651014902272
224.2111	246880.056524453	928380.442789422	960645.620852664	-75.1082352227864
191.2854	221073.638588721	1043317.60957874	1066482.62439477	-78.036278739023
163.1722	335219.993715891	1271920.46224289	1315353.22497762	-75.2352026701874
139.1537	281469.276631471	1383986.63007617	1412318.6417792	-78.5042133703063
118.6706	396018.390020484	1655456.89340089	1702165.70613526	-76.5465311759033
101.1982	367055.267288618	1954042.20718262	1988217.92485015	-79.3613009360425
86.24196	575033.719836182	2134117.11688682	2210230.67744929	-74.9199039955269
73.61024	512907.773013376	2360130.19959093	2415220.2679339	-77.7390282349091
62.69291	1424304.67745804	440073.967446382	1490741.06103403	-17.1698205171074
53.57697	1146629.96811924	2960652.77056327	3174937.02482948	-68.8291334501682
45.65746	916660.791325395	3497809.02921003	3615927.9598986	-75.3149010994901
38.96512	1933563.33687389	4022426.13049917	4463023.54385739	-64.3266019129122
33.18414	1799888.28651569	4340854.19381502	4699214.08066262	-67.4791875890605
28.30617	3038978.25429396	4844033.82008766	5718395.97091918	-57.8972706064107
24.17237	2298237.48973004	7302757.33876169	7655857.90803606	-72.5307845813904
20.61345	2499863.11967124	8466843.13994132	8828179.22187038	-73.5505921609438
17.55618	3833953.64690616	10753590.525974	11416606.7536262	-70.3774372999503
14.98558	6876438.90242269	6537031.66457584	9487791.89076254	-43.5505277374718
12.76553	6388322.35712212	9799969.94145154	11698293.6102604	-56.9008110570089
10.8809	7232741.48654744	5774937.36965503	9255401.18172425	-38.6053977626331
9.278505	3589055.06014015	5848982.94284148	6862355.11252282	-58.4658739222985
7.923394	7957864.50674051	6505010.48018935	10278266.8215519	-39.2636517847251
6.75822	8807993.09356514	-1791736.18907891	8988384.77745285	11.4983118383357
5.761429	5784626.31582683	3600529.04724853	6813641.5398696	-31.8994023255968
4.919708	7031685.67651154	3431956.21591506	7824508.09452043	-26.015624242885
4.191257	8949889.76523482	-4005474.42318159	9805322.64459548	24.1106427064781
3.564097	8971448.02812323	6952193.47699198	11349884.310549	-37.7729760299773
3.051758	9197462.98830495	-3471677.14949503	9830863.01662094	20.6795307869608
2.604164	11025545.7907602	285011.081822798	11029228.9531459	-1.48076988742775
2.214424	10434294.2118816	5530217.63867637	11809225.3273123	-27.923768506321
1.892567	14536229.6728599	-2763077.2915933	14796505.3043431	10.7625079786728
1.607507	3534043.83857754	13288476.3382845	13750384.3308518	-75.1070320114166
1.376413	9791729.34768751	-5815172.51737166	11388335.9199296	30.705490060837
1.17375	21292898.7039022	4102673.91677014	21684544.4610207	-10.9059880697295
1.001604	11119018.9327552	11231160.4820685	15804162.3568269	-45.2874779413007
