EC-Lab ASCII FILE
freq/Hz	Re(Z)/Ohm	-Im(Z)/Ohm	|Z|/Ohm	Phase(Z)/deg
6999984	26.7976135952136	3.30638476087923	27.0008198872802	-7.03380750994248
5969734	18.5127254315355	-3.06158460843732	18.7641760601962	9.39042875793916
5091109	10.4812227699099	-4.4671179637022	11.3934706588514	23.0837992052006
4341796	8.02818271019065	-5.04734013229212	9.48300374560986	32.1576859700638
3702781	6.95426352385702	-6.61290050360446	9.59646988375519	43.5586866564745
3157797	4.53618986524633	-4.70311925435277	6.53424434913688	46.0350675428094
2693047	2.3681506188299	-4.15139966388062	4.77935733365194	60.2975626975522
2296687	2.41131527433013	-3.48056534857971	4.23423859719213	55.286009725524
1958656	1.796803925532	-3.27435550299934	3.73495760442194	61.2442035666674
1670375	1.59288484276473	-2.74562223112662	3.17422802557824	59.8796472817838
1424531	1.19361860282195	-2.42471842151926	2.70258853558167	63.7903134166697
1214875	0.90365086283447	-2.00318946832517	2.19757887865495	65.7195769044342
1036062	0.870632103747544	-1.80630391333655	2.00517682198124	64.2660975697464
883578.1	0.750580854091984	-1.56012395306093	1.7312880659913	64.3076370098933
753531.2	0.68287246570438	-1.34234764452657	1.50605843285817	63.0368739160727
642624.9	0.6315119428662	-1.14115050424761	1.3042361010673	61.0398868169237
548046.8	0.595608246114817	-0.991374770373484	1.15653496193286	59.0029645594541
467390.6	0.56664395647267	-0.859408246816145	1.02940172338237	56.6014577977869
398593.7	0.539894114044433	-0.745206840773537	0.920227629402367	54.0770859665318
339937.5	0.494707803889293	-0.669407448857451	0.832371397763527	53.5347298472389
289906.2	0.81195818810827	-1.14314741406488	1.4021633676285	54.6144688121629
247234.4	-1.21109202151212	-2.44198658819874	2.72581040821126	116.378900868075
210843.7	1.33282760555347	-2.45975559846207	2.79764669504405	61.5487879305589
179812.5	2.2354095841793	-0.658489634165726	2.33037864033818	16.4135104979568
153343.8	0.544196503090868	-1.76582131584512	1.84777562313971	72.8715798779342
130781.2	2.42583210749576	-2.58354085352139	3.54391658417229	46.8032320587413
111531.3	4.8397875541934	3.19897119924634	5.80146191087496	-33.4636458612393
95109.37	0.742192088097701	-0.285266531289301	0.795126461330935	21.0246003486563
81109.37	0.410955566247395	-0.189017980963587	0.452340883137118	24.699946987504
69171.88	0.372674706367651	-0.185531996139857	0.416303445046825	26.4659117740783
59000	0.392630267505584	-0.134616374807093	0.415066374604966	18.9246813816121
50312.5	0.353896973092722	-0.0843727511690446	0.363815652087736	13.4095901809111
42906.25	0.404710121327245	-0.116889114637517	0.421252118600555	16.1098715144272
36593.75	0.393688929630841	-0.113592079322211	0.409748866744767	16.0945735412972
31203.13	0.372406913173423	-0.0902730797261453	0.383192037890404	13.6259218556186
26609.38	0.370093877682951	-0.0800145064953764	0.378644687732579	12.1996121795758
22703.13	0.36379198165088	-0.073369293769176	0.371116772972689	11.4024158921647
19359.37	0.363572342077354	-0.0615370748260355	0.36874335180686	9.60665157066563
16500	0.360167021483546	-0.0546836811841762	0.364294644967754	8.63320773589427
14112.02	0.356138491032524	-0.0489664434539684	0.359488994796021	7.82866612954952
12011.13	0.35414644048062	-0.0441384324376134	0.356886400025475	7.10432715536718
10236.38	0.352159388312622	-0.0398464808857694	0.354406513506313	6.45550401858308
8750.684	0.350403658265052	-0.0346527261469545	0.352112957948081	5.64782947901456
7449.463	0.348790391230964	-0.0278773836478705	0.349902680089906	4.56970224436822
6363.206	0.419205151070448	-0.17783061148641	0.455364343208411	22.9870953885384
5414.761	0.346800202730363	-0.029251108600764	0.348031619207501	4.82124160262876
4620.567	0.344800234067684	-0.0262971773608294	0.345801594776942	4.36138338442558
3941.215	0.344117644223985	-0.0254330372184355	0.345056216359624	4.22692967047341
3361.769	0.344106587971928	-0.0229413054394488	0.344870479138108	3.81421843035816
2867.244	0.340867086264759	-0.0219725446945263	0.341574535378415	3.68822558416669
2442.658	0.33962580011342	-0.0210933885801931	0.340280200929287	3.55394604938424
2083.003	0.337881248681035	-0.0199346942968318	0.338468802472198	3.37648612332955
1777.843	0.337052923381361	-0.01935436377867	0.33760815238557	3.28644809765592
1513.548	0.334845067924534	-0.0182605599338041	0.335342612207995	3.12149641322673
1292.065	0.333941706717797	-0.0161354485901384	0.334331297049499	2.76627518531712
1101.762	0.333313824074307	-0.016303306213032	0.333712305905123	2.80026418763987
939.101	0.330512382648817	-0.0148405082150394	0.330845395567595	2.57094069492773
801.2801	0.330457218472266	-0.0123320418471737	0.330687242718173	2.13717898541938
684.3433	0.328157957424527	-0.0182796016659572	0.328666683523146	3.1882901141097
582.9476	0.326366183030486	-0.00932656160375892	0.326499418341346	1.63689515702295
497.0677	0.330249513350014	-0.0104308505192633	0.330414200225227	1.80907183924873
423.5089	0.325866209309842	-0.0121879977227353	0.326094056459874	2.14196948554447
361.5036	0.323215002363537	-0.014064754212558	0.323520872686633	2.49166338960446
308.1262	0.32120518791471	-0.0135444088274719	0.321490627785336	2.41458738813007
262.7298	0.317732705529857	-0.0109313187220577	0.317920691198805	1.97043451604922
224.2111	0.31986557594554	-0.0132722649577461	0.32014081228747	2.37602560964438
191.2854	0.299813770663115	-0.0160062041209964	0.300240729498177	3.05595748991511
163.1722	0.331055873855866	-0.00928477978157511	0.331186048543811	1.60649401641331
139.1537	0.326281944964128	-0.0266688180543577	0.327370025301631	4.67271203452361
118.6706	0.316564656746079	-0.00812350194944669	0.316668869933067	1.46996906003174
101.1982	0.334259388436706	-0.0154174693815509	0.334614759268344	2.64085415100519
86.24196	0.312613773938517	0.00109125971336949	0.312615678595691	-0.200005013152174
73.61024	0.320681055969024	-0.0404666724944914	0.323224212026551	7.19212720789303
62.69291	0.36604345202871	-0.0967610081520573	0.378616562595586	14.807045702391
53.57697	0.329543389592328	0.00434229850953793	0.329571996960219	-0.754926326075397
45.65746	0.276070953481853	-0.00997372725703004	0.276251057177664	2.06904800104257
38.96512	0.305220805057171	-0.0176134746769704	0.305728595865588	3.30272296382661
33.18414	0.333356374747234	0.00919324147183988	0.333483115424721	-1.57969219667268
28.30617	0.314359432777786	-0.0234527900324115	0.315233066693004	4.26664825074747
24.17237	0.337256775626864	0.0108035724041428	0.337429770297347	-1.83476670452917
20.61345	0.28556015910364	-0.0298243844841489	0.28711338940766	5.9624509175612
17.55618	0.287784565470443	-0.00202893494664484	0.287791717566766	0.403939256271796
14.98558	0.365255090818131	0.0250687256535164	0.366114356963029	-3.92625115987127
12.76553	0.313927616595639	-0.0506890419027154	0.31799359652426	9.17222924081949
10.8809	0.387979032065125	0.125353130686901	0.407726791730932	-17.9052576837815
9.278505	0.422909398236036	0.00312385424523285	0.422920935378838	-0.423212181401289
7.923394	0.330361545123621	-0.0608012840143769	0.335910027588138	10.4282845080391
6.75822	0.186147036606153	-0.414279428045007	0.45417855931181	65.8043173623341
5.761429	0.793999682522461	-0.615996045172764	1.00493115361912	37.8048095650748
4.919708	0.724816087965415	0.317931001015561	0.791478668556673	-23.6840240618017
4.191257	0.710419732414106	-0.448490629421779	0.840142869327874	32.2643707115172
3.564097	1.12201909528819	0.11385480844071	1.12778090407507	-5.79415029481948
3.051758	0.972222416339753	-0.059356771705163	0.974032675622726	3.49372360145363
2.604164	1.20828163579033	-0.489337639860924	1.30360877458416	22.0472784467632
2.214424	0.69238962111105	0.579074335213998	0.902624214790317	-39.9071464140144
1.892567	1.02185356248774	-0.0622683608407434	1.02374901803649	3.4871025011731
1.607507	1.00026680368418	-0.390784160509285	1.07389288975089	21.3395896261074
1.376413	1.02702729797944	-0.0880713490364418	1.03079660133125	4.90133193506333
1.17375	1.86389196866444	1.483143629961	2.38197571313095	-38.5101091517249
1.001604	0.0477292791725706	0.576042885109069	0.578016859248165	-85.2634537752442
