EC-Lab ASCII FILE
freq/Hz	Re(Z)/Ohm	-Im(Z)/Ohm	|Z|/Ohm	Phase(Z)/deg
6999984	2.8192506743964	0.774694115111509	2.92375192810077	-15.3649175187761
5969734	4.25377047047005	1.18573392217592	4.41594023393	-15.5757545282283
5091109	7.75830195771996	0.209958221934966	7.76114242377496	-1.55018257839226
4341796	10.7466677504063	-13.7662637645589	17.4642745561626	52.022533797706
3702781	1.98058192349873	-12.4898908577934	12.6459510672499	80.9893605109068
3157797	-3.59470013228578	-4.33909098951732	5.63467653520287	129.639894444819
2693047	0.773975199508219	0.523721451864352	0.934516863730502	-34.0848123252525
2296687	0.907855356934471	0.638069785611888	1.1096550817373	-35.1007753580005
1958656	1.08118264686341	0.622568012369133	1.24761646586755	-29.9342544911232
1670375	1.28246429544113	0.655923976655058	1.4404689973173	-27.0877428691338
1424531	1.65427289240381	0.588519319211164	1.75583991059175	-19.5833765812063
1214875	2.23223148001622	0.377018707558163	2.26384639192332	-9.58664961403762
1036062	3.09436688102372	0.0343645734736813	3.09455769348165	-0.636273642197345
883578.1	3.88990919344413	-0.585420556134941	3.9337146262517	8.55862581970209
753531.2	5.07608010325251	-1.49636854648506	5.29204195387242	16.424895169346
642624.9	3.84999090978037	-1.50640754288476	4.1342101652736	21.3691943553818
548046.8	3.55459889993482	-2.0716839131901	4.114249333182	30.2343984321025
467390.6	3.09054652071233	-2.52595076364358	3.99147905631968	39.259652539315
398593.7	2.75715637414088	-3.22714558951049	4.24457064110879	49.490621841867
339937.5	2.20183338871771	-4.31671498037126	4.8458331062299	62.9751663615371
289906.2	-12.1019728600032	-3.06291247220236	12.4835563809607	165.797140951683
247234.4	-16.4007653380913	15.9203888219903	22.8570313890166	-135.851501789171
210843.7	-25.0977084701916	58.099909186329	63.2889754847905	-113.363137513404
179812.5	-13.1994625190549	68.5313678122715	69.7909319683638	-100.901935722883
153343.8	-2.04741796299621	61.6360159080387	61.6700119777125	-91.9025449305431
130781.2	6.87753159215898	48.9688732478706	49.4494791475821	-82.0052719774532
111531.3	12.4488386311979	34.3574572152549	36.5432408191128	-70.0828796974735
95109.37	4.67542691490645	107.400107964909	107.501826997083	-87.507328388315
81109.37	13.3123403602486	87.2400090686665	88.2498588563637	-81.3239105674837
69171.88	18.5665689862364	64.0013802235235	66.6400341719353	-73.8227471136309
59000	21.1003780463897	41.0013333666474	46.1122032822497	-62.7684431890539
50312.5	22.0713344772778	23.6342675239958	32.3376314377487	-46.9585036212218
42906.25	17.6866493051278	-0.493629489967803	17.6935364954534	1.59869434194819
36593.75	17.0769022493438	-2.2083286224663	17.2190971232074	7.36840913272093
31203.13	16.3342577787637	-3.42421532981167	16.6893147794635	11.8396915518306
26609.38	15.455024310735	-4.33712169368679	16.0520528603434	15.6756382606535
22703.13	14.4563582427661	-4.94249585636291	15.2779108170376	18.8750861548655
19359.37	13.4231366396711	-5.32417507546237	14.4404791292206	21.635338980798
16500	12.3960719349159	-5.66728038647391	13.6301381649095	24.56910061583
14112.02	10.8553204164375	-5.66450197237118	12.2443686623085	27.5563650497713
12011.13	9.60519560833795	-5.48706750720836	11.0619931523707	29.7376153758343
10236.38	9.31302674484213	-4.82371440957449	10.4881212738641	27.3820540997586
8750.684	10.3488539245906	3.38720553214373	10.8890742889145	-18.1233999051216
7449.463	11.8913043551478	8.42614634088678	14.5740543921311	-35.3212838950345
6363.206	12.8468534345142	12.6888248070373	18.0567970069881	-44.645427165655
5414.761	13.4460276467161	17.118584109509	21.7679025491798	-51.8516491353083
4620.567	14.1041503218951	22.0496732534645	26.1747043323733	-57.3948439158604
3941.215	14.3766206824177	27.9862151232876	31.4629219744932	-62.8102691080984
3361.769	15.0569326588867	35.1944980204604	38.2800719958367	-66.8377613374115
2867.244	15.3457317101496	43.8388306219889	46.4471156480499	-70.7074609899456
2442.658	15.9670103049218	54.2215520405301	56.5236421664545	-73.5915013475161
2083.003	16.4459651383491	66.4822704402839	68.4862179728654	-76.1054682652116
1777.843	17.3390312194951	80.7074633392335	82.5489954044526	-77.8749911196937
1513.548	18.6037852265863	97.5277597854384	99.2862767633228	-79.2003570913903
1292.065	20.4142731700111	116.830731999136	118.600853658453	-80.0885562654021
1101.762	22.1200513327259	139.823672168393	141.562551437931	-81.0103307662086
939.101	25.4525007124599	164.750567644194	166.705066904405	-81.2177414880459
801.2801	26.8726768194435	193.434576310367	195.292283697574	-82.0908718720458
684.3433	33.2885651678618	229.326163283847	231.729622054291	-81.7407373634413
582.9476	35.7049812772398	273.036073711127	275.360751080461	-82.5496964743865
497.0677	39.44370116044	322.310869399235	324.715417087217	-83.0229596131646
423.5089	45.7408064782654	376.653276800556	379.420495363493	-83.0759009134347
361.5036	50.3970699963977	438.438966514824	441.325947597475	-83.4428230854365
308.1262	56.1056173856644	515.525090756971	518.569146307616	-83.788832297916
262.7298	64.9993347282117	603.369878253855	606.860876560008	-83.8513992891443
224.2111	68.0576991821557	705.532628058243	708.807547697356	-84.4901326391561
191.2854	84.1038683125809	823.081146229421	827.366928238902	-84.1656666397735
163.1722	96.7959541951083	957.172615799819	962.05450634858	-84.2254834335852
139.1537	113.957264453708	1120.14771004567	1125.92946068674	-84.1910486700978
118.6706	129.53416942468	1312.68537712507	1319.06102981118	-84.3643684031249
101.1982	164.815384995618	1537.04854402333	1545.85974066714	-83.8796461084442
86.24196	189.533821068532	1776.51802614382	1786.59994585883	-83.9102420547042
73.61024	234.795238365861	2083.70451735407	2096.89134663697	-83.5709364484277
62.69291	286.398171699175	2437.5861289364	2454.35328523336	-83.2988960872996
53.57697	352.623503246963	2835.77127898635	2857.61125448617	-82.9117485051297
45.65746	435.935239041394	3288.79772827099	3317.56386978737	-82.4493715644591
38.96512	550.512063281665	3842.542750052	3881.77772647994	-81.8468491470995
33.18414	679.764067111538	4476.23056607192	4527.55113362318	-81.3649916413945
28.30617	856.468264478175	5210.38155877483	5280.30433555482	-80.6653528777603
24.17237	1079.2150110699	6000.92590156936	6097.19744770043	-79.8048275652533
20.61345	1358.81362182586	6986.1965435213	7117.11434526441	-78.993404735789
17.55618	1768.42821771871	8165.6187749247	8354.91881101346	-77.7801666045995
14.98558	2215.95155191387	9375.03353668236	9633.3636438343	-76.7012297805887
12.76553	2836.60573998238	10801.498821586	11167.75308273	-75.2856802519384
10.8809	3670.92196185194	12399.2445820672	12931.2386976627	-73.5080786925451
9.278505	4708.04542329033	14169.1907291033	14930.8960757709	-71.6197243913529
7.923394	5975.68689656029	16127.9824858698	17199.4375765675	-69.6694906482866
6.75822	7630.61072993985	18199.8029844238	19734.716840728	-67.2532130346609
5.761429	9658.41964532062	20323.1840655615	22501.4861866457	-64.5809951739503
4.919708	12097.6640042687	22526.2561465079	25569.2332763081	-61.7621001176861
4.191257	15077.2459156581	24611.9156703121	28862.9474822615	-58.5083873906972
3.564097	18584.7710477723	26551.8961308857	32409.827260315	-55.0102336795716
3.051758	22430.8569691307	28120.7182869894	35971.0736751882	-51.4219307889601
2.604164	26587.5915634846	29268.7314426724	39541.8596604909	-47.7481254065813
2.214424	31214.6637198075	29826.1807325295	43173.5600597192	-43.6969299132837
1.892567	53860.3736797988	11870.4080536494	55152.9368237786	-12.4288525934077
1.607507	56857.2858902804	8386.47478367339	57472.4622589485	-8.39065178290358
1.376413	59099.4274781737	5191.32708283131	59326.9938993107	-5.02000868316878
1.17375	60821.3513233382	2066.95912317604	60856.4630652638	-1.9463966447123
1.001604	62339.1757188302	-965.847002744419	62346.6574062788	0.887636529456984
