EC-Lab ASCII FILE
freq/Hz	Re(Z)/Ohm	-Im(Z)/Ohm	|Z|/Ohm	Phase(Z)/deg
6999984	6.78879063208223	2.04750934791241	7.09083724083667	-16.7833891321814
5969734	13.1689536029056	-6.4520204986532	14.6645800318495	26.1021637882615
5091109	15.9110763135171	-1.31015104917117	15.9649254688586	4.70723388759584
4341796	7.46650455890235	-10.2784045959091	12.7041052957426	54.0043547040179
3702781	10.026221509179	-9.01928841090202	13.4860179886487	41.9735989162451
3157797	16.1354226868813	-28.6509988685929	32.8820863305909	60.6130332595513
2693047	11.6240047536232	-3.0831874868741	12.0259524193085	14.8552429121174
2296687	11.7232550336772	-4.0874135718683	12.4153799092952	19.2215480040032
1958656	-9.74436048461086	-10.3093113154971	14.1857132726515	133.386293579841
1670375	-5.4997687416714	-13.1260120425678	14.2316425037134	112.733571488114
1424531	8.20094654389996	-22.7621393412438	24.1944314172932	70.1864704668331
1214875	12.0898240702035	-4.20568966789177	12.8004559149697	19.1812633414276
1036062	6.63949154145062	23.868431476604	24.7746820177845	-74.4550060405578
883578.1	-1.29511046652196	1.36300960206536	1.88018783524867	-133.536752296842
753531.2	20.4281381157959	0.88167863269272	20.4471558924311	-2.47135260872486
642624.9	0.080920566443726	0.063771293620831	0.103028714267663	-38.2406814781426
548046.8	7.35523462614468	-1.88880580755048	7.59388331384373	14.4022109130854
467390.6	1.57786500662522	-5.35496962315166	5.58259416794821	73.5821621354555
398593.7	-0.013877522456814	-0.0314463864074146	0.0343723849568779	113.812221833228
339937.5	-0.00313376262398645	-0.025446370431792	0.025638608315107	97.0207196186672
289906.2	0.0193150345862018	0.00999272440380882	0.0217468411976693	-27.3549990326726
247234.4	-0.0204180456437372	0.00382915932584372	0.0207739993514112	-169.37824176281
210843.7	-0.0180112467268751	0.00572934130308106	0.0189005386278688	-162.354237560742
179812.5	-0.0149982189740925	0.00754239267238537	0.0167879200504196	-153.302822200604
153343.8	-0.0138929958442067	0.00818231312199642	0.0161234481905559	-149.503940131548
130781.2	-0.0110459238365689	0.00854459411552581	0.0139650464375297	-142.276192137532
111531.3	-0.00840640383345975	0.00903274700674835	0.0123392926822865	-132.943053429528
95109.37	-0.00652773828354054	0.00812389310049943	0.0104215644798055	-128.782692287524
81109.37	-0.00493230398501594	0.00778379629345552	0.00921493935620935	-122.360924023918
69171.88	-0.00396081255479442	0.0068433619217784	0.0079069360998217	-120.06147250472
59000	-0.0038916028528588	0.00578580200823443	0.00697280988145154	-123.925270691964
50312.5	-0.00225744972622863	0.00541732157222457	0.00586885442683148	-112.621959309623
42906.25	-0.00214713115014895	0.00451065486038243	0.00499561602261739	-115.455063719206
36593.75	-0.00150393398232808	0.00398464226770977	0.00425901296368307	-110.678142693862
31203.13	-0.00138512158207755	0.00343095078894992	0.00369999798828771	-111.984601058319
26609.38	-0.000987597278470758	0.00295537081987237	0.00311601750113762	-108.478099352119
22703.13	-0.000816695509135164	0.0024689835223099	0.00260055209293707	-108.303289928824
19359.37	-0.000703096848278422	0.00222057314708076	0.00232922525308206	-107.569273697482
16500	-0.000472276193043118	0.00198244706114349	0.00203792569853559	-103.399745230756
14112.02	-0.000398924867338026	0.00170008909038969	0.001746265720056	-103.205512538207
12011.13	-0.000317326395729847	0.00143072690674873	0.0014654949754679	-102.505415408337
10236.38	-0.000214361052114817	0.00129746112230151	0.00131504981827597	-99.3814203261652
8750.684	-0.000107988911405167	0.00119710780948431	0.00120196868200248	-95.1545960799261
7449.463	-0.00012977887831589	0.00111112530233292	0.00111867868252745	-96.6619334473563
6363.206	-6.8197038235759E-05	0.000955710550719531	0.000958140643528266	-94.0815607212051
5414.761	-2.00157968358811E-05	0.000901680773836502	0.000901902904989982	-91.2716611023245
4620.567	-1.07520540027371E-05	0.000739191293631595	0.000739269487565955	-90.8333483890494
3941.215	7.55675155853504E-06	0.000685993802802106	0.000686035423266913	-89.3688682646951
3361.769	5.68508702159247E-05	0.000608500918552842	0.000611150872799802	-84.6624783439314
2867.244	7.30245175397325E-05	0.000493617008262875	0.000498989309513042	-81.5848355473862
2442.658	7.27395844142356E-05	0.000430473987005345	0.000436576339978513	-80.4090115602188
2083.003	7.43886931434403E-05	0.000382416707309173	0.000389584670767188	-78.9921442286397
1777.843	0.000144088733765389	0.00035084695036456	0.000379282409001822	-67.6726181406967
1513.548	0.000141790200575967	0.000302009581527521	0.000333637899996091	-64.8504572250003
1292.065	0.000159538650237281	0.000249236795725394	0.00029592492504518	-57.3763373790777
1101.762	0.000169996520800244	0.000185938363629909	0.000251936285900932	-47.5644867036639
939.101	0.000218163887503222	9.6617687800671E-05	0.00023860104653263	-23.8869943607268
801.2801	0.000151347633983124	6.12637348751969E-05	0.000163276916688024	-22.0375209755122
684.3433	0.000171548711440941	9.09998319861749E-05	0.000194190447289663	-27.9441887221394
582.9476	0.00020573403391528	2.69267043828862E-05	0.000207488650581127	-7.45655295992385
497.0677	0.000117602991369699	-1.12702355470103E-05	0.000118141786800381	5.47410351891074
423.5089	9.15536712493253E-05	-4.02790722261232E-05	0.000100022389386711	23.7471124446235
361.5036	7.02249410792515E-05	-6.32621943951215E-06	7.0509314292377E-05	5.14760008160866
308.1262	4.98502853775576E-05	5.90653375634878E-05	7.7290135552428E-05	-49.8361211219089
262.7298	4.07827597301975E-05	-6.03304509305848E-05	7.28216780958714E-05	55.9417140854276
224.2111	1.26731954573707E-05	-5.96858474705915E-05	6.10164754093797E-05	78.0123291031865
191.2854	-3.73504518484265E-05	-8.04790554239126E-05	8.87239235787441E-05	114.896086094277
163.1722	6.61854574442051E-05	-4.42928797054131E-05	7.96390229077233E-05	33.7913777200542
139.1537	-4.93695824502151E-05	-4.92727639886448E-05	6.97507056766401E-05	135.056236369529
118.6706	2.83231527679658E-05	-3.68048570456707E-05	4.64413445635436E-05	52.4199430539867
101.1982	-7.83103471785901E-05	-7.91428873706319E-05	0.000111337806232168	134.697049127762
86.24196	4.30629604284117E-05	3.28412602807654E-05	5.41568734113033E-05	-37.3303604036608
73.61024	5.4311582768736E-05	-1.75192105202598E-05	5.70672477003968E-05	17.8780708364025
62.69291	2.96961914424528E-05	-9.4074153725478E-05	9.86499375841245E-05	72.4807653658755
53.57697	-5.41109886704814E-05	-1.2248001460734E-05	5.54798398941373E-05	167.24603662401
45.65746	-2.62591384084744E-05	-7.37829506673607E-05	7.83164488414637E-05	109.590496911365
38.96512	7.17391959849658E-05	-3.45126927206481E-05	7.96092846306209E-05	25.6915363956472
33.18414	0.000127596444722705	2.85462535790004E-05	0.000130750683743034	-12.6107208567381
28.30617	7.196392081553E-05	1.33653738839924E-05	7.319452929149E-05	-10.5212812877668
24.17237	2.50723708109976E-05	-7.48318361235536E-05	7.89203869460011E-05	71.4765995341292
20.61345	9.11723792126041E-05	-7.10418970797003E-05	0.000115582671157789	37.9258698176079
17.55618	8.73821288921216E-05	6.51899258360269E-05	0.000109020011375096	-36.7241424085226
14.98558	8.35055450534712E-05	3.23807993689137E-05	8.95639002190456E-05	-21.1947115180306
12.76553	2.64972540688197E-05	0.000128490085267034	0.000131193774566925	-78.3477958922356
10.8809	0.00014098753883409	7.11984056426921E-05	0.000157945240740439	-26.7936780103608
9.278505	0.000186705898965768	-0.000183755642625934	0.000261964174851229	44.5437214274413
7.923394	-2.0530251963539E-05	-0.00017949862427866	0.000180668888754035	96.524881942761
6.75822	8.26263397479832E-05	-2.5589526904971E-05	8.64981844166071E-05	17.2078477259703
5.761429	0.000127440795821349	2.7740520246756E-05	0.000130425047069723	-12.2802273413507
4.919708	0.00019073949429543	1.55079744367155E-05	0.000191368889726639	-4.6481791276517
4.191257	-9.66287812979791E-07	-0.000109657131061479	0.000109661388395241	90.5048716851009
3.564097	1.15908603103071E-06	-7.38712973278027E-05	7.3880390154086E-05	89.1010677912509
3.051758	8.9836051658774E-05	-4.90006292810784E-05	0.000102330727778022	28.6100401645948
2.604164	8.67061318509276E-05	0.000208220091947876	0.000225551679203087	-67.3923844830982
2.214424	0.000156041160962064	-0.000136974991703479	0.000207631867174952	41.2770885021722
1.892567	4.51356697552539E-05	1.56793787044133E-05	4.77814985199475E-05	-19.1563740548071
1.607507	7.46389861678983E-05	3.2977804211092E-05	8.15997170752254E-05	-23.8373189198889
1.376413	-1.37222950537919E-05	-7.36863540703053E-05	7.49531864413897E-05	100.549108312642
1.17375	-0.0001495241706945	7.20817909989052E-05	0.000165991753456272	-154.262469211669
1.001604	-1.44053160745685E-05	-6.8575440687675E-05	7.00721356654487E-05	101.863358903113
