EC-Lab ASCII FILE
freq/Hz	Re(Z)/Ohm	-Im(Z)/Ohm	|Z|/Ohm	Phase(Z)/deg
6999984	4.635014507901	0.887343004954565	4.71918818197521	-10.8377659850632
5969734	5.06161273859801	0.812600453082945	5.12642594912755	-9.12054271812074
5091109	13.3569814189244	1.07322713510248	13.4000286980668	-4.59381975683867
4341796	8.08010213717742	12.4119631780956	14.8102964346302	-56.9361510938126
3702781	15.049695179789	-0.300146057416266	15.0526878882261	1.14253628518596
3157797	33.9568587782258	-21.0093881158178	39.9307230974527	31.7454199181554
2693047	-6.83557901016062	-13.6471965846236	15.2633913342845	116.605276492931
2296687	0.656356365150988	-15.973071455953	15.9865510794247	87.6469582029884
1958656	18.5907433602137	-3.91935624324765	18.9993971495628	11.9049342559621
1670375	-8.69378809436677	-12.1558456212467	14.9447828420936	125.572123282508
1424531	-3.46204622600546	17.103081161377	17.4499612974828	-101.443323543503
1214875	10.6930357167139	-9.45356050483219	14.2727299090763	41.4794400066786
1036062	-16.215476139908	-8.04597099567292	18.1019146972671	153.609812987235
883578.1	2.68727703803733	1.98889390443749	3.34322551471948	-36.505696519551
753531.2	0.840337896279302	0.486319489840125	0.970914221814411	-30.058781138317
642624.9	2.10006524836704	-0.117482519264253	2.10334880362996	3.20192135301366
548046.8	-5.95242305857644	-2.65544515249291	6.51787766271895	155.957794031681
467390.6	0.121444902774519	0.0283100186076497	0.124700928478812	-13.1218851536641
398593.7	0.0150410476489672	-0.0340073443893761	0.0371851124348997	66.1407581796349
339937.5	-0.00501408300664778	-0.0351388345206196	0.0354947703171192	98.1209131768774
289906.2	-0.0294696726996672	0.00833480012059069	0.0306256510473771	-164.207698732211
247234.4	-0.0238468280752885	0.0117991342018444	0.0266062168893945	-153.674328034967
210843.7	-0.0163849764830211	0.0153274353066888	0.0224365266347063	-136.909984019896
179812.5	-0.0127682068513795	0.0139379209952774	0.0189021889703338	-132.49207834898
153343.8	-0.0109961752057915	0.00543744055131834	0.0122670953736239	-153.688308205168
130781.2	-0.0093259204593477	0.00865522735940598	0.0127234332260239	-137.136130461634
111531.3	-0.0075638279405134	0.0116286288306731	0.0138721484131065	-123.041941659211
95109.37	-0.00469220524168306	0.00980371649085235	0.0108687463427522	-115.576473475995
81109.37	-0.0037468403514689	0.00911788700950416	0.00985772165043629	-112.339376525064
69171.88	-0.00288342912001641	0.00805432818372241	0.00855490303751385	-109.697238948598
59000	-0.00374220469358997	0.00618242142855088	0.00722678564016755	-121.186417839679
50312.5	-0.00246143520217797	0.00593808662315526	0.00642802738004563	-112.514816201933
42906.25	-0.00204808163928529	0.00536034167072623	0.00573828382254674	-110.910878150244
36593.75	-0.00121185955464206	0.00456280889435003	0.00472099868529287	-104.874080229187
31203.13	-0.000874758652925994	0.00370530730366288	0.00380716494460726	-103.283320206786
26609.38	-0.00119541679798063	0.00326039024764057	0.00347263097489555	-110.135379774535
22703.13	-0.000945057011768668	0.00288149736814631	0.00303251707961015	-108.158159719318
19359.37	-0.000689113718392092	0.00233287235036468	0.00243252361139049	-106.456761546677
16500	-0.000420776173870084	0.00207574685678205	0.00211796543926886	-101.459194474428
14112.02	-0.000317832884452738	0.00181174883456514	0.0018394160981104	-99.9500809378326
12011.13	-0.000291999241853468	0.00168515572678584	0.00171026704954581	-99.8304473502092
10236.38	-0.000234625437050282	0.00136901502543804	0.00138897488659304	-99.7250231159052
8750.684	-0.000124280777578611	0.00136329653281318	0.00136894965139554	-95.2087978873455
7449.463	6.52619071371202E-07	0.00123525631664625	0.00123525648904433	-89.9697291044487
6363.206	-6.21253258334065E-05	0.00113797629083278	0.00113967082730385	-93.1248357948957
5414.761	-1.14303846666387E-05	0.000777168324682362	0.000777252377663276	-90.8426303053306
4620.567	-9.43846558654917E-06	0.000756571000264114	0.000756629871914445	-90.7147461254574
3941.215	-8.76112561306268E-07	0.000764046960737072	0.000764047463044526	-90.0656995351332
3361.769	3.66098165202549E-05	0.000624930671117747	0.000626002094540685	-86.6473187378237
2867.244	7.78943653404028E-05	0.000575720348878106	0.000580965964806987	-82.2947302555533
2442.658	7.66079712245516E-05	0.000454867699157316	0.000461273676890208	-80.4400658727149
2083.003	7.55112426187696E-05	0.000392104392433204	0.000399309156327829	-79.0994592236678
1777.843	9.81950949110527E-05	0.000389206088711674	0.000401402112793181	-75.8400169187275
1513.548	0.000117309211185575	0.000237442787845049	0.000264840571908102	-63.7082085646275
1292.065	0.000163280881658766	0.000234010915194176	0.000285344974978148	-55.0946303627944
1101.762	0.000123092594262071	0.000187903725958706	0.000224632137040387	-56.7718611756368
939.101	0.000199947299928158	0.000152069638741712	0.000251205290102727	-37.2547528930153
801.2801	0.000141703388663712	0.000112188708309013	0.000180737811845844	-38.3691901820125
684.3433	0.000103643161115475	6.32709861094789E-05	0.000121429496125423	-31.4027911566671
582.9476	0.000127858656270241	4.22523801531619E-05	0.000134659198021669	-18.2867387133575
497.0677	0.000132621962199117	-1.72492296168291E-05	0.000133739002463448	7.41046996446148
423.5089	0.00013541161164134	-2.17193344985503E-05	0.000137142386075075	9.11233796249447
361.5036	8.06065628737173E-05	-6.27663847106381E-05	0.000102161817857546	37.907030965304
308.1262	5.35631679055445E-05	-7.00139293184758E-05	8.81530671882157E-05	52.5827146340054
262.7298	5.27682782103547E-06	-0.000113821637587675	0.000113943890116991	87.3456396985291
224.2111	-8.62130898529303E-06	-8.1982965317755E-05	8.24350263596253E-05	96.0031465745149
191.2854	2.55341577766694E-08	-7.39420083788425E-05	7.3942012787657E-05	89.9802142320997
163.1722	-1.8196864365355E-05	-6.18820872988738E-05	6.45020821462111E-05	106.386345033655
139.1537	-3.5924837655103E-05	-7.31925833851988E-05	8.1533724452798E-05	116.14301414382
118.6706	-5.74679571225725E-05	-6.54883701442762E-05	8.71280248829018E-05	131.267896723904
101.1982	1.47952105957781E-05	-7.4712862386294E-05	7.61637056774861E-05	78.7987709727831
86.24196	3.24992345071748E-05	-6.428896246214E-06	3.31290046710874E-05	11.1896079078972
73.61024	5.99913431873501E-05	-4.74253836600616E-05	7.64730558610446E-05	38.3276793897552
62.69291	5.47031782943767E-05	-1.97045777989605E-05	5.81438569561881E-05	19.8094771863208
53.57697	-5.31937868612499E-05	-4.60831169179443E-05	7.03792059170392E-05	139.096792036571
45.65746	0.000111340930880631	-1.41684997895766E-05	0.000112238804678474	7.25209870030937
38.96512	1.74050169656696E-05	-9.38405883122605E-05	9.5441032215533E-05	79.4925082711275
33.18414	-8.37492073575977E-05	-8.69321851762604E-05	0.000120710954567287	133.931634809247
28.30617	8.08631258219237E-05	-3.65262781999893E-05	8.8730006856955E-05	24.308931940217
24.17237	4.97567378297382E-05	-4.04339289151258E-05	6.4114238410596E-05	39.0984222157652
20.61345	-2.13725198074228E-05	6.51076217808599E-05	6.85258127779466E-05	-108.17317121355
17.55618	-2.2051240192469E-05	-8.05006486448946E-05	8.34662304544462E-05	105.319039252885
14.98558	-1.95072105888865E-05	5.50617317211662E-05	5.8415114183684E-05	-109.508162876205
12.76553	-7.03348641415216E-05	-5.03236993928049E-05	8.64839166225934E-05	144.416762460141
10.8809	8.00524915456901E-05	5.71538324593138E-05	9.83613845340746E-05	-35.5251079010744
9.278505	5.16143803199989E-05	1.68793221355541E-06	5.16419729578087E-05	-1.87306205764013
7.923394	9.74000926517239E-05	-4.09885686024522E-05	0.000105673273842738	22.8226622309138
6.75822	1.11605825996039E-05	-6.31012914628677E-05	6.40806646988337E-05	79.96995400181
5.761429	-2.1744828520985E-05	8.13312892794786E-05	8.41879812281377E-05	-104.968560969604
4.919708	0.000129476654282689	-3.00220508956912E-05	0.000132911728392277	13.0546084493598
4.191257	-0.000104540284229708	-5.3183497340611E-05	0.000117290900824433	153.035881163853
3.564097	6.75513367826797E-05	-4.96534175183799E-05	8.38370143336556E-05	36.3176403120332
3.051758	-5.50288504238743E-05	-1.3838335558573E-05	5.67421704731568E-05	165.884287832323
2.604164	6.7338967277432E-05	4.3265968496634E-05	8.00404931515466E-05	-32.7211555841073
2.214424	-1.38877784005594E-05	-6.97190503515494E-05	7.10887921604027E-05	101.265649331232
1.892567	6.12250779590049E-05	-3.32186523840723E-05	6.96562203776523E-05	28.4827575904065
1.607507	-2.19609967266453E-05	-7.52166109063201E-05	7.8357028615565E-05	106.276222545431
1.376413	6.25364444300686E-05	5.42858974711131E-05	8.28116268781097E-05	-40.9602084639972
1.17375	4.77801298387382E-05	-2.59357238362848E-05	5.43654539052027E-05	28.4937297321833
1.001604	-8.13683463739598E-05	-1.99415742522715E-05	8.3776334219704E-05	166.229494903889
