EC-Lab ASCII FILE
freq/Hz	Re(Z)/Ohm	-Im(Z)/Ohm	|Z|/Ohm	Phase(Z)/deg
6999984	14.9111733214533	93.2773040472127	94.4616246956328	-80.9176261949564
5969734	17.6907890488373	87.4234544096156	89.1954281231981	-78.5602486426701
5091109	16.4623961377029	87.8725157648964	89.4012836230365	-79.3889747975473
4341796	17.0094616236842	92.2723293828069	93.8269926751188	-79.5553617412534
3702781	19.5637328351635	100.412863423775	102.300942241053	-78.9750127905653
3157797	19.7290522295701	108.341832464655	110.123513218915	-79.6795216954582
2693047	19.3061866271643	121.045329356334	122.575285441504	-80.937908900904
2296687	19.244597814163	138.287784019297	139.620434586047	-82.0774073638602
1958656	21.0752617500768	157.764837034219	159.166298135842	-82.3911017566943
1670375	22.1962202688044	181.081668914091	182.436956264167	-83.0117869361595
1424531	24.1124606533941	208.614245246059	210.003128734656	-83.4067840401227
1214875	26.7941689242323	240.465891863977	241.954071340571	-83.6419832150239
1036062	28.8126974206713	277.779865379756	279.270165150255	-84.078175984457
883578.1	31.0748282879817	321.9812003911	323.477260960366	-84.4873824417395
753531.2	34.0324292439379	373.931875688148	375.477368020897	-84.7997017358653
642624.9	37.2519561464694	434.682614100711	436.275925577112	-85.1017650854583
548046.8	41.2781589493928	508.597052361032	510.269387751785	-85.3599971637237
467390.6	192.882297326319	723.855383736413	749.112940207328	-75.0793581499118
398593.7	126.722450205165	801.059949130951	811.021344656035	-81.0106745408856
339937.5	225.070782114873	889.977869313802	917.996440532389	-75.8077593948616
289906.2	226.55917427013	1038.50628278805	1062.93196340886	-77.6932489070782
247234.4	250.904284801019	1184.13889883856	1210.42880495885	-78.0366798094796
210843.7	273.214891177424	1353.26412768143	1380.5687871419	-78.585802560333
179812.5	294.58433375282	1551.33735374793	1579.05905995508	-79.2480844757247
153343.8	316.002600498023	1785.49446821407	1813.24243816004	-79.9635368745045
130781.2	338.72690172724	2060.30716225965	2087.9658801839	-80.6637485959339
111531.3	362.767019532142	2381.79990323316	2409.26766663684	-81.3399533857473
95109.37	389.421946952255	2758.82964870509	2786.1784729881	-81.9655087064712
81109.37	419.35386961885	3201.22260186764	3228.5730307169	-82.5368622197756
69171.88	447.766166571773	3714.29043385594	3741.18269628203	-83.1260347205086
59000	476.423586584485	4301.21020264929	4327.51529647538	-83.679397359046
50312.5	1331.57506301136	5708.4942840854	5861.74028253294	-76.8698512596957
42906.25	1840.9237955836	6690.78456503793	6939.42350032737	-74.6161217725486
36593.75	1958.9521621449	7476.12924952614	7728.51875388761	-75.3170210433321
31203.13	2075.52518132835	8502.82996475142	8752.48091616329	-76.2824549281275
26609.38	2200.10468605267	9734.33026321671	9979.86203827325	-77.2642754058637
22703.13	2354.70476924446	11254.1044087963	11497.8041640302	-78.1824402725609
19359.37	2473.65372948399	12903.9061852053	13138.8643957524	-79.1481606362539
16500	2617.05873706954	14930.9083579408	15158.5296393317	-80.0583040938192
14112.02	2770.83152854484	17249.0214494679	17470.1530709889	-80.874138698306
12011.13	2990.45673702523	20051.6744854924	20273.4427556882	-81.5175703022379
10236.38	3252.66206325961	23323.7655910963	23549.4766788176	-82.0609061793604
8750.684	3406.19522736529	27021.3482988058	27235.187346745	-82.8154342997682
7449.463	3683.36952344921	31500.3886711462	31715.0074488333	-83.3306379491498
6363.206	4100.04595097017	36501.5737985722	36731.1212267293	-83.5911045628163
5414.761	14802.3119283587	49649.6194716418	51809.1994929787	-73.3988156410136
4620.567	16228.593974578	56193.3676628124	58489.8438336068	-73.8913301617081
3941.215	17515.4600396488	63672.6289165011	66037.8301698275	-74.6191584488628
3361.769	19010.4238807583	72414.1762488297	74867.9446620693	-75.290435801638
2867.244	20230.6202934845	82651.1788604113	85091.1003834998	-76.2460721081367
2442.658	21552.426127279	94977.1329803238	97391.8007900764	-77.2148291481439
2083.003	22694.8367843527	109404.74770741	111733.855377815	-78.2808171259848
1777.843	23855.4232588549	127373.514342903	129588.168344648	-79.3921260654206
1513.548	26080.5878171405	146324.835680129	148630.934188359	-79.8938652066166
1292.065	27046.9195555762	169516.90307124	171661.05057441	-80.9347003372513
1101.762	29829.4861141927	196832.21734898	199079.682610639	-81.3825241499255
939.101	32314.3179412649	227640.238684842	229922.363880726	-81.9206461111124
801.2801	35089.2123686621	264902.239282463	267216.109547154	-82.4544708888358
684.3433	123692.829955772	380447.807589326	400050.55990711	-71.9893967607713
582.9476	136287.920080679	437615.809023683	458347.022972082	-72.7016978916779
497.0677	157010.009249917	482338.969983052	507250.45585881	-71.9689994632647
423.5089	166908.790134876	542767.5420695	567851.34405798	-72.9065875992167
361.5036	179578.819769148	620343.54761843	645813.184738047	-73.8551765248353
308.1262	202199.780144839	695436.290776078	724235.034791201	-73.7880831670255
262.7298	207105.258520345	810730.303634387	836765.327518943	-75.6699630451327
224.2111	220345.996986496	908612.151530802	934948.340977942	-76.3684558931767
191.2854	249272.66802447	1120962.71055914	1148344.1389619	-77.4629198734356
163.1722	255532.249814306	1279865.55877491	1305125.50324992	-78.7090457820656
139.1537	223805.808133711	1338372.30694607	1356955.95792735	-80.5067008642886
118.6706	310544.317521208	1654734.64723284	1683622.44161139	-79.3709266270007
101.1982	457392.497244817	2036965.20930079	2087686.55703812	-77.344374905623
86.24196	559282.76514498	2180426.63193784	2251012.55186461	-75.6136985896509
73.61024	101927.205218104	2641459.17720174	2643425.00177078	-87.7901976517711
62.69291	1490893.96302471	316474.367670919	1524113.13043889	-11.984374854257
53.57697	573968.520892308	3077739.9041245	3130802.25827432	-79.4362438156457
45.65746	122162.919165735	4504703.17507209	4506359.33701737	-88.446578101873
38.96512	241742.959505689	4166595.7411249	4173602.72767194	-86.6794616701305
33.18414	417934.539910506	5732189.11407633	5747404.74642124	-85.82993714729
28.30617	1150663.16187305	4659672.58855949	4799643.14763758	-76.128844943253
24.17237	937106.957434268	6426829.13833788	6494790.39100266	-81.704068064553
20.61345	791599.469439246	8576553.17729803	8613007.26361226	-84.7266496169861
17.55618	5278262.91599437	8384578.23900733	9907634.00900521	-57.8087486270629
14.98558	1827243.51282594	10827693.3198809	10980790.5673753	-80.4212155612551
12.76553	6337912.45458179	13975491.2304237	15345471.2998198	-65.6056155989827
10.8809	1892343.92897787	7367198.21400684	7606350.96942055	-75.5943899119549
9.278505	8564354.18549902	5046129.31651177	9940401.58613495	-30.5066507876148
7.923394	5703213.73182676	10545407.4567817	11988839.1973721	-61.5943953710513
6.75822	8522888.49004722	2068465.66985129	8770300.93218772	-13.6416667358288
5.761429	8461003.77446279	-696713.990187438	8489640.46680402	4.70735077098604
4.919708	4290661.57049124	8504331.75627452	9525409.98242436	-63.2278407491898
4.191257	11435893.8753032	2143976.17894245	11635132.2546445	-10.6184262819313
3.564097	6996289.99517502	10729276.8678845	12808803.8397154	-56.8926464084283
3.051758	12758124.863414	5334521.2417568	13828480.2819839	-22.6911397690415
2.604164	15225759.2118309	3719959.46345342	15673603.350423	-13.729547002446
2.214424	15649886.3481114	3192344.71195896	15972163.5187214	-11.5293145846302
1.892567	18763896.1026049	-1740744.40823191	18844468.3672462	5.30021311991971
1.607507	22829182.4845921	-13363883.7099067	26453070.9129718	30.3441083907142
1.376413	35428558.9172518	221904.437098237	35429253.8523236	-0.358863635204823
1.17375	18249153.1322959	9190677.08165631	20432820.0517028	-26.7308359993909
1.001604	46586264.2887441	-11778285.5603741	48052138.6737618	14.1886122470607
