EC-Lab ASCII FILE
freq/Hz	Re(Z)/Ohm	-Im(Z)/Ohm	|Z|/Ohm	Phase(Z)/deg
6999984	41.1152533571626	49.2965661072226	64.1920204432564	-50.1705795052385
5969734	59.6516491666579	-76.2399816135525	96.8031716667221	51.9596803275802
5091109	86.8587244433873	40.7418065306847	95.939214147897	-25.1293158295971
4341796	133.716834959662	-574.142586404164	589.508186096252	76.8896183036277
3702781	3.36834054629557	-7.1954938297273	7.94486308815089	64.914857681173
3157797	2.87717113303282	-7.4823534464207	8.01646598108674	68.9668725041177
2693047	5.12740885248561	-4.34379834296358	6.7200376178174	40.2703443603479
2296687	0.16336918425365	-16.3817103105596	16.3825249027571	89.4286277627272
1958656	-2.08713489436698	-17.0885276988427	17.2155136717264	96.9634238391541
1670375	8.57643821877081	-2.80585230736776	9.02375197415984	18.1159342650511
1424531	8.39040212656892	-1.12295676641415	8.46521587112624	7.62306595434477
1214875	136.122156098907	-110.239982390795	175.163052892264	39.0026523203091
1036062	-1.07597784169016	-12.3061068697368	12.3530560836253	94.9969180947061
883578.1	5.17534022140265	-11.6499456608108	12.7477598152425	66.0474233548081
753531.2	5.83113103836903	-12.1720074631597	13.4966608785227	64.4027480038851
642624.9	14.981331071507	-16.2023703742392	22.0671041692861	47.2423469129296
548046.8	11.8513831387301	10.5287587944011	15.8527614014611	-41.6178608804042
467390.6	21.7784900215075	-0.205780796474059	21.7794621915487	0.541360777011185
398593.7	8.84212960585537	6.92134109786387	11.2289010397155	-38.0527226734499
339937.5	-2.09571791583849	19.5239072831198	19.6360634848899	-96.1267335709246
289906.2	21.2055410108138	-12.9186668417123	24.8307656452326	31.3502681155875
247234.4	26.2830651018139	-1.20470027748291	26.3106597010557	2.62435010171644
210843.7	1.59747198466691	13.1198697535797	13.2167658333153	-83.0578527428881
179812.5	10.3060991156301	-2.47932663023222	10.6001292218807	13.5265480556311
153343.8	7.16453688312187	-3.30413570628449	7.88973393183558	24.7581709586452
130781.2	11.938228759527	0.034566939518032	11.9382788034166	-0.165898497185642
111531.3	3.91219001062118	-7.35232846137502	8.32838306534644	61.9824596856934
95109.37	8.58485413452438	-0.0942457391110975	8.58537144044455	0.628975878760764
81109.37	8.43326377471547	4.06290971805241	9.36093869603754	-25.7234616039919
69171.88	1.81600936756093	-11.6555013210644	11.7961265281619	81.1441164113716
59000	17.9116356303943	3.31565577308479	18.2159343477518	-10.4874137524966
50312.5	220.387291769571	2.78888556505076	220.404937005097	-0.725009334802641
42906.25	2.74458983394378	-6.46706032840792	7.02535711888407	67.00386180222
36593.75	85.0328452104201	73.3280556311027	112.283518413066	-40.7728340762555
31203.13	3.30762263057961E-05	0.000583014845242556	0.000583952349528481	-86.7529148594663
26609.38	-8.71629553369776E-05	0.000544194942520211	0.000551131124368468	-99.0996969782994
22703.13	0.000186387299502714	0.000454401075078442	0.000491142100056957	-67.6974272132258
19359.37	0.000825914957465938	0.000729003752318442	0.00110162697309948	-41.433620571802
16500	-8.27188774580406E-05	0.00267408428282548	0.00267536337052412	-91.7717959616942
14112.02	4.80935884742394E-05	0.000592542026016205	0.000594490576752667	-85.3597679806057
12011.13	9.64540320021918E-05	0.000605636140926151	0.000613268713930036	-80.9510296344125
10236.38	7.48806930511455E-05	0.00027553564487287	0.000285529350132921	-74.7962597033377
8750.684	0.000207350052370683	0.000418191700716815	0.000466774402432854	-63.6266193746009
7449.463	0.000148685311419191	0.000357282219810187	0.000386985666949458	-67.4050468503706
6363.206	0.000378298253651848	-0.00010183332895064	0.000391764719699474	15.0662002427067
5414.761	0.000339610775541512	-0.000198910518039861	0.000393574482214984	30.3575671693218
4620.567	0.000423639498938752	-5.40129723371773E-05	0.000427068877631903	7.26586687612636
3941.215	0.000642096672486549	-0.000198177961384089	0.000671984107845306	17.1524197888693
3361.769	0.000386741864315687	0.000173391470498481	0.000423832362681284	-24.1485553237819
2867.244	4.74397378985423E-05	0.000253683608946735	0.00025808119299965	-79.4078251090072
2442.658	0.000626826743540651	-0.000345702459332733	0.000715836543357823	28.8772619506659
2083.003	0.000533238159037854	0.000129846642489572	0.000548819719780452	-13.6855151958902
1777.843	0.000649911184947902	0.00021996471202149	0.000686126098363182	-18.6985693173416
1513.548	0.000526034683502907	-0.000411380095366272	0.00066779193699203	38.02682498111
1292.065	0.0003028568620804	-4.30594805365995E-05	0.000305902595237877	8.09194596599008
1101.762	0.000224733784392233	8.44792306732273E-05	0.000240087513757786	-20.6016429042907
939.101	0.000283396494425633	0.00010498578662096	0.000302217783138517	-20.3274253035411
801.2801	0.00161908729418919	0.00132829764480567	0.00209423453782072	-39.3654205482962
684.3433	0.000794165328206013	3.70201601911622E-05	0.00079502771070268	-2.66892106155746
582.9476	0.000573167177224937	4.74700304257241E-05	0.000575129565260405	-4.73446370680943
497.0677	0.000429683792922556	0.000856986586928543	0.000958673130986651	-63.3713093810905
423.5089	0.000794949817616224	0.000430647631501978	0.000904103199334198	-28.4457044097954
361.5036	0.000788125603529078	-0.000905559512418159	0.00120049156493042	48.9663310818546
308.1262	0.000811392693958331	6.98551791043295E-05	0.00081439416123684	-4.92062858064554
262.7298	0.000921705795846817	-0.000837319015195551	0.00124524885356529	42.2534200442311
224.2111	0.000387312781291976	0.00371510269526271	0.00373523750608985	-84.0482102917717
191.2854	0.000519299705166601	-0.00109986198760186	0.0012162929645269	64.7256670172208
163.1722	0.00108932982583266	0.000950330314720125	0.0014456027035547	-41.1014139126072
139.1537	0.000898400167295761	-0.00127648655812083	0.00156094227749146	54.8618490697886
118.6706	0.00208251832347538	0.00178067692866153	0.00274001695102023	-40.5324095262628
101.1982	0.00111411485720286	-0.00241502904079666	0.00265962726390963	65.2349119055331
86.24196	0.00228646914641828	0.00247785949177208	0.00337160626682413	-47.300421915044
73.61024	0.00120714068461176	-0.00322025970779839	0.00343907854201016	69.4510791367827
62.69291	0.00424229998404025	-0.00375121532690507	0.00566292553221349	41.4844304690742
53.57697	0.00382840140732569	-0.000368880693427366	0.00384613186222168	5.50367100592846
45.65746	0.00533053939467254	-0.0026962307668338	0.00597363462108096	26.8306624360365
38.96512	-0.00113092083166979	0.00879398211537399	0.00886640306849527	-97.3281114757549
33.18414	0.00679928418119501	0.00283359670673883	0.00736610722655392	-22.623897442205
28.30617	0.00873431431250792	-0.00292952011664905	0.009212509681055	18.5416361772553
24.17237	0.00566481561607983	0.00786478749635707	0.00969252383680517	-54.2357093321138
20.61345	0.00586742120877004	0.0098688372083823	0.0114813143623313	-59.2668116241119
17.55618	0.0103325549940997	-0.00632772641981038	0.0121161798579445	31.4835839353585
14.98558	0.0115512397653789	0.00426710719124968	0.012314192783081	-20.2745756765182
12.76553	0.00993025723787109	-0.00100862661059923	0.00998134943030751	5.79970225585429
10.8809	-0.0109254033187006	-0.0206040036829857	0.0233214366076527	117.935054239651
9.278505	-0.00151574478016725	0.016205453538544	0.0162761852603279	-95.3435002649807
7.923394	0.0090877070714575	0.0232256046113095	0.0249402311412204	-68.6306035741554
6.75822	0.0272386468486885	-0.050287984650239	0.0571911294024715	61.5576687763834
5.761429	0.0319934587820891	0.00681955533891697	0.0327121955830204	-12.0327840583676
4.919708	0.0393379269978781	0.0265567388764224	0.0474629632475773	-34.0229901791579
4.191257	0.0762518604506039	0.0258987963497215	0.0805300805571603	-18.759956015512
3.564097	0.0351189106547922	0.0813629155337333	0.0886186318430199	-66.6533835189384
3.051758	0.0478922202333732	-0.116685909405942	0.126131939701147	67.684936733292
2.604164	0.101807173083006	-0.0500958120803898	0.113464932376249	26.2002140557423
2.214424	0.0389104634046286	-0.159887258284705	0.16455381953684	76.3222754948891
1.892567	0.0778632969207289	0.012599021501716	0.0788760315315514	-9.1913373832871
1.607507	0.0804993310851053	0.0637005730539284	0.102654300019767	-38.3552042822333
1.376413	0.119507688652641	0.0927344200223473	0.151267181847146	-37.8104016331552
1.17375	0.0552011088563552	0.0690975730167679	0.0884400193112753	-51.379119382508
1.001604	0.139500725122468	0.048875192744338	0.147814873322986	-19.3083167324978
