EC-Lab ASCII FILE
freq/Hz	Re(Z)/Ohm	-Im(Z)/Ohm	|Z|/Ohm	Phase(Z)/deg
6999984	5.29766320187116	1.9350414548698	5.6400018468547	-20.065388785516
5969734	0.70066720040604	-0.501273167232932	0.861515707293009	35.5807879396052
5091109	7.88143544751441	2.39581201436389	8.23753239274403	-16.9083111202538
4341796	6.4216867887996	-5.60392937456775	8.52303265560954	41.1098020147279
3702781	1.95767780879111	-2.29653546355432	3.01771064524017	49.5541227543014
3157797	1.11835780403521	-1.24563886794037	1.6740192254482	48.0819134292907
2693047	-0.899908378412351	-8.40684310748841	8.45487114765578	96.1099459075272
2296687	7.02959493831789	-7.47448512735943	10.2607569367928	46.756908421005
1958656	11.8456671518172	-16.1794041994112	20.0522554970648	53.7904695590956
1670375	11.2878816097703	-3.6202502807165	11.8542179552773	17.7820889465622
1424531	-7.64278237470414	-6.99221635595937	10.3587263693774	137.545279623137
1214875	20.2631978843635	-11.5896569661247	23.3434645477769	29.767655553033
1036062	5.50871674208967	-10.0958409364218	11.5009549324441	61.3812550712627
883578.1	9.32399675054758	4.44665039874372	10.3300346162474	-25.4966562607893
753531.2	15.8001897303732	3.54672960523271	16.1933716812906	-12.65168733909
642624.9	21.1698444145585	-9.05826317535675	23.0263858277984	23.1653654769154
548046.8	2.67872801579378	-3.31410182920973	4.26132077142402	51.0520235068457
467390.6	3.07007595860198	-1.11091093694195	3.26488736427508	19.8927222243753
398593.7	3.37752653118883	-1.62329701235103	3.74736956533409	25.6697353515425
339937.5	5.87199553972812	-7.24093028969366	9.32262854986672	50.959851786343
289906.2	9.58280113161353	4.04847123977631	10.4028936795177	-22.9027273532054
247234.4	8.97849317134244	-0.0775887719725119	8.97882841162359	0.495116322042145
210843.7	4.386543664489	0.668204469072476	4.43714576422242	-8.66131131574543
179812.5	7.18302882978671	2.01759982481636	7.46100611329638	-15.6892173603981
153343.8	4.96884376346966	0.06073069194088	4.96921488393438	-0.700251255517243
130781.2	3.61027302846278	6.80996370640509	7.7077673176219	-62.0698930452304
111531.3	4.46309809450251	-0.381059105807199	4.47933596008053	4.88007577382177
95109.37	6.4545020842827	-2.34329439571517	6.86670414252717	19.9533296999443
81109.37	0.839035606791947	-7.47617182131515	7.52310613053487	83.5966049576496
69171.88	7.49245642454337	8.71586705273618	11.4936174355445	-49.3165228862386
59000	5.0402759373953	3.70405640220038	6.25495126725762	-36.3118534383024
50312.5	3.9917556224154	-0.168500728477041	3.99531043156627	2.41714507172754
42906.25	2.9696708339045	11.3802000439213	11.7612881055355	-75.3747751890813
36593.75	5.1028711292197	-4.40573344881272	6.74164527273655	40.8067760960391
31203.13	59.1786955133899	-39.0755099372626	70.9155376453118	33.4366595490887
26609.38	6.21029332215494	1.08250732518678	6.30393252313865	-9.88780196073633
22703.13	21.1097732266634	14.54544004076	25.6357631378607	-34.5683256789854
19359.37	11.0400803411846	-6.93980695014592	13.0401033142036	32.1535148373153
16500	2.66695451060543	-8.80190884039372	9.19707810101881	73.1433337601648
14112.02	10.4125802870956	-2.45982684751793	10.6991857800013	13.2916468187834
12011.13	18.3031541901386	7.05734761334355	19.6166156266455	-21.0856891087731
10236.38	20.1579227967	-12.7598422690282	23.8569785641056	32.3335610948572
8750.684	19.7370193214777	6.71602327346208	20.848378841197	-18.7921791619101
7449.463	-0.70000074631311	-104.232323625094	104.234674122056	90.3847797312415
6363.206	41.6277268084333	48.6095842261101	63.9981196432587	-49.4242847883468
5414.761	17.391621319251	-116.902319198362	118.188919641681	81.5381394870831
4620.567	94.1602804540052	-20.3160055910884	96.3270392898798	12.1754849268229
3941.215	118.920702903483	277.142071886338	301.578947522056	-66.7759964870964
3361.769	-398.706088800446	-156.591751324267	428.354434819286	158.557590027087
2867.244	329.349446002243	80.1451248693542	338.960615149177	-13.6767432120467
2442.658	10.5611200528751	215.332688446587	215.591521100451	-87.1921443052135
2083.003	222.144345954877	-234.298143698189	322.867977012489	46.5252673140115
1777.843	1.26903133488269	365.679175332687	365.681377311619	-89.8011649211213
1513.548	180.419375460352	-197.705165588739	267.653663419678	47.617428003934
1292.065	154.442324265492	-439.843462354575	466.170250981964	70.6522851542745
1101.762	354.869891376317	379.202382274719	519.352564765267	-46.8985034809157
939.101	257.978009523556	191.834326727131	321.485710893326	-36.6347609924822
801.2801	447.205083269063	-407.983583297368	605.345348327589	42.3740849558856
684.3433	340.988461913157	219.789281607499	405.685172846434	-32.8044178108957
582.9476	476.022569638902	117.763987299264	490.373167608348	-13.8954984982277
497.0677	1185.19053909838	-31.8630230014653	1185.61876933654	1.53998622147011
423.5089	662.097524884384	1549.69617046853	1685.20958732819	-66.8657216778139
361.5036	1194.97539409846	684.959451615769	1377.36547178247	-29.821318780125
308.1262	433.889052374816	-514.718854454216	673.197748734632	49.870343891012
262.7298	1258.64408371764	-943.467496124803	1572.99581872344	36.8548741886376
224.2111	589.470423219765	-2085.02788425582	2166.75256039428	74.2135616256897
191.2854	2065.5583741825	-479.540914918248	2120.49307620564	13.0702731154787
163.1722	1987.81955112724	-517.94323091016	2054.18883218885	14.604184265447
139.1537	2967.44716929672	-85.2577294218611	2968.6716866291	1.64571240453221
118.6706	5492.85736501472	179.245590088874	5495.7812014274	-1.8690404668761
101.1982	2089.59821427111	-115.904096836819	2092.810181729	3.1747814881739
86.24196	5870.63053534419	-3639.88498708992	6907.4644842922	31.7995758889511
73.61024	5318.33797340461	6198.14097010767	8167.10905306674	-49.3686333977057
62.69291	4899.11516445576	547.332894528109	4929.59457684228	-6.37469405115783
53.57697	7608.01728073612	2721.48500237139	8080.1242293737	-19.6827790290835
45.65746	7436.57404801272	-2582.89923844575	7872.35682928181	19.1533316489149
38.96512	7115.32189289993	3300.87603754679	7843.69735869708	-24.8871036512835
33.18414	1106.72241253127	-1739.59564477671	2061.80200449149	57.5356769419036
28.30617	30.6844751592775	-8733.70190123733	8733.75580358716	89.7987012026022
24.17237	-660.449898788027	9153.52862797036	9177.3242512119	-94.1268816828
20.61345	4143.48416715531	-3853.84114548925	5658.67056985408	42.925797475973
17.55618	2065.35176846563	2664.33463247985	3371.1061925332	-52.2177004114615
14.98558	2573.82033260926	-6452.54616696406	6946.93480186445	68.2537119365183
12.76553	6178.41337021599	-82.6199492542244	6178.96575725084	0.766133953505951
10.8809	5010.72128358455	-1179.60791435759	5147.69876871037	13.2471795643033
9.278505	1370.09887966996	-447.59974689203	1441.35924511924	18.0917783644083
7.923394	1454.42241129589	2362.38123094915	2774.20071927403	-58.3810761686191
6.75822	9539.48674384168	-9792.18026192981	13670.7205961522	45.7488980424534
5.761429	6765.92743250847	40.6171486704504	6766.04934764275	-0.343953325319016
4.919708	6681.7936894158	5472.07184055352	8636.54659780723	-39.3158482398615
4.191257	4882.85391385614	7804.66256982947	9206.24897409132	-57.9685465561249
3.564097	6079.10430046073	2447.22242718062	6553.19820423402	-21.9278912309918
3.051758	4225.54620762962	1538.1096635653	4496.77907951525	-20.0016357716518
2.604164	4029.34157843364	-6754.53835583838	7865.07355058971	59.1823003493301
2.214424	6684.21466947497	-2421.05502355087	7109.16543447156	19.9106328850511
1.892567	10085.2365017884	-3414.12992900702	10647.4540839182	18.7023737571013
1.607507	3330.03530057806	2561.37784520185	4201.16550126115	-37.5665622547035
1.376413	3408.1680283074	458.96334373351	3438.93248844285	-7.669635963933
1.17375	2330.14728537656	-2587.09232117685	3481.75717847181	47.9912084807435
1.001604	790.05551103914	-3493.54164250326	3581.76226436481	77.2570561376451
