EC-Lab ASCII FILE
freq/Hz	Re(Z)/Ohm	-Im(Z)/Ohm	|Z|/Ohm	Phase(Z)/deg
6999984	27.4888239383927	4.77546519067054	27.9005467563497	-9.85528660586265
5969734	17.121606399229	-2.72239033911719	17.3366898469298	9.03458186011726
5091109	12.2540141945796	-5.22925166122047	13.3231353973956	23.1097771116318
4341796	11.7176002696801	-5.69715975130006	13.0291897411865	25.9292680440029
3702781	7.05794501023048	-4.95945193548297	8.62616666125823	35.0948108673532
3157797	4.02537891307365	-6.17154775491784	7.36828861303963	56.8856849712174
2693047	3.45121818663248	-5.08723319998714	6.14742617709186	55.8467291421508
2296687	3.23056837498032	-4.09909547580749	5.2191144598685	51.7577413526863
1958656	2.93089727161683	-3.45716611348561	4.53234556857751	49.7095719336983
1670375	2.73388360892527	-2.88594803400753	3.97527554292053	46.5499617949817
1424531	2.6031413537969	-2.52028845999366	3.62328564005445	44.0735293424452
1214875	2.33854993595603	-2.300078296561	3.28011828647549	44.524813820202
1036062	0.835111306166356	-1.8359004347848	2.0169138058256	65.5402411145583
883578.1	0.743483474191569	-1.59388104014937	1.75875650575729	64.9927799413108
753531.2	0.659745462257826	-1.37510289144911	1.52517934586116	64.3692872686494
642624.9	0.591418824279615	-1.21756978478834	1.35360718324846	64.0924340620422
548046.8	0.571093762933773	-1.02517100815048	1.17350913162792	60.8790575638305
467390.6	0.537755473927034	-0.892448102015431	1.0419426877374	58.9284227503076
398593.7	0.502090214611405	-0.773810514306561	0.922430103400746	57.0223067574664
339937.5	0.476898828828902	-0.6722468265252	0.824225872386678	54.6477175530144
289906.2	0.453484072286652	-0.584087192183409	0.739463083520999	52.1743103176362
247234.4	0.435405538106265	-0.50616609466317	0.667669153099177	49.2977871663378
210843.7	0.420118487414143	-0.438964934902825	0.607609872814282	46.2567449137455
179812.5	0.407211472147705	-0.378992591931208	0.556288205687876	42.944389956425
153343.8	0.399020663970697	-0.329232993750525	0.517312144115667	39.5261294802524
130781.2	0.391592644996733	-0.286371822651019	0.485132580254104	36.1780162269378
111531.3	0.383666364803835	-0.249749166562256	0.457793103574454	33.0622774665943
95109.37	0.376177006202687	-0.217776707101194	0.434667498384059	30.0674442601793
81109.37	0.369121096100294	-0.189562906155792	0.414951176617818	27.1828595927035
69171.88	0.3618703506713	-0.164040097505701	0.397315119627544	24.3853473213536
59000	0.350662544884348	-0.137598391380757	0.376692895732504	21.4248170981331
50312.5	0.343159624228969	-0.0977928655850015	0.356822045647818	15.9063740943306
42906.25	0.388961415052498	-0.113094369697331	0.405069523485634	16.2123106386187
36593.75	0.366149180130923	-0.103361416549906	0.380458676523154	15.7640112709744
31203.13	0.358786494556837	-0.0909181417541165	0.370126812290605	14.2196894778686
26609.38	0.354402940704054	-0.0807116591934781	0.363477394495786	12.8297110556151
22703.13	0.351353259603116	-0.0716146057531801	0.358577418127409	11.5205082233191
19359.37	0.336066634275725	-0.162263509050425	0.37318926705195	25.7727073264834
16500	0.226432964415537	0.118928580374245	0.255765311572623	-27.7096427191247
14112.02	0.345189957540869	-0.0520335510495206	0.349089669314189	8.57216481240103
12011.13	0.342386806330128	-0.0457563880130646	0.345430705341819	7.61187608860587
10236.38	0.340941747410915	-0.040559549298976	0.343345820080781	6.78420990564964
8750.684	0.338934732541806	-0.0365930836681198	0.340904395242314	6.16206941338478
7449.463	0.33730740747442	-0.0325200290666883	0.33887142019889	5.50690363380859
6363.206	0.33680569814975	-0.0301277189749407	0.338150495721615	5.11157937094438
5414.761	0.33561744228207	-0.0267264909540611	0.336679926462324	4.55307214436455
4620.567	0.335155020326411	-0.0239763646361819	0.336011538062556	4.09186231872266
3941.215	0.333327874622255	-0.022879630088988	0.334112180971001	3.9266241553959
3361.769	0.332559003254201	-0.0206166685123632	0.333197445467363	3.547455583481
2867.244	0.335184917041043	-0.017607508135215	0.335647066059786	3.00702517533755
2442.658	0.336382718286855	-0.018309849997564	0.336880666956397	3.11562646061562
2083.003	0.333460951616103	-0.0169507825397469	0.33389150225998	2.91000508597246
1777.843	0.332076466287028	-0.0137496882614662	0.332360998597861	2.37098816470959
1513.548	0.331409324675808	-0.0124930813587298	0.331644715869123	2.15884710331563
1292.065	0.335854102387319	-0.0198235908285205	0.336438631616122	3.37793054993108
1101.762	0.333699560479688	-0.0121919716388379	0.333922207762196	2.0924149388014
939.101	0.33263104211218	-0.0125279672807792	0.332866880510547	2.15692597582856
801.2801	0.33255761930796	-0.0123808893428784	0.332788005463987	2.13209742273436
684.3433	0.335889519890696	-0.00558329018808417	0.335935920529089	0.952305702835605
582.9476	0.339847544235281	-0.0108768244213409	0.34002155612879	1.83312632636171
497.0677	0.334940651345622	-0.0120733711744702	0.335158180886795	2.06440704290202
423.5089	0.329700126203661	-0.0122568335837253	0.329927875736817	2.12903037965703
361.5036	0.336553059937238	-0.00384663240847325	0.336575041757412	0.654833464055018
308.1262	0.333679853439327	-0.00871003391100859	0.333793512941791	1.49525024978409
262.7298	0.338582535253254	-0.0118155708434659	0.338788637490808	1.99864924971265
224.2111	0.342917238043191	0.00670501316148908	0.342982782874981	-1.12015368891918
191.2854	0.393636737228367	-0.00413637685309118	0.393658469373219	0.602048008305205
163.1722	0.355155738073121	-0.03391465259795	0.356771358081199	5.45476791219845
139.1537	0.32918644030627	-0.028919986459581	0.330454351005303	5.02071055646781
118.6706	0.329099177751524	0.0106948718092462	0.329272909726484	-1.8613095473464
101.1982	0.401529106633656	-0.0291688383948937	0.402587188826631	4.15491861590799
86.24196	0.365150215879351	-0.0229979202003408	0.365873727521229	3.60384723559336
73.61024	0.32581371049372	0.0238308477008047	0.32668407253465	-4.1833103935301
62.69291	0.241488802482889	0.0121772842548508	0.24179563266619	-2.88674471836353
53.57697	0.244169429378471	0.0151561205988563	0.24463936362453	-3.5519149140005
45.65746	0.322255711628079	-0.0117265078673235	0.322468997988461	2.08400678315785
38.96512	0.244701118314888	0.0129005870113561	0.245040940354453	-3.01782657569135
33.18414	0.25697044247311	-0.00285544715876244	0.256986306801164	0.636642627017409
28.30617	0.277265904586489	0.00631864150577636	0.277337893329856	-1.3054935035303
24.17237	0.305753893649164	-0.0724318830054764	0.314216201296723	13.3274566809791
20.61345	0.282342917057887	-0.0588379418844577	0.288408436454199	11.7714981150541
17.55618	0.259835587568069	0.0465123258775439	0.263965772450488	-10.1488415321979
14.98558	0.315161713273356	0.00637419515358234	0.315226166231887	-1.15865817162536
12.76553	0.222062894053432	-0.067054235506765	0.2319659445151	16.8022451732192
10.8809	0.272038748563568	0.0588317326377644	0.278327601012177	-12.2029926305671
9.278505	0.253329423921337	0.0615137770128937	0.260690893179468	-13.6484792040129
7.923394	0.19474581885841	-0.0358060131229397	0.19801011221297	10.418062940974
6.75822	0.263979861232184	-0.0715726741871419	0.273510538785002	15.1698654965797
5.761429	0.119790695628202	0.104445286595638	0.158929634276095	-41.0851132633357
4.919708	0.162872739454692	-0.0559371574639989	0.172210611875773	18.9545668602061
4.191257	0.12966547132365	-0.0579485763810571	0.142025251128719	24.0802644841803
3.564097	0.223107949177678	-0.0298051936721307	0.225089996570489	7.60914307992309
3.051758	0.291439606562443	-0.00169547486696886	0.291444538305826	0.333319343232947
2.604164	0.294072411563343	-0.00461829280302231	0.294108673573383	0.899733960343376
2.214424	0.29536243074069	-0.00333795908392786	0.295381291661972	0.647485280332465
1.892567	0.304057115910529	-0.00427247519586716	0.304087131888425	0.8050417984999
1.607507	0.298025841497709	0.00256643131166664	0.298036891626012	-0.493386906233322
1.376413	0.294745904803448	-0.0056557537724865	0.294800162735942	1.09928943080949
1.17375	0.296383386027315	-0.000232692985609016	0.29638347737187	0.0449833691323791
1.001604	0.281204282649559	-0.00647489393469312	0.281278816891565	1.31903593397601
