EC-Lab ASCII FILE
freq/Hz	Re(Z)/Ohm	-Im(Z)/Ohm	|Z|/Ohm	Phase(Z)/deg
6999984	-3.54967406104461	115.517927244086	115.57245217053	-91.760050326894
5969734	10.4088188962586	92.0947536357984	92.6811046441157	-83.5516277707318
5091109	6.99018976569006	86.1180151817049	86.4012458926184	-85.3594815017081
4341796	3.42404633636202	87.9155317259248	87.9821846282851	-87.7696284669259
3702781	4.68597227564014	102.461069607952	102.568168168168	-87.3814495607248
3157797	8.57022132015892	106.193454771423	106.538718453747	-85.3860094476227
2693047	8.85663030264992	116.101089487611	116.438408098565	-85.6377098070236
2296687	7.15561944727057	132.156249195815	132.349828451647	-86.90073797061
1958656	9.27006371433344	150.696617784957	150.981471356896	-86.4799004700864
1670375	9.72643845827921	173.017703715241	173.290880902538	-86.7824221859155
1424531	11.9404638155943	200.195886647787	200.55165844945	-86.5866998030988
1214875	15.9912821137989	229.695513061558	230.251492555978	-86.0175235294159
1036062	17.4682479856482	265.373451483823	265.947755095103	-86.2339296886368
883578.1	19.3800067746608	307.1273744936	307.738214763649	-86.3893731384558
753531.2	21.768300390995	356.471320150185	357.135353880749	-86.5055116835288
642624.9	24.7175408471329	414.676734135568	415.412747347587	-86.5888197469408
548046.8	28.4745166605754	482.654686511501	483.493892940303	-86.6237128766643
467390.6	136.105800231946	671.623027055674	685.275331037244	-78.5440339370679
398593.7	157.601227645525	760.216639684053	776.381018706595	-78.2878645068649
339937.5	179.489910936962	864.782355426284	883.212970004851	-78.2744572944589
289906.2	199.742779964594	982.660083056488	1002.75521289125	-78.5101721313757
247234.4	221.871297386809	1122.47913519148	1144.19678444939	-78.8189390871717
210843.7	240.56879778961	1285.88455876097	1308.19434524456	-79.4033560382051
179812.5	260.784964321614	1476.09842044145	1498.95808628726	-79.9808401999175
153343.8	279.622404102647	1701.69685550754	1724.51757802592	-80.668561441413
130781.2	300.036910963842	1963.998473681	1986.78437495417	-81.3141702849664
111531.3	320.954870777666	2274.37155401537	2296.90617892638	-81.9675713545336
95109.37	346.02522463343	2635.43709009475	2658.05607764955	-82.5200172605988
81109.37	374.02293583821	3054.80197104559	3077.61404968801	-83.0195791621733
69171.88	398.023823000073	3542.72937225573	3565.01814423421	-83.589729464108
59000	413.159925928389	4099.39798420366	4120.16564682613	-84.2448494070606
50312.5	238.111721865166	4728.58349834891	4734.57485873306	-87.1172587213899
42906.25	1700.38867157058	6399.17560412386	6621.23629293046	-75.1192360124529
36593.75	1798.1131559364	7123.72782189072	7347.15652493749	-75.8337716787606
31203.13	1899.5660358508	8108.25510259419	8327.79394157316	-76.8147900155836
26609.38	2003.20179724284	9288.95534013758	9502.50013162575	-77.8303004116735
22703.13	2161.46219226626	10681.2956072558	10897.7976976166	-78.5601340511111
19359.37	2248.83109641087	12341.2341690174	12544.4530416717	-79.6728180892552
16500	2354.44546012062	14262.9989817897	14456.0213537203	-80.6265063392504
14112.02	2495.4264268923	16528.1828056494	16715.501186294	-81.4143233075553
12011.13	2713.64816763239	19195.7798836674	19386.6410633689	-81.9535911843324
10236.38	2926.99633926847	22373.6987454677	22564.3458385798	-82.5467170938519
8750.684	3175.90620236861	25863.6962769135	26057.9578115914	-82.9994683435642
7449.463	3520.12598713302	30007.0274344612	30212.79501168	-83.309209327612
6363.206	3877.33981773987	34745.645538892	34961.3164508512	-83.6325867071838
5414.761	2866.42123631529	38774.430053494	38880.2365820644	-85.7720684099818
4620.567	14408.8840879003	51398.210995926	53379.69683541	-74.339784227957
3941.215	16619.3714883803	58603.3543341778	60914.3386066531	-74.1671520442841
3361.769	19084.7426893389	68361.5309406989	70975.533221487	-74.4016636698311
2867.244	16074.5227349537	78131.9857090297	79768.3989559309	-78.3744384297092
2442.658	21036.4282949318	92990.5977216667	95340.3512687081	-77.2530454330792
2083.003	20365.2915680144	102463.671935487	104467.933678969	-78.7586066313444
1777.843	24620.724740104	120670.364259244	123156.473224863	-78.4680597334336
1513.548	20580.434326786	138662.559477151	140181.524024507	-81.5577346436766
1292.065	26341.9196300754	160474.391524815	162622.037452053	-80.6780152450327
1101.762	24656.7515284361	186986.600390171	188605.260057636	-82.48810351141
939.101	25156.2538306596	222172.400324596	223592.067329735	-83.5399967274907
801.2801	28440.3973003023	252312.12159124	253909.950377042	-83.5688165045857
684.3433	48980.3568425583	293915.401053802	297968.686833099	-80.5387292050364
582.9476	136859.056390237	402415.957527277	425051.766481003	-71.217164244494
497.0677	145592.190514062	446596.919368685	469729.597032465	-71.9438466160584
423.5089	124800.054180699	524059.876540641	538714.959624565	-76.6050301667862
361.5036	160239.165262463	605674.971221535	626513.176915073	-75.1811727501066
308.1262	184765.637657697	686601.675859958	711027.567786761	-74.9384105323097
262.7298	154148.394537419	766885.945997362	782224.892027052	-78.6346758602576
224.2111	207458.113323302	917959.352530833	941110.111348555	-77.2651348425564
191.2854	190824.691820197	1032682.34603147	1050165.17311008	-79.5306672602832
163.1722	206911.051166835	1182302.48834316	1200271.36808198	-80.0733728838311
139.1537	207220.146428621	1326751.85089916	1342836.79684101	-81.1229169729518
118.6706	197377.729518282	1599205.58496769	1611339.96136806	-82.9640022560456
101.1982	300206.834815474	1914062.38264135	1937461.9862884	-81.0861903782839
86.24196	192971.975048132	2246849.77707135	2255121.30580143	-85.0911653662483
73.61024	284696.912973679	2413961.88315112	2430692.14536997	-83.2737432400934
62.69291	129913.242400334	2379342.12554086	2382886.14938361	-86.8747256867111
53.57697	5766.91798338101	3346383.45523728	3346388.42438065	-89.9012606479306
45.65746	181755.790195536	3706535.22232549	3710988.88729259	-87.1926599672292
38.96512	795033.218781367	4848967.05634529	4913711.36031491	-80.6886722600221
33.18414	122941.107981484	5053248.17778317	5054743.48135498	-88.6063187351555
28.30617	1654062.37308854	6385100.13744379	6595864.3178322	-75.4767616766146
24.17237	55949.5188017726	6924014.6515396	6924240.69796748	-89.537031377566
20.61345	-443671.507518852	7299225.84942829	7312697.34144291	-93.4783507544914
17.55618	1862299.49082765	7606749.55713379	7831398.22882811	-76.2433219107201
14.98558	5416485.53760633	14298791.5012859	15290315.692501	-69.2529503312265
12.76553	122942.019006639	13527092.1539	13527650.8263682	-89.4792772318168
10.8809	8294278.87495186	3566284.80355975	9028479.90281719	-23.2662175080143
9.278505	3402280.25641193	13354637.9284036	13781214.211452	-75.7071480060367
7.923394	3171184.2158962	11124338.3551473	11567511.1052875	-74.0888860094692
6.75822	-1234434.07836494	12148357.4159037	12210913.7822839	-95.8020956842035
5.761429	5199108.33062554	10154061.190792	11407702.9282817	-62.8865297906304
4.919708	10938524.0396426	13549069.7154502	17413460.262681	-51.0851404674043
4.191257	16679118.5300814	7808505.58221408	18416453.3601878	-25.0871404062975
3.564097	14799124.1526146	7542825.30023189	16610487.3256121	-27.0070532228455
3.051758	18104657.781918	19041360.7426956	26274551.420221	-46.4445089127879
2.604164	29321396.9307311	-23178842.7127379	37376504.2168383	38.3267053615035
2.214424	32053585.6547428	-6258049.71278522	32658774.3115632	11.0472966507426
1.892567	13664452.8644093	33317767.5061429	36010983.0978974	-67.700234706422
1.607507	32189394.7699331	-4112373.01582898	32451020.7462864	7.28041427454473
1.376413	43247402.5948183	-13049105.1383937	45173188.6865556	16.7902187890994
1.17375	7637898.02863273	42585066.2277915	43264596.9809171	-79.8317565816244
1.001604	56155793.0497039	115975429.069263	128855629.449555	-64.1635381244179
