EC-Lab ASCII FILE
freq/Hz	Re(Z)/Ohm	-Im(Z)/Ohm	|Z|/Ohm	Phase(Z)/deg
6999984	2.31626988404666	1.37173862136984	2.69198310193418	-30.6348157168076
5969734	3.66714947032579	0.467712600703226	3.6968554630344	-7.26833059464543
5091109	6.23180982402657	-2.14013495629	6.58905390127965	18.9535527249087
4341796	4.35383831601516	-4.94551611901381	6.58893297624336	48.640575927433
3702781	3.51725719872615	-6.97336022619753	7.81017612133713	63.2343151722748
3157797	2.57429378702213	-7.21042673824368	7.65618979972938	70.3522271569645
2693047	0.492809851294738	-7.32590097254231	7.34245780437514	86.151538357697
2296687	1.04117796551278	-9.52486072367269	9.58159816321014	83.7616740984268
1958656	2.51089740390764	-9.3044451185618	9.63728720840458	74.8979024161939
1670375	-5.71642806600877	-9.654073826338	11.219567339173	120.630877961521
1424531	2.08650753421074	-13.6518511572373	13.8103784781475	81.3103314677391
1214875	10.9920907169615	-0.529197763191362	11.0048220613728	2.75629139573696
1036062	6.38177159187006	-7.21359039200855	9.63134959361759	48.5012211325013
883578.1	5.13605339518064	-6.86886808323987	8.576735580808	53.2134609523532
753531.2	0.428865638038341	-6.0256668360992	6.04090941457954	85.9289442542886
642624.9	5.14620497465224	-2.56701734664027	5.75091329260732	26.5108259356386
548046.8	0.0625602843870165	-0.210657596718821	0.219750795761776	73.4598356461951
467390.6	0.0439559954974023	-0.13087269522784	0.138057205159191	71.4344298404076
398593.7	0.0348264982164604	-0.111316744920729	0.116637484016794	72.6272133783109
339937.5	0.0402545926591537	-0.109470655561505	0.116637286744935	69.8104955616683
289906.2	0.0449105838946362	-0.108428879144099	0.117361758585166	67.5009599852755
247234.4	0.0444053135352876	-0.103472181939897	0.112598065283425	66.7733035854593
210843.7	0.043725992091717	-0.0978916833853087	0.107213544202281	65.9307691477194
179812.5	0.04315632802033	-0.0917522645592031	0.101395003328272	64.8097199257665
153343.8	0.0405393043522441	-0.0842789409159411	0.0935220566458874	64.3118196017978
130781.2	0.0390319426006355	-0.0769291532113534	0.086264634451177	63.0978939212541
111531.3	0.0371347697380157	-0.070790966260797	0.0799396774301269	62.319874531246
95109.37	0.0354668424468558	-0.0647879988120875	0.0738605558009492	61.3024160786526
81109.37	0.0334820382804909	-0.0596914417180155	0.0684405954225378	60.7111236340777
69171.88	0.0313519262931252	-0.0549408129512202	0.0632569064215958	60.2887964432867
59000	0.0353339008194811	-0.05508282526266	0.0654415937003193	57.3211042476271
50312.5	0.0361924205761911	-0.054571831014083	0.0654826392824353	56.4473837170983
42906.25	0.0357167366865805	-0.0538867727722707	0.0646488171535169	56.4631515156203
36593.75	0.208139921246319	-0.177728065041508	0.273695984478805	40.4935973652206
31203.13	0.133231448506615	-0.153293874615441	0.203100051368249	49.0052979415015
26609.38	0.0777442915303852	-0.116702888551585	0.140227454736386	56.3295262986398
22703.13	0.0443216158000985	-0.0908122181391202	0.101050802027884	63.9849471796757
19359.37	0.0232217022309689	-0.0710801672320251	0.0747772534146343	71.9079221623037
16500	0.0257120529063598	-0.0414899869808513	0.048811153278023	58.2127984641892
14112.02	0.00366628058314745	-0.043195079733999	0.0433503924612096	85.1485184415409
12011.13	-0.000864066219969449	-0.0329146752806763	0.0329260149314316	91.503766305132
10236.38	-0.00321241686088984	-0.0246688946275215	0.0248771779796642	97.4193836525192
8750.684	-0.00404485640300411	-0.0182436558390743	0.0186866755121267	102.501003633314
7449.463	-0.00395556774643204	-0.0133143880843577	0.013889544494241	106.546142962717
6363.206	-0.00341169578888439	-0.00997026402154173	0.0105378286575148	108.890285189936
5414.761	-0.0026768495528846	-0.00821979723238775	0.00864468565480248	108.038296948576
4620.567	0.0324176155529506	-0.0060579107900942	0.032978782289218	10.5848337664027
3941.215	0.0288109434864055	-0.0057788124339565	0.0293847773128146	11.3417167433485
3361.769	0.0358381550562122	-0.00547034151002594	0.0362532480485462	8.67864901862609
2867.244	0.0430261894761906	-0.00657451611181431	0.0435255929648932	8.68774758841277
2442.658	0.0491655854676234	-0.00720804059067943	0.0496911525679478	8.3405695420312
2083.003	0.0544273269451955	-0.00772053211009869	0.0549721796408171	8.07355975034433
1777.843	0.0587707729067052	-0.00853268822799816	0.0593869557769022	8.26081954652694
1513.548	0.0624459317107009	-0.00930157079607117	0.0631348842280703	8.47214357010504
1292.065	0.0656690743021292	-0.00972695619154219	0.0663855480993472	8.42543605064598
1101.762	0.0677892059778514	-0.0114072054245889	0.0687422779860134	9.55193983080859
939.101	0.0701655630025851	-0.0103312352530119	0.0709220745136718	8.37609292532931
801.2801	0.0723018128069025	-0.00940959504830291	0.0729115396500267	7.41498487188711
684.3433	0.0748010632668518	-0.0096275738179348	0.0754180962599253	7.33416344530596
582.9476	0.0788546326966458	-0.008156227460282	0.0792753249385127	5.90531556623076
497.0677	0.083084659645193	-0.00622880133415605	0.0833178170286401	4.28740593870727
423.5089	0.0898379938010253	-0.0034897425193802	0.0899057474972798	2.22452697424487
361.5036	0.0982643417525514	-0.00222293768799789	0.0982894822044909	1.29592510835162
308.1262	0.105981419519409	0.000287249139482908	0.105981808794798	-0.155292532735755
262.7298	0.114170161905806	0.00218377174446682	0.114191044870559	-1.09578235614549
224.2111	0.123072879506165	0.00352570727552953	0.123123370168834	-1.64092133144933
191.2854	0.138331310751066	0.00455491981187147	0.138406281752674	-1.88593183563435
163.1722	0.149565964601158	0.00412094900402207	0.149622725505749	-1.57825521852249
139.1537	0.150058437738435	0.00143001691624194	0.150065251423774	-0.545996979602045
118.6706	0.161731953074454	-0.000189221781208099	0.161732063766465	0.0670344004527004
101.1982	0.175664237088355	-0.00352432545624475	0.175699587540084	1.14936250435715
86.24196	0.193426976066948	-0.00723181417433652	0.193562119761734	2.14116734463128
73.61024	0.207676413368868	-0.0116914907438759	0.208005249033699	3.22216051416886
62.69291	0.215547151744847	-0.0164871197645256	0.216176778918195	4.37401538493483
53.57697	0.221365053138695	-0.0197341411210071	0.222242937068608	5.09430870412575
45.65746	0.239570381398506	-0.0255587866435961	0.240929905196757	6.08961890019049
38.96512	0.241258479871262	-0.0291503409709871	0.243013161142595	6.88943360472541
33.18414	0.234958500769638	-0.0309612244203813	0.23698965062113	7.50679562897887
28.30617	0.238663669053047	-0.0340855666647449	0.241085405573873	8.1279277155243
24.17237	0.244199519606718	-0.0366934406336001	0.246940911883153	8.545338928433
20.61345	0.265328515272097	-0.0446232368474059	0.269054742168271	9.5467259148729
17.55618	0.271692496251837	-0.0462487631531766	0.275600726800118	9.66055544003154
14.98558	0.258483952168484	-0.0455664943520463	0.262469539063439	9.9975921334393
12.76553	0.268588891315734	-0.0491241865130891	0.273044278897742	10.3646861927796
10.8809	0.279746361549704	-0.0536785103803584	0.284849801258403	10.8620479364209
9.278505	0.280592998541174	-0.0553178079888103	0.28599386481359	11.1526177526435
7.923394	0.281566433408622	-0.0557216998845256	0.287027114155567	11.1941342744787
6.75822	0.293192892485525	-0.0598356175677359	0.299236316869696	11.5346831991706
5.761429	0.304826256928901	-0.0628360028308119	0.311235297106608	11.6476360989027
4.919708	0.322438882617708	-0.0686411442974169	0.329664131676794	12.017789752869
4.191257	0.321452645314085	-0.0666617303340433	0.328291927208927	11.715737862432
3.564097	0.306867013006921	-0.0647381174799285	0.313621407953339	11.912709293242
3.051758	0.313932657246875	-0.0667605004816519	0.320952765544472	12.0055972109886
2.604164	0.31594752380889	-0.0672329349543903	0.323021834159163	12.0132232792418
2.214424	0.291650045658138	-0.0591247634587587	0.297582739396035	11.4599809618415
1.892567	0.339156998990349	-0.0751696350122993	0.347387311213322	12.4968340357999
1.607507	0.336026698250818	-0.0746185990572626	0.34421196560058	12.5200330969248
1.376413	0.239427805687678	-0.126563539968568	0.270820981066445	27.8613046474958
1.17375	0.320071796646625	-0.208051074903493	0.381747566825379	33.02442214507
1.001604	0.329855265659136	-0.215623242589251	0.394078518861105	33.1722624449476
