EC-Lab ASCII FILE
freq/Hz	Re(Z)/Ohm	-Im(Z)/Ohm	|Z|/Ohm	Phase(Z)/deg
6999984	-0.536751914987549	0.796193761934859	0.960222435056995	-123.98577503513
5969734	-0.905288402621335	0.385597565925484	0.983988096863141	-156.928957494428
5091109	-0.551386253291102	0.287275413873002	0.621734640931566	-152.480226694135
4341796	0.00898104134635406	0.427354839455036	0.427449199214719	-88.7960823569028
3702781	0.799560506983291	0.376628618662395	0.883824711536694	-25.222524603709
3157797	1.66790337802722	-0.622919617134813	1.78042987164504	20.4793851699657
2693047	1.69194022862478	-3.04171665909821	3.48061804446775	60.9152112007033
2296687	1.31338949192017	-3.19412033230271	3.45360632596072	67.6480382512856
1958656	-2.20495466929691	-5.60625143344899	6.0242742491277	111.469855775174
1670375	-6.60113733717446	-7.50356430348782	9.99392272337621	131.339172673618
1424531	-13.1490523050105	-8.17221169371292	15.4816866163464	148.13881088887
1214875	5.31144755715093	3.30020838443604	6.25322720945485	-31.8542876288082
1036062	5.55493043414561	2.45922293919733	6.07495099510041	-23.8794485065649
883578.1	6.88897425075138	2.78514281176202	7.43067875159633	-22.0129869227247
753531.2	2.10557958470129	4.56195060324824	5.02442620544752	-65.2241975947641
642624.9	1.35789952546639	5.92550091843331	6.07909962540637	-77.0928464335606
548046.8	0.839646103595824	7.12596367524165	7.17526054440862	-83.2798738885013
467390.6	0.664333283790781	7.99381961695334	8.02137711246269	-85.2493017177044
398593.7	0.660055463770682	8.69159473454473	8.71662160729827	-85.6571903720581
339937.5	0.773320753539989	9.16783251848086	9.20039010448855	-85.1784268384468
289906.2	1.08347170448393	9.5101072792298	9.57162741632148	-83.5004053438471
247234.4	3.35194449643441	33.391729762807	33.5595463089046	-84.2677104230863
210843.7	4.14354772032433	31.208863431624	31.4827277154373	-82.4371675634228
179812.5	4.59164148424422	29.1334490865696	29.4930674430378	-81.0434477267671
153343.8	5.35662092422391	29.9393810175501	30.4147977708199	-79.8562218794765
130781.2	5.95366563980826	33.8799301102216	34.399066830717	-80.033265838172
111531.3	8.74310333572493	83.2318517254952	83.6898022317772	-84.0033476964129
95109.37	13.1261329022119	41.6283496923718	43.648767028141	-72.4990427195402
81109.37	12.047268866928	27.7250196213903	30.2293466710502	-66.5137537042651
69171.88	11.8498613674566	20.8431281011327	23.9761382100656	-60.3806415778462
59000	9.06254041215965	16.6062184663104	18.9181428917549	-61.3773016624763
50312.5	11.5465293407568	14.0782050644275	18.2076411886062	-50.6424045199508
42906.25	12.281896241452	12.0977662320583	17.2395163241699	-44.5672757223992
36593.75	12.8697185308008	9.99234786972383	16.2934548519217	-37.8265934204456
31203.13	13.3909884261147	8.16276197739307	15.6827693386057	-31.3652853393979
26609.38	14.0002344590061	6.56040444330301	15.4610954129017	-25.1074345714011
22703.13	14.5510194201689	4.97610294304776	15.378353834723	-18.8794692819983
19359.37	15.0196637169424	3.56907578755764	15.4378949389924	-13.3670996308242
16500	13.9280900732541	2.83156745927211	14.2130034603911	-11.491568125087
14112.02	15.2461566171658	1.04861950197185	15.2821757107771	-3.93456535043642
12011.13	14.9047272026183	0.0151424479065444	14.9047348945964	-0.0582095899005365
10236.38	13.628886515568	-0.3822172011892	13.634245033852	1.60641838598435
8750.684	19.4254179418039	13.9669181502774	23.9253352083164	-35.7162179736403
7449.463	18.7941144213073	17.4874546812056	25.6715758789446	-42.9374170600582
6363.206	18.2935297557598	21.9095477713161	28.5426262713937	-50.139571029366
5414.761	17.9538148170893	27.0765982571975	32.4881769212741	-56.4526377400796
4620.567	17.6400414873849	32.9020556970731	37.3325104000516	-61.8025509380224
3941.215	17.7055575030573	39.9376479724356	43.6864108398053	-66.090853555679
3361.769	18.1230252018462	47.38364152415	50.7311888935781	-69.0694319494461
2867.244	18.6978864222653	55.6080040520698	58.6673765504726	-71.4150638669322
2442.658	19.7672762976772	64.8305565459657	67.7771810736355	-73.0431807375759
2083.003	21.5888062644259	74.8022612401336	77.855345626104	-73.9012423315638
1777.843	23.0195522906296	86.380937004481	89.3955595397956	-75.0780976427626
1513.548	24.5919298028285	99.4184606431292	102.414810101258	-76.1063277019043
1292.065	27.4926699080298	113.983371469484	117.252103905313	-76.4393307724344
1101.762	30.579315319902	130.893074224219	134.417600801758	-76.8503706946612
939.101	32.4034685429409	150.936953183798	154.375997519113	-77.8835281908411
801.2801	35.3680380455475	173.871978096204	177.432699585725	-78.5020934264644
684.3433	37.0426282385428	201.544384565492	204.920216808156	-79.5856139128363
582.9476	39.0318461879116	235.117969204739	238.335780905422	-80.574309884114
497.0677	41.8589871888934	269.635732023047	272.865539766538	-81.1756863858833
423.5089	44.5751732161407	316.452438141226	319.576425402086	-81.9821244825299
361.5036	49.1035890371427	369.077577395878	372.329720265169	-82.4216404071748
308.1262	55.8805524055958	428.856306882722	432.481639020944	-82.5761098287421
262.7298	59.2395476286642	499.645127096334	503.14468797192	-83.2383917441338
224.2111	65.4763170295501	582.880737203998	586.546760194983	-83.5907034923597
191.2854	72.8048027587164	681.03098214918	684.911481836749	-83.8980380536679
163.1722	83.1731163038005	794.590975808514	798.932153635095	-84.0243752474942
139.1537	86.1116250939205	930.857338643639	934.831854871791	-84.7147320948474
118.6706	114.166648726781	1083.77754901991	1089.77419653849	-83.9865600330156
101.1982	126.762042560852	1259.59652735301	1265.95893580872	-84.253271886649
86.24196	141.455510131688	1471.89153664255	1478.67317450023	-84.5104726408832
73.61024	165.945525872844	1723.85796438841	1731.82683861366	-84.5014199077202
62.69291	305.475120999262	1993.54642480606	2016.81491401827	-81.288215296847
53.57697	363.042592663797	2321.80442737918	2350.01611123958	-81.1130620988755
45.65746	433.719212421964	2711.64779357633	2746.11473023822	-80.9126987579183
38.96512	525.73647159947	3171.49695922102	3214.77709956974	-80.5877170965201
33.18414	620.4331162423	3701.28520842007	3752.92545167091	-80.4841836229399
28.30617	725.202724792943	4314.15771724648	4374.68579458279	-80.4578848601434
24.17237	880.043634442877	5026.96567360128	5103.41656952369	-80.0701643201784
20.61345	1000.69693378319	5867.16273853442	5951.88986404569	-80.3208333555481
17.55618	1194.49700638032	6866.05918747127	6969.1887522229	-80.1309551422418
14.98558	1405.52589888855	8009.42097282995	8131.80960011084	-80.0468449379166
12.76553	1703.66969871677	9350.32174914923	9504.26258343796	-79.6737348217274
10.8809	2030.65236142452	10931.3591008309	11118.3704203573	-79.4764654528638
9.278505	42297.0375233099	58438.862438061	72139.7257154676	-54.1036311011802
7.923394	48469.592117922	68630.6271468717	84020.618556701	-54.7687892647035
6.75822	56042.0155943453	80392.0298843312	97997.8876343773	-55.1192961958748
5.761429	71611.0938335245	129242.910951215	147756.146373602	-61.0099784200179
4.919708	80875.5644243856	148992.1013493	169527.293334858	-61.5061025748217
4.191257	92072.9756531047	172581.961456062	195606.662119773	-61.9199499902447
3.564097	105692.302148206	201039.507112043	227129.35995428	-62.2677926676686
3.051758	121337.368899116	232731.215991761	262462.523016837	-62.4641453040599
2.604164	140518.725638222	270198.589648019	304553.427337091	-62.5229880696198
2.214424	163432.942471221	314559.944552832	354483.124283628	-62.5453907194095
1.892567	189802.447957082	364422.214714124	410887.478304764	-62.4880949398964
1.607507	222904.66178708	424898.933376969	479818.290430136	-62.3182129536401
1.376413	260428.478301587	491354.59974346	556104.607964667	-62.0754507358432
1.17375	306609.160218311	569573.97408992	646856.776334888	-61.7058356622043
1.001604	361461.479195947	660008.485545963	752506.213884775	-61.2921601341198
