EC-Lab ASCII FILE
freq/Hz	Re(Z)/Ohm	-Im(Z)/Ohm	|Z|/Ohm	Phase(Z)/deg
6999984	2.6985975930502	1.32688505753728	3.00716692671558	-26.1830826176679
5969734	4.15475674279348	1.71125819632852	4.49337381110112	-22.3857475346588
5091109	7.05433248152227	-2.63436270299388	7.53017088855129	20.4775918120669
4341796	3.09671733049582	-5.53726657325547	6.34436595163658	60.7838892740593
3702781	1.01674963838407	-5.43227987836657	5.52661238952584	79.3987150800646
3157797	0.603698013456516	-7.73124812522856	7.75478232223842	85.5350930659157
2693047	-0.937645068652519	-8.63549180778252	8.68624758092051	96.1969209008281
2296687	0.144666179570413	-9.7291054397602	9.73018093159027	89.1481076262312
1958656	-5.45087361266951	-8.53576898091073	10.1277527239153	122.56197491423
1670375	-8.95457090551773	-10.1433332145311	13.5303935198853	131.438179780617
1424531	12.1543099327381	-11.5807251323581	16.788104256654	43.6156501204664
1214875	1.84101705826998	-9.8643670544731	10.0346938764576	79.4283369980728
1036062	3.63177366367975	-7.35074617179085	8.19897854773969	63.7074637194938
883578.1	-0.909674363130128	-12.2346609341742	12.2684324842722	94.2522448483746
753531.2	8.33643920280824	0.0794957509676991	8.33681822738987	-0.546352328026585
642624.9	3.74770730563811	-4.75474605618274	6.05416551702367	51.7546989467942
548046.8	5.15982406582418	-4.46229139879869	6.82171744636578	40.8537299873501
467390.6	-0.0147370848097364	-0.153480699989693	0.154186597789872	95.484677065701
398593.7	0.0530282927896551	-0.162333860198038	0.170775531042892	71.9097556272481
339937.5	0.0401563541432036	-0.12325000316094	0.129626756718072	71.9537587859142
289906.2	0.0427560110400057	-0.121989227640514	0.129265030616877	70.684943748597
247234.4	0.0439041850430037	-0.118195810281016	0.126086585457281	69.6223362217473
210843.7	0.0452583281450858	-0.111282976676117	0.120134163185938	67.8686270024109
179812.5	0.0433080426912478	-0.103873405912173	0.11254008626948	67.3672316358919
153343.8	0.0411252106239081	-0.0959470214830092	0.104389242167581	66.7988575031222
130781.2	0.0396728101413065	-0.0876097847189657	0.0961738334632226	65.6373001650534
111531.3	0.0381282357019359	-0.0805156039451459	0.0890871754877994	64.6600633496783
95109.37	0.0360875804493855	-0.0731060425275328	0.0815279517510915	63.7275172423234
81109.37	0.035055525752233	-0.0669812054103064	0.0756000778040812	62.3740763386653
69171.88	0.0421814623434362	-0.068493253179522	0.0804400490834312	58.3732266468258
59000	0.0439859799160311	-0.0661945281139612	0.079476298236666	56.3961326423238
50312.5	0.0399250404964494	-0.0608827340049047	0.0728060173238112	56.7443592014705
42906.25	0.0343847890618408	-0.057343352630813	0.0668623497176779	59.0518378593788
36593.75	0.202336918943893	-0.172548917909017	0.265919833482349	40.4568879592866
31203.13	0.130007112912908	-0.150455233314668	0.19884322125665	49.169977470978
26609.38	0.076516204485298	-0.117049376474071	0.139840216253425	56.8270026338401
22703.13	0.0434930386732806	-0.0917982056886073	0.101580288347117	64.6488906726733
19359.37	0.0230088435136379	-0.0714217093658764	0.0750364408043105	72.1434078161025
16500	0.00852170369900651	-0.0524822182196702	0.0531695651965553	80.7771942393698
14112.02	0.00348125744538058	-0.0435215538317532	0.04366056345641	85.4266894510769
12011.13	-0.000904559856815925	-0.0333572768697585	0.0333695392341622	91.5533271544108
10236.38	-0.00312283457336278	-0.025034608873748	0.0252286293173872	97.1103875136052
8750.684	-0.00390391971661964	-0.0184280014657373	0.018836980309355	101.961105502962
7449.463	-0.00392822752699986	-0.0135200216708758	0.0140791319861997	106.201165074269
6363.206	-0.00335281333629458	-0.0101669030439057	0.0107054787269049	108.251379952585
5414.761	-0.00268973293719311	-0.00845391767573823	0.00887149296012687	107.649201309903
4620.567	0.0322263035881729	-0.00637019102110169	0.0328498702676648	11.1815406621417
3941.215	0.0282327514784591	-0.00577478261453711	0.0288172929035605	11.55993917878
3361.769	0.0351281717232474	-0.00626121448386314	0.0356818056638239	10.1062192018181
2867.244	0.0429958358650905	-0.00707748133003136	0.043574449436737	9.34754859655157
2442.658	0.0494014940231176	-0.00754460996797487	0.0499742808981279	8.68313527816197
2083.003	0.054108922980219	-0.00806176440354894	0.0547061933548442	8.47424059563522
1777.843	0.0585139844632636	-0.00878067271987111	0.0591691354608173	8.53418916973976
1513.548	0.0608060458082038	-0.00920526040378191	0.0614988782493698	8.60848460703437
1292.065	0.0640165386499599	-0.00963265540548394	0.0647372015991007	8.55717623648041
1101.762	0.0674097892663386	-0.0096605776339422	0.0680985054839943	8.15559584745116
939.101	0.0708048296165385	-0.0101305564820943	0.0715258839278757	8.14245792520881
801.2801	0.0723392275108297	-0.0109913764607856	0.0731694894977838	8.63956183784227
684.3433	0.0746091831202952	-0.00954766699322776	0.0752176053254244	7.29245211782043
582.9476	0.0771198216523329	-0.00868770525839319	0.0776076227850354	6.42738897957601
497.0677	0.0806463092598361	-0.00703648985706495	0.0809526984525019	4.98649924652055
423.5089	0.0865234733331514	-0.00463147498428272	0.0866473427068747	3.06403504891086
361.5036	0.0912000827840262	-0.00271282658787554	0.0912404215680152	1.70381089791628
308.1262	0.093736411937578	-0.00200351494124417	0.0937578209807113	1.22444919636684
262.7298	0.10546750804817	0.000468736234500236	0.105468549660779	-0.254641752833834
224.2111	0.122162093097953	0.00288576579264263	0.122196172748098	-1.35321401237116
191.2854	0.133276440706547	0.00394541753843947	0.133334826534399	-1.69564682229346
163.1722	0.144853272956664	0.00351493288361381	0.144895912431766	-1.39003629099083
139.1537	0.155400129573219	0.00234344062839854	0.155417798161447	-0.863957329699817
118.6706	0.16275135611233	-0.00131797382972411	0.162756692554925	0.463975779397887
101.1982	0.17218177020362	-0.00406798966454513	0.172229818934942	1.35342600675536
86.24196	0.174237376121359	-0.00706605748294398	0.174380596414876	2.32231196226646
73.61024	0.178458138409156	-0.0108253939782594	0.178786174854897	3.47134788068039
62.69291	0.192358606268976	-0.0146690929003372	0.192917121304102	4.36088376522823
53.57697	0.218779099523679	-0.0200865858988519	0.219699261085384	5.24574374121001
45.65746	0.222204218027682	-0.0228045204489779	0.223371351480447	5.85967374827064
38.96512	0.219535226458876	-0.0247730440923432	0.220928539057205	6.43820069317013
33.18414	0.222318873134815	-0.0284116151877253	0.224126975684564	7.28273475361501
28.30617	0.223033375613701	-0.0303762912834682	0.225092438144377	7.75574579096322
24.17237	0.221001067192361	-0.0314711774657718	0.223230613293169	8.10459114452862
20.61345	0.228962587305861	-0.0350399144680557	0.231628284092687	8.70090842896693
17.55618	0.241068380969065	-0.0394597974756725	0.244276564409825	9.29614282317243
14.98558	0.262172500617568	-0.045716363826753	0.266128551646772	9.89150326809287
12.76553	0.25948012324806	-0.0465150310655377	0.263616354719991	10.1630336967833
10.8809	0.237994608019639	-0.0420012573767901	0.241672379612676	10.0084955202806
9.278505	0.251117967355334	-0.045394965033504	0.255188041214842	10.2467829376976
7.923394	0.256104189075709	-0.0475720818342326	0.260485044929972	10.5229199470609
6.75822	0.268678685635616	-0.0513421838016543	0.273540227301955	10.8183083383406
5.761429	0.279077113732193	-0.0538669719496873	0.284228228851604	10.9247810854097
4.919708	0.288087109271505	-0.0566093798953202	0.293596329031111	11.1170313439879
4.191257	0.299463161738879	-0.0604153264519095	0.305496639767014	11.4060599037417
3.564097	0.292132583590364	-0.0590370844155542	0.298038292391213	11.4250305363385
3.051758	0.283787621090712	-0.0564328657984652	0.28934422791297	11.2468922282543
2.604164	0.273057002710289	-0.0538039197738524	0.278307363381133	11.1469225521599
2.214424	0.284760186108896	-0.0593514564037247	0.290879629692449	11.7733831462001
1.892567	0.298779202581858	-0.0602181712244072	0.304787204523193	11.3951565169004
1.607507	0.283043839605189	-0.0566095156542144	0.288649358913289	11.3100780139014
1.376413	0.242975443936488	-0.12846409487939	0.274845574876719	27.8659570647923
1.17375	0.320608406585303	-0.209334152907023	0.382897555419812	33.1416378507979
1.001604	0.324860994666002	-0.205862751617185	0.384596071689224	32.3622261733476
