EC-Lab ASCII FILE
freq/Hz	Re(Z)/Ohm	-Im(Z)/Ohm	|Z|/Ohm	Phase(Z)/deg
6999984	2.9307569640746	0.91817484833104	3.07121823297849	-17.3952163841339
5969734	4.13488885639115	0.950915649253369	4.24282293133978	-12.9513328067875
5091109	7.46519129217675	0.926488282504332	7.52246379628439	-7.07467658946916
4341796	5.13223087834882	-13.4149202338663	14.3631430637473	69.0643326250694
3702781	-3.77860542094017	-10.1580782809516	10.8381000774628	110.40421157201
3157797	-3.38476161585346	-4.06104176157253	5.28665029913943	129.810234797312
2693047	0.738206944393148	0.517310466983878	0.901420885048348	-35.0214722695764
2296687	0.868786782717192	0.615432992317463	1.06468222576359	-35.3130734098303
1958656	1.02176394040577	0.65209421967591	1.2121173298193	-32.5461971917861
1670375	1.24434458772516	0.627899973167615	1.39379045387202	-26.7756470285481
1424531	1.65691804171801	0.549680393369447	1.74571645229843	-18.3531960880147
1214875	2.19657349574721	0.392511699795757	2.23136741857895	-10.1314064264921
1036062	3.11331625881005	0.118156939418694	3.1155576049407	-2.17345294342911
883578.1	3.89177834279471	-0.612824598077767	3.93973256166648	8.94868402747125
753531.2	5.03689157482435	-1.55486078295245	5.27141999758129	17.1551699862859
642624.9	3.85976448356742	-1.50735150699079	4.14365665013836	21.332106797303
548046.8	3.54802911872765	-2.14506141867559	4.14605826264295	31.1562474174223
467390.6	3.04325623720287	-2.60912532416917	4.00860867165842	40.6080227664862
398593.7	2.6211775202669	-3.2609608471431	4.1838304505982	51.2074956045545
339937.5	2.01260777039286	-4.3131342385529	4.75959210408024	64.9851596026355
289906.2	-11.2838183512706	-3.12239840556936	11.7078575489956	164.532451210491
247234.4	-16.1978155396414	15.2280967964063	22.2320525435005	-136.767432120467
210843.7	-25.1772236187292	57.0406343561325	62.3500325332513	-113.816232537794
179812.5	-13.850116762352	67.4039001895481	68.8121464212049	-101.611486656373
153343.8	-2.97856706717095	60.6768161198371	60.7498796395034	-92.8103392611483
130781.2	5.71142822041582	48.1592275169814	48.4967174904585	-83.2366155749689
111531.3	11.1489804233547	33.6381471592047	35.4376171431525	-71.6628108175467
95109.37	3.61043829798425	106.715953841323	106.77701095726	-88.0622953086787
81109.37	11.9597882564427	86.805845000189	87.6258595469156	-82.1553869197775
69171.88	17.2459214473011	63.6974574179548	65.990816695042	-74.8505188065366
59000	19.8057996881037	40.7533672489467	45.3112198402648	-64.0806311314625
50312.5	20.6627349064269	23.4317394992264	31.2409191569787	-48.5932897206008
42906.25	16.318163659828	-0.770472203068603	16.3363426948822	2.70324810897934
36593.75	15.7685271860488	-2.28082067518355	15.9326266688674	8.23040121718344
31203.13	15.0680870917981	-3.42847792520603	15.4532103295605	12.8184123278951
26609.38	14.2489811667015	-4.29988930811834	14.883632364147	16.792143927291
22703.13	13.282665297718	-4.87966430670415	14.1506297088619	20.1718615325851
19359.37	12.2728454402636	-5.24212960714762	13.345510781485	23.1288967132553
16500	11.2175930169999	-5.44054562654953	12.4673144585998	25.8734390364453
14112.02	9.74232130334966	-5.57682399567001	11.2255864103565	29.7882361970341
12011.13	8.53846101882396	-5.38853187741458	10.0966129154231	32.2555872685178
10236.38	8.23581236359127	-4.74455754034936	9.5047057577796	29.9457537540715
8750.684	9.33220882333204	3.50452920500097	9.96854284592192	-20.5826894604278
7449.463	10.9284770749569	8.53570841223955	13.8668644356478	-37.9916854795346
6363.206	11.8945190819661	12.7905107216415	17.4664463675838	-47.0787502736859
5414.761	12.5798146219216	17.3283418910482	21.4131541024429	-54.0215663561836
4620.567	13.1611907772567	22.2211989557254	25.8263165338242	-59.3625528716782
3941.215	13.6249873171491	28.128957978857	31.2550564928105	-64.1555740110656
3361.769	14.4273195883208	35.7998602391782	38.5976365033953	-68.0505983981445
2867.244	14.8193532956304	44.1222143600926	46.544419989282	-71.4343152488486
2442.658	15.2524107768547	54.448019098522	56.5439901161824	-74.350956904962
2083.003	15.9695964341472	66.581545370667	68.4699218213057	-76.5123828913136
1777.843	17.0008845261574	80.6873169661886	82.4589182191589	-78.1017678150064
1513.548	18.4622358807358	97.7819969393363	99.5096632451356	-79.3078439737568
1292.065	20.5542778027306	117.078810402546	118.869366033756	-80.0426623460121
1101.762	23.1491708178213	139.575201090138	141.481874700985	-80.5829615468205
939.101	25.7386727311442	164.904177729316	166.900770239514	-81.1287038466826
801.2801	30.2763012823534	196.49131993997	198.810193981827	-81.2404879125126
684.3433	33.0333704506082	230.405272344426	232.761236221662	-81.8410622733687
582.9476	40.1352034648655	271.912341802051	274.858429343984	-81.603571267287
497.0677	46.9313098973017	321.999987393905	325.402120045877	-81.7075631071033
423.5089	54.5786475729921	375.97846439946	379.919247292201	-81.7403935887642
361.5036	64.3241658830688	437.857339229655	442.556943041035	-81.6426469889149
308.1262	76.1439387383954	511.262821792618	516.901898191472	-81.5290294581405
262.7298	92.2890913581307	597.850159304027	604.931474932128	-81.2246169815875
224.2111	111.18032007214	697.797197471182	706.598890722296	-80.9471335214056
191.2854	135.959629817184	809.359631206052	820.699721923934	-80.4642446916694
163.1722	169.916216059126	944.507756978037	959.669955490706	-79.8016190016006
139.1537	204.446262089004	1099.18062872225	1118.03234686677	-79.4634593109144
118.6706	257.881595301589	1271.893356657	1297.77333456328	-78.5384189506756
101.1982	323.291343282833	1476.90836479817	1511.87817321781	-77.6528553825214
86.24196	403.089104021561	1708.35687374976	1755.26751062878	-76.7238043177168
73.61024	519.114727056653	1967.74517987112	2035.06785949588	-75.2213943873248
62.69291	677.430053993183	2258.12042607762	2357.54519293314	-73.3008971538258
53.57697	855.945014458368	2576.29305184015	2714.76108649288	-71.6215005605178
45.65746	1089.68913129382	2925.41832072918	3121.77749913696	-69.5701397666109
38.96512	1387.89673179944	3301.19293849778	3581.07974713314	-67.1970058749586
33.18414	1761.10566663954	3687.19135687024	4086.1807683029	-64.4695548827973
28.30617	2191.36974176676	4075.47481955577	4627.26661755772	-61.7332230448115
24.17237	2715.30626421574	4459.32912731254	5220.96776222447	-58.6625703333669
20.61345	3323.1550060417	4813.08585166852	5848.85925712969	-55.3771844994631
17.55618	3975.0646656392	5095.12158293684	6462.30632521564	-52.0396881540923
14.98558	4719.4437856563	5310.6202457402	7104.63489846139	-48.3731364173998
12.76553	5540.99217413779	5441.36013925272	7766.01535144662	-44.4802262445849
10.8809	6290.98312276761	5508.88696050825	8362.0753521243	-41.2079783329236
9.278505	7188.27532193347	5486.83545367864	9043.04513975589	-37.3546194367066
7.923394	7856.77712368674	5237.40311455338	9442.42226103137	-33.6878041394284
6.75822	8535.1749140083	5116.21231816325	9951.12251443233	-30.9396006159275
5.761429	10957.9996307188	879.829757919621	10993.264133539	-4.59049316388014
4.919708	11288.9260098431	329.997117690901	11293.7482065697	-1.67438951513631
4.191257	11605.4573392534	-174.975622599429	11606.7763191049	0.863783723487892
3.564097	11893.6318339102	-565.957366569475	11907.0897343296	2.72435931189873
3.051758	12054.1474429094	-922.412545862597	12089.3885486473	4.37588380030475
2.604164	12248.1003159533	-1228.48132725619	12309.5543266632	5.72759666325267
2.214424	12407.5696643183	-1520.60101127527	12500.4004900005	6.98700258765824
1.892567	12566.7832931239	-1743.47517270037	12687.1489316616	7.89861281717909
1.607507	12759.0019887773	-1920.6902752065	12902.7587314843	8.56080305932358
1.376413	12902.8806390469	-2052.63129261707	13065.1300800613	9.03905093091928
1.17375	13120.5360841749	-2137.64525663129	13293.5320505625	9.25353195194855
1.001604	13336.976501864	-2154.8046943618	13509.9269236409	9.17775255396455
