EC-Lab ASCII FILE
freq/Hz	Re(Z)/Ohm	-Im(Z)/Ohm	|Z|/Ohm	Phase(Z)/deg
6999984	10.6430043686574	89.1950295120144	89.8277620317927	-83.1954772052785
5969734	17.118642949733	90.4361989902675	92.0421317889134	-79.2813160278423
5091109	15.808584176861	88.3516816311936	89.7548382023871	-79.8555343301224
4341796	16.8546476061688	91.9009947757449	93.4337839686461	-79.6074436048307
3702781	18.4305086474906	100.336258697181	102.014942328822	-79.5915153781261
3157797	18.9437510717965	108.487244222114	110.128778543934	-80.0950306884871
2693047	18.8139454767429	121.191308404355	122.64296872288	-81.1757436816628
2296687	18.5688198753656	138.320216299881	139.561037932546	-82.3540313873494
1958656	20.2991061921937	157.791602916521	159.091934626388	-82.6694446535689
1670375	21.4523488965843	181.093895521223	182.360089570696	-83.2442359136441
1424531	23.3540506591046	208.859799415491	210.161431985194	-83.6198670441319
1214875	25.8433342277308	240.737057972643	242.120236670399	-83.8727133191231
1036062	28.1930281851551	278.485215972341	279.90866787831	-84.2192381936182
883578.1	30.2284015090013	322.351142772234	323.765371070402	-84.6427685957789
753531.2	33.2947429284273	374.546980567804	376.023909557795	-84.9201374644018
642624.9	36.6329813082558	435.167498201088	436.706682809097	-85.1881098251845
548046.8	40.4521835216301	506.363560957814	507.976805590123	-85.4324763248078
467390.6	152.197662861202	714.057335489164	730.097258552788	-77.9677529867253
398593.7	176.910312590051	808.501926629585	827.630729289615	-77.657496340662
339937.5	203.316310922823	916.783151733373	939.057436789381	-77.4958076508761
289906.2	227.069591359962	1041.35598904967	1065.82498340487	-77.6990930765885
247234.4	250.211677837697	1184.64351401367	1210.77914543529	-78.073692883045
210843.7	272.380166764457	1355.86621097986	1382.95485729778	-78.6410356917836
179812.5	294.454480357157	1554.13832591665	1581.78676726207	-79.2716330411046
153343.8	315.518999287126	1789.18371303362	1816.79129178228	-79.9988310746846
130781.2	337.39777177001	2064.2002342019	2091.59266189058	-80.7169763751016
111531.3	362.584598196458	2385.32921404579	2412.72937774414	-81.3568556407037
95109.37	387.837833529338	2764.26297511399	2791.33802695101	-82.0132933865851
81109.37	416.69229812302	3205.74357328636	3232.71160621882	-82.5940434077297
69171.88	446.810934125952	3715.77883465466	3742.54624005129	-83.1432807501421
59000	476.597197089613	4307.58022615925	4333.86574469858	-83.6863874441466
50312.5	436.784493939618	4969.35373247864	4988.51252505649	-84.9768602861197
42906.25	1840.50619514765	6693.32272353348	6941.76001715318	-74.6250026183731
36593.75	1955.95315404769	7477.33820858957	7728.92873731299	-75.34079879183
31203.13	2070.19539352918	8511.39610948574	8759.54180879105	-76.3296093546668
26609.38	2187.98670609302	9741.58353634689	9984.27441638423	-77.3412809335293
22703.13	2310.54727994601	11197.874007688	11433.7662659738	-78.3413214691506
19359.37	2476.51808273031	12972.4410712207	13206.7168198756	-79.1919346118019
16500	2602.58796402834	14957.3038000105	15182.0420588376	-80.1292935646359
14112.02	2768.2746013363	17249.2959089605	17470.0187070101	-80.8825611778944
12011.13	3079.56298945805	20064.8194647078	20299.7706479003	-81.2742924224253
10236.38	3351.08838149652	23428.1198843624	23666.5712484225	-81.8597979932695
8750.684	3238.08120254034	27241.5688921133	27433.34185946	-83.2213176018389
7449.463	3848.53989412531	31218.3327713089	31454.6588017873	-82.9721382567365
6363.206	3807.44091992794	36928.3904949263	37124.1515849791	-84.1134128888576
5414.761	15380.9122513764	49767.9034664141	52090.4662786469	-72.8260870290009
4620.567	15404.8713195222	57985.5322614167	59996.9333550544	-75.1220435056491
3941.215	18488.9155942305	63706.7941908338	66335.4778826823	-73.8162726905459
3361.769	19582.0113030995	73224.8737064127	75798.0032454339	-75.0281357230271
2867.244	19119.0306204006	83719.6933228378	85875.0509864991	-77.1359901555339
2442.658	19620.0920206831	94300.6764270774	96320.1203565715	-78.2467834329541
2083.003	23269.1953993882	107930.374285194	110410.240231045	-77.8335662711057
1777.843	26193.2434942411	125446.74105126	128152.139448121	-78.2061034294998
1513.548	26230.0088611795	148580.173956248	150877.703646783	-79.9882886512542
1292.065	28855.3884698831	171107.196660118	173523.215140315	-80.4277472801195
1101.762	29637.4978110578	195420.262697399	197654.902163394	-81.3762216141791
939.101	31191.3829776048	232823.107144655	234903.174930751	-82.3695012478179
801.2801	29861.0493324156	266478.84728309	268146.710433966	-83.6062306486078
684.3433	40632.4795385079	295953.765553077	298730.028183464	-82.1825451192667
582.9476	118914.079859568	427081.146783135	443327.039922499	-74.4409685745771
497.0677	158357.231538028	499367.449860174	523874.854101857	-72.4053641200363
423.5089	160168.706320469	529337.140705514	553038.717464395	-73.1650488606003
361.5036	165894.75864598	638420.429622981	659622.404035976	-75.4337325462003
308.1262	166140.842257092	713513.979113638	732601.513686993	-76.8923112052648
262.7298	205707.062345094	833440.803508341	858451.494524459	-76.135548549456
224.2111	223789.202957327	910022.528454579	937135.32088762	-76.1841926662626
191.2854	211171.326449908	1085402.29456659	1105753.80178638	-78.9903107636953
163.1722	250892.931554483	1275457.7236681	1299899.86843934	-78.8715366127647
139.1537	246595.50188554	1459196.12039204	1479886.02916487	-80.4079802361875
118.6706	314039.053201493	1637868.59042987	1667703.22493314	-79.1460406924119
101.1982	333871.101716547	1918786.82582127	1947617.20969669	-80.1292935646359
86.24196	343009.891761706	2269413.08788662	2295188.78293648	-81.4050986870537
73.61024	377772.730537771	2322182.1493253	2352709.53808222	-80.7600628012954
62.69291	992242.517580633	1130599.11574426	1504260.47419204	-48.7289890447996
53.57697	263347.355237838	3159057.65094497	3170015.31092591	-85.2346912939286
45.65746	290348.620272801	3448177.90992621	3460380.50216987	-85.1868493180352
38.96512	1455236.0844853	4671709.04523765	4893115.31285984	-72.6982028491277
33.18414	663166.7223885	4912027.5170719	4956592.01772297	-82.3110595527146
28.30617	2752642.84645758	6519420.30993964	7076714.19641966	-67.1094579238626
24.17237	2269985.46275027	8790269.65284686	9078638.36546308	-75.520363764824
20.61345	-350748.281943319	7646605.32518635	7654645.4755563	-92.6263052173523
17.55618	-1199778.15612287	10026735.4702068	10098261.8213934	-96.8234502498037
14.98558	2789722.93818971	11330133.0550295	11668524.7189409	-76.1676914817628
12.76553	3357366.58589781	13565292.8683509	13974586.970506	-76.0988219547881
10.8809	4079275.57928509	14857604.5942837	15407430.1404171	-74.6472906766037
9.278505	4816815.19670014	17214604.7322949	17875802.7715768	-74.3678591599184
7.923394	7277803.59296033	17490607.2260042	18944333.3551766	-67.4079116393462
6.75822	8247241.88800959	18819727.3792543	20547484.9407121	-66.3358503088769
5.761429	4096990.49689292	14652952.4397097	15214938.2625111	-74.3789172453644
4.919708	16445622.9746858	23095698.1873163	28352597.5844386	-54.546687904999
4.191257	13658154.8233521	19115150.1014749	23493278.9661336	-54.4534390238414
3.564097	15791932.7716556	38562155.2247085	41670432.6380108	-67.7299712159893
3.051758	28090861.4427955	11286397.9438921	30273408.7136917	-21.8893655488472
2.604164	26018660.3779054	36014030.8784562	44429507.1768209	-54.153432592733
2.214424	28987061.9099909	37069613.632906	47057475.6342345	-51.9759122219162
1.892567	41914655.6296393	32065117.2478121	52773194.9067629	-37.4163384503981
1.607507	31698587.9936398	57810400.2515473	65930591.2155702	-61.2631684696862
1.376413	46387599.2174161	31699289.4154321	56184110.8374863	-34.3470207306161
1.17375	48487494.5065585	42545761.7030806	64507200.8571048	-41.2656064279578
1.001604	47017003.8426751	54565758.2764556	72027915.6065668	-49.2499165425546
