EC-Lab ASCII FILE
freq/Hz	Re(Z)/Ohm	-Im(Z)/Ohm	|Z|/Ohm	Phase(Z)/deg
6999984	18.6975448441612	92.0811840636747	93.9603248279175	-78.5218604703964
5969734	24.9497365312169	86.7243726346457	90.2419312839105	-73.9500010399295
5091109	24.7257109069189	86.2357511867781	89.7104540318487	-74.0012234668142
4341796	23.2811276263058	90.3240968900774	93.2762208848559	-75.5465479360615
3702781	23.0369787410191	97.8480587321597	100.523355431294	-76.7517646581192
3157797	22.843446061843	107.265395767971	109.670817254363	-77.9777797481401
2693047	22.6982427828336	120.341357410173	122.463270121091	-79.3186155803053
2296687	22.2899544004289	137.105365359666	138.905447256689	-80.7659069708058
1958656	23.3075410147449	157.413886851474	159.130051347451	-81.5776735749471
1670375	23.7306958811743	181.094009654528	182.642235695249	-82.5344557970361
1424531	25.4025938245412	210.170164574032	211.699763462528	-83.1082730288596
1214875	28.0627393520428	242.552773499824	244.170770716722	-83.4003669128173
1036062	31.7326816421024	280.934400271528	282.720887696898	-83.5555238837387
883578.1	29.3634567322503	322.078391683214	323.414135406158	-84.7908208900407
753531.2	38.1583757947064	374.963914807046	376.90051611893	-84.1892725009329
642624.9	34.4717874000593	432.096774107005	433.469637137637	-85.4387215647747
548046.8	40.407326119187	523.082784093142	524.641164052856	-85.5827631544706
467390.6	176.171808708584	708.027440531879	729.615900820272	-76.0273741177353
398593.7	165.193893478461	777.911262740185	795.257791625208	-78.0110113002577
339937.5	214.364124707726	874.599695726189	900.486871490113	-76.2283104164877
289906.2	250.208056568873	1057.64416601514	1086.83727092782	-76.6901716951426
247234.4	241.767890591137	1224.45192696433	1248.09223792456	-78.8306274261924
210843.7	265.896047637313	1409.54748688997	1434.40748253311	-79.3172977773765
179812.5	253.442990795106	1540.90338359154	1561.6070527335	-80.6597951871475
153343.8	291.959298805184	1763.58997705431	1787.59330926395	-80.6000356891154
130781.2	293.862857957524	2049.87559634043	2070.83204045113	-81.8418644142819
111531.3	303.539593134789	2385.52155361063	2404.75557330497	-82.7485128292969
95109.37	404.802074330812	2745.38581228361	2775.06900412777	-81.612280225773
81109.37	358.740281128263	3315.54097857809	3334.89228760608	-83.8246421601117
69171.88	450.574184366067	3709.32923635004	3736.59477054421	-83.0741820400493
59000	511.668196266436	4308.82757138216	4339.101218337	-83.2279066164829
50312.5	1420.38513551569	5714.05510132219	5887.94697956258	-76.0404948512438
42906.25	1882.6052443222	6613.50577672602	6876.23888217519	-74.1104292225661
36593.75	1738.50681434574	7551.01850330928	7748.56673074741	-77.0344620342368
31203.13	1842.37165505359	8597.94449056502	8793.1213330752	-77.9055297701741
26609.38	2338.56215395345	9854.31241061504	10127.9981256863	-76.6498927621449
22703.13	2462.9401534488	11290.5397210163	11556.0530195788	-77.6941656395504
19359.37	2518.94739969642	12953.7355670983	13196.3768188373	-78.9957538627491
16500	2511.01327549415	14970.6377689451	15179.7622800449	-80.4784540449886
14112.02	2655.92880962922	17897.1514161739	18093.147505486	-81.5589378550463
12011.13	3654.80485043141	21222.4420405543	21534.8472169974	-80.2287017420911
10236.38	6015.14476833507	16521.9773600511	17582.8809490956	-69.9949879717004
8750.684	-3225.72529200715	17366.7412493713	17663.7766426693	-100.52229388783
7449.463	22954.266617984	1102.8010813199	22980.742507466	-2.75056926623699
6363.206	10860.194639242	12173.080888914	16313.421649987	-48.2623034615097
5414.761	14507.0074891251	50162.9187428943	52218.4994335891	-73.8702453148473
4620.567	15867.9060579008	56818.860290981	58992.9938842604	-74.3964497538954
3941.215	16565.707026979	65543.2172545283	67604.2600534759	-75.815838099773
3361.769	18871.6166738465	73723.5045700783	76100.5456089439	-75.6418308173918
2867.244	19573.6264345179	84151.8372285177	86398.2555421867	-76.9058903050094
2442.658	20247.2876582656	96741.1743402444	98837.2777359136	-78.1790025257901
2083.003	21756.1913168194	111704.562171404	113803.519587573	-78.9787370162337
1777.843	23457.4594734576	129697.689909644	131801.908836129	-79.7481620393149
1513.548	24698.8916980195	149573.193060657	151598.731305612	-80.6234123671567
1292.065	27972.0473972539	172760.423443318	175010.283537593	-80.8029200443712
1101.762	27871.9478903852	201247.643170861	203168.549143391	-82.1149360994413
939.101	30291.5246487623	233098.660775554	235058.635495281	-82.5958195768946
801.2801	34220.8830342979	268601.277730239	270772.44179193	-82.7394028003544
684.3433	118517.056872581	383252.43883916	401159.226051082	-72.8162894507041
582.9476	131922.578096987	431346.027530672	451068.688869274	-72.9943074376513
497.0677	142774.590991681	489437.832474583	509837.205086349	-73.7374336979359
423.5089	150404.186119796	552713.605205301	572812.140741971	-74.7772948003189
361.5036	170718.484262209	634512.757350091	657077.803695119	-74.9409315466082
308.1262	170246.652146203	730852.426538602	750419.344063273	-76.8872118808881
262.7298	197615.033310736	797698.929248916	821812.194552546	-76.0861595875157
224.2111	197046.445131122	957693.138416634	977754.288617092	-78.3735789930165
191.2854	223212.499468833	1105232.00660195	1127546.72113243	-78.5821356304441
163.1722	201791.835831328	1300482.08679557	1316044.68126441	-81.1799262735673
139.1537	214539.733553453	1529270.35105333	1544245.80423064	-82.0141528232778
118.6706	271902.455347188	1695726.38864087	1717387.23948818	-80.8904106996877
101.1982	224482.132331463	2016515.64077728	2028972.0444687	-83.6478846803138
86.24196	327629.046849387	2338174.47987743	2361016.8764093	-82.0235493311179
73.61024	415953.007293016	2665846.6596259	2698102.16947296	-81.1316259314378
62.69291	124238.118560855	3379168.97958224	3381452.070143	-87.8944186747054
53.57697	896540.573430735	3544501.21413908	3656128.26044723	-75.8054102679016
45.65746	575856.85384156	4084394.17165948	4124789.31166214	-81.9747906227523
38.96512	54509.4293561836	4378629.72399272	4378969.003969	-89.2867634126528
33.18414	637346.897466564	4844737.99229554	4886481.0735029	-82.505521428382
28.30617	7283.45952644315	5483180.24649816	5483185.0839061	-89.9238924808383
24.17237	134353.049483593	7388396.71625156	7389618.17542844	-88.9582294129248
20.61345	6290524.1345296	3179166.36727985	7048247.4898334	-26.8115657527248
17.55618	-288128.252792916	6897650.12932707	6903665.34506585	-92.3919654791438
14.98558	7110238.30748668	2904295.73928871	7680522.28240382	-22.2183808331232
12.76553	6833045.73790572	-1486435.97474141	6992853.92120534	12.2727101350786
10.8809	5440370.80402305	3392934.55666091	6411679.91957258	-31.950086172154
9.278505	7007812.604044	-1646728.29077565	7198690.96135116	13.2237169425927
7.923394	7255528.26117706	3216542.76358646	7936550.74315785	-23.9088125935653
6.75822	7934317.72920666	3995135.97808643	8883383.88855304	-26.7264471426802
5.761429	5719585.30891784	7468736.54562377	9407214.34293516	-52.5549777471432
4.919708	8302164.35724611	9968480.96829877	12972915.8568944	-50.2110647030425
4.191257	11294359.4576975	-10499485.1423193	15420821.7619381	42.9112099705089
3.564097	-1272113.16220344	13210906.7560847	13272013.0053965	-95.500204221949
3.051758	20297463.0836471	-3844486.93598062	20658341.836482	10.725185507898
2.604164	-2634215.50542759	17162671.0393427	17363650.7835687	-98.7259566085356
2.214424	24942315.7881216	-7228471.63752678	25968633.369681	16.1619877554723
1.892567	-8723489.02616969	-38534874.2997525	39509945.5591555	102.755568781691
1.607507	-6500664.79789132	-32400517.8908827	33046213.1327018	101.344889394299
1.376413	-22699321.9116175	18865132.3702671	29515291.5383694	-140.270438784117
1.17375	-8411539.04637113	30006425.5517623	31163112.224585	-105.659490774752
1.001604	6736642.34763594	38137730.6852328	38728140.3108813	-79.9826163690824
