EC-Lab ASCII FILE
freq/Hz	Re(Z)/Ohm	-Im(Z)/Ohm	|Z|/Ohm	Phase(Z)/deg
6999984	2.52228987700157	1.18680872836353	2.78755469566867	-25.1983114072868
5969734	4.24333510362226	0.895280928637541	4.33675232666278	-11.9138322905205
5091109	5.76635885960793	-2.62000848986292	6.33366710403481	24.43519464953
4341796	3.49272927195284	-5.2181934690621	6.27922772701536	56.2041459443314
3702781	1.61728897140008	-6.09820908989682	6.30902351565697	75.1466806908397
3157797	2.73463960190257	-7.05981571072564	7.57094786811416	68.825982182295
2693047	-0.563543999023717	-7.56894135875762	7.58989164159458	94.2580890178849
2296687	-1.19283321614576	-10.8297741011656	10.895267695831	96.2854428801758
1958656	3.72023928652119	-18.5929040761194	18.9614414624193	78.6851534420087
1670375	11.806481076617	-0.165608799883636	11.8076425118274	0.803631749366083
1424531	-7.06586710582065	-8.23163629245152	10.8483323146152	130.642112220062
1214875	-5.11590662623329	-7.48187010210923	9.06371230970918	124.363296926341
1036062	8.0239843371299	-3.82089363900277	8.88726914429161	25.463046556527
883578.1	-4.24911734340433	-8.04038780059475	9.09410986199157	117.855183923009
753531.2	9.48948043844869	0.984693500573604	9.54043291899126	-5.92420025515827
642624.9	6.3866126029194	0.116658128109508	6.38767795514324	-1.04645068998473
548046.8	4.72503707977429	6.41015684320807	7.9634217620172	-53.6054328391581
467390.6	0.125329289323335	-0.0275989728723223	0.128332124060578	12.4189862601755
398593.7	0.0527507182692823	-0.150138513445957	0.159135827197043	70.6412270688285
339937.5	0.0386409414563376	-0.106784856526908	0.113561119843477	70.106943924869
289906.2	0.0424137515785625	-0.105154214026428	0.11338577975427	68.0334096642905
247234.4	0.0434433580403837	-0.101716696260242	0.110605658335925	66.8725971713555
210843.7	0.043386289916899	-0.0974688936041544	0.106689059294621	66.0047379990708
179812.5	0.0424158495994263	-0.0906071777395642	0.100043815177002	64.9143420191574
153343.8	0.0407032625953813	-0.08368529169651	0.0930590330502017	64.0624110735774
130781.2	0.038862875752887	-0.0774610956269897	0.0866633973919669	63.3566989573147
111531.3	0.037360691674414	-0.0696493838172644	0.0790370669275831	61.7904042327656
95109.37	0.0363040945901682	-0.0650972263619828	0.0745361399861511	60.8520139559003
81109.37	0.0352475444347081	-0.0604349313982367	0.0699626351832627	59.7479242846832
69171.88	0.0461382330130156	-0.0639233627502624	0.078834845410294	54.1792214230918
59000	0.0452997671226964	-0.0610637468058138	0.0760319016948482	53.4303541256999
50312.5	0.0411442612240615	-0.0568538722889198	0.0701798619685065	54.1073266789588
42906.25	0.0370344351014147	-0.054174025020306	0.0656229713605048	55.6427160600386
36593.75	0.202268967197051	-0.170046555461797	0.264250952912915	40.0536058856058
31203.13	0.129176217920644	-0.144937650092602	0.194147927340591	48.290859678019
26609.38	0.0748338453079432	-0.111873571604129	0.134594949485623	56.2208648527933
22703.13	0.0424034209635856	-0.0876936712179597	0.0974075463252138	64.194363253796
19359.37	0.0227227820276581	-0.0694318505278667	0.0730555041786756	71.8784148358545
16500	0.0174013368046927	-0.0457522963033069	0.048949761384668	69.176288578238
14112.02	0.00353610970956738	-0.0428798649040112	0.0430254213932223	85.2857418334748
12011.13	-0.000913695770732275	-0.0326658658764121	0.0326786418539266	91.6022004543355
10236.38	-0.00330289885510542	-0.0246613925537586	0.0248815880429212	97.6282267688444
8750.684	-0.00396449130541206	-0.018089680311705	0.0185190098301819	102.361373818641
7449.463	-0.0039220174212175	-0.0131503329200351	0.0137227357534893	106.606933784781
6363.206	-0.00348189439932782	-0.00986043271220364	0.0104571373654536	109.449033631747
5414.761	-0.00274705961699897	-0.00799759567382027	0.00845623279606559	108.95686288573
4620.567	0.0321551296007315	-0.00595727381193138	0.0327023159869475	10.4959909306897
3941.215	0.0287148218416224	-0.00554194215488866	0.0292447280076982	10.9237383022226
3361.769	0.0349704216892825	-0.00630291006194695	0.0355338861986025	10.2170406985524
2867.244	0.0430573295459375	-0.00655977798709869	0.0435541538187517	8.66239420597823
2442.658	0.0497251899713931	-0.0069686885168074	0.0502111256330249	7.97770391121895
2083.003	0.0546033176613014	-0.00761214629465355	0.0551313619533582	7.9363478175664
1777.843	0.059332428962573	-0.00843534651436288	0.0599290597074253	8.09156781384529
1513.548	0.0622695813296038	-0.00887999520522213	0.0628995633832932	8.11598154549582
1292.065	0.0626801550457145	-0.00881271097344285	0.0632966484993973	8.00321772183612
1101.762	0.0658565861784942	-0.00929459881689567	0.0665092437955242	8.03332092439229
939.101	0.0692874287577714	-0.00979031205458751	0.0699756957378021	8.04264867729702
801.2801	0.0717630377113474	-0.00955404361260134	0.0723962245625541	7.58337716787606
684.3433	0.0741008773106906	-0.00946468024296485	0.0747028793977554	7.27880426314042
582.9476	0.0763474784349726	-0.00868383987683189	0.0768397458245735	6.48899340170848
497.0677	0.0821685706595773	-0.00656149875886067	0.0824301356919936	4.56561590937335
423.5089	0.0886128134153581	-0.00448731118334514	0.08872635833303	2.89895502193556
361.5036	0.0944918952012928	-0.00122450585457873	0.0944998289592103	0.742445586424062
308.1262	0.101812338298464	-0.000650142925962206	0.101814414085753	0.365868617208093
262.7298	0.105135847951898	0.000505286144743161	0.105137062155325	-0.275363172565197
224.2111	0.113786152675217	0.00139115167694552	0.113794656480944	-0.700464395817032
191.2854	0.123378833551688	0.00273081569221776	0.123409051219593	-1.26795388175113
163.1722	0.130300070201842	0.00187526864639404	0.13031356386463	-0.824539552268202
139.1537	0.134578470417218	4.5579388007668E-05	0.134578478135691	-0.0194050835745175
118.6706	0.141531973743289	-0.00193069795726582	0.141545141867438	0.78154766411056
101.1982	0.155292649417493	-0.00365738462363548	0.15533571200915	1.34915575230825
86.24196	0.169169246650841	-0.00670854990133022	0.16930221101389	2.27092280466338
73.61024	0.183083658745218	-0.0110683298231308	0.183417921765047	3.45960797545816
62.69291	0.194850098942924	-0.0141027018233549	0.195359789252512	4.13968882475561
53.57697	0.206996315676486	-0.0187402987220461	0.207842905820312	5.17313910236883
45.65746	0.223127263111003	-0.0228196832362934	0.22429113555023	5.83945406768047
38.96512	0.226364575423712	-0.0277174134950973	0.228055203881901	6.98088339840624
33.18414	0.219069041284684	-0.0275911294061931	0.220799717552582	7.1784449757453
28.30617	0.218431274338866	-0.0294893946041994	0.220412898904359	7.68874983597857
24.17237	0.233952495592578	-0.0340032280240534	0.236410637895276	8.2696029895263
20.61345	0.255803670326348	-0.0410117145805307	0.25907041221503	9.10843039033167
17.55618	0.264104520234641	-0.0440271709512545	0.267749116507116	9.4643804205567
14.98558	0.255677701672252	-0.0439396759211405	0.259425870437896	9.75135206182592
12.76553	0.270451156438139	-0.0485464885291489	0.27477370610602	10.1763263176304
10.8809	0.281343941959899	-0.0530335916294867	0.286298752212891	10.6750459712461
9.278505	0.283752041664593	-0.0541551351002835	0.288873674478231	10.8051704160982
7.923394	0.273620310597469	-0.0504021259050507	0.278223738504111	10.4371481651298
6.75822	0.227814809864772	-0.039738734836687	0.231254739713899	9.89479777541488
5.761429	0.257729962427459	-0.0479750243217277	0.262157083618829	10.5446121291845
4.919708	0.275067370999644	-0.0522977287165272	0.279994841055266	10.7649888859257
4.191257	0.283994583757257	-0.054795955207697	0.28923264046539	10.9208563245131
3.564097	0.287917370660588	-0.057574383414036	0.293617475558954	11.3081929827554
3.051758	0.279752399666286	-0.0547034687233127	0.285050652708265	11.0641473394974
2.604164	0.29531668453291	-0.0605137033745298	0.301452902556288	11.5802448030394
2.214424	0.289413684652203	-0.0575094329630468	0.295072221233541	11.2388536303887
1.892567	0.296576108742402	-0.0610502291712403	0.302794515734096	11.6318625708027
1.607507	0.305355689567675	-0.0614968086909665	0.311486684515604	11.3867111190001
1.376413	0.230999502204324	-0.132294288934218	0.266200204551491	29.7999302656328
1.17375	0.317676205743333	-0.204846975039285	0.377995310656397	32.8151149329308
1.001604	0.327335731944206	-0.208705291788649	0.388209454068335	32.5210901812035
