EC-Lab ASCII FILE
freq/Hz	Re(Z)/Ohm	-Im(Z)/Ohm	|Z|/Ohm	Phase(Z)/deg
6999984	23.4952243388726	3.19892572601157	23.7119946975047	-7.75327061328825
5969734	19.4637281404282	-1.2856499966572	19.5061428539422	3.77910471188357
5091109	13.6859949367531	-5.97736219877995	14.9343669522425	23.5933133836766
4341796	8.59635214955702	-5.99461984548539	10.4801115152025	34.8897836499436
3702781	6.62620875362809	-5.50281766265036	8.6132249869044	39.7083587069938
3157797	4.19597002595326	-5.17809431293893	6.66474494428621	50.9810798726526
2693047	2.67991843159259	-4.45409516756263	5.19816569202007	58.9657223027706
2296687	2.18287362964573	-3.87674510023089	4.44905493955368	60.6175023303533
1958656	1.77363480945655	-3.24441615890261	3.69756901889124	61.3357622223293
1670375	1.37467824289434	-2.89350702645887	3.20345488241272	64.5880425548304
1424531	1.18037039417839	-2.45352188142953	2.72269056084351	64.308152671909
1214875	1.19551092326765	-2.08430702747346	2.40282794898584	60.1624019536809
1036062	0.786245785036153	-1.83933903169855	2.00033759851103	66.8551792543835
883578.1	0.702602730919308	-1.56686129072904	1.71717934470467	65.847862154764
753531.2	0.653614886398387	-1.35173484017722	1.50146578311679	64.194477845355
642624.9	0.579665676151589	-1.16986540440866	1.3056022979991	63.6416881646128
548046.8	0.54587411985216	-0.998265823412623	1.1377667638484	61.3291732076853
467390.6	0.517793578428657	-0.860822362958733	1.00455230348241	58.9726550920917
398593.7	0.489524621919381	-0.746701485964914	0.892859151606525	56.7518420302749
339937.5	0.471973233957663	-0.645497821293131	0.799641276364992	53.8265830889227
289906.2	0.454101150487739	-0.558318787509118	0.71967195537963	50.8772771089088
247234.4	0.438992669090119	-0.481717682583382	0.651741121326843	47.6568704185508
210843.7	0.429485249132465	-0.416416579849474	0.59821429872238	44.1148854360977
179812.5	0.421164410538349	-0.355873723149548	0.551385135393072	40.1970000329932
153343.8	0.417115117830827	-0.309468362585761	0.519380100662835	36.5726638266459
130781.2	0.149161131350468	-0.426147999702915	0.451498793748718	70.7088360886539
111531.3	-0.18449224423107	2.01882824924609	2.0272407079909	-95.2215175503974
95109.37	0.437549438095942	-0.228726947943458	0.493726166506905	27.5981107547245
81109.37	0.384773050238832	-0.188214887309307	0.428339986453459	26.0659471260313
69171.88	0.372613785159751	-0.159607614511074	0.405358635656122	23.1876764534578
59000	0.375006567147894	-0.137767680570594	0.399512026369482	20.1720219607678
50312.5	0.346438193421436	-0.0859292025686596	0.356935918219495	13.9302942251259
42906.25	0.406018949390631	-0.116688151723478	0.422454153745602	16.0344301615423
36593.75	0.374220738191897	-0.10589706018802	0.388915605561609	15.8004628459007
31203.13	0.364961624627338	-0.092393388840862	0.376475132979756	14.2064770711129
26609.38	0.360142635310932	-0.0805848052838314	0.369048274093425	12.6126345357738
22703.13	0.355228928662891	-0.0689183086898034	0.361852628885916	10.9796074168258
19359.37	0.352653601582499	-0.062642815466595	0.358174098782547	10.0725407426204
16500	0.348208844623699	-0.0546383247401957	0.352469496559045	8.91770992906648
14112.02	0.345560444418163	-0.0483010423291273	0.348919777938366	7.95702013481472
12011.13	0.343755896679177	-0.0437210487234465	0.346525102414216	7.24832290843946
10236.38	0.341748787018515	-0.0396936478216172	0.34404624559209	6.62513963298747
8750.684	0.344173318856625	-0.0127899182891533	0.344410881684402	2.12820474747424
7449.463	0.293993524015962	0.11860820990032	0.317017506802199	-21.9710292233872
6363.206	0.245844130681819	-0.202415364215033	0.318451434697669	39.4662783089731
5414.761	0.328370531560175	-0.0251004028922538	0.329328462514957	4.37114715821241
4620.567	0.33135857369789	-0.0323819518587023	0.332937073888264	5.58149586324108
3941.215	0.33508479474336	-0.0285862955416885	0.336301941655109	4.87613267827568
3361.769	0.330287632970248	-0.0311396921072355	0.331752318631872	5.38595568100324
2867.244	0.327746908324478	-0.0266736142643605	0.32883053023431	4.65275075789905
2442.658	0.326206231497496	-0.025729460572847	0.327219361604975	4.5098579485824
2083.003	0.327114859222223	-0.0226481189160778	0.32789795426994	3.96060914701409
1777.843	0.322775456357626	-0.0167527369355138	0.323209915413658	2.97110759707639
1513.548	0.323712645817013	-0.0180303903940248	0.324214392092041	3.18800936479009
1292.065	0.322793244435391	-0.0141360404486834	0.323102625016716	2.5075440608121
1101.762	0.321776526604179	-0.0163243075500413	0.322190341398432	2.90422909843974
939.101	0.321332594655027	-0.016115505944742	0.321736454135348	2.8710983868941
801.2801	0.316011670302335	-0.0134113652262845	0.316296127836723	2.43014376522567
684.3433	0.315356916987909	-0.0125429661827711	0.315606259590619	2.2776745393212
582.9476	0.313380598829173	-0.014697186368407	0.313725050019406	2.68513805899085
497.0677	0.314897241792303	-0.00972831977038273	0.315047477523556	1.76951196828393
423.5089	0.31182629936998	-0.0124437069056617	0.312074489217447	2.28522669601882
361.5036	0.313427372116528	-0.0126242559655245	0.3136815095452	2.30651780768588
308.1262	0.312211613481233	-0.0106253854386018	0.312392366117153	1.9491743441031
262.7298	0.308904835121121	-0.0142605433763836	0.309233827804457	2.64317405711767
224.2111	0.312947439551982	-0.0084461635382495	0.313061395896486	1.54598508958513
191.2854	0.305637275317906	-0.0250961280888268	0.3066658763358	4.69407304704168
163.1722	0.305942849380903	0.0058972952625736	0.30599968166441	-1.10428562278303
139.1537	0.292324903525588	0.00551207670400589	0.292376866750493	-1.08024087595257
118.6706	0.292132532644539	-0.00342090853641058	0.292152561591588	0.670910086828594
101.1982	0.293705148954536	0.00438111635851972	0.293737823071788	-0.854601501863126
86.24196	0.321102195122275	-0.0142016836165991	0.321416097185393	2.53242303419227
73.61024	0.278650162250593	0.0111369338936541	0.278872630817069	-2.2887475216699
62.69291	0.842200360335555	0.370127868756852	0.919943523364249	-23.7243946680466
53.57697	0.312031444670074	0.00698231010002454	0.312109556273477	-1.28189050715989
45.65746	0.286357635528093	0.0132373241003317	0.286663430131186	-2.64670175826229
38.96512	0.2807964245523	-0.0396748670535692	0.283585484672742	8.04231636177585
33.18414	0.286075733617268	-0.0320160393451318	0.287861689253723	6.38566046335664
28.30617	0.297982212721284	0.00812751867970629	0.298093031884614	-1.56236537999012
24.17237	0.306918886354147	-0.00119098568740671	0.306921197130106	0.222332720062186
20.61345	0.314240568987188	-0.0493979197567151	0.318099496500203	8.93366107408292
17.55618	0.347014814565886	-0.0292521449766359	0.348245559216381	4.81844384971514
14.98558	0.300763843720733	-0.0482789696699812	0.304614097838666	9.11939107295253
12.76553	0.439389486523948	0.0711354510932751	0.445110518040208	-9.19617314707801
10.8809	0.17360171348814	-0.0503665695751582	0.180760466520718	16.1788785512728
9.278505	0.372509271073913	-0.24147950096685	0.443931871375797	32.9533639193179
7.923394	0.260765304016414	-0.176635870472768	0.314958369497375	34.1127268290312
6.75822	0.459037314434429	-0.0952625060900219	0.468817876269373	11.7239884546818
5.761429	0.293886073858936	0.0192467811887655	0.294515641340742	-3.74698527084633
4.919708	0.277303105265091	0.184135504436785	0.332870689884002	-33.5850556180276
4.191257	0.413649206148346	-0.142237578419979	0.437421072265542	18.9760642366794
3.564097	0.021444921565164	-0.557180060199359	0.557592596924222	87.7958699339429
3.051758	0.57773191588087	0.0177273252108067	0.578003827570813	-1.75753199374554
2.604164	0.588218204759255	0.269699539297928	0.647100067924363	-24.6315759338111
2.214424	0.512495974894989	0.317586096684906	0.602920436783428	-31.7858764680696
1.892567	0.461459651490077	-0.50666917328117	0.685316467850268	47.6736466227923
1.607507	0.66570650688597	0.181793545465035	0.690082637430523	-15.2741208969817
1.376413	0.591910484780832	-0.22626359304113	0.633682282795852	20.9198464749725
1.17375	0.431682440077886	-0.37705923048314	0.573169601744662	41.1360549409008
1.001604	0.276869974154269	-0.00847863828212083	0.27699976515388	1.75403064865949
