EC-Lab ASCII FILE
freq/Hz	Re(Z)/Ohm	-Im(Z)/Ohm	|Z|/Ohm	Phase(Z)/deg
6999984	4.11737853532776	138.222109022912	138.283419934369	-88.2937702579116
5969734	23.6749030890461	101.600503197437	104.322400692507	-76.8830292889837
5091109	20.5062411228392	92.6383185554176	94.880788307028	-77.5183821880042
4341796	19.1877809581952	93.3508658931751	95.3024401634356	-78.3849235573601
3702781	16.2163017243432	102.387890278428	103.664113931882	-81.0001894132348
3157797	19.6885792334988	109.702244653901	111.455025164136	-79.8252821585395
2693047	19.848125343351	121.26404859965	122.877652819476	-80.7044285993882
2296687	17.7791184399426	137.463125051635	138.608108714689	-82.6304262277205
1958656	19.8592684566147	157.968776343086	159.212200672448	-82.8345710901256
1670375	20.44370645269	180.937798565117	182.089077330615	-83.5536331230148
1424531	22.635117493335	210.10927894397	211.325004772961	-83.8512274018057
1214875	26.3480725537939	243.158843963525	244.582183171583	-83.8157040185076
1036062	29.9089057785962	277.802609336406	279.408003462658	-83.8550662190331
883578.1	32.3324606000042	320.775710272971	322.401061272416	-84.244333745045
753531.2	35.0535398298407	371.742078646301	373.391113567094	-84.6132039735502
642624.9	38.128187358908	431.922357349415	433.601985061821	-84.9552597772433
548046.8	42.5836122414214	501.791425676463	503.595074354332	-85.1493205824541
467390.6	151.774106896785	705.853374674868	721.98640296353	-77.8649070624994
398593.7	177.840682629177	801.678440220604	821.167236263449	-77.4923126083258
339937.5	199.764691904845	908.012578238976	929.727258055839	-77.5924656309147
289906.2	223.309311264815	1029.96315125083	1053.89332545191	-77.7668739837525
247234.4	248.542336457967	1174.02801365339	1200.04794481509	-78.0469357540124
210843.7	268.898663442182	1341.79450714991	1368.47323343158	-78.6679074123752
179812.5	289.661952946355	1538.51472677773	1565.54514834183	-79.3375231875446
153343.8	311.801268977579	1771.40573325286	1798.63790217407	-80.0171084283493
130781.2	333.536217389731	2043.41180145905	2070.45362146868	-80.729638742374
111531.3	356.635471728133	2361.11217614841	2387.89437958445	-81.4106563776665
95109.37	380.523239570421	2739.13805930783	2765.44304656628	-82.0910437593843
81109.37	407.118066326288	3170.32365615501	3196.35686441695	-82.6823934997388
69171.88	435.442968626045	3673.44952026611	3699.16773840673	-83.2398241386216
59000	453.80825091262	4247.42609278805	4271.60044272556	-83.9014758004387
50312.5	328.129797176973	4875.79888436678	4886.8275930902	-86.1499340758706
42906.25	1865.29743561699	6783.29466848631	7035.08500892733	-74.6246015479165
36593.75	1971.75108023646	7476.86629939282	7732.48549829934	-75.22666559904
31203.13	2080.50461726989	8489.75983923997	8740.96800076817	-76.2304303603297
26609.38	2204.00789759902	9705.95545966127	9953.05089897601	-77.206349372776
22703.13	2327.21614275548	11181.392576238	11421.0102407384	-78.2427154326086
19359.37	2490.84054045684	12833.1654770484	13072.6593606386	-79.0158073855787
16500	2617.00410574143	14861.0242787283	15089.6902917993	-80.0126966533268
14112.02	2783.14035356976	17161.0060434116	17385.223572036	-80.7880804374773
12011.13	3006.76504097306	19946.1902400131	20171.5428537931	-81.4275586326228
10236.38	3186.220905128	23190.5311250511	23408.3903230923	-82.1769301328744
8750.684	3480.29398686037	26910.3430296429	27134.4616347556	-82.6308845939566
7449.463	3802.50653272018	31353.9703474644	31583.7064398885	-83.0851255339363
6363.206	4167.04900876938	36363.2603844283	36601.2431923728	-83.4627047209275
5414.761	14857.0931834771	49543.168235025	51722.903404841	-73.3069705064541
4620.567	16331.6111414656	55916.0336735113	58252.2475467968	-73.7182969075786
3941.215	17695.7618001809	63360.0249694492	65784.7455708234	-74.3955330214232
3361.769	19181.0187010432	72046.0271458489	74555.6269231918	-75.0917913340662
2867.244	20494.9979323144	82491.0796457263	84998.9597663591	-76.0473130490059
2442.658	21879.9041871976	94901.0668379968	97390.6704681249	-77.0170441172648
2083.003	23471.9257415636	108800.993123858	111304.031385908	-77.82600322821
1777.843	24377.8607933337	126705.407163101	129029.222663807	-79.1094859850825
1513.548	27385.978094132	145736.387942402	148287.176002076	-79.3574048230357
1292.065	29620.2697422645	168768.972727297	171348.552766084	-80.0455271349878
1101.762	32495.0899486582	196413.235599775	199083.12331673	-80.6059371544052
939.101	36625.1084319162	228590.325060522	231505.799665851	-80.8973434890088
801.2801	41662.0146995115	264743.614924184	268001.688636372	-81.0568549391732
684.3433	46703.5960639947	303633.987384669	307204.857026093	-81.2555567025245
582.9476	153532.358720641	420865.943019206	447995.900838132	-69.957974898135
497.0677	158453.002979616	480529.121531902	505979.832397972	-71.7501868813042
423.5089	181094.013747652	539138.676119843	568740.322030619	-71.4330547416993
361.5036	211085.808123202	611266.350299375	646686.762969015	-70.9489054048137
308.1262	234224.832935949	704031.205048215	741971.165238592	-71.598181178256
262.7298	252927.624756512	790346.054160969	829830.867522282	-72.2542178536808
224.2111	289982.825529478	914432.37270696	959310.483293361	-72.4052495284773
191.2854	284504.410027373	1040038.54841068	1078249.94389298	-74.7009195262279
163.1722	309915.787115291	1157390.21891082	1198165.22814415	-75.0095145946854
139.1537	527996.738086206	1333399.20315	1434131.7897567	-68.3975243430962
118.6706	501312.757827932	1562427.78718252	1640882.40630495	-72.2109022443689
101.1982	513559.84102183	1893871.89249014	1962267.68191156	-74.8280015651879
86.24196	827854.318079946	2007296.80164265	2171309.10324818	-67.5876484996788
73.61024	664766.903555801	2206622.10424437	2304581.55572829	-73.2345486411496
62.69291	1184618.65985881	1106004.8538774	1620669.03039641	-43.0343901668841
53.57697	1157938.79054625	2558270.00048681	2808125.28887913	-65.6472696306887
45.65746	1266502.74097315	3218861.41104879	3459060.27360489	-68.5221999593166
38.96512	1768703.34608106	2903755.46144783	3400015.7803055	-58.6540332622195
33.18414	1844648.41584291	3943417.13433737	4353534.93996055	-64.9307859078776
28.30617	2666947.34117397	3088794.57284124	4080840.60382275	-49.1918014333945
24.17237	3022400.85940618	3487216.30174093	4614713.9120499	-49.0842400665146
20.61345	3566339.28301506	5656859.22902275	6687214.08499506	-57.7708188210253
17.55618	5414767.23335763	7721014.5652033	9430470.30150273	-54.9579226328762
14.98558	4036211.71660182	5282426.24211564	6647934.41789446	-52.6171723158046
12.76553	8059390.64914978	6571813.63420246	10399159.2005456	-39.1945989112559
10.8809	3856554.04782368	5016081.41358004	6327249.15515806	-52.4455485378511
9.278505	5311935.52485875	2272815.02747174	5777745.85537974	-23.1646034430479
7.923394	4823189.80329182	3904723.9161268	6205644.90925406	-38.9926943138297
6.75822	2916027.89049072	4111337.90970831	5040468.04036336	-54.6532580548933
5.761429	5039930.14114179	-2501271.91271231	5626478.20656163	26.3947905229687
4.919708	1238104.00029254	6000973.83895583	6127363.91373751	-78.3424673847409
4.191257	4311242.42914813	1776897.54684535	4663065.10515049	-22.3992235020003
3.564097	5576191.58610615	3034652.12409822	6348466.43838138	-28.5557352247723
3.051758	6017390.03658757	4704791.67412626	7638327.53613978	-38.0206370369226
2.604164	5023239.41861001	-3081795.54994988	5893250.21260495	31.5294320181249
2.214424	2929406.04565231	5269655.58340312	6029153.31933067	-60.9302799907152
1.892567	8003098.18897641	-137922.159366792	8004286.54812169	0.987314570033688
1.607507	5004154.21845492	2381540.21236433	5541957.52646919	-25.4503670005207
1.376413	10860745.6933491	2471311.96900567	11138365.2240242	-12.8191170659831
1.17375	2571442.72285617	5548176.14615258	6115110.48352084	-65.1334410800154
1.001604	8140109.29524454	2042265.66484571	8392391.10053471	-14.0841849593201
