EC-Lab ASCII FILE
freq/Hz	Re(Z)/Ohm	-Im(Z)/Ohm	|Z|/Ohm	Phase(Z)/deg
6999984	2.431297607171	1.03688902038652	2.64316985743133	-23.0970631781578
5969734	4.176937528225	0.926946732494764	4.27855552255398	-12.5123153554244
5091109	6.19453287538817	0.130772197093746	6.19591308136239	-1.20938613593285
4341796	3.42970522851031	-8.27703837217284	8.95947778438524	67.4926520972461
3702781	-2.38464300929015	-7.74626606008195	8.10500833777078	107.11067827826
3157797	-0.707687151499147	-1.67914530586576	1.82218277420461	112.853319667297
2693047	1.29171377358389	0.67166541202094	1.45590483843265	-27.4735325413292
2296687	1.54862144236771	0.71244065321804	1.70464074107092	-24.7047139963595
1958656	1.7803649025928	0.532833013986417	1.85838914309628	-16.6615496570469
1670375	2.13251511587342	0.315721230115519	2.15575986941363	-8.42152847848318
1424531	2.7009423159848	-0.0882643247759081	2.70238412985747	1.87170758541244
1214875	3.28147944179378	-0.733001480656883	3.36235014499686	12.5917502241413
1036062	4.1076984675371	-1.61266945652158	4.41292300818904	21.4348152116582
883578.1	3.60511281243792	-1.0894599025687	3.76613346413919	16.814741382731
753531.2	3.93836955709385	-1.93993364825657	4.39022748019754	26.2236021929395
642624.9	3.78066440669134	-2.43970355004822	4.49950850295237	32.8345897683873
548046.8	3.49376165685029	-2.73105224589859	4.43452555350683	38.0145235772485
467390.6	3.20226786663968	-3.05336407480196	4.4246527166552	43.6364370292737
398593.7	2.97671607025064	-3.82565210151441	4.8473139535943	52.113737219535
339937.5	2.408066661917	-5.17681463346575	5.70948288354569	65.0538572422717
289906.2	-16.6453449317843	-3.42581050599179	16.9942250638575	168.370237113836
247234.4	-17.9785189660667	20.95964645645	27.6140167993104	-130.621944105673
210843.7	-23.9191353407109	41.3638021319907	47.781682287899	-120.039184446489
179812.5	-18.0249301015777	86.201741931755	88.0661025436896	-101.810474898622
153343.8	-0.294084080126735	87.4551149426876	87.4556093974817	-90.1926669825342
130781.2	14.8136082703216	75.986212809007	77.4167134864446	-78.9684810717009
111531.3	25.3083752296415	59.0064982187221	64.2049895942705	-66.785106516039
95109.37	31.6728582311312	41.2338978490349	51.9942716109571	-52.4711712104494
81109.37	35.5440393161327	26.3008822761209	44.2166839485862	-36.4996632739683
69171.88	37.2405101855316	17.3319867475775	41.0761897392745	-24.9575889192405
59000	37.6567750817652	11.0152674318894	39.2347910170896	-16.3051240718519
50312.5	37.9585812535534	6.48537729747942	38.5086225340932	-9.69559753878174
42906.25	38.8470879082224	2.24726875200504	38.9120348451851	-3.31081885747181
36593.75	37.6597944363938	-0.794646170237012	37.6681772790682	1.20879885419284
31203.13	36.5878713890506	-2.96485695215222	36.7078017528759	4.6327763032452
26609.38	35.2752735090233	-4.60055446816637	35.5740076818872	7.43050056897925
22703.13	33.9460275838248	-5.84796375037589	34.4460660852223	9.77453966379487
19359.37	32.3841316992565	-6.42446894792524	33.0152356826003	11.2208341077318
16500	31.0277162166415	-6.9042778816964	31.7866045164959	12.5450484342602
14112.02	29.5363508836338	-6.92859967750381	30.3381198661393	13.201675256214
12011.13	27.6477639781292	-7.0180318166848	28.5245792882268	14.2429802122406
10236.38	26.6218565318217	-6.45221266590365	27.3925955960173	13.6238019117766
8750.684	26.1906594827089	-2.82602614850827	26.3426852832293	6.15850561589907
7449.463	27.5069514600387	4.82923454474687	27.9276544828437	-9.95760540891712
6363.206	28.8051133819027	9.83433584238098	30.437620117299	-18.8503859443175
5414.761	29.5742225301997	14.7596134342457	33.0526977264207	-26.5224168718341
4620.567	30.1616364071143	19.9062510582183	36.1383887569407	-33.4242435536682
3941.215	30.7874640789239	25.714045148036	40.1133402035565	-39.8690218023264
3361.769	30.9811167758893	32.9799053218941	45.2493508431047	-46.7899165195825
2867.244	31.3323783788107	41.5594146254608	52.0471217156523	-52.9867129049301
2442.658	31.8509739481191	51.9575653364051	60.9431959871696	-58.4909121779457
2083.003	32.4138223558364	64.3586362422158	72.0603215276866	-63.268176977967
1777.843	33.3366136884517	78.3507781259684	85.1479550262823	-66.951264276627
1513.548	34.2511454277935	95.4217035539069	101.382653704889	-70.2546524444537
1292.065	35.8181970004835	114.920718829128	120.373231461853	-72.6889209328465
1101.762	38.0811501324872	136.733919545685	141.937798875912	-74.4371870531292
939.101	40.8849588448631	165.763113883184	170.730752308996	-76.1447158741781
801.2801	44.4173871454379	198.333840250031	203.246688704029	-77.3767470210479
684.3433	46.9220944329315	230.029542632782	234.766423131205	-78.4708099308502
582.9476	46.8923445982046	273.453204205809	277.444673533915	-80.2694390413249
497.0677	55.0077176287178	321.55787909508	326.228935882221	-80.2925865362482
423.5089	58.3443871719774	376.621852248764	381.11427040425	-81.1940210353275
361.5036	62.3475574072481	440.134845344851	444.528851708622	-81.9373764787302
308.1262	67.9398907968491	515.383096910653	519.841865707932	-82.490338046811
262.7298	75.2682001329309	603.128933194023	607.807380678296	-82.8864810663644
224.2111	82.5268884862145	705.823661774561	710.631922196059	-83.3310963153859
191.2854	88.9276459129467	822.985394838855	827.775988009851	-83.832835456582
163.1722	100.491334614477	962.382099972452	967.614496935627	-84.0388137839315
139.1537	109.808640185767	1124.1295781089	1129.48007766349	-84.4208620417248
118.6706	117.021310054832	1310.77563783004	1315.9888904302	-84.8983650681868
101.1982	140.201694763331	1540.2465976977	1546.61439826928	-84.7989568907316
86.24196	151.122202066748	1799.74135926959	1806.07499296764	-85.2001992346617
73.61024	177.314597143104	2110.55753918639	2117.99282165368	-85.1976782203631
62.69291	201.045498411673	2461.19019867495	2469.38787688067	-85.3300887668179
53.57697	233.048243727687	2876.57474567296	2885.99961042062	-85.3682477559736
45.65746	276.218364280153	3350.52452748378	3361.89101459819	-85.2871742279626
38.96512	316.59980905477	3909.42761910612	3922.22637645041	-85.370081220918
33.18414	362.219165120301	4563.65735584577	4578.00952217726	-85.4619263554775
28.30617	429.221763258442	5318.54530635115	5335.83690696825	-85.3860667434022
24.17237	516.918897580302	6212.47804528895	6233.94647152772	-85.2435721397531
20.61345	580.346758896138	7266.18630652182	7289.32546959226	-85.433507648839
17.55618	703.811280372796	8478.19982343763	8507.36284429657	-85.2545156336401
14.98558	823.242875408402	9848.31941955772	9882.66786963664	-85.2216278561996
12.76553	956.972180526479	11517.0517419649	11556.7416074514	-85.2501038586176
10.8809	1175.59512565946	13427.3917382956	13478.7563518718	-84.9963981469337
9.278505	1344.16185633229	15708.0961608265	15765.5020882238	-85.1090416494564
7.923394	1650.50403095812	18272.5863657014	18346.9773000412	-84.8386628659342
6.75822	1930.54357607471	21301.0783917138	21388.3832757191	-84.8213595405212
5.761429	2231.21568652012	25020.7589633243	25120.0458307812	-84.9041519419176
4.919708	2734.87624102819	28938.5947734138	29067.5388623391	-84.601229155632
4.191257	3271.77842228757	33747.2879461851	33905.5154475975	-84.4625160734308
3.564097	3908.24084576853	39453.8910834352	39646.9906566955	-84.342825190028
3.051758	4724.88288504197	45726.2629642968	45969.7252869471	-84.1005786342467
2.604164	5633.1649146251	53304.425617562	53601.2531324928	-83.9674232426583
2.214424	38446.4837106017	72963.9594783914	82473.4593216139	-62.2141638180443
1.892567	44831.1788066242	84055.8284867245	95263.9328171011	-61.9267681880067
1.607507	52661.1331607712	97164.0345404468	110517.168593633	-61.5431156483871
1.376413	61780.8571049931	111568.771884647	127532.212262142	-61.0246461395732
1.17375	72438.7088806639	128777.857497722	147753.521535026	-60.6418530366463
1.001604	85943.9736797888	148420.080388875	171507.687508497	-59.9266298209845
