EC-Lab ASCII FILE
freq/Hz	Re(Z)/Ohm	-Im(Z)/Ohm	|Z|/Ohm	Phase(Z)/deg
6999984	55.1890472600764	48.6771248063048	73.58867723287	-41.4125185362073
5969734	86.1925024388047	67.1976356344158	109.291672654046	-37.9407896385932
5091109	67.2871730672571	96.860392306998	117.938540169228	-55.2129862545346
4341796	62.4811361273747	106.24485213381	123.255267541402	-59.5408000417434
3702781	55.1589481339593	106.29136884017	119.751261576494	-62.5733510598118
3157797	57.8507256312245	106.939042658441	121.583984557026	-61.5879782437459
2693047	62.6023035595184	113.38641081576	129.520371249616	-61.0962658639646
2296687	71.6363100771135	132.701072652704	150.802306363804	-61.6383985297174
1958656	84.0199295635306	152.457156255259	174.076227720218	-61.1406127973077
1670375	94.7051869318989	184.265589985266	207.178377453884	-62.7986380648573
1424531	100.30129814976	212.174195116096	234.687535850735	-64.6984515219521
1214875	155.835133755883	258.295269642604	301.66377845618	-58.8965090011188
1036062	109.029500511835	298.01177125183	317.330187323099	-69.9046325274083
883578.1	110.995611876818	355.503780592021	372.428468126605	-72.6605595219876
753531.2	106.730617758214	424.842449881853	438.043984079983	-75.8977710644767
642624.9	114.77836355958	488.172249173256	501.484015302872	-76.7690106877526
548046.8	556.709800270006	1170.96903728514	1296.57020172344	-64.5723435112438
467390.6	675.404729283327	1315.13418247525	1478.42803891604	-62.8166289396244
398593.7	752.978163778666	1368.59704420365	1562.06081332657	-61.181178209203
339937.5	846.49924197199	1491.07708708534	1714.60544916026	-60.4159930738058
289906.2	937.577770743079	1618.50967790337	1870.46134781193	-59.9169468342468
247234.4	1024.1085200214	1757.89636660746	2034.45272653658	-59.7759419208651
210843.7	1095.94942895878	1925.36768110063	2215.43355988436	-60.3507904767199
179812.5	1155.40626660341	2115.66430408876	2410.60139560688	-61.3601702244018
153343.8	1209.45255187416	2351.64061141299	2644.42603233325	-62.7831682043888
130781.2	1262.6673301842	2646.28110613907	2932.08671076132	-64.4919575325869
111531.3	1309.95558032962	2994.58470110309	3268.56561116912	-66.3734363402375
95109.37	1359.07976692309	3415.20790262627	3675.69623758828	-68.2999496305854
81109.37	1396.79312539568	3899.85733665097	4142.45317189984	-70.2942438280973
69171.88	1459.83812889132	4495.27424652337	4726.37471155442	-72.0088200300262
59000	1611.4494781372	2923.92874697732	3338.58184533329	-61.139753360615
50312.5	0.00145960239213582	0.000566960712909658	0.00156584916039561	-21.2279144222585
42906.25	0.00101529001478782	0.000848865966917636	0.00132339988057989	-39.8983973484828
36593.75	0.000630568190621935	-0.000913674502204245	0.00111014293629352	55.3886837624114
31203.13	0.00202726388316354	-4.37101410944962E-05	0.00202773504886951	1.23517152854492
26609.38	0.00106818846539954	-0.00125509073172542	0.00164811387424403	49.5994036088506
22703.13	8.14428067295623E-05	-0.000874400803278736	0.000878185456234893	84.6787503453132
19359.37	0.00244373044567832	0.00107139056497683	0.0026682758916305	-23.6738082243145
16500	0.0073518563804656	-0.00768260067099032	0.0106335387011518	46.2602514154517
14112.02	0.00072210285540342	0.000582669418782877	0.00092786646957768	-38.9002819510531
12011.13	0.00146483662208086	-0.00120814942321044	0.00189878154567422	39.5146989722396
10236.38	0.000723882847342627	0.00115662407106561	0.00136447265214267	-57.9592646398438
8750.684	0.000823992318834894	0.000910454067697362	0.00122796170578955	-47.8538189310491
7449.463	0.000806505089166159	-0.000531885777486903	0.000966101929996913	33.4046369379188
6363.206	0.00172820945897796	-2.2754834132927E-05	0.00172835925564603	0.754353368280266
5414.761	0.00136832383196145	0.00133324372560092	0.00191045778308967	-44.2560507776621
4620.567	0.000987578297945931	0.00113193874092128	0.00150219712680202	-48.8964015829589
3941.215	0.00165422161040296	0.000321339157196867	0.00168514331446086	-10.9930260883878
3361.769	0.00350229262033529	-0.00375873776708523	0.00513752500725475	47.0227321900559
2867.244	0.00148491316920656	0.000467164959063621	0.00155666638014058	-17.4639713195496
2442.658	0.00321286863936205	8.75305170159459E-05	0.00321406074696873	-1.56056457364003
2083.003	0.00356650632085734	-6.23376072561188E-05	0.00356705106691701	1.00134917122542
1777.843	0.0020268753695135	0.00112005587906315	0.00231576098416145	-28.925138304027
1513.548	-0.000211490677646639	0.00228772905300987	0.00229748395570391	-95.2817354146656
1292.065	0.00153789794846907	0.000647785403146722	0.00166875882872131	-22.8415469198413
1101.762	0.0015034966653005	0.000300659210587321	0.00153326389883826	-11.3084622729191
939.101	0.00182879157810452	0.00133846386298849	0.00226626656611091	-36.1998115414645
801.2801	0.012636203174624	0.00305957713482132	0.0130013323515053	-13.6109561980098
684.3433	0.00330954790889628	-0.00413162685153493	0.00529371776746779	51.3043025536198
582.9476	0.00394461734613555	-4.91569733880712E-05	0.0039449236260625	0.713970729921651
497.0677	0.00297687143380508	-0.00440614277356679	0.00531750483539597	55.9563130500475
423.5089	0.00621492838681625	0.00102473337139447	0.00629884222184553	-9.36283511052566
361.5036	0.00470595606942309	0.00609431560294574	0.00769978604869304	-52.3251185388926
308.1262	0.00510965727453364	-0.00192710042335219	0.00546098100206169	20.6639004983096
262.7298	0.00838881898909269	-0.00635025182767188	0.0105213108644604	37.125356104563
224.2111	0.00850781224485263	0.0003310018975726	0.00851424873079599	-2.2280054010191
191.2854	-0.000549355317901763	-0.00821588055715512	0.00823422641143334	93.8253912910021
163.1722	0.0118800018403149	0.00104339594568507	0.0119257334711689	-5.01929019409368
139.1537	0.00377476262323672	0.00835036714205408	0.0091639218825174	-65.674771604855
118.6706	0.0135829083802431	0.00203751753817271	0.0137348781496029	-8.531100927224
101.1982	0.00758830845723016	-0.00694364582731525	0.0102857494922472	42.4599254927521
86.24196	0.0183223101649457	0.0286877697739183	0.0340396119892959	-57.434435299504
73.61024	0.0155534780225279	-0.0210541657897624	0.0261761069622674	53.5453696734945
62.69291	0.0245000809046186	-0.0145570570106825	0.0284984538728879	30.7172414252152
53.57697	0.0137204423674111	0.0203522876320315	0.0245451858948835	-56.0142218944014
45.65746	0.0379468016874667	-0.012981829934309	0.0401059555022848	18.8861270515777
38.96512	0.0226111402719605	-0.0249912774240703	0.0337020416545515	47.862424757132
33.18414	0.0361740889126516	0.0363098396258312	0.0512539672836552	-45.1073056330438
28.30617	0.0553039432817155	0.00775980515748857	0.0558456866605595	-7.98714052610475
24.17237	0.0510492004894672	-0.00516389293295433	0.0513097131237043	5.77611931300671
20.61345	0.0606535028530965	-0.0734792753124858	0.0952788082880903	50.4620144877318
17.55618	0.0275064888805335	0.0824453217318235	0.0869128184216736	-71.5495943572289
14.98558	0.0618434525321508	-0.0834003923172805	0.103827925240624	53.4421513267017
12.76553	0.0971666291696639	-0.0759118213619465	0.123304332635488	37.9988760998635
10.8809	0.136302981703004	0.00865053892652172	0.13657721129401	-3.63143572638671
9.278505	0.0427785915195934	-0.072114819014485	0.0838484049573524	59.3235344458298
7.923394	0.0744023462755898	-0.0906279085929948	0.117256671227069	50.615200483838
6.75822	0.134421677658186	-0.211642173920195	0.250722151406906	57.5788779596565
5.761429	0.206755006359138	-0.206077068027888	0.291916752896332	44.9059109680554
4.919708	0.27488046393598	0.0950864156504675	0.290861987710517	-19.0814827414055
4.191257	0.112136480440078	-0.26996725997788	0.292330141630063	67.4434350226443
3.564097	0.0131787970356197	0.49847021770258	0.498644400979058	-88.4855392319419
3.051758	0.428808343251194	-0.155260830358353	0.456051006670744	19.904061059141
2.604164	0.490571892104901	-0.110634015051539	0.502892301203555	12.7087653946409
2.214424	0.225735551589943	-0.377603594468124	0.439932965128624	59.1285569081468
1.892567	0.786280368671454	-0.146149718919005	0.799747809311299	10.5296751194655
1.607507	0.615475529476036	-0.109261987822668	0.62509863970958	10.0665304153494
1.376413	0.497311032273175	0.118916203283932	0.511330936110927	-13.447961164451
1.17375	0.32470590565145	-0.428494506920588	0.537625769123882	52.845765287328
1.001604	0.326560964658997	-0.27483556435229	0.426821568189632	40.0841559952421
