EC-Lab ASCII FILE
freq/Hz	Re(Z)/Ohm	-Im(Z)/Ohm	|Z|/Ohm	Phase(Z)/deg
6999984	20.9352047803517	95.7447819861877	98.0068674980374	-77.6660334118095
5969734	22.8955803006934	87.6784599600192	90.6185408085243	-75.3650922023436
5091109	21.6736874076966	87.4729337322579	90.1180495881625	-76.0837531647762
4341796	21.072169404857	90.916583263988	93.3266384041805	-76.9506956045886
3702781	21.6158275686609	99.271801759268	101.597906602496	-77.7159380357653
3157797	22.0001567412544	107.667102735203	109.89181911331	-78.4514439573748
2693047	21.6238042437338	120.602289963901	122.525512667804	-79.8349651452772
2296687	21.5018738333964	137.504183346279	139.175181034818	-81.1124891410804
1958656	23.0254401784517	157.167931066547	158.845615146123	-81.6653361176021
1670375	23.97275874534	180.60654481704	182.19060676284	-82.4390583241468
1424531	25.8998742133078	208.349464489952	209.953096756192	-82.9139257447512
1214875	28.5010847063898	240.04431539037	241.730397717524	-83.2288233489551
1036062	30.7182562010326	277.650407954435	279.344519010659	-83.6866739230441
883578.1	33.0099014144513	321.901696232649	323.589795310125	-84.1449828633693
753531.2	36.0250793157575	373.847842953373	375.579573486893	-84.4958049213279
642624.9	38.9982279067787	434.407694727611	436.154682444687	-84.8701182488869
548046.8	43.8311348647506	505.734015492331	507.629848225584	-85.0466465455667
467390.6	155.525058655974	711.944855468636	728.734190976519	-77.677263384594
398593.7	180.931370525085	806.179922351742	826.233761137334	-77.3506774413694
339937.5	206.478905813087	914.392006799579	937.414679128043	-77.2754480828688
289906.2	229.695957312428	1038.10962919597	1063.21767998612	-77.5235388081604
247234.4	253.735855158221	1180.7978499986	1207.75222904129	-77.8724128096156
210843.7	277.238916035392	1352.37993869851	1380.50458715596	-78.4148319542659
179812.5	299.830226572697	1551.11096438083	1579.82384732889	-79.0596386569062
153343.8	322.420789542459	1784.96666005834	1813.85256927045	-79.7609962939258
130781.2	346.717963873362	2058.43472034634	2087.43068014241	-80.4389772529041
111531.3	374.347268549689	2380.93483233067	2410.1839251966	-81.0647044609665
95109.37	404.346873607831	2756.7771305171	2786.27287635984	-81.6557104266439
81109.37	436.685745191058	3197.4749880071	3227.15675773336	-82.223110531162
69171.88	469.320037685372	3705.3173635995	3734.92142658517	-82.7812860151784
59000	508.060450052679	4295.98173196612	4325.92007118652	-83.2552939990901
50312.5	1386.59372643026	5698.55490600583	5864.82482082277	-76.3243381429516
42906.25	1899.24555660122	6669.32828753625	6934.48437096809	-74.1044704614967
36593.75	2034.89086808305	7444.77356520948	7717.86461932636	-74.7126651610281
31203.13	2179.16955520832	8466.81256050422	8742.7509906813	-75.5666014588911
26609.38	2329.31340979601	9687.95249325781	9964.04157321093	-76.4807556210223
22703.13	2534.5381911085	11182.1443101931	11465.7854164541	-77.2291530930222
19359.37	2700.67717223156	12812.2569057469	13093.7994565165	-78.0969549695273
16500	2921.17077941413	14814.5255457394	15099.7816496752	-78.8453524415272
14112.02	3156.60455283623	17084.9270371372	17374.086570732	-79.532099654771
12011.13	3510.7033430847	19824.3457522855	20132.802151447	-79.9575781134352
10236.38	3903.84189634258	23046.4586583363	23374.7564317159	-80.385921361075
8750.684	4446.1311063175	26628.0724872321	26996.7095439398	-80.5206810344898
7449.463	4966.05638481039	30876.5149962404	31273.325603942	-80.8630233170804
6363.206	5641.34442641842	35753.4749502282	36195.797241587	-81.0335355569113
5414.761	16833.7539447669	48478.0381489859	51317.5940068071	-70.8507004387283
4620.567	18701.4358408279	54371.7648434157	57498.1087923447	-71.0190927347173
3941.215	21016.0278126282	61110.2513301736	64623.0318281195	-71.0217283405749
3361.769	23010.4449660942	69384.839014304	73100.8649919995	-71.6526694645729
2867.244	25326.8361836482	78764.0371045583	82735.8578373463	-72.1746340159371
2442.658	28102.1958026927	89859.9632009431	94151.7200873554	-72.6338023929549
2083.003	31131.8176041669	102709.181239824	107323.650600854	-73.1376041822135
1777.843	34509.434473446	117174.982664921	122151.044327102	-73.5896678825717
1513.548	38908.3598362142	134783.308656265	140286.851691362	-73.8979764721316
1292.065	43613.8311833997	154262.070541025	160308.92887827	-74.213045963674
1101.762	47992.2768107371	176532.578388028	182939.907799812	-74.7911030831815
939.101	55773.5296774652	202327.547731673	209874.065057585	-74.5886197983823
801.2801	64651.1980551054	230015.763678206	238928.92028892	-74.3007658021086
684.3433	75158.0632864539	263707.330773696	274208.480504812	-74.0921518689014
582.9476	180766.14436906	368469.614781343	410422.04615148	-63.868063789469
497.0677	206131.247404628	411715.058659933	460433.904794098	-63.4044836374286
423.5089	224490.642797876	454340.413215761	506775.354358193	-63.7059167334469
361.5036	256125.438993852	500579.52564001	562298.943614311	-62.9030882709096
308.1262	302160.350828504	574688.226590913	649282.246326675	-62.2654435407085
262.7298	311620.72753045	610592.881384663	685515.240256723	-62.9621602195876
224.2111	355118.888170588	706099.210386213	790370.495175236	-63.3007782765099
191.2854	354402.378029911	782754.590825666	859247.225780748	-65.6407379118242
163.1722	426402.977856541	858436.96193555	958505.87746871	-63.5854810049105
139.1537	512180.256649158	946131.494434652	1075868.6816068	-61.5714770592461
118.6706	606030.340164869	1106955.90161739	1261992.13203804	-61.3004107263697
101.1982	604597.572181916	1244096.54848122	1383226.10090728	-64.0814905681552
86.24196	698053.624053433	1285849.58207268	1463109.02183352	-61.5036388563026
73.61024	833541.455107392	1615430.84173485	1817803.11414925	-62.7068502260773
62.69291	697754.337748648	877223.956756831	1120884.91209185	-51.5008442660835
53.57697	1126157.97713211	1623639.09156462	1975964.4959146	-55.2547777961114
45.65746	1287950.56755481	2488842.55922023	2802347.93504495	-62.6388974315748
38.96512	1252292.60625443	2155371.3532559	2492762.01072538	-59.8429779828954
33.18414	1516375.25696454	2552132.79765824	2968631.96385426	-59.2829117381551
28.30617	1440220.60728724	2388015.85472638	2788701.33217586	-58.9056763258409
24.17237	2250895.11787487	2990644.82115232	3743058.27872852	-53.0332198891609
20.61345	1742558.59432996	3230830.38545141	3670800.38060221	-61.6596552639167
17.55618	4406936.0531353	3392975.61920421	5561777.49725193	-37.5932907358463
14.98558	1647800.99360887	3791777.72134271	4134347.15555059	-66.5115764646436
12.76553	3078313.22916094	2866641.92446577	4206381.84903987	-42.9608338451452
10.8809	-742255.406921157	4597375.81649121	4656909.64988177	-99.1713739984703
9.278505	3277455.20460867	3791703.64451804	5011858.8513712	-49.160672636385
7.923394	4505232.26467884	2032801.47219068	4942610.60412854	-24.2853260790576
6.75822	2958891.28539997	2554458.85622814	3909002.13443	-40.8045759381058
5.761429	4663534.57976077	2011294.08141136	5078765.4659912	-23.3296210176235
4.919708	5482215.42930869	772329.921941839	5536350.74048574	-8.01900843866993
4.191257	4370747.06696604	3616582.14491222	5673014.74828773	-39.6061143884527
3.564097	5383766.50258117	-2100325.9846597	5778954.14380075	21.3118527392451
3.051758	5609636.88534955	3146771.29556734	6431966.69550462	-29.2905994336512
2.604164	6077679.69652196	2322662.04511488	6506377.59965809	-20.9149877928698
2.214424	2819691.45378612	5923517.05824709	6560389.79283234	-64.544784241298
1.892567	6309486.36113477	-5512318.51486357	8378261.9647904	41.142271532978
1.607507	3752555.91661929	4909632.06732824	6179495.36320662	-52.6084060615391
1.376413	6870155.4507925	1236946.88624147	6980621.28448724	-10.2065498413235
1.17375	9042707.55846893	785426.158839228	9076753.50766892	-4.96410461814007
1.001604	14476671.3593324	15151520.8213923	20955729.4515653	-46.304816072757
