EC-Lab ASCII FILE
freq/Hz	Re(Z)/Ohm	-Im(Z)/Ohm	|Z|/Ohm	Phase(Z)/deg
6999984	-0.587367439406334	0.838175924627065	1.02349371737163	-125.021568137167
5969734	-0.930157584983488	0.34066936735219	0.990580007245481	-159.884789463728
5091109	-0.561357307132046	0.238887089491906	0.610073002022263	-156.947693214329
4341796	0.0192099307645873	0.376469369241881	0.376959158818777	-87.0789278448957
3702781	0.816877114990136	0.303487927666522	0.87143166297417	-20.3811458264126
3157797	1.70998938733843	-0.707476983675457	1.8505640727196	22.4764352944721
2693047	1.76492474866323	-3.21868784515696	3.67081882050927	61.2624236245525
2296687	1.3503568501894	-3.40198959844985	3.66019082163955	68.3503126207774
1958656	-2.2559003761706	-5.84360198451957	6.26392613786974	111.108892364241
1670375	-6.74805321142187	-7.7454030327946	10.2726574110405	131.063465382601
1424531	-13.497080910622	-8.65302597303755	16.0326557874215	147.335925130553
1214875	5.11138724229591	3.35907201611984	6.11634239968503	-33.311886530043
1036062	5.42830075165659	2.5886225461795	6.01393512910011	-25.4953212691267
883578.1	7.26140812031781	2.85655741198306	7.80307427478252	-21.4741258459821
753531.2	2.11078126424249	4.53607929218674	5.00314030289802	-65.0459504246989
642624.9	1.35226977271509	5.88355618388627	6.03695841522411	-77.0560052473337
548046.8	0.837131270592196	7.05417478790324	7.10367304304562	-83.2322610957259
467390.6	0.646727236820468	7.95071538006407	7.97697506412254	-85.3496839234114
398593.7	0.643469503017951	8.65087068772122	8.67476896850794	-85.7460561260829
339937.5	0.759023944511255	9.11830313569955	9.14983985777072	-85.2415667874702
289906.2	1.06406451744073	9.46010847096948	9.51976289514528	-83.5823956043303
247234.4	1.48374101953694	9.67812228949439	9.79119698828824	-81.2839181133835
210843.7	4.08949323438095	31.2718776907295	31.5381402308061	-82.5495818828275
179812.5	4.52033848544818	29.1777334773833	29.5258122818025	-81.1935053733119
153343.8	5.33599050121455	30.0320767247475	30.5024331329514	-79.9250341106717
130781.2	6.00692472682002	34.1333452304194	34.6578764683106	-80.0190564848527
111531.3	8.66037252784639	83.1629910205301	83.6127091284683	-84.0547993064157
95109.37	13.1439387001726	41.7222029527339	43.7436320369378	-72.513767734875
81109.37	11.9733182350511	27.7918179737248	30.2612870817231	-66.6925738321254
69171.88	11.7639539065217	20.8762623335711	23.9626572093924	-60.5983655399959
59000	14.5063737091904	16.5716315143867	22.023938095611	-48.8019437608536
50312.5	11.4028703176211	14.1072381354646	18.139449255454	-51.0514161715829
42906.25	12.185705782271	12.1057219980951	17.1767264199916	-44.811344283969
36593.75	12.7378023136449	9.96763118182449	16.1742164928746	-38.0440194445419
31203.13	13.328851843584	8.17636124278624	15.6368530926382	-31.5263380460312
26609.38	13.9192502530107	6.55898180451619	15.3871949983716	-25.2305918494644
22703.13	14.4254373927882	5.02905759032857	15.2769324217951	-19.2197947531501
19359.37	14.9265632646677	3.55633201520363	15.3443731803058	-13.4011734309006
16500	15.3959108129851	1.64873851024573	15.4839403394794	-6.11247418663826
14112.02	15.137427545403	1.01920964416783	15.1717006624534	-3.85193624201163
12011.13	14.774553813341	-0.0187845994583339	14.7745657548533	0.0728467135096256
10236.38	13.5499642732313	-0.394142577743556	13.5556954885183	1.66615496570469
8750.684	19.2324596078972	14.0500739597681	23.8178941311853	-36.1496089794552
7449.463	18.5690230260582	17.5455945144653	25.5471427562519	-43.3767668269425
6363.206	18.1264363379042	22.0052624040762	28.5096346483841	-50.5206280701737
5414.761	17.7948342101031	27.2163978384775	32.5175096812062	-56.8222298954067
4620.567	17.427613367153	33.0310440786843	37.3466408208684	-62.1832813928868
3941.215	17.5667465849349	39.7708630228573	43.4777199397829	-66.1690049989349
3361.769	17.5782812443166	47.5107065264723	50.6582984924372	-69.6962477773192
2867.244	18.3821504929695	55.8553315645559	58.8023938367534	-71.7834757292013
2442.658	19.5325888242027	64.9527162579561	67.826081823012	-73.2629100520086
2083.003	20.9852182901194	75.2038766652175	78.076900887274	-74.4085391633727
1777.843	23.3639521398046	86.2026889052124	89.3128089026423	-74.8351635376271
1513.548	24.8830018716695	99.4822578717153	102.546981493362	-75.9570149004932
1292.065	27.3421921172864	114.123248774902	117.352935117604	-76.5267641319713
1101.762	29.8481987872348	130.951650607314	134.310274244461	-77.1597679040319
939.101	30.5485048160236	152.848416458738	155.871259571604	-78.697701217722
801.2801	29.6076036285076	176.021737153641	178.494431686841	-80.4519833948536
684.3433	35.8542016954299	202.420149951979	205.571011783758	-79.9555154653727
582.9476	41.650984172777	232.023245957745	235.732032501586	-79.823104918918
497.0677	41.7271458805735	273.031988184004	276.202138433156	-81.3107898339752
423.5089	44.865727477337	316.468795076478	319.633276989785	-81.9309593514248
361.5036	49.0759109561652	367.388417647817	370.651715843788	-82.3914455313714
308.1262	54.699345139421	428.913428092611	432.387265257474	-82.7322981236947
262.7298	59.7419607005323	499.863433330253	503.420851623224	-83.1845337113915
224.2111	65.8798385681544	580.719095851255	584.444027616045	-83.5277354306749
191.2854	76.3277103812208	679.138752123012	683.414489169817	-83.587494928707
163.1722	84.1357082590709	795.184449532957	799.623115088157	-83.9602039744396
139.1537	102.66995270522	923.229570959901	928.920857707101	-83.6543591033988
118.6706	110.72753708185	1079.39558623461	1085.06009928067	-84.1429202153068
101.1982	126.595351521725	1259.7103227749	1266.0554807482	-84.2612932957808
86.24196	144.484600255647	1480.87324228296	1487.90502365597	-84.4274510563688
73.61024	176.398043986331	1717.14673953364	1726.18341870532	-84.1347269188364
62.69291	320.865100882985	1989.38635856108	2015.09615070685	-80.8377558783152
53.57697	381.785818731765	2317.40662180764	2348.64511201301	-80.6447263971356
45.65746	458.922263418845	2699.7523716274	2738.47996376991	-80.3526898089574
38.96512	565.520444703459	3157.21730786722	3207.46543277927	-79.8448773151329
33.18414	663.872613513039	3685.08703281508	3744.40826919214	-79.7876388313994
28.30617	785.19233811286	4303.59564774295	4374.63855730999	-79.6600984262033
24.17237	937.884921562876	5001.90443625894	5089.07419041636	-79.3800366559433
20.61345	1144.27492562462	5836.16270352168	5947.28174945418	-78.9069454045038
17.55618	1358.86013391063	6792.89596823383	6927.47692156236	-78.6877890478663
14.98558	1652.9950318905	7988.05284133955	8157.29003845564	-78.3086055790487
12.76553	1970.1232108204	9259.60270390682	9466.87000544593	-77.9885513546886
10.8809	2404.5654797941	10848.4927895513	11111.7834280355	-77.5024539612996
9.278505	44752.2135788241	56210.9130557683	71850.0338675483	-51.475015328679
7.923394	51687.6857122379	65661.258723388	83564.4526783176	-51.7906405892827
6.75822	60529.6331041133	76628.1284112145	97650.942379089	-51.6942977360315
5.761429	83158.3981636255	122300.633750579	147894.436003973	-55.7862305285629
4.919708	96036.464830097	139814.649557214	169620.57306786	-55.5154449450062
4.191257	111698.411176417	160266.689232832	195350.829885591	-55.1253007935677
3.564097	132093.459124458	183756.186906868	226307.353327321	-54.2894642324529
3.051758	155533.538037477	208765.054022435	260333.496184117	-53.313258741109
2.604164	185189.283959224	236593.182825677	300452.001246313	-51.9485420280428
2.214424	221837.129579495	266731.269283795	346925.470488712	-50.2501175063586
1.892567	264798.551122677	297344.973803749	398161.155969566	-48.3135545362841
1.607507	318425.407553561	329917.474848576	458519.661940589	-46.0154781157939
1.376413	378811.286648505	359132.551659149	521990.594315172	-43.4724565083073
1.17375	451280.633825385	386520.715845611	594182.189436578	-40.5799707528366
1.001604	534462.143069945	407742.591039706	672237.906490471	-37.3401064157559
