EC-Lab ASCII FILE
freq/Hz	Re(Z)/Ohm	-Im(Z)/Ohm	|Z|/Ohm	Phase(Z)/deg
6999984	4.69347405084428	2.1071481332551	5.14478103726768	-24.1778277375352
5969734	10.3591921907944	0.0122898198868558	10.3591994809197	-0.0679738793493764
5091109	8.12896965243108	1.78343091239492	8.32230577601131	-12.3741866901742
4341796	0.445331783953411	0.55903538007744	0.71473138589085	-51.4589094850579
3702781	3.30015582601125	-4.55586822566495	5.62556341761245	54.0813774204173
3157797	2.16454840079503	-8.7264900251071	8.99093420828326	76.0693146283389
2693047	5.23804426582218	-6.70058352586718	8.50499425736639	51.9842086507897
2296687	-4.94208394771354	-12.3975677965655	13.3463058940174	111.73387472717
1958656	-3.05238934250435	-9.84067570053829	10.303202363411	107.232890175961
1670375	0.67052354033811	-9.54378851599572	9.56731420285753	85.981140709425
1424531	-3.13027318498304	-11.2589052011426	11.6859555253706	105.53733617283
1214875	25.5088556748982	2.46285614802017	25.6274731147772	-5.51476060405322
1036062	9.53453830946757	-6.67808200970916	11.640627135301	35.0077671191169
883578.1	15.1715378401787	5.41149215661011	16.1077561378681	-19.6306627880384
753531.2	9.97325335458479	-2.08858177814462	10.1896004003462	11.8278542437832
642624.9	9.0806571121951	-9.02501344240941	12.8027028874738	44.8239149779942
548046.8	6.11316800385582	1.10183805405769	6.2116720889577	-10.2172985295602
467390.6	10.0000955775255	-6.15362395806456	11.741763043807	31.6063344133874
398593.7	4.54357573122548	6.1113007477074	7.61525293436207	-53.3702623121466
339937.5	6.89772016689429	-7.63517482475616	10.2895305094727	47.9049153072189
289906.2	0.254179301167053	7.83084825642825	7.8349723376887	-88.1409051181707
247234.4	2.12600494302509	-16.8413028622993	16.9749633023891	82.8051783552354
210843.7	3.45759200235298	-2.28083000344108	4.14211636236023	33.4111801159392
179812.5	0.0926164813300392	-3.35052678766374	3.35180661248024	88.4166124091876
153343.8	2.89387307786981	2.2195370952977	3.6470325345714	-37.4874138648841
130781.2	2.12441826393157	2.31799734767202	3.14424309873467	-47.4950957850956
111531.3	0.0481108954200937	1.69065213110524	1.6913365385602	-88.369973644664
95109.37	-0.408694094912447	2.29189423234255	2.32804854662899	-100.110795599367
81109.37	-0.351227297619376	1.51010603055716	1.55041311853264	-103.09332740192
69171.88	-0.281263129949719	-0.67821846724906	0.734226965989929	112.524212709774
59000	-0.486295722801294	0.177421231080621	0.517650290498321	-159.955893526104
50312.5	-0.533587359852778	0.163974981236211	0.558214354048759	-162.917455073356
42906.25	-0.598329454734446	0.173010508520237	0.622840888559229	-163.87246112628
36593.75	-0.564627029192217	0.154895616103502	0.585488116004511	-164.659304066333
31203.13	-0.563205476162407	0.150865340720373	0.583061539985273	-165.004281954781
26609.38	-0.550958004079843	0.12285418080172	0.564489036208947	-167.42966959735
22703.13	-0.546100736193425	0.113543804815828	0.557779714298624	-168.254556934999
19359.37	-0.542045042581	0.0954456784157633	0.550384143771315	-170.013480070272
16500	-0.537942089799586	0.0859462675711963	0.544764584832169	-170.922649499585
14112.02	-0.533490162484127	0.0779892561522631	0.539160530401219	-171.683021789503
12011.13	-0.530339765104995	0.0702047156230224	0.53496632468533	-172.459207714567
10236.38	-0.525821759597559	0.064608486442403	0.529776159700162	-172.995095140353
8750.684	-0.524575873030318	0.0576816456074857	0.527737642020643	-173.72504337135
7449.463	-0.526679850356709	0.0540556675342473	0.529446578952342	-174.139979406583
6363.206	-0.517120206118243	0.0567828027105499	0.520228405855966	-173.733695034056
5414.761	-0.552745835225338	-0.0696606675711887	0.557118090682236	172.817077153406
4620.567	-0.514799092236408	0.0415070620077325	0.516469690847337	-175.390345202897
3941.215	-0.507570776790174	0.0320925369194104	0.50858433359405	-176.382135146269
3361.769	-0.497290797713945	0.0520626934790644	0.500008661468246	-174.023325199495
2867.244	-0.510274894321436	0.0363954774892459	0.511571205753826	-175.920273867614
2442.658	-0.508636512699	0.0350886852754001	0.509845386254457	-176.05365844232
2083.003	-0.506683067626882	0.0325278518347697	0.507726099550508	-176.326787423259
1777.843	-0.504706485369557	0.0308895006238103	0.505650865343746	-176.497700733547
1513.548	-0.49583319454433	0.0313882306481734	0.496825701665341	-176.377780667026
1292.065	-0.498296109668966	0.0311549342089181	0.4992691086346	-176.422356783487
1101.762	-0.500307937961889	0.029482006181535	0.501175838879096	-176.627590265703
939.101	-0.493546768894972	0.0267752984053697	0.494272525729849	-176.894703189793
801.2801	-0.497917139340027	0.0288175248532846	0.498750365801596	-176.687636242633
684.3433	-0.152029981734732	-0.473594316095307	0.497397920767714	107.797310899944
582.9476	-0.132835307476045	0.486366025852585	0.504179660454379	-105.275952826692
497.0677	0.418272126881529	0.282112565875452	0.504518653719394	-33.9985363404617
423.5089	0.374137131024349	-0.266279354470159	0.459220303806545	35.4400637755431
361.5036	-0.496537741118409	0.078400073361332	0.5026890687672	-171.027443480315
308.1262	-0.13347180484989	0.473813302909166	0.492253764539775	-105.732371006293
262.7298	-0.421657997406403	0.0308276268057218	0.422783407138041	-175.818516563199
224.2111	0.390586419890338	-0.259883937390207	0.469145406367992	33.638546957781
191.2854	-0.110332041205726	0.419481690525369	0.433748830549021	-104.736169287899
163.1722	-0.443288362703251	0.0221765314550239	0.443842732345033	-177.136033013102
139.1537	0.343378422278342	0.228663549115933	0.412547887621132	-33.660554266692
118.6706	0.396745640798008	-0.2680311585163	0.478798293050228	34.0419493525987
101.1982	0.393000022178226	0.270598836290276	0.477150655070008	-34.5492232660958
86.24196	0.364427900609504	0.291270278933042	0.466525529989927	-38.6337190664464
73.61024	0.391959920151922	0.245987438502976	0.462755225693623	-32.1116889182707
62.69291	0.393891188120868	-0.31161628223073	0.50224991332062	38.3483230591138
53.57697	0.386024137400318	-0.294536340171074	0.485557710614331	37.3436243766181
45.65746	0.413624986791886	-0.244927507018695	0.480702728713891	30.6318420658509
38.96512	-0.100078750235639	0.471333710382707	0.481841491355671	-101.987633448877
33.18414	-0.0430953097017958	0.429149816243003	0.431308208245214	-95.7344293685985
28.30617	0.50393782953211	-0.223209918331667	0.551158782634518	23.8900596849307
24.17237	0.538728043539109	-0.102500979056974	0.548392519645476	10.772609224601
20.61345	0.578698939995293	0.388104252572186	0.696790767746166	-33.8477682262509
17.55618	-0.00413447933127105	0.530617179877132	0.530633287214533	-90.4464299899976
14.98558	0.421257680694511	-0.320577348889816	0.529365535490687	37.2711566746899
12.76553	0.279859538718521	-0.457016838142881	0.535897146622241	58.518299560553
10.8809	2513.21241762863	1853.86593186063	3122.9882403615	-36.4142639146041
9.278505	282.017689381571	-3748.25021250323	3758.84472047658	85.6971828261582
7.923394	2157.0066701386	876.22171494637	2328.18432877768	-22.108029161781
6.75822	5359.93937520938	-2006.08762866036	5723.053178137	20.5195838888721
5.761429	9768.77765629411	9334.69941798177	13511.6849475622	-43.6983222007258
4.919708	7113.62988329195	9910.45109131699	12199.2118987191	-54.3295655485341
4.191257	-5087.62907718334	8761.09462187237	10131.17705898	-120.144035722998
3.564097	6607.89495168037	-109.416783011527	6608.80077811758	0.948645075482514
3.051758	-5112.92430045981	-7273.73224965183	8890.96033856059	125.104532425902
2.604164	4574.39555169571	2849.98101429704	5389.57200946671	-31.9241025361449
2.214424	8.34616485625311	7797.76953069556	7797.77399725793	-89.9386747919527
1.892567	4397.54138327132	1127.09393726915	4539.68181274996	-14.3755168094103
1.607507	62.8208752790503	-57.5446284019107	85.1929963596772	42.4900344248862
1.376413	1.44620062515364	-1.14160113849178	1.84248457458957	38.2868389581183
1.17375	5.73873402028642	2.24387569980391	6.16182167153215	-21.355764224664
1.001604	0.70814412754639	1.38621972777679	1.55662238165073	-62.9399867529161
