EC-Lab ASCII FILE
freq/Hz	Re(Z)/Ohm	-Im(Z)/Ohm	|Z|/Ohm	Phase(Z)/deg
6999984	2.54752262658077	1.15906086380183	2.79880217574198	-24.4643811196139
5969734	3.738216181173	1.25358104155643	3.94280682318236	-18.5384677206482
5091109	5.95280884290942	0.331086443156208	5.96200900310142	-3.18342684834463
4341796	6.37210916561679	-9.36538486067084	11.3275861862543	55.769041794709
3702781	-3.98492895693107	-9.81933257897619	10.5971199430945	112.088535602356
3157797	-0.671245460124798	-1.9350875086651	2.04820265938941	109.130698280773
2693047	1.13357153833615	0.604586737073596	1.28472158663699	-28.07308703731
2296687	1.35053158012741	0.629445073994782	1.49001229863976	-24.9889125219003
1958656	1.59912297702952	0.526581850198675	1.68359221328159	-18.2264119871082
1670375	1.87906859280227	0.347442748793479	1.91091999836337	-10.4757655205216
1424531	2.37732959852571	0.0260515589594509	2.37747233501268	-0.62784084936861
1214875	3.12645677107357	-0.491117097491806	3.16479508733829	8.92731270171287
1036062	3.94563417331629	-1.48059233514761	4.21428317659589	20.5685144845763
883578.1	3.467794023391	-0.818186639652959	3.56300782569628	13.2755065976945
753531.2	4.00625422306968	-1.75310881403107	4.37303823602047	23.6338501476821
642624.9	3.83289136547894	-2.40517059111971	4.52503058464251	32.1086064053329
548046.8	3.47808378975367	-2.78434049561298	4.45529110654485	38.6786217688508
467390.6	3.07696197632356	-3.09789318906192	4.36630704538483	45.1942176009872
398593.7	2.76518696557642	-3.84050607727178	4.73241438212623	54.2458907921332
339937.5	2.10306035381158	-5.08730273154412	5.50486257177692	67.5400930026829
289906.2	-15.1380007059361	-2.75105256168976	15.3859466907338	169.699957564776
247234.4	-17.4554721699819	19.4731314135594	26.1514121172599	-131.872653676664
210843.7	-23.5581634075141	38.6199695923513	45.2381378313616	-121.383171546527
179812.5	-19.2071797876613	82.1965939213636	84.4108749372324	-103.152513942157
153343.8	-3.11445863189241	83.468515079633	83.5265997282823	-92.1368846687516
130781.2	10.674541294114	72.4223171954198	73.2047666466723	-81.6153741978667
111531.3	20.1885402216743	55.847723572455	59.3847234944097	-70.1254504616517
95109.37	25.9269523100427	38.6580511909103	46.5473068819912	-56.1512676694187
81109.37	29.2904811682261	24.1949343151326	37.9911454628548	-39.5578656125247
69171.88	30.6569657210574	15.6922358167406	34.4397417549883	-27.1063296200078
59000	31.7229609196458	9.44378838916204	33.0988124960496	-16.5780410584066
50312.5	31.2627998291098	5.50814848255494	31.74432788485	-9.99230946256819
42906.25	31.9529649267974	1.69939287577687	31.9981234412173	-3.04436197005725
36593.75	30.9724332084623	-1.07001035762457	30.9909106193749	1.97862093702605
31203.13	29.9705810262872	-3.05017207745943	30.1253925576972	5.81110984555535
26609.38	27.7685381615804	-4.59106211506686	28.1455069767014	9.38797076899805
22703.13	26.6002936120945	-5.39032426545471	27.1409509033192	11.4553858403245
19359.37	25.3304993017811	-5.88834300298768	26.0058989115617	13.086590953484
16500	23.9076117701699	-5.9609616451332	24.6395406671454	14.0002810198012
14112.02	22.3873923948931	-6.33745214794895	23.2671149472912	15.8058257308631
12011.13	20.9810518418939	-6.16672064345701	21.8685385859842	16.3790413570017
10236.38	20.5701121721815	-5.52573640307922	21.2993727037311	15.0363548711583
8750.684	21.1134180935244	2.49457623745546	21.260275967081	-6.73832744541556
7449.463	22.4580333290337	7.60030402764989	23.7092362239001	-18.6969764946712
6363.206	23.3584053889785	11.906727884874	26.2180333213667	-27.0097862315283
5414.761	23.9716535209521	16.3855364360351	29.036631637041	-34.3540910298081
4620.567	24.3237232318518	21.1870316484776	32.2573064891246	-41.0572961623821
3941.215	24.7504162328564	27.2148395136259	36.7862826805326	-47.7151860629392
3361.769	25.479829621153	34.8812257086625	43.1963149407637	-53.8528417446735
2867.244	25.4960591106745	43.2025813983187	50.1648489447876	-59.4529656117499
2442.658	25.9282873567846	53.5273658142961	59.4765077679706	-64.1547718701524
2083.003	26.5772961925034	65.6203036463089	70.7981420910029	-67.9512475164688
1777.843	27.3574804080036	79.9646464017876	84.5149478402325	-71.1131724046777
1513.548	28.4320946157345	96.9265522036189	101.010596109116	-73.6516619160049
1292.065	30.0080258121377	116.044592885212	119.861708443675	-75.5014561575847
1101.762	31.405679537559	138.699797318965	142.210936582028	-77.2417008687356
939.101	32.6768985584332	165.707392924434	168.89854874809	-78.8446075963936
801.2801	36.6770599962077	195.744579830661	199.151066437133	-79.3874278115005
684.3433	38.0642150836429	230.0266739596	233.154788076183	-80.6039890979018
582.9476	44.2432560711638	271.803625254892	275.380965953495	-80.7546769980212
497.0677	49.1352272989536	321.077210209039	324.815094288027	-81.299387973852
423.5089	52.6799189549751	376.371792826806	380.040656110326	-82.0322009938244
361.5036	58.1567985752822	441.033691777211	444.851582556657	-82.4880462156305
308.1262	65.2190359923286	516.408760129019	520.510835808208	-82.8020270873621
262.7298	69.6184582814929	602.720969348563	606.728354888713	-83.4111385193657
224.2111	75.5037630794327	706.819273836966	710.840561663845	-83.9026790118085
191.2854	85.9719586520538	826.381432241442	830.841410395442	-84.060643475926
163.1722	97.4940820137647	962.345627503981	967.271524859353	-84.2151701932728
139.1537	108.006528183006	1126.35132667262	1131.51788374171	-84.52261934614
118.6706	121.792532214482	1318.79263796287	1324.40456162317	-84.7236129406719
101.1982	134.293774271616	1527.15978666986	1533.05310796125	-84.9745111591597
86.24196	144.076981790881	1806.59068310861	1812.32670150191	-85.4402685508215
73.61024	178.785147214435	2107.54640979806	2115.11607206725	-85.1511540473985
62.69291	208.276969255976	2460.8686471925	2469.66673756956	-85.1622694286241
53.57697	237.875436021848	2872.55034923523	2882.38273516097	-85.2661466768813
45.65746	279.504423250574	3351.17419067399	3362.81001230461	-85.2322848711891
38.96512	329.292114050243	3903.10795633644	3916.97396151576	-85.1775674017541
33.18414	395.075504689612	4561.49726946183	4578.57423153906	-85.0499124049989
28.30617	465.780109059715	5326.29181655622	5346.61908359941	-85.002242316444
24.17237	551.139369298075	6192.07186744014	6216.5511834082	-84.9136630413168
20.61345	663.228977842183	7230.76079666045	7261.11385226614	-84.7593082113086
17.55618	759.822275029573	8430.46249502517	8464.63394185816	-84.8499501344983
14.98558	961.682962642868	9838.20007603055	9885.09053355835	-84.4170805202769
12.76553	1117.01921524204	11498.3303516374	11552.4600325041	-84.4513433964257
10.8809	1424.51814713238	13400.6658191314	13476.1677174019	-83.9321290424782
9.278505	1722.95328692851	15606.2320900925	15701.0524513095	-83.6999665438912
7.923394	2081.48370812005	18186.1699764982	18304.8996949247	-83.4706688342798
6.75822	2566.24695259475	21185.6084274955	21340.4692512811	-83.0933188304067
5.761429	3051.49792541857	24720.1645961651	24907.7935042494	-82.9629136362349
4.919708	3858.0390744789	28692.6275329598	28950.8435152651	-82.3418846820926
4.191257	4799.40168938153	33436.9063860122	33779.5939176744	-81.8317803570876
3.564097	6009.08810120994	38920.7702127503	39381.9183606108	-81.2232418828792
3.051758	7466.46718220902	45067.6029103854	45681.9106898035	-80.5931028997943
2.604164	9457.0345504189	52317.7820964489	53165.6451665859	-79.7537770257072
2.214424	45183.7468376303	67712.425264072	81403.5841559179	-56.285259579388
1.892567	53605.3308473191	76642.9182881646	93528.9710142094	-55.0304189826941
1.607507	64254.8490398024	86823.014976655	108013.52486964	-53.4960781143794
1.376413	76138.1421628857	97530.1917458468	123730.170104132	-52.022184293451
1.17375	91565.3361121473	109298.307904024	142584.469308594	-50.0451991509301
1.001604	109488.894276731	121529.077088367	163576.081833168	-47.9834391730415
