EC-Lab ASCII FILE
freq/Hz	Re(Z)/Ohm	-Im(Z)/Ohm	|Z|/Ohm	Phase(Z)/deg
6999984	18.98690348412	-2.6509335228602	19.1710707175658	7.94820231434766
5969734	16.9482848996806	-0.40691156871873	16.9531689682342	1.37535080974383
5091109	11.0555368115058	-6.54180583300598	12.8460156370491	30.6137423291027
4341796	11.657471912229	-7.81602472636378	14.0352019546402	33.8408010594622
3702781	5.39392783265485	-5.45900864354983	7.67432295608156	45.3435762390219
3157797	4.11183896858923	-5.0515714725054	6.51349322909292	50.855367202823
2693047	2.37275995393749	-4.3479641626273	4.95325975076018	61.3779319160509
2296687	2.50861274888648	-3.74122105565568	4.50442814474348	56.1568368191874
1958656	1.84294020912958	-3.28247425761496	3.76444761768994	60.6880334349339
1670375	1.5582755951527	-2.95224158245335	3.33825601049637	62.1736557019286
1424531	1.22626409277749	-2.47724691250064	2.7641410764882	63.6640908144024
1214875	0.985579120230615	-2.35166527413302	2.54984230175077	67.2615209226903
1036062	0.817991544698082	-1.85311435102436	2.02562162438349	66.182641394459
883578.1	0.740220108118328	-1.60920981051911	1.77129388378486	65.2980518545565
753531.2	0.670466552982989	-1.38094339728345	1.53509936654591	64.1028045981341
642624.9	0.608246488518284	-1.18980556628441	1.33626384982764	62.9231990895187
548046.8	0.566817007318737	-1.02912551148429	1.17489609675646	61.1551086295245
467390.6	0.527451715139935	-0.89544166150107	1.03924062707145	59.5001773340686
398593.7	0.495274689801471	-0.774813257252738	0.919582841277794	57.41254831173
339937.5	0.471500062786205	-0.674121571362181	0.822649501417956	55.0299491573021
289906.2	0.450690131262087	-0.585378933228811	0.738776075604197	52.4069025345695
247234.4	0.434738416735417	-0.50805485792711	0.668668250815719	49.4466645198246
210843.7	0.421037208868238	-0.44085397194432	0.609610167099139	46.3171232061964
179812.5	0.40925043807677	-0.380907675675944	0.559085484031626	42.9456963001979
153343.8	0.401371231492722	-0.331459808391767	0.520542476700117	39.5505260231691
130781.2	0.393799679691056	-0.288463885476027	0.488149158504554	36.2233085406429
111531.3	0.385964205187191	-0.251704983313258	0.46078603094116	33.1102168453129
95109.37	0.378404146410458	-0.219698085794224	0.437557935503716	30.1390697141486
81109.37	0.371231070936236	-0.191424653494894	0.417679190281375	27.2778158880905
69171.88	0.363698933455686	-0.165979139231692	0.399782426898553	24.5302540773201
59000	0.352688249299285	-0.139249761021792	0.379182669881445	21.5452929337153
50312.5	0.345798623575206	-0.099839422443025	0.359923045025272	16.1045544660884
42906.25	0.388433377972115	-0.114276324822349	0.404894514086979	16.3937778314925
36593.75	0.366867786656533	-0.10387833568206	0.381290809632671	15.8094296353945
31203.13	0.359584053236371	-0.0913714377597778	0.371011362332997	14.257292697963
26609.38	0.354991938841865	-0.0806360834398007	0.364034963424143	12.7975280162626
22703.13	0.35179323004144	-0.071717290353296	0.359029032863094	11.5225422234918
19359.37	0.349630383636183	-0.0635985980280002	0.355367678373697	10.3095160866865
16500	0.347293754356223	-0.0570711015116138	0.35195178994088	9.33206154734919
14112.02	0.41137751130472	-0.0146561515850701	0.411638505957047	2.04041443523091
12011.13	0.331568426598117	0.188200474443267	0.381257183666645	-29.5795363201577
10236.38	0.341137572629072	-0.0391820758649238	0.343380370039319	6.55211616199804
8750.684	0.340678698899337	-0.0352431031438465	0.342496791522129	5.90622083954707
7449.463	0.339641242643911	-0.031464115013219	0.341095535353756	5.29273258294648
6363.206	0.339140986802445	-0.0280400370261175	0.340298181901934	4.72644115176201
5414.761	0.339422151816061	-0.0253096213416023	0.340364472405538	4.26447043816818
4620.567	0.338957725842521	-0.0233958826098225	0.339764193568755	3.9484647335885
3941.215	0.336377539466438	-0.0227374153714085	0.337145130641489	3.86702164779963
3361.769	0.334459237036405	-0.0207320945667444	0.335101180218898	3.54704992936205
2867.244	0.337156191009539	-0.0196855190810943	0.337730390692862	3.34153168712201
2442.658	0.336481407438333	-0.0209011003388615	0.337129935702923	3.55445540886411
2083.003	0.336256613139653	-0.0182350099480548	0.33675068740532	3.10407792329696
1777.843	0.336668237454147	-0.020139984262643	0.337270101071206	3.42343714985155
1513.548	0.332273171871813	-0.0162722959057271	0.332671381936888	2.80368589159239
1292.065	0.335283854323082	-0.0173229028598191	0.335731061913003	2.95763564043948
1101.762	0.339517933833544	-0.010976685162867	0.339695326744074	1.85173943329433
939.101	0.34445804945107	-0.0169920381258566	0.344876901504444	2.82409865895952
801.2801	0.32974678987905	-0.00914132243664731	0.329873474549605	1.587961123572
684.3433	0.336354338597694	-0.00878390173917524	0.336469014952723	1.49594066392722
582.9476	0.344822588984271	-0.0164038960574381	0.345212551451535	2.72362076930081
497.0677	0.348959370775559	-0.00939722696111188	0.34908587815412	1.54256166675922
423.5089	0.330675267165371	-0.00953852202353723	0.330812810691005	1.65227219832867
361.5036	0.332636256626985	-0.0192290449918801	0.333191589620916	3.30847374121634
308.1262	0.33732808231089	-0.00920227437767857	0.337453577502543	1.56263524311163
262.7298	0.336975014831223	-0.00993059869036418	0.337121309636238	1.68800872192657
224.2111	0.342211499931655	-0.00721119303215762	0.342287469812175	1.20717681067483
191.2854	0.351054772352823	-0.015138855222417	0.351381044066321	2.46928824178901
163.1722	0.289702423999862	-0.0494764978973925	0.293896951865082	9.69168996661895
139.1537	0.310972917656544	-0.00872691494975349	0.311095346413867	1.60748466044109
118.6706	0.320508531550648	0.0347237716867685	0.322384024289213	-6.18328604053848
101.1982	0.309848637098435	0.00444229749284426	0.309880480054444	-0.821392868057343
86.24196	0.342546020063235	-0.0385856982327565	0.344712390217224	6.42692488376196
73.61024	0.318732046146942	0.00392271221112706	0.318756184115865	-0.705117386071289
62.69291	0.256016524879528	-0.0366644041221589	0.258628574486701	8.14997513148093
53.57697	0.298983896772395	-0.0354121109905672	0.30107372541292	6.75473122709016
45.65746	0.35787908356717	0.0152086351978093	0.358202095247163	-2.43341019761571
38.96512	0.27374289918008	-0.00815280570098352	0.273864278598567	1.70591938260236
33.18414	0.425100600837426	0.0538268634289332	0.428494868182733	-7.21647218460814
28.30617	0.336158030237194	0.0303888736756483	0.337528820897157	-5.16552964989169
24.17237	0.337914634857591	-0.0131557236601163	0.338170627813772	2.22951858255605
20.61345	0.22135928715253	-0.180833234207886	0.28583315518456	39.2461364649279
17.55618	0.332312798032683	-0.0144504482921949	0.332626834744517	2.48990841987797
14.98558	0.231825519720686	0.128476563870508	0.265045843313451	-28.9950047775653
12.76553	0.30202589143787	-0.044440702207904	0.305277930927822	8.37055242345039
10.8809	0.283129595782175	0.0722736837379089	0.292208578533939	-14.3199227145488
9.278505	0.336837808606046	-0.00749383938071553	0.336921158337061	1.27448445470003
7.923394	0.295865242589471	-0.00930678412204164	0.29601158423822	1.80171105045469
6.75822	0.296496723029593	-0.00532270861323111	0.296544495808417	1.02846325296439
5.761429	0.301352544954382	-0.00726728635987442	0.301440159569887	1.38145223730418
4.919708	0.298148935714548	-0.00509579880431084	0.298192479840072	0.979172839764879
4.191257	0.290738152430654	-0.00343539686248148	0.290758448252829	0.67698229354139
3.564097	0.291098204709215	-0.00783204356540078	0.291203546838528	1.54118026551516
3.051758	0.287791386723421	-0.00273322287011217	0.287804365462805	0.544135210542547
2.604164	0.288950588108019	-0.0046153638772071	0.288987446010531	0.915098969535399
2.214424	0.28741933631173	0.00195259605414023	0.287425968759307	-0.389235440375354
1.892567	0.292609250569234	-0.00510282370260207	0.292653741353889	0.999081977230085
1.607507	0.288582825285007	-0.0022531954401784	0.288591621394608	0.447344590774404
1.376413	0.287052830769675	-0.00723043166672079	0.287143878212597	1.44288992871826
1.17375	0.28885891641733	0.00258869205491754	0.288870515837718	-0.513458821008124
1.001604	0.295142067159546	-0.014325532792891	0.295489527220527	2.77882754469284
