EC-Lab ASCII FILE
freq/Hz	Re(Z)/Ohm	-Im(Z)/Ohm	|Z|/Ohm	Phase(Z)/deg
6999984	17.806383793787	95.6737343899711	97.3166519971499	-79.4569848878294
5969734	18.5286417626874	88.018427028993	89.9475072596688	-78.1123102384368
5091109	18.1586617193911	87.8663515777779	89.723089196867	-78.3235024817221
4341796	18.1919719002915	91.3012783144853	93.0960324798006	-78.7312765445167
3702781	19.000858264213	99.8545585229239	101.646276235703	-79.2262547837302
3157797	19.7522856751496	108.126456825305	109.915801661942	-79.6474933547104
2693047	19.4202267942143	120.937558864444	122.486890534578	-80.8772899661792
2296687	19.2957905999478	138.078080208982	139.419811250321	-82.0446914737582
1958656	20.9523631708933	157.59285514305	158.979588358327	-82.426797027331
1670375	22.0438112813345	181.014843235996	182.352140342688	-83.0567641230773
1424531	24.0439096713872	208.797293221894	210.177113999302	-83.4310774506363
1214875	26.4358704868219	240.769588406426	242.216535252645	-83.7341721242605
1036062	28.5616435968594	278.172874620381	279.635326200965	-84.1376490035916
883578.1	30.9311464769954	322.383745842389	323.864192842851	-84.5195253740463
753531.2	33.8122931890878	374.483421484826	376.006787355876	-84.8407255139966
642624.9	36.8354639864974	435.095052319443	436.651526918159	-85.1608370341362
548046.8	40.838002327577	506.250231740129	507.894713076482	-85.3880720956851
467390.6	152.364586007382	713.688736564198	729.771594245626	-77.9489026752655
398593.7	176.770819897895	813.037500089626	832.03239078738	-77.7336424316349
339937.5	203.068733035574	917.028946029148	939.243843840354	-77.5137985256432
289906.2	227.842127475663	1040.44443400922	1065.09936405643	-77.6480425370423
247234.4	250.235961887192	1186.22511249933	1212.33166012674	-78.0880168279233
210843.7	271.316197563276	1355.48302846045	1382.36996477228	-78.6811427374427
179812.5	293.332066331258	1555.74074376611	1583.15285520764	-79.3223398059736
153343.8	316.196456618852	1790.47080919048	1818.17653646215	-79.9848509044834
130781.2	338.100514735746	2066.02081521514	2093.5027984139	-80.7060328812146
111531.3	362.073868235224	2389.88278704549	2417.15477822069	-81.3850451642241
95109.37	389.889377406205	2767.27970204808	2794.61100620131	-81.980233721806
81109.37	417.549647598508	3210.65651501369	3237.69408153542	-82.5902045905023
69171.88	446.006365069609	3722.49699170846	3749.12063435696	-83.1677460479942
59000	476.6225484432	4315.82458920821	4342.06298186687	-83.6980184873877
50312.5	1337.07275456774	5726.08360076025	5880.11878739731	-76.8566159346281
42906.25	1840.8883822819	6706.01709490085	6954.10204937509	-74.6496970993432
36593.75	1961.24668734376	7492.46380260982	7744.901703833	-75.3312303966514
31203.13	2079.9996620363	8533.60597556083	8783.44064363155	-76.3017063100439
26609.38	2208.14930965048	9763.47585660522	10010.064144461	-77.2561394051729
22703.13	2387.59084164382	11188.7207409501	11440.6320562313	-77.9541738869807
19359.37	2487.97604358454	12951.9990930359	13188.7946871371	-79.1263882400389
16500	2641.78601540571	14976.4101555442	15207.6261953759	-79.9961381730475
14112.02	2787.86284933088	17305.2021513486	17528.3256692053	-80.8482983017456
12011.13	3041.71148577406	20096.882839861	20325.7646508511	-81.3934676438125
10236.38	3257.08675024787	23278.5721766431	23505.329963262	-82.0350084870205
8750.684	3570.25320706193	27116.7469810483	27350.7710091823	-82.4994480757536
7449.463	3898.47821308344	31547.0380381849	31787.0058571198	-82.9552932975596
6363.206	4304.08731810518	36639.8133078939	36891.7482220508	-83.3001565944489
5414.761	15037.5539994294	49827.3079255326	52046.9849788784	-73.2065310049677
4620.567	16563.7643099296	56196.6034488468	58586.8289575553	-73.5772919941969
3941.215	18131.3170366896	63665.4699624922	66196.9540313596	-74.1035537290245
3361.769	19493.5593034808	72427.8465577401	75005.2785563114	-74.9361187011291
2867.244	20823.8132272874	82879.2566873301	85455.2654104432	-75.8961094868708
2442.658	22416.4656898956	95178.7622988074	97782.8958804102	-76.7472382915377
2083.003	24148.9228657919	109713.966376704	112340.219394866	-77.5866787571838
1777.843	25829.9873322523	126111.646858924	128729.700221255	-78.4248587156807
1513.548	27985.0751768834	146246.171493833	148899.654496777	-79.1670682434932
1292.065	30452.1342139487	169566.16763158	172278.895061018	-79.818865031234
1101.762	32285.1475266152	194197.477869072	196862.874005039	-80.5609599674874
939.101	38200.4470987748	227875.024166904	231054.757141274	-80.4835533693653
801.2801	41713.0499495522	262990.173908867	266277.693599576	-80.9873551586238
684.3433	48802.2591102349	302610.189209035	306520.125126215	-80.8387299065669
582.9476	148056.971790749	420936.403002439	446215.555834261	-70.6215746164555
497.0677	164034.161515578	476667.313395938	504102.106526268	-71.0102691846723
423.5089	183589.082241663	543480.657664311	573651.61585545	-71.3349070713934
361.5036	205532.515379617	598753.545004964	633047.725321151	-71.0543296391178
308.1262	214890.04256068	658733.23345199	692897.685986788	-71.9327885306124
262.7298	249146.948530345	773466.692633284	812603.794339562	-72.1453558726059
224.2111	256917.235091756	883276.35321488	919882.373912975	-73.7819525186176
191.2854	269442.59301459	994301.65696527	1030162.65510564	-74.8377418477052
163.1722	368663.760110593	1184697.12252082	1240733.75070076	-72.7144748505094
139.1537	365315.274255274	1342740.41951039	1391548.44823712	-74.780102293515
118.6706	442366.474859954	1483684.68647656	1548227.48553469	-73.3978416127619
101.1982	472714.167494429	1784204.64521102	1845764.04237988	-75.1607754525999
86.24196	628864.125328605	2009651.02158948	2105746.261234	-72.6239475188787
73.61024	713177.048075321	2122721.61869848	2239323.23981853	-71.4290440371334
62.69291	1071833.08706229	865549.289823913	1377679.83930816	-38.92230071912
53.57697	714210.564546754	2539913.54788651	2638419.51956993	-74.2942913790236
45.65746	1422454.94991345	3102169.81398733	3412746.05550244	-65.3668640857517
38.96512	1009169.74940819	3733059.48653196	3867060.4744569	-74.8726349774286
33.18414	2174129.92234096	4161428.21580099	4695138.51920078	-62.4152720041353
28.30617	-366515.020303586	5682058.77609322	5693867.33205878	-93.6906889133669
24.17237	1552485.45192521	4700808.47792019	4950536.47845623	-71.7237162311691
20.61345	4728396.97066263	3708149.63600512	6009002.54910716	-38.1045982722211
17.55618	2889817.82497242	8160564.67740974	8657127.86758495	-70.4999356765492
14.98558	869492.208242623	6299576.14374072	6359298.41185188	-82.1414640453558
12.76553	1738789.19810536	6742934.3704148	6963515.76426514	-75.5402454003151
10.8809	2408099.39867844	8158209.34184645	8506193.17787376	-73.5547174570687
9.278505	5540884.2384578	6276231.06302129	8372124.84978715	-48.5607686361492
7.923394	12956394.123269	10530199.0670185	16695904.9191267	-39.1021922780572
6.75822	6727691.73347331	3544540.54482832	7604314.81032821	-27.7828781844983
5.761429	9661839.58151768	2703045.85942003	10032826.1729739	-15.6297672595753
4.919708	9299577.874164	451297.001331433	9310521.87694393	-2.77831360155061
4.191257	12909337.7170692	7754513.6083348	15059332.0434605	-30.9928283950951
3.564097	10824097.8305347	-2990508.23151834	11229614.1219441	15.4445414635654
3.051758	7297138.36498981	10768543.9174628	13008065.4372636	-55.8770729869809
2.604164	9190467.09407113	6489072.01387569	11250455.1467249	-35.2245972671062
2.214424	13914208.5758352	4022621.21151122	14484014.6956272	-16.1246710142754
1.892567	11862488.1623219	9469162.07935171	15178394.3777417	-38.5984134071105
1.607507	16464546.4197524	-3528638.30452966	16838425.6120451	12.0964912356082
1.376413	18260825.6622934	4632612.61970575	18839290.1552296	-14.2351249608694
1.17375	16204753.8951998	-10824470.6472889	19487514.3001362	33.7421778341863
1.001604	21182943.4235809	48079071.9926831	52538692.9392447	-66.222404665441
