EC-Lab ASCII FILE
freq/Hz	Re(Z)/Ohm	-Im(Z)/Ohm	|Z|/Ohm	Phase(Z)/deg
6999984	18.8767996177151	106.59656588969	108.255075739119	-79.9578072965532
5969734	19.3032585842491	89.8021896414544	91.8534106953581	-77.8686885839472
5091109	14.9435197548712	83.6762300613731	85.0001191760816	-79.8744419373617
4341796	10.5996741044547	86.9597881042368	87.6034122523456	-83.0504042915514
3702781	12.8642171624308	100.641875834731	101.460707935317	-82.7158542349745
3157797	14.5573217146727	104.959603746386	105.964305471715	-82.1037634224362
2693047	14.5339484485607	115.163241718703	116.076732813539	-82.8071264117388
2296687	12.7713935949919	131.558646983764	132.177101233749	-84.4552395094326
1958656	14.6804246171921	150.141675236526	150.857673022527	-84.4155335342301
1670375	15.1446041882138	172.233009263715	172.897566541732	-84.9748549338368
1424531	17.1786449954521	199.151177812582	199.890713811369	-85.069908632049
1214875	19.4921268523806	229.628920115573	230.454733001241	-85.1480600753048
1036062	22.0227303880739	264.832463111123	265.746560036532	-85.2463796329493
883578.1	23.8677166320788	306.831676050179	307.758582861618	-85.5520526166516
753531.2	26.3294443411761	356.185830919976	357.157648367592	-85.7723548888794
642624.9	29.356783247885	413.77294801832	414.813058177337	-85.94172121312
548046.8	32.5852611507733	482.166505698202	483.266322498763	-86.1337766660479
467390.6	142.603775168666	670.944807707512	685.932045965215	-78.0008126515044
398593.7	164.496534898634	760.689759900769	778.272459240044	-77.7978710004691
339937.5	186.924205740722	863.976597958839	883.966187425927	-77.7920268309587
289906.2	207.340110944448	982.929164808441	1004.55943808093	-78.0885897857184
247234.4	228.825941073702	1122.77014597023	1145.85082449256	-78.480607509147
210843.7	247.074519281491	1285.07826909593	1308.61452528266	-79.1168771406397
179812.5	267.104461340249	1475.79153951384	1499.768469254	-79.7410573626553
153343.8	287.4879405029	1701.20275543845	1725.32319611312	-80.4081521235261
130781.2	307.202011812388	1964.9773977377	1988.84621066627	-81.1143799018043
111531.3	327.820785218672	2272.80426765266	2296.32439047307	-81.7924754523416
95109.37	351.979592682062	2634.140395951	2657.55249416555	-82.3890964044114
81109.37	380.706689748975	3055.72483115178	3079.34925387446	-82.8982267011646
69171.88	406.765234874717	3546.76657013619	3570.01555449529	-83.4575481007713
59000	423.491630768896	4103.06377882489	4124.86091092004	-84.1071676488907
50312.5	309.022635662391	4762.60920931743	4772.6241702052	-86.287558538261
42906.25	1712.20591642439	6370.23820101701	6596.33108916882	-74.9554846746045
36593.75	1813.40814882127	7105.90349933729	7333.64259124381	-75.6838286237749
31203.13	1914.61006990282	8093.1693343342	8316.55707573638	-76.6901716951426
26609.38	2026.33280004747	9276.67128716104	9495.40177067755	-77.6782374128457
22703.13	2145.59318779059	10595.8443516496	10810.8967089635	-78.5527428955539
19359.37	2281.23109925226	12311.8051650339	12521.3642128145	-79.5028215114398
16500	2417.58639584503	14252.9975509625	14456.578542972	-80.3731444022436
14112.02	2572.88780298946	16467.9303389823	16667.7077397087	-81.1201094797556
12011.13	2760.25729056379	19150.2018704302	19348.1071939438	-81.7980331429544
10236.38	2969.27011300983	22239.6817631952	22437.0231967659	-82.3952843485988
8750.684	3225.41936063594	25806.8497829262	26007.6301452186	-82.875938642934
7449.463	3508.19087426872	30028.0214034349	30232.2588076949	-83.3363102313216
6363.206	3815.18012346662	34899.2866256448	35107.2044793288	-83.7612157321907
5414.761	4177.1146542641	40062.2061115589	40279.3823855318	-84.0475227424175
4620.567	14647.2149641583	52811.5791028156	54805.1438602181	-74.4987227203263
3941.215	16009.8104894544	60268.17190054	62358.372141528	-75.1233613085779
3361.769	17013.4144395087	69213.06265882	71273.4474647061	-76.1898076526549
2867.244	18215.1370237986	78749.1225124321	80828.3088606572	-76.976192226472
2442.658	19329.5588719342	90283.9287230687	92329.9498096675	-77.9155565315889
2083.003	20564.4875337631	104348.621660062	106355.690914408	-78.8513112025966
1777.843	20753.871698438	120534.339775033	122308.013864499	-80.230477911256
1513.548	22691.8294090186	138957.836902142	140798.43592331	-80.7254561504695
1292.065	25221.134626639	162834.227229683	164775.881697969	-81.1955107255948
1101.762	26654.8083423805	189270.167466003	191137.843192754	-81.9837860601358
939.101	27085.7363826227	218868.729087447	220538.336095436	-82.9453238319244
801.2801	34335.0397568061	245206.736399536	247598.946950129	-82.0289924301716
684.3433	47707.2522988973	286404.851444936	290351.030397872	-80.5429117969408
582.9476	123659.564747406	405457.597216547	423895.684212677	-73.0389408498919
497.0677	132262.605925583	455808.878921891	474610.504551107	-73.8187937048445
423.5089	148684.085419222	518980.069238194	539858.564369809	-74.0133701720709
361.5036	155038.855227128	584758.028152728	604961.980722099	-75.1506340996261
308.1262	163384.536224648	674723.209252408	694223.246356107	-76.3878218666521
262.7298	177478.454797457	773280.953510926	793386.434834917	-77.0737096432032
224.2111	185110.938607889	888434.891784746	907514.526899084	-78.2304541357928
191.2854	206062.08532428	1023957.92374222	1044486.19550603	-78.6217270140877
163.1722	204172.167873079	1187026.23713477	1204457.3723384	-80.2404473768913
139.1537	216184.930749549	1375972.3879232	1392851.72814993	-81.0710069967129
118.6706	215586.033012906	1606680.44660064	1621079.70042163	-82.3576410214587
101.1982	259136.306389341	1851723.6219233	1869767.89930672	-82.0335760925327
86.24196	272675.227421345	2199244.65498203	2216084.12117327	-82.9322030984159
73.61024	185475.617926618	2419617.26653538	2426715.66553674	-85.6165676643833
62.69291	1760888.2453514	1602507.86410695	2380915.55229104	-42.3039663809175
53.57697	449083.965533494	3427188.68841168	3456486.46953467	-82.5347422759336
45.65746	-223059.018473507	4029966.4147636	4036134.86269289	-93.168094108428
38.96512	357135.331196553	4473852.65430335	4488084.58222503	-85.4359140715786
33.18414	214951.434167982	5143655.11158875	5148144.52264347	-87.6070230446678
28.30617	600667.854822182	5565685.1449681	5598004.37698428	-83.8402839079187
24.17237	285454.840702846	6427064.58537632	6433400.62880271	-87.4569081023435
20.61345	-462276.15276385	9804254.16464814	9815146.40575649	-92.6995292235701
17.55618	292202.053523215	11226794.9257497	11230596.8828429	-88.5090877973217
14.98558	1181844.1794814	10859245.3261532	10923367.8285662	-83.7887750021365
12.76553	1728476.32634958	13491017.6462593	13601293.5981262	-82.6990092757976
10.8809	1782664.78367309	12592661.9547775	12718216.4173382	-81.9425330988864
9.278505	3064735.14717777	18398207.7046936	18651719.7134043	-80.5426253180433
7.923394	-5391642.21618581	21749034.0331161	22407371.2684241	-103.923084880829
6.75822	4402524.57879788	13848077.5262487	14531052.0555091	-72.3637100883303
5.761429	1496011.26999102	18674453.7369226	18734280.6665322	-85.4198139575354
4.919708	9039843.57162831	23483160.7760089	25163020.721515	-68.9457876572569
4.191257	3901459.79691063	25411903.3900546	25709652.3207215	-81.2715995207882
3.564097	39538550.4149404	3174275.04675394	39665765.9826106	-4.59003479764403
3.051758	19341658.3757684	20609363.4322969	28263856.9521116	-46.8174700599503
2.604164	10063878.2360493	42580135.950894	43753281.2797697	-76.7020892172814
2.214424	-27559603.7287541	30206657.3316853	40889777.5102753	-132.376340874364
1.892567	75289449.2342457	36720176.1417296	83766774.4507075	-25.9994209964387
1.607507	53088501.4407035	31343460.4053886	61650640.6731004	-30.5576096539138
1.376413	3633864.22805646	54929895.5171689	55049962.6771448	-86.2151366729565
1.17375	69022944.2021561	62396960.2811721	93045942.8382781	-42.1136813675766
1.001604	30215893.8470789	53705597.6878379	61622166.9854756	-60.6369828953877
