EC-Lab ASCII FILE
freq/Hz	Re(Z)/Ohm	-Im(Z)/Ohm	|Z|/Ohm	Phase(Z)/deg
6999984	0.740957616533274	144.228920530312	144.230823805206	-89.705652856673
5969734	24.5003832939523	101.978713700844	104.88053599038	-76.4907250866576
5091109	21.0891989410077	93.6039368481525	95.9502543271581	-77.3031219443736
4341796	20.5513727055609	94.1048074068845	96.3227579400097	-77.6807011313648
3702781	17.7934571646528	101.975556003634	103.516284419992	-80.1022499567057
3157797	20.6020055602132	109.514328048746	111.43532061726	-79.345945667133
2693047	20.5144097868548	120.959835370173	122.687092971031	-80.3744049093929
2296687	18.4372669376157	137.294460162855	138.526898483792	-82.3515103730508
1958656	20.4764482759694	157.624175897627	158.948626170233	-82.5983405911932
1670375	21.2919770039731	180.652405398237	181.902830821587	-83.2780404235568
1424531	22.8802800649438	209.840791358484	211.08449714227	-83.7772585504543
1214875	27.0772293578711	240.813584262663	242.331093166208	-83.5845728439518
1036062	30.246270105248	277.79314022324	279.434904065988	-83.7860821004993
883578.1	32.7108704532982	320.83187784676	322.495108317151	-84.1784435986049
753531.2	35.7063824328801	371.810077289436	373.520654476322	-84.5144833454492
642624.9	39.1120824961924	431.830410556507	433.598037909065	-84.824682695733
548046.8	43.0437694916113	501.705413581813	503.548496283471	-85.0963219864045
467390.6	152.300465257183	705.544149125965	721.794969560911	-77.8188985515504
398593.7	177.517569415332	798.657909216576	818.148484937373	-77.4685921556074
339937.5	203.110022232471	904.997597360625	927.509747851622	-77.3506201455899
289906.2	227.178803627778	1027.61022920032	1052.42243988566	-77.5338520484728
247234.4	248.770888889678	1172.72861039758	1198.82415257785	-78.0233871886325
210843.7	270.554017539816	1340.65121880737	1367.67875135085	-78.590500814253
179812.5	292.111012325983	1537.16333720077	1564.67247970823	-79.2402349539314
153343.8	313.206201107243	1767.80888128126	1795.34018089858	-79.9530517468536
130781.2	335.174368995033	2040.17724234621	2067.52630885767	-80.6703949063574
111531.3	358.80499198461	2358.05188647146	2385.19385408497	-81.3481466822177
95109.37	383.449912860351	2726.09361315937	2752.92938946514	-81.9933544553145
81109.37	411.800036763887	3165.92627702411	3192.59588138407	-82.5890013791325
69171.88	439.085220485611	3670.19974070389	3696.37145962251	-83.1778301051885
59000	462.394204817738	4241.04817685874	4266.18073211695	-83.7777169166904
50312.5	330.417324119357	4876.95776978741	4888.13795799259	-86.1240936793102
42906.25	1868.57517111757	6775.70382264817	7028.63681394665	-74.5824318541949
36593.75	1982.66617234905	7460.31532533881	7719.27910523141	-75.1170014770519
31203.13	2088.05324112411	8464.66676244031	8718.40293499507	-76.1429970007927
26609.38	2208.48469628897	9682.43701967444	9931.11228884784	-77.1511162413254
22703.13	2393.45262545015	11148.005447761	11402.045471475	-77.8826687541484
19359.37	2509.53475231506	12818.4265533911	13061.7695576732	-78.9229882227675
16500	2678.24852096654	14840.6482850629	15080.379857981	-79.7701063228684
14112.02	2811.88143289535	17135.3866855252	17364.5660485696	-80.6809373297878
12011.13	3048.63500105826	19926.1597431699	20158.0261305516	-81.301393326135
10236.38	3310.1403845178	23149.1109666293	23384.5754272027	-81.8623190075681
8750.684	3646.50565309669	26837.537989388	27084.1364789411	-82.262415435908
7449.463	3959.58788941333	31290.8656921148	31540.3965101258	-82.788046917161
6363.206	4380.50716874657	36257.6552857706	36521.3144598769	-83.1111378178352
5414.761	15072.2247294807	49329.8372763413	51581.0508230133	-73.0100064812379
4620.567	16616.3518326477	55740.7505294089	58164.7179809902	-73.400649105958
3941.215	18185.3095987132	63048.1828514276	65618.4337367793	-73.9105815436245
3361.769	19817.8827699075	71848.2795997002	74531.3609088046	-74.5795670652192
2867.244	21442.0300201456	82258.1184561371	85006.8156286818	-75.3899585706523
2442.658	23160.9022730475	94520.7772227095	97317.0320184845	-76.231805459038
2083.003	25428.3732421519	108474.989481649	111415.553262486	-76.8071123811288
1777.843	27395.2524797276	125273.468336451	128233.933603675	-77.6645437215421
1513.548	30444.1962243885	144862.067158183	148026.577293035	-78.1314470287942
1292.065	33686.7342971285	167275.815976645	170634.095884315	-78.6138201965149
1101.762	38212.459199409	194611.085255664	198327.170459456	-78.8911317693582
939.101	43960.0794286463	224963.186761508	229218.070799983	-78.9431563371561
801.2801	49296.0426315066	261201.034366072	265812.114421133	-79.3123703403384
684.3433	148315.158013193	374923.10738482	403193.157863037	-68.4168330207921
582.9476	162281.342763824	425393.344564275	455296.31209665	-69.1188782071659
497.0677	194830.176491394	472679.252611926	511257.736881738	-67.5993941344789
423.5089	220595.47908348	524459.85894	568964.418071495	-67.1876666628979
361.5036	246976.546393338	589812.330421375	639434.124508127	-67.2791107270008
308.1262	285888.982465113	661459.183531579	720597.503307638	-66.6255377700951
262.7298	331288.972609574	756554.251057035	825909.630749744	-66.3517785355816
224.2111	372028.255564361	845439.747114699	923673.854203759	-66.248531540899
191.2854	384993.692901917	973935.779483271	1047268.37349934	-68.4312715572294
163.1722	461316.6745376	1059990.4437467	1156024.57371838	-66.4809232226041
139.1537	551812.356204261	1150017.76680753	1275553.89554212	-64.3669381416894
118.6706	756047.886951595	1334213.60230597	1533536.5479643	-60.4614286269596
101.1982	862778.709587385	1412194.43649848	1654895.83605571	-58.5771996218924
86.24196	993824.884661894	1580611.70507951	1867088.98117031	-57.8399748268976
73.61024	1356067.20633642	1536912.49505188	2049638.57437053	-48.5770062600632
62.69291	1123365.20129686	717825.225329053	1333125.06150153	-32.5783916902945
53.57697	1342708.28735933	1817594.8985646	2259760.33247587	-53.5456790707039
45.65746	1792985.25051872	1630981.22318409	2423818.44595604	-42.291086289683
38.96512	2010333.58479204	2139008.72185037	2935438.54207421	-46.7762285578568
33.18414	2079923.43977361	2170740.95338941	3006359.55967374	-46.2239659982861
28.30617	3049923.93687634	1945531.52071784	3617613.70503235	-32.5336035794491
24.17237	2941036.65244499	2312657.63241757	3741401.06321203	-38.1794208306872
20.61345	2536207.17201703	1886039.01574205	3160615.44454429	-36.6361704686582
17.55618	3328159.74139939	2512470.9457217	4170030.87726786	-37.0496282727805
14.98558	3037862.75285913	2013809.81895545	3644727.71165834	-33.5405367973459
12.76553	3874164.95015459	1920540.38028508	4324075.55592081	-26.3690016926099
10.8809	3292079.28104505	285287.627853011	3304417.50135967	-4.95280990112465
9.278505	4316902.78631394	373084.880124362	4332994.57584042	-4.93946857886503
7.923394	4426030.64438682	527138.419179766	4457311.09280321	-6.79191045841619
6.75822	2871351.82884008	502751.82559885	2915033.57152645	-9.93138113063398
5.761429	2947763.54969876	1077777.1587528	3138616.50235608	-20.0836947870704
4.919708	2709916.85358791	-1146457.41411083	2942450.33190528	22.9312778401367
4.191257	3597251.10507255	1577060.1800484	3927764.54544312	-23.6729831650895
3.564097	2186505.0802998	2641124.57706955	3428752.46959848	-50.3796976413054
3.051758	1375754.74059332	2964917.34123375	3268552.5766941	-65.1081736412501
2.604164	2432267.70787537	2812411.31741661	3718276.96939138	-49.1456496829967
2.214424	5113212.05590346	564071.491416964	5144231.15499934	-6.29521334581728
1.892567	3154844.03176966	-138150.297374646	3157867.37679994	2.50737446530474
1.607507	5151102.39910642	-1594342.15237986	5392196.47499376	17.1980673364074
1.376413	3636324.15605497	-335277.832206387	3651748.15570267	5.2679143430926
1.17375	6462303.80704621	-2339789.69206609	6872844.11998866	19.9036714478403
1.001604	3453173.395676	3480367.13485689	4902791.23500037	-45.224716144422
