EC-Lab ASCII FILE
freq/Hz	Re(Z)/Ohm	-Im(Z)/Ohm	|Z|/Ohm	Phase(Z)/deg
6999984	-0.8635267793096	104.582939738533	104.586504687996	-90.4730725274712
5969734	14.0736775645974	106.356377858932	107.283491327716	-82.462091227511
5091109	18.1859808226348	92.9516326630477	94.713968944435	-78.9299210120885
4341796	16.1112597973766	92.8958843384695	94.2826496195607	-80.1608635391476
3702781	14.0679026082409	105.972915347634	106.902594314038	-82.4381988874541
3157797	18.3098343834496	110.246042975417	111.756163261302	-80.5702991795481
2693047	11.9282715543305	122.029752731147	122.611354343301	-84.4171378160564
2296687	10.3108775933199	136.771426259868	137.15953207088	-85.6887603465698
1958656	24.1903185751059	161.680543301686	163.480181046797	-81.4906412858667
1670375	20.2455274494014	187.602130268647	188.691390007703	-83.8406276825958
1424531	21.4648064797197	215.515066717094	216.581351688656	-84.312229243768
1214875	21.6706420302543	244.753689918397	245.711183006948	-84.9401909872314
1036062	33.1874134208783	271.943686085192	273.96126151551	-83.0421536993015
883578.1	31.0205041947235	312.322568786419	313.859297542453	-84.3278709915751
753531.2	27.2229152704696	381.997711632193	382.966498284191	-85.9237303383529
642624.9	22.2357479507342	428.237119613215	428.814014581557	-87.0276481222315
548046.8	31.3501052442256	499.967275779323	500.949204958967	-86.4120049713634
467390.6	151.428769406061	705.67901319401	721.743404449467	-77.8887994025563
398593.7	176.30807521646	798.716438063571	817.94406032411	-77.552186697917
339937.5	202.110356282345	906.438279011368	928.697447920294	-77.4302612791131
289906.2	225.11301132967	1028.19838232315	1052.55298264831	-77.6505635513409
247234.4	248.76708796954	1171.44682727853	1197.56951080001	-78.0108394129192
210843.7	270.655435662642	1339.42681836867	1366.49865225655	-78.5761768693748
179812.5	294.079824747851	1535.20743067956	1563.12021243968	-79.1559528622676
153343.8	314.528663126985	1766.5716547139	1794.35327936475	-79.9045795173856
130781.2	338.084878760315	2038.54402226745	2066.38890724101	-80.5834199130566
111531.3	365.91349638933	2357.77212335791	2385.99708141555	-81.1783792875204
95109.37	393.58494842839	2729.50515773664	2757.73594053896	-81.7947099877427
81109.37	426.724666778074	3161.93466004764	3190.59943202644	-82.3139816374697
69171.88	457.598075295048	3665.18200837019	3693.63711712375	-82.8834443900502
59000	482.59712131964	4234.87504520402	4262.28420333485	-83.4987437662412
50312.5	367.355700987768	4862.38086573368	4876.23808837317	-85.6794784302887
42906.25	1927.13192510473	6767.86977389468	7036.89553234628	-74.1058455602051
36593.75	2048.51352131127	7443.28458771912	7720.03193651245	-74.6122256595417
31203.13	2185.66270710961	8450.5083966593	8728.58600411654	-75.4986486643886
26609.38	2347.99586300739	9661.3692266042	9942.59221257084	-76.3402663696562
22703.13	2521.11719641214	11111.2834121418	11393.711027711	-77.2162042468522
19359.37	2721.20513456245	12787.6235823943	13073.9540411222	-77.9866605939647
16500	2966.21328413881	14779.0491180407	15073.7757075147	-78.6512916363164
14112.02	3256.04753728269	17023.0359391332	17331.635760945	-79.1716519058542
12011.13	3647.18042951024	19774.5588096313	20108.0854683127	-79.5499186421996
10236.38	4083.46576719766	22976.8678191215	23336.9052671783	-79.9225703921527
8750.684	4631.11570718354	26580.8060680264	26981.2246556629	-80.116688493143
7449.463	5398.78204739575	30904.4796968706	31372.4993095795	-80.0908480965826
6363.206	6349.96532630244	35737.695348636	36297.4507159547	-79.9246903359947
5414.761	17667.9172584232	48505.1528021792	51622.7193066507	-69.9859352385374
4620.567	20154.7630452905	54602.5898922242	58203.5849097823	-69.7400217528672
3941.215	22769.3830245384	61584.9644193594	65659.3683022605	-69.7094831023867
3361.769	26041.7158801232	69596.8126800121	74309.402508685	-69.485170125593
2867.244	29626.9423424331	78804.0938576336	84189.3159568634	-69.3959033011116
2442.658	34217.5996470146	89593.1871046626	95905.0744286999	-69.0970485151714
2083.003	39731.9268952524	101756.100927846	109237.951696504	-68.6712262818302
1777.843	46387.5613625748	114712.534304379	123736.701813568	-67.9825310120829
1513.548	54819.0385120386	130930.476567002	141943.357285386	-67.2815171497404
1292.065	65680.5094059686	147973.681372571	161895.459154291	-66.0651850464571
1101.762	78729.4202653556	166605.107234891	184270.408291914	-64.7068740015405
939.101	93989.7210589326	185445.023703284	207903.642298656	-63.1225884022243
801.2801	114899.112686123	205612.771263839	235538.569671411	-60.8029687686371
684.3433	134805.006312776	228814.29316552	265571.78028515	-59.4957082632666
582.9476	164183.013709094	245374.853114118	295236.990452374	-56.2130840859354
497.0677	292747.525125231	324022.730751767	436682.772170806	-47.9028698478902
423.5089	325145.873297211	328523.962271853	462220.545528868	-45.2960952265394
361.5036	366032.856382135	335965.00527657	496842.567340753	-42.5474161480686
308.1262	395044.431963048	343349.051186172	523401.06436217	-40.9952219148576
262.7298	437928.275434744	354885.021248361	563670.606588368	-39.0203567161787
224.2111	474414.556316905	352169.722222368	590840.659142163	-36.5874174898705
191.2854	487191.544283795	344113.866686526	596464.545524361	-35.2343833862471
163.1722	540578.96670907	332897.538580527	634859.346974761	-31.6254540150109
139.1537	548384.453746871	334416.471546755	642308.248081118	-31.3757246304252
118.6706	586269.689020069	378846.785595003	698023.663796116	-32.8704970334081
101.1982	640988.538506075	421347.99648023	767072.643648604	-33.3185557587784
86.24196	642543.199971735	384886.535843571	748998.938119128	-30.9218160059666
73.61024	737121.181880159	407055.629654193	842046.270943333	-28.9085110688123
62.69291	508234.685123776	262065.631329693	571822.428982192	-27.2773976289
53.57697	689011.448163324	401282.212049918	797348.223430513	-30.2166424700314
45.65746	854694.018921954	451259.768302013	966507.757066102	-27.8330750169297
38.96512	750419.809039218	485387.104604978	893717.254569509	-32.8956269623025
33.18414	903668.118039532	517649.722700981	1041430.4119688	-29.8054478491999
28.30617	724286.933491094	666212.686511171	984088.870831473	-42.6084304236721
24.17237	892094.180960903	499067.18239661	1022203.54149729	-29.2241019519483
20.61345	1027435.46602724	645483.206205792	1213372.2455802	-32.1389674388969
17.55618	1060213.2747191	903656.531812386	1393071.18101617	-40.4421056481722
14.98558	796399.959150778	1019032.01574814	1293320.97487634	-51.9914508373202
12.76553	1204562.30657334	862374.961943349	1481438.80244986	-35.5997814905138
10.8809	934127.326552615	709839.879475907	1173229.09813331	-37.2310668177646
9.278505	1723072.949675	-529654.552966869	1802640.93356948	17.0868791466843
7.923394	709109.081763062	1162582.91510747	1361776.31215212	-58.6191974282755
6.75822	1022534.25967552	322222.469923538	1072102.43556005	-17.490757096472
5.761429	1340644.9578995	1089473.11899846	1727507.04200058	-39.0989837144045
4.919708	1001215.85942125	888882.777543596	1338859.88414406	-41.5987756562484
4.191257	1444891.93480191	702073.856417427	1606430.95186829	-25.9151446343529
3.564097	2241541.90207115	440987.243944577	2284508.66666392	-11.1298827873327
3.051758	1809596.18228609	-235572.295183574	1824865.1043851	7.41702460163778
2.604164	592902.790380187	1832019.98810655	1925572.89024917	-72.0666887673345
2.214424	2443424.47224769	-399674.453717527	2475896.3670827	9.28968558882131
1.892567	2176936.71307605	605880.426311431	2259677.97345677	-15.5528362164231
1.607507	3906102.24292131	1756174.00795673	4282730.656763	-24.2085669232439
1.376413	1513123.61928077	1501845.58174314	2131920.08260786	-44.7856757747471
1.17375	5081252.47664513	-972677.511122856	5173512.17956008	10.836734661032
1.001604	-1551029.21453938	5038608.76564887	5271932.27551609	-107.109876137346
