EC-Lab ASCII FILE
freq/Hz	Re(Z)/Ohm	-Im(Z)/Ohm	|Z|/Ohm	Phase(Z)/deg
6999984	16.794057384546	87.9568812001989	89.5458168420018	-79.1903303299755
5969734	19.6886960758337	87.0346249424705	89.2337979245703	-77.2532746161972
5091109	19.9067278985176	86.7360264407654	88.991101231296	-77.0739388263213
4341796	19.1419126179038	90.0030334681131	92.0160793129861	-77.9931923128292
3702781	20.2674257918502	99.0932771807936	101.144679200924	-78.4407869423854
3157797	20.1360398778723	107.711286848173	109.577285129961	-79.4110909684394
2693047	19.7799234798737	120.800377757158	122.409054563549	-80.7008762610584
2296687	19.5548037168223	138.241810685423	139.618009475812	-81.9487210430738
1958656	21.1316928902007	157.969406495755	159.376541037339	-82.3807312206025
1670375	21.8812180794492	181.739073437535	183.05157338459	-83.1346863832151
1424531	23.7274813153933	210.06499154073	211.400790066119	-83.5555811795182
1214875	26.0118630071858	242.354901049828	243.746825784412	-83.8739165304929
1036062	27.9470134936922	280.638804178268	282.026902925634	-84.3130313846812
883578.1	29.9185254838583	325.495434092021	326.867550824308	-84.748307421642
753531.2	32.7751777181557	378.590263101142	380.006315196798	-85.0521469403999
642624.9	35.8398521781611	440.427009097559	441.882841199762	-85.3477931626874
548046.8	39.3039803768949	512.429723292204	513.934844301096	-85.6139320585257
467390.6	151.96177503786	714.826168405961	730.800131438551	-77.9984062287649
398593.7	176.005846779677	810.647489288449	829.534453769279	-77.7502009119142
339937.5	199.251264783093	920.832820907881	942.143381115013	-77.7904798449119
289906.2	221.140584263588	1046.86472978809	1069.96678475677	-78.0721458969982
247234.4	243.654027057321	1195.23326492493	1219.81549526326	-78.4778573117303
210843.7	263.993397492514	1368.29363264748	1393.52788958932	-79.0797494755152
179812.5	284.454129255843	1572.19824931018	1597.72384559557	-79.7445524052055
153343.8	306.401862593633	1811.81311659307	1837.53880798734	-80.401333925764
130781.2	327.989380721887	2091.97764079046	2117.53334883623	-81.0894562377161
111531.3	350.54752069765	2422.09020082335	2447.32599078908	-81.7648015908368
95109.37	376.763727411396	2806.15181980951	2831.33165526632	-82.3530000633181
81109.37	406.762732518006	3256.26253267096	3281.56999045308	-82.8796628686024
69171.88	438.589876815662	3781.85700126548	3807.20415240185	-83.3848397565692
59000	468.819346649129	4389.62639801073	4414.59075044393	-83.9038249273987
50312.5	1417.37680449608	5763.43607244403	5935.16237074207	-76.183677004247
42906.25	1782.04124550937	6818.5401490579	7047.56417246491	-75.3532319759844
36593.75	1918.70110362158	7579.39557907447	7818.48139149364	-75.7941802951171
31203.13	2028.33812145055	8628.65461533814	8863.84995392667	-76.7716462936102
26609.38	2147.95118843956	9897.75642452957	10128.1427985211	-77.755873194086
22703.13	2315.8903182542	11283.2759311044	11518.4922495795	-78.4011382629623
19359.37	2426.30207932398	13141.1833999087	13363.2946136111	-79.5390897398716
16500	2563.33571341547	15214.2164759048	15428.6445598881	-80.4364562386055
14112.02	2721.91710711847	17582.3575371528	17791.7994958997	-81.1999225006173
12011.13	2926.36242590902	20440.4024654088	20648.8171573014	-81.8525787250509
10236.38	3198.08250944694	23782.6629636852	23996.7245552695	-82.3413117242975
8750.684	3417.35687661859	27522.1281585354	27733.4791614218	-82.921947153883
7449.463	3770.51110998797	32067.9752216323	32288.8802662118	-83.294025946041
6363.206	4119.00344214979	37278.1648508948	37505.0365152059	-83.6947526279555
5414.761	14171.0641112323	49658.1868493324	51640.6291519368	-74.0727285996465
4620.567	15736.9964545382	55821.1943394746	57997.0585020959	-74.2559032067498
3941.215	17096.5006895844	65543.5801233995	67736.6313837753	-75.3806193585916
3361.769	20382.54274969	73587.8538301435	76358.4984154973	-74.5182032853607
2867.244	21913.4418186048	87818.0945601873	90510.864897643	-75.9889859454615
2442.658	20820.0639927768	90663.976616908	93023.8234037634	-77.0668341496616
2083.003	20293.0291878529	122322.602706707	123994.460225293	-80.5805551240809
1777.843	8788.97474367522	130452.500236642	130748.234768336	-86.1456368924071
1513.548	29723.6332201556	134297.597745252	137547.588608277	-77.5201010613896
1292.065	18127.7909083583	156821.437574308	157865.702690894	-83.4061537865481
1101.762	44216.0664591052	216865.4661231	221327.112957056	-78.4760811425654
939.101	30938.1931611181	212043.918079752	214289.045428569	-81.6988541486173
801.2801	65456.2686357304	286286.617088353	293674.224656516	-77.1213224359786
684.3433	83321.4838076812	379469.909071529	388509.821696528	-77.6158996047355
582.9476	181731.243016048	434975.631849089	471412.81801694	-67.3250046463908
497.0677	131223.975224668	532698.391126509	548623.101575695	-76.1613889460164
423.5089	165308.982753358	608950.070173368	630989.102713431	-74.8121879300423
361.5036	227519.257361434	638762.756689364	678072.91038921	-70.3947406253632
308.1262	121371.836095549	701663.67724169	712083.589585896	-80.1862455694719
262.7298	224587.300034695	753969.845544771	786708.321633679	-73.4126239238763
224.2111	180977.771857669	1043877.60636697	1059449.57925377	-80.1643585816979
191.2854	262748.211854815	1205536.45092813	1233837.41122941	-77.7045934714218
163.1722	277162.245123139	1152529.81674945	1185387.65330934	-76.4781773109442
139.1537	181466.395743089	1578256.50077848	1588654.66198086	-83.440989620492
118.6706	391412.27249552	1608536.94382661	1655474.15163003	-76.3237651851565
101.1982	237410.838479332	1808321.80890381	1823839.81500148	-82.5205329226144
86.24196	298015.758815459	2113300.42948215	2134209.94697143	-81.9731290451464
73.61024	569261.146836423	2814420.20916146	2871414.17546023	-78.5652906712673
62.69291	591832.395378667	3303142.37889853	3355743.60753248	-79.8419552303778
53.57697	159426.574048036	3390544.54424938	3394290.66802652	-87.30788177983
45.65746	919601.983266367	3947351.55237332	4053054.66107373	-76.8858940779593
38.96512	655720.578655798	5595777.96851727	5634066.07613152	-83.3164858916101
33.18414	563124.436193293	5007111.59895723	5038677.97096123	-83.5831977452435
28.30617	2433667.1303474	6284888.59895211	6739626.13225479	-68.832342013821
24.17237	1581937.78875201	8967608.5387802	9106071.05574545	-79.9956225110319
20.61345	118406.85930868	9742273.16954174	9742992.69702612	-89.3036656676092
17.55618	1018815.29504626	9849152.32574293	9901706.22373273	-84.0942188027207
14.98558	3323389.39779068	10131141.1550189	10662313.9229843	-71.8385942690929
12.76553	3734808.30815764	9959923.35166806	10637145.5884455	-69.4447766010363
10.8809	5270241.11470467	13375617.387991	14376459.2969566	-68.4946406893709
9.278505	1207825.030092	16283691.2679569	16328424.3763277	-85.7579163524421
7.923394	481734.610092587	17682185.8972709	17688746.8843953	-88.4394161294338
6.75822	6110239.06352569	18805570.2063656	19773327.7978185	-72.0001683673198
5.761429	14853032.5115017	14591564.5836614	20821295.1515242	-44.4912270342515
4.919708	11728945.0937496	22660357.1506937	25515876.2187229	-62.6340272903162
4.191257	8936308.23678076	17479147.1062755	19631051.6393181	-62.9213656245743
3.564097	41767431.3593977	15323856.4326799	44489761.7248214	-20.1473446685315
3.051758	-4338129.18473969	25467459.003809	25834295.6732748	-99.6669824912584
2.604164	27422056.8571539	14455328.4833092	30998801.9742272	-27.7956150362841
2.214424	31285005.7381714	44233599.2151832	54178989.3184329	-54.7294557120678
1.892567	39199178.164564	-5073105.78910498	39526092.2824996	7.37415589940609
1.607507	51070182.2826891	44073327.9466777	67458296.4110605	-40.7940392442533
1.376413	65637400.555665	1816533.59969061	65662532.2845808	-1.58527223263945
1.17375	37434648.6696137	29516388.4461333	47671481.0753814	-38.2549939638649
1.001604	33281983.1450742	-18661297.6442947	38156708.8706293	29.2794668636918
