EC-Lab ASCII FILE
freq/Hz	Re(Z)/Ohm	-Im(Z)/Ohm	|Z|/Ohm	Phase(Z)/deg
6999984	-26.8829968322611	-19.9941269891922	33.50314362479	143.36011369436
5969734	6.17714984990245	27.6870172175456	28.3677299527618	-77.4229274193355
5091109	7.25295424177819	29.1034957776301	29.9936461890158	-76.006231975095
4341796	4.14794036941601	1.55644491972706	4.43034198413341	-20.5677581802867
3702781	9.63814540891113	25.3100696254691	27.0830845984982	-69.1530264917557
3157797	25.0477276969508	12.1166187294077	27.8244696663643	-25.8149686934522
2693047	31.547507191061	-2.98175077207865	31.6881057754615	5.3993399750975
2296687	12.9043894782487	17.9540393810358	22.1104228340871	-54.2934692074409
1958656	31.3842313406884	13.8772575365923	34.3154229696029	-23.8537169719856
1670375	9.41230811871463	22.7051940173232	24.5787993906519	-67.4838285472011
1424531	13.1820582048119	18.6378083998397	22.8283718312144	-54.7291806923261
1214875	-5.07303735005331	-47.9310782115131	48.1987963176802	96.0417066341272
1036062	34.1881712814953	-57.6998729281099	67.0679237153864	59.3525261102634
883578.1	53.521180924836	70.076114997137	88.1769737555162	-52.6289351393386
753531.2	20.4515939806438	55.097861799226	58.7710989449382	-69.6357434341534
642624.9	-4.89077658929535	39.0036664659695	39.3091044598448	-97.1471714040526
548046.8	16.3121353334245	-11.8929634378151	20.1873311378489	36.0952983100547
467390.6	0.651106893535179	4.31876650690528	4.36757190301154	-81.4265273085916
398593.7	-1.34195639234839	1.29887140010968	1.86759574667207	-135.934695261024
339937.5	0.319649660259991	2.34111386278729	2.36283516645558	-82.2250585876654
289906.2	2.22388023484794	0.293195471159509	2.24312435751025	-7.51053704338108
247234.4	-1.51712284750939	0.875498428835483	1.75161617751389	-150.011695329593
210843.7	-0.844993457367214	2.3056483733666	2.45561160703427	-110.127301069623
179812.5	-0.638989068535271	0.558294227208839	0.848527827382395	-138.855805987939
153343.8	-0.641945929943012	0.507203060059238	0.818137837472302	-141.687649890373
130781.2	-0.651425599760649	0.47634490615303	0.807006680047606	-143.824438691534
111531.3	-0.510837423759618	0.533421465636058	0.738575205050023	-133.761065273636
95109.37	-0.657375328174572	0.466837108129703	0.806274895813786	-144.619417632278
81109.37	-0.640385649792873	0.393634814219298	0.751692854446616	-148.421622856546
69171.88	-0.0286868371030944	0.596043266051802	0.596733198027962	-92.7554499043748
59000	-0.0339730603575848	0.622814050701707	0.623739938260754	-93.1222574848176
50312.5	-0.607650053435718	0.223303451594347	0.647381664039366	-159.82227976828
42906.25	-0.548012051695021	0.242306761142283	0.59919093392528	-156.147099287193
36593.75	-0.628802825690025	0.198630708770506	0.659429414010653	-162.469344781784
31203.13	-0.0732626436080313	0.51072386526267	0.51595182090703	-98.1633120537171
26609.38	-0.575699005034904	0.12053345542593	0.588181654146993	-168.174858505697
22703.13	-0.532623422530477	0.0852095825295414	0.539396313653457	-170.910789273226
19359.37	-0.541022519889049	0.0982504507323763	0.549871365044781	-169.707176832995
16500	-0.537647294129446	0.0873073968267602	0.544689998462777	-170.776373374488
14112.02	-0.533882128112233	0.0791374598055389	0.539715540133986	-171.568430230477
12011.13	-0.274049885028104	0.52151984459033	0.589140295503066	-117.721169094728
10236.38	-0.527749850834852	0.065321698834725	0.531777048578503	-172.944159192366
8750.684	-0.524082844975624	0.059663521497458	0.527468069360811	-173.505199465358
7449.463	-0.52223324488753	0.0528563480277819	0.524901281759335	-174.220651864138
6363.206	-0.398305889755218	0.334960166371757	0.52042856846016	-139.937435713587
5414.761	-0.51131990131586	0.0321170583144696	0.512327577743416	-176.405855598987
4620.567	-0.500117608965064	0.0807896108294312	0.506601010672999	-170.823642392587
3941.215	-0.511680040103402	0.0358909533598949	0.512937251497004	-175.987653704321
3361.769	-0.508707158477156	0.035745816073461	0.509961504873319	-175.980549027662
2867.244	-0.507016967275983	0.0342648449169033	0.508173478944853	-176.13375794208
2442.658	-0.504816180580351	0.0329433215141742	0.505889947130915	-176.266283080093
2083.003	-0.502056378511734	0.0305887260581926	0.50298735308771	-176.513457072913
1777.843	-0.502143877000152	0.0306948598727517	0.503081154120636	-176.50199791701
1513.548	-0.501564559915042	0.0298751641634778	0.502453513468226	-176.591264741492
1292.065	-0.498357637859375	0.027917567391149	0.49913898443401	-176.793690730511
1101.762	-0.492970365312956	0.0279673929235422	0.493763056681774	-176.752953431277
939.101	-0.493027323415115	0.0268138731516318	0.493755937105838	-176.886968259559
801.2801	-0.491066383228807	0.027485472468427	0.491834976322581	-176.796440927928
684.3433	-0.489166652962061	0.0217350733859334	0.489649290600117	-177.455858054344
582.9476	-0.482805760216725	0.0270855947146311	0.483564919674179	-176.789049772371
497.0677	-0.481728175944771	0.0233602569053657	0.48229424328076	-177.223752851536
423.5089	-0.484401974760338	0.0195507289694517	0.484796353281408	-177.688765398065
361.5036	-0.481768482205987	0.0220411652687081	0.482272416185565	-177.380514104284
308.1262	-0.480011409457309	0.0206852752512065	0.480456901107071	-177.532462511553
262.7298	-0.13369056903496	0.458766047791015	0.477848778228719	-106.246829810541
224.2111	-0.132715574006649	0.45860280660952	0.477420106210498	-106.139973181749
191.2854	-0.133090297442845	0.459959684966635	0.478827671577188	-106.137910533686
163.1722	0.383758147232749	0.272818576174759	0.470850603773145	-35.4095079363288
139.1537	-0.477485407156373	0.0232435359049156	0.478050809024157	-177.213095836547
118.6706	0.389761310045842	-0.28825823055114	0.484774882073242	36.4857518587025
101.1982	-0.134802400753697	0.452984665365125	0.47261696362373	-106.572327133955
86.24196	-0.136105553442388	0.448274214598789	0.468481048871797	-106.88940197778
73.61024	-0.112615636384723	0.424558374539065	0.439240361248359	-104.855802875522
62.69291	0.398408170621094	-0.310740563190562	0.505261088972458	37.9526384057965
53.57697	-0.108797356912259	0.426450236371168	0.440109837395301	-104.312180519502
45.65746	0.3471974806446	-0.244669770114591	0.424746261871584	35.1723205978785
38.96512	0.327389063653442	-0.282967234118104	0.432728615398066	40.8373433944093
33.18414	0.404075942687552	0.288740666056087	0.496637231481236	-35.5484731199598
28.30617	0.379272808055204	0.206189105801654	0.431696433019043	-28.5304162198055
24.17237	0.380157702536334	-0.245246051803645	0.452399717863506	32.826734517016
20.61345	0.416323309499881	-0.294265706946092	0.509820953195744	35.2534399625131
17.55618	0.331111079974266	0.21620935121517	0.395450415140267	-33.1437864425296
14.98558	0.29467858493004	0.588590746058279	0.658235926368207	-63.4051138910033
12.76553	0.498822224031646	-0.15093804821452	0.521158234691429	16.8352303534849
10.8809	0.432101657423793	-0.296211600997542	0.523882768292598	34.431171041987
9.278505	0.570311249177626	0.111141148839328	0.581039822993115	-11.027478040609
7.923394	0.38704003926924	0.267372207941798	0.470412467497628	-34.637212394694
6.75822	0.549593468158879	0.285197002526787	0.619185198864741	-27.4258624527743
5.761429	0.722968579647011	-0.63792302777764	0.964172887259235	41.4240922836689
4.919708	0.893870703949433	0.469842692315851	1.0098301792389	-27.7276335938918
4.191257	0.474017844374845	-0.711471836698374	0.854918178073629	56.3264781631698
3.564097	0.285013706239612	0.72820182209494	0.781991500239504	-68.6249312919836
3.051758	0.671884549102535	0.532600753989069	0.857375303162181	-38.4037509962148
2.604164	0.881227166711152	-0.206764658751127	0.905159070803709	13.2046030705471
2.214424	0.965155959730241	-0.0392966396313073	0.965955616210764	2.33152856135893
1.892567	0.849852823295327	-0.149337639598766	0.862874006946535	9.96636593360467
1.607507	0.0311709217155741	0.895268874701766	0.895811355347969	-88.0059162616379
1.376413	0.909105777432328	0.523862539940533	1.04924033248526	-29.9522396363124
1.17375	0.831769636481496	-0.374872676690051	0.91234327525407	24.2607519192244
1.001604	-0.43791037995419	0.0245594781694254	0.438598528086424	-176.790023800622
