EC-Lab ASCII FILE
freq/Hz	Re(Z)/Ohm	-Im(Z)/Ohm	|Z|/Ohm	Phase(Z)/deg
6999984	2.16764880763184	2.63034165589023	3.40843051563899	-50.5082693705327
5969734	3.4723734623038	4.15488439160938	5.4148353409269	-50.1133868581286
5091109	4.43387040356427	4.41960069055787	6.26035757921085	-44.9076527597525
4341796	10.0253109636747	7.76128837538161	12.6785037431161	-37.7459381516251
3702781	14.314772418049	6.97123170251	15.9220218826195	-25.9658800471117
3157797	24.5673324432863	-15.8602433315636	29.2421124735432	32.8455848284758
2693047	2.2670836776783	-25.0010180138968	25.103596756895	84.8186093431046
2296687	-3.27155287795957	-18.6721533384689	18.9565916907175	99.9379342325758
1958656	-0.408526459167819	-21.8488447249388	21.8526636747635	91.0711831698082
1670375	-9.33193837095342	-22.5994075387025	24.450323001131	112.437123124914
1424531	-4.68338737073945	-15.8038082986635	16.4831572826721	106.50695264953
1214875	-12.1695188485665	-9.69269366848015	15.5578115285091	141.463623392477
1036062	7.67023807155103	-13.4054151072459	15.4446659488591	60.2229062968467
883578.1	0.715655308697545	-0.247716178072395	0.757314878862005	19.0927299029239
753531.2	2.9155699516499	-0.465129962445759	2.95243865726768	9.06419231896962
642624.9	2.62985282078909	-0.318848843511962	2.64911125550084	6.91291914474782
548046.8	-0.643088619394355	-8.69945225272849	8.72318935194562	94.2277795505225
467390.6	-0.0213875973767806	-0.143050327087734	0.144640331171699	98.5033625051272
398593.7	-0.0258495630810524	-0.0223030619620987	0.0341412724479701	139.21230032807
339937.5	-0.0276413980180956	-0.00537869337762852	0.0281598513285373	168.988515870562
289906.2	0.0220743863590098	-0.0157644325064164	0.0271255574205618	35.5325448932552
247234.4	-0.0215776810487472	0.00249732092655852	0.0217217156608701	-173.398170949227
210843.7	-0.0186742488881968	0.00582602479071349	0.0195619563541157	-162.673031277953
179812.5	-0.0155324094336374	0.00715998633092642	0.017103249605651	-155.251680844962
153343.8	-0.0139898129293952	0.00711042536488004	0.0156930881176715	-153.057710855847
130781.2	-0.0116602866193147	0.00819605084732166	0.0142526325125028	-144.896500022004
111531.3	-0.0087354718888723	0.00893827806015468	0.012498051200164	-134.342560139914
95109.37	-0.00626013320838931	0.00848315294229916	0.0105429195021691	-126.425429326797
81109.37	-0.00515925297057688	0.00739543028689007	0.00901722132048766	-124.900674042395
69171.88	-0.00406104119343354	0.00664668045880209	0.00778912168965062	-121.424424507777
59000	-0.00342391080901431	0.00578043773556088	0.00671837968879262	-120.639415032668
50312.5	-0.00241637583357515	0.00521440355744624	0.00574707548488743	-114.863198316836
42906.25	-0.00203000081012134	0.00425679897604019	0.00471606200250909	-115.495743722661
36593.75	-0.00155704017824417	0.00381930115871436	0.00412449214541906	-112.179578596002
31203.13	-0.00128845073062255	0.00335215438980266	0.0035912455135113	-111.025011343034
26609.38	-0.00109908147203652	0.00285135642639276	0.00305584907227193	-111.07961422091
22703.13	-0.000616842240388072	0.00235567437282642	0.00243509673325683	-104.67365959245
19359.37	-0.000683528698706471	0.00218453834902795	0.00228897778065431	-107.374582638697
16500	-0.000536857321317384	0.00189341412150803	0.00196805305288707	-105.830117606142
14112.02	-0.000423482410812655	0.00164745865386312	0.00170101656913041	-104.415885880421
12011.13	-0.00030369310363099	0.00144749274124493	0.00147900802470771	-101.849149549794
10236.38	-0.000204353877803271	0.00128561257373358	0.00130175274039086	-99.0318587753559
8750.684	-0.000143397632319922	0.00116633117814941	0.00117511331286747	-97.0092031669851
7449.463	-0.00011924389982802	0.00106829454890938	0.00107492899806251	-96.3690374224854
6363.206	-7.41950602473367E-05	0.000920781096140434	0.000923765518935777	-94.606848427781
5414.761	4.24919157118143E-05	0.000762392903275373	0.000763576127092455	-86.8099241600818
4620.567	-7.60505644803358E-05	0.00072812576969078	0.000732086623867401	-95.9627530499581
3941.215	2.05932523353612E-05	0.000769475496960079	0.000769751013291772	-88.4669753993796
3361.769	-2.89215132335737E-05	0.000603293849307773	0.00060398669069799	-92.7446210020469
2867.244	9.10619318352958E-05	0.000506939337832645	0.000515053169752188	-79.816515904274
2442.658	7.76301481557317E-05	0.000481511515930027	0.000487729207528023	-80.8414801039835
2083.003	0.000106510085072479	0.00035796904320279	0.000373478559108375	-73.4301564324073
1777.843	0.000140892892101733	0.000313426589269852	0.000343637940143581	-65.7949208544939
1513.548	6.52868296732394E-05	0.000259526802788534	0.000267612651970009	-75.8796083023711
1292.065	0.000141386584104705	0.000229890000674874	0.000269888085278121	-58.4077187060927
1101.762	9.9448897514002E-05	0.000181127845099886	0.000206633442325483	-61.2308536500408
939.101	0.000194561602699466	0.000130910756015351	0.000234503397172612	-33.9346343575707
801.2801	0.000141806128264503	9.11674396138189E-05	0.000168583747909186	-32.7370437037662
684.3433	0.000180047105053317	6.73669936625439E-05	0.000192237540228774	-20.5139975503696
582.9476	8.25830206407597E-05	0.00013225315258157	0.000155919375530805	-58.0180501096242
497.0677	0.000128500258475381	-2.11406507681095E-05	0.000130227660437938	9.34251802711032
423.5089	0.000166878748949652	-5.24363700013401E-05	0.000174923096673705	17.4436771544461
361.5036	7.34752976921975E-05	-3.67557155352582E-05	8.21559614116095E-05	26.5763207412
308.1262	5.42740785143493E-05	-0.000108350151191592	0.000121183459522423	63.3930817773055
262.7298	5.78075914166979E-05	-8.16211878975517E-05	0.000100018677951707	54.6922535624299
224.2111	5.56194520472922E-05	-7.696805164901E-05	9.49610679209417E-05	54.1469810879598
191.2854	1.71741366103256E-05	-0.000118093124380965	0.000119335397072152	81.7255539818704
163.1722	7.27020938060197E-06	-2.99346462156158E-05	3.08048533269009E-05	76.3489180323627
139.1537	-5.09397144054651E-05	-5.92840519804877E-05	7.81629920290639E-05	130.670760109819
118.6706	1.74382797240082E-05	-8.19158548946443E-05	8.3751423169121E-05	77.9822488189422
101.1982	2.06211933464268E-05	-6.34659259106241E-05	6.67319815884673E-05	72.0001110715403
86.24196	-1.37848732023296E-06	8.42846993453949E-05	8.42959712621882E-05	-90.9369964541886
73.61024	1.89384241414195E-05	-7.94598631935642E-05	8.16855787008958E-05	76.5942585602377
62.69291	3.18573487803768E-05	-9.46174095257717E-05	9.98365907705295E-05	71.3918017804499
53.57697	-7.65537631293769E-05	-6.236508375544E-05	9.87414923985444E-05	140.831765536007
45.65746	7.33865917183081E-05	-5.61342288900621E-05	9.2393958120169E-05	37.4127803824903
38.96512	-8.03379661503314E-05	-4.65090816092952E-05	9.28293244471372E-05	149.932684449645
33.18414	6.24505104078464E-05	9.60912282230262E-05	0.000114601877783962	-56.9798162073795
28.30617	4.65587962749584E-05	3.95490830077765E-05	6.10888817816227E-05	-40.3460320850846
24.17237	8.63238232047116E-05	-8.49997970475613E-05	0.000121147711289999	44.5572145835167
20.61345	5.46161447877725E-05	-4.82108996464041E-05	7.28506287975237E-05	41.4355686283054
17.55618	0.000131434398808997	3.37991261884462E-06	0.00013147784984397	-1.47306990761899
14.98558	5.41642219937743E-05	-3.61528326545292E-05	6.51213502097219E-05	33.7218034549914
12.76553	0.000103704218544437	2.33554870054086E-05	0.000106301663755429	-12.6919720016656
10.8809	0.000114693089745954	5.44442567020887E-05	0.000126959371152021	-25.3934665618863
9.278505	0.000140071937515002	-0.000101429886769243	0.000172939786079513	35.9093162097553
7.923394	0.000168459889858901	-2.24105130791323E-05	0.000169944007213385	7.5776647786586
6.75822	6.72393392841089E-05	-4.41168751049576E-05	8.04203171865788E-05	33.2695621377167
5.761429	8.85245171973304E-05	2.40416887230662E-05	9.17310903765853E-05	-15.1940385859562
4.919708	7.47971271152869E-05	1.21123964127018E-06	7.48069336770928E-05	-0.927747585820707
4.191257	-1.93446605879133E-05	-7.0021905065556E-05	7.26449109179116E-05	105.443657573326
3.564097	5.29396158202775E-05	-3.82426869172508E-05	6.53077792138841E-05	35.8437125422128
3.051758	5.11546287288663E-05	-4.16674718281473E-05	6.59770736615197E-05	39.1641805819124
2.604164	1.81030314782418E-06	-5.85343717310939E-05	5.85623588275003E-05	88.2285676608257
2.214424	-7.87593382702458E-06	-7.47856451157887E-05	7.51992223964607E-05	96.0118555330009
1.892567	7.39059919612862E-05	-2.26979324930672E-05	7.73129470867689E-05	17.0727156299887
1.607507	-1.01619324634951E-05	-7.46105870978696E-05	7.5299432789905E-05	97.7559390613791
1.376413	-1.48830763711886E-05	6.73884555069122E-05	6.90123894520231E-05	-102.454135685672
1.17375	8.23779149486189E-05	-5.30802467662732E-05	9.79981299211895E-05	32.7957260411435
1.001604	5.38205083474396E-05	-3.06580600493164E-05	6.19400013300315E-05	29.6673650205733
