EC-Lab ASCII FILE
freq/Hz	Re(Z)/Ohm	-Im(Z)/Ohm	|Z|/Ohm	Phase(Z)/deg
6999984	26.5158838108477	1.60008077053317	26.564117767067	-3.45328252139991
5969734	18.9357333144983	-5.77937039224521	19.7980584474478	16.9727001172706
5091109	13.3566334329339	-4.69696226844769	14.1584289811049	19.3746136789724
4341796	8.34503588777303	-7.70167007896742	11.3558507375485	42.7040513501015
3702781	6.07558516357258	-4.87583214575254	7.79015238576095	38.7480470648868
3157797	4.28056124264503	-5.05268580068463	6.62214756347779	49.7292186564934
2693047	2.87044549581115	-3.97928005663556	4.90653921960887	54.1952814300893
2296687	2.6029303314816	-3.75949533638556	4.57264163201663	55.3027572818757
1958656	1.82664059940441	-3.23538057235141	3.71541428744379	60.5516694796927
1670375	1.49756385499842	-2.77394269647527	3.15237300824732	61.636794247891
1424531	1.25603556280649	-2.50307412849879	2.80053663211081	63.3526309569693
1214875	1.03329804160876	-2.07391329821525	2.31707168885784	63.515866632802
1036062	0.829681874030833	-1.85789158135019	2.03473171208079	65.9358111763166
883578.1	0.746181483162309	-1.58788234200454	1.75446776484041	64.8301172232731
753531.2	0.672711281019482	-1.37697017526468	1.53251014064485	63.962429938327
642624.9	0.630983538335744	-1.17315849050968	1.33208148005505	61.7264048470495
548046.8	0.55537038151406	-1.01276960304732	1.15504914593263	61.2610485258442
467390.6	0.512544816194814	-0.872339394776283	1.01176983958153	59.5635464662101
398593.7	0.48304083813173	-0.754825894528567	0.896153213660396	57.3833274641783
339937.5	0.460576576441655	-0.654127279607681	0.800008300390478	54.8502982406388
289906.2	0.442756234706083	-0.565471089257541	0.71818565577239	51.9395351315034
247234.4	0.424463742583927	-0.489174666828412	0.647658338504988	49.05136374823
210843.7	0.412114266794129	-0.422667418239275	0.590326956301605	45.7242837755746
179812.5	0.401468467568861	-0.362879524762317	0.54116400466385	42.1098139024595
153343.8	0.394402070924483	-0.314789381874446	0.504623967415754	38.5948839870925
130781.2	0.389037855159275	-0.273403141674322	0.475499453863323	35.0983001803255
111531.3	0.382736311100018	-0.23752853415947	0.450451871318565	31.8239953501796
95109.37	0.376846151671839	-0.206436918392363	0.429685028020769	28.7139976269434
81109.37	0.370453724230889	-0.179421300296904	0.411616283444627	25.8422300253445
69171.88	0.363348290204656	-0.155583437106688	0.395257113657146	23.1803024866344
59000	0.353184740469009	-0.131273668763989	0.376792034165955	20.3893735003506
50312.5	0.344200131347884	-0.0977863754940276	0.357821052555827	15.8597124114951
42906.25	0.394640616620527	-0.103177370535205	0.407905364119165	14.6518142469562
36593.75	0.369789034896307	-0.0921206832456881	0.381090738028615	13.9886098695144
31203.13	0.361176763750009	-0.0824643307344777	0.370471349116791	12.8613784329519
26609.38	0.35655203466173	-0.0709028752952884	0.363533452582508	11.2469495240339
22703.13	0.356640521148209	-0.0627805763217445	0.362124097635267	9.98367498859557
19359.37	0.352489345374589	-0.056587504581481	0.357002639034175	9.12026196880113
16500	0.348935504542388	-0.0506088225543442	0.352586498962436	8.25250592891959
14112.02	0.346264839221825	-0.0458119264420779	0.349282223260289	7.53664100052724
12011.13	0.343665889813616	-0.0409438145090381	0.346096286845055	6.79410488677155
10236.38	0.3415355995545	-0.0368823514200966	0.343521285525842	6.16347315998285
8750.684	0.339591238140449	-0.0342054912181134	0.341309573043646	5.75174568840184
7449.463	0.337752941123271	-0.0311322799167702	0.339184710873347	5.26634100098717
6363.206	0.336040145602331	-0.0283494834345714	0.337233854568967	4.82224714355922
5414.761	0.334126017480948	-0.0260426311025634	0.335139395166285	4.45676825224337
4620.567	0.332919235955754	-0.0239364130001546	0.333778623546621	4.11240743934046
3941.215	0.331970338235898	-0.0220057487533338	0.332698900579265	3.79249129780901
3361.769	0.330324999954214	-0.0208396462227396	0.330981716186016	3.60990970202364
2867.244	0.328850753792155	-0.0202752622450166	0.329475195619902	3.52809992324589
2442.658	0.327119777567006	-0.0186624632534171	0.327651699843252	3.26523376233341
2083.003	0.325706963186767	-0.0180359206813349	0.326205947682088	3.1694988173028
1777.843	0.323893622067451	-0.0172707432971988	0.324353752853286	3.05225045298061
1513.548	0.32228246516665	-0.016311550493142	0.322694986067933	2.89741548434005
1292.065	0.321515935212136	-0.0140091060919735	0.321820993176068	2.49491607100741
1101.762	0.320337396014063	-0.0137093608205961	0.320630619029406	2.45057085653767
939.101	0.321831092995028	-0.0133428757026666	0.322107567049256	2.37408041792991
801.2801	0.316911722081744	-0.0124257898328539	0.317155229888752	2.24535971967582
684.3433	0.317036428286114	-0.0117822102852017	0.317255287331229	2.12833710072492
582.9476	0.316827787505626	-0.0132414272117307	0.317104371351632	2.39321377054051
497.0677	0.315469221137931	-0.00917852194238926	0.315602716639797	1.66654056630081
423.5089	0.31427971092606	-0.0133081373329691	0.31456135048515	2.42473447068184
361.5036	0.311658546932233	-0.00862449911800208	0.311777856591752	1.58513644164201
308.1262	0.307121173858425	-0.0152872753009684	0.307501408481822	2.84960502112535
262.7298	0.311612421740531	-0.0107267488196295	0.311796992485877	1.97153516797367
224.2111	0.309269273750512	-0.0078740418260097	0.309369494651375	1.45844401398268
191.2854	0.310203095841222	-0.00773706706647362	0.310299569571518	1.42877167568845
163.1722	0.317386967164387	-0.0147383032084916	0.317728979646605	2.65869892153453
139.1537	0.307205923233834	-0.00662595977501223	0.307277370811604	1.23559036069316
118.6706	0.304243130634648	-0.0118747954335174	0.304474782707796	2.23515476838675
101.1982	0.305435771476578	-0.00802324773251547	0.305541131440057	1.50471092889729
86.24196	0.30070015949627	-0.0107537697441598	0.300892388545793	2.04816368941006
73.61024	0.317058319948119	-0.0217972086829737	0.31780669683739	3.93279720268064
62.69291	0.222191129161366	0.00370075988244825	0.222221946489788	-0.954215944124571
53.57697	0.281646063260119	0.00988820023311026	0.281819590259039	-2.01074897243022
45.65746	0.312173254825754	-0.0182886536886818	0.312708515845427	3.35283786329332
38.96512	0.318003133209894	0.00782014075818118	0.318099272763688	-1.40869924525163
33.18414	0.301204944822682	0.00540942408094936	0.301253515588653	-1.02888036623925
28.30617	0.274677733292813	0.0347517722359589	0.276867374098895	-7.21065666298756
24.17237	0.299422629076477	-0.0282062847362251	0.30074824239169	5.38151010147082
20.61345	0.274867105170384	-0.0303317994928344	0.276535609940602	6.29715567274278
17.55618	0.271118299449354	-0.0520448318773717	0.27606846401111	10.8665112776449
14.98558	0.260798986009809	-0.00262343418561443	0.260812180525892	0.576331370628553
12.76553	0.273959960639241	-0.0487845361496075	0.278269637224018	10.0969258263811
10.8809	0.226532171300758	0.128271849550629	0.260327662804734	-29.5203268616089
9.278505	0.214267705289287	0.0564164778714924	0.221570459460103	-14.7511250215863
7.923394	0.258456280324657	0.0364975382803205	0.261020533942793	-8.03779572477227
6.75822	0.0962086832247062	-0.0583065018058543	0.112497817226238	31.2176226564368
5.761429	0.106044538530515	-0.00594591385779975	0.106211101320692	3.2092122409567
4.919708	0.0817891913174363	-0.100148092113452	0.129302405895346	50.7620896737757
4.191257	0.0502047226920376	-0.118668462939736	0.128851535796295	67.0683768499517
3.564097	0.112964116689659	0.0786933642960824	0.137671846227581	-34.8619436306782
3.051758	0.120433846184183	0.0421795859069287	0.12760653891551	-19.3018022023672
2.604164	0.115687806122843	0.0175044528072877	0.117004591164617	-8.60402699538825
2.214424	0.0779351523105943	0.0699611858179835	0.104730394283293	-41.913833688635
1.892567	0.056490136629594	-0.0984470434648455	0.113503109664006	60.152260600707
1.607507	0.100853885980538	0.0609567062459665	0.117844076447365	-31.1490224196257
1.376413	0.0478021512209882	-0.106840408962187	0.117046651590559	65.8954749475394
1.17375	0.10013878988414	0.00699481105101704	0.100382790462805	-3.99568676914759
1.001604	0.242143436371818	-0.0792047419008217	0.254768198403035	18.1128402929573
