EC-Lab ASCII FILE
freq/Hz	Re(Z)/Ohm	-Im(Z)/Ohm	|Z|/Ohm	Phase(Z)/deg
6999984	2.18750031800602	3.00588363781065	3.7175925120075	-53.9551376294162
5969734	3.59722065843085	3.98149746233213	5.36584741751001	-47.9026807718178
5091109	5.35617562044569	5.70331807593865	7.82409447491435	-46.7978462554671
4341796	12.0795137828444	10.6029322176248	16.0728598837131	-41.2754154654104
3702781	18.3192351538293	8.00318463844112	19.9911315582254	-23.5992320377003
3157797	28.7611948013846	-15.5402307518678	32.691055324423	28.3832119030805
2693047	-2.43372816650546	-15.0226380628977	15.2184981899419	99.2021991278483
2296687	-2.19921198241745	-13.9604388469004	14.1326001196402	98.9523322333917
1958656	7.31168858214595	-14.9278700406612	16.6223371964701	63.9043320179007
1670375	-1.90890484610222	-16.2291975994285	16.3410762323896	96.7084003245414
1424531	2.44000730658179	-24.0620547796779	24.1854525671196	84.2097270942191
1214875	12.3494791319044	-2.50256880464945	12.6004954446778	11.4556150234426
1036062	15.3966844831954	-4.90740070903637	16.1598414223074	17.6786929828529
883578.1	0.494082741820105	-0.372934787742086	0.619029976392668	37.0455889203249
753531.2	8.19154267308391	0.0785865009900901	8.19191962870074	-0.549656747518443
642624.9	2.91770951673771	0.262274329218938	2.92947378343432	-5.13654027728925
548046.8	2.33775543793752	-5.43064966537139	5.91244926198989	66.7093614955227
467390.6	-0.0113591971544029	-0.104829471663438	0.105443110202744	96.1843731251147
398593.7	-0.0158669405970511	-0.0164144364998031	0.0228296633684428	134.028350085065
339937.5	0.0164472481130854	-0.0134528993930096	0.0212483522319221	39.2811842932561
289906.2	-0.00419769720198959	0.0219637955089271	0.0223613276653592	-100.819830870841
247234.4	-0.0170000887139045	0.00458909045749448	0.017608599248881	-164.893357325644
210843.7	-0.0158167324359498	0.00851905433958073	0.0179650580792592	-151.692638908948
179812.5	-0.0141741649189142	0.00973700263805516	0.017196399958191	-145.512716130667
153343.8	-0.0129392682661253	0.00881714496027662	0.0156578002450308	-145.728492036313
130781.2	-0.0101233802134114	0.0107581548393882	0.0147722957759971	-133.258810470424
111531.3	-0.00788332823951864	0.0101093452959866	0.0128197397183203	-127.947319822223
95109.37	-0.00608874319234686	0.00949087119240382	0.0112760555893074	-122.681665797632
81109.37	-0.00468638950720238	0.00843355081465635	0.00964816179158535	-119.060228757728
69171.88	-0.0038219651113723	0.0078613928382013	0.00874121928961113	-115.927582012851
59000	0.000261282992608978	0.0349754621714955	0.0349764381107045	-89.5719818030689
50312.5	-0.024782240049788	0.00349222510297172	0.0250270864875467	-171.978897194909
42906.25	0.00555563536494524	0.00176430917381667	0.00582905405439372	-17.6183433382917
36593.75	-0.00160229890524829	0.00422987418199526	0.0045231844288366	-110.746954925057
31203.13	-0.00131775311571843	0.00367084492059643	0.00390020200823679	-109.747028980995
26609.38	-0.00105744140962954	0.00321261226171322	0.00338216792588858	-108.21912242872
22703.13	-0.00118596891171862	0.00265338547692006	0.00290636830919506	-114.082944391427
19359.37	-0.000712625243141961	0.00242021452633149	0.00252294928419679	-106.4069142185
16500	-0.000604373144101452	0.00207156183896578	0.00215792385175436	-106.264476910631
14112.02	-0.00044014959934081	0.00181208901197768	0.00186477833994556	-103.652534209968
12011.13	-0.000330507353978803	0.00159103025687164	0.00162499611978463	-101.735245540122
10236.38	-0.00025349502514156	0.00141093775230535	0.00143352888657745	-100.185337408513
8750.684	-0.000181054437562361	0.00129225089714448	0.00130487282542466	-97.9756683758117
7449.463	-0.000125032903786613	0.00113748802999505	0.00114433921780709	-96.2727805129034
6363.206	-5.2146907141857E-05	0.0010267306470096	0.00102805404596899	-92.9075129032025
5414.761	-5.98321378695045E-05	0.000928759366415895	0.000930684611147778	-93.6859906594468
4620.567	3.3624366355589E-06	0.000771492250105531	0.000771499577415972	-89.7502862689136
3941.215	4.32723250619035E-05	0.000736062668483328	0.000737333537858587	-86.635515807244
3361.769	2.93380131292295E-05	0.000648710533488571	0.000649373602230178	-87.4105558167174
2867.244	1.12363414142431E-05	0.000523945904380427	0.000524066375648544	-88.7714451717121
2442.658	7.23925194173984E-05	0.000464788155068782	0.000470392076846369	-81.1470957919063
2083.003	7.49798903636828E-05	0.00040993206451642	0.000416732865847708	-79.634716395879
1777.843	0.000104551436609639	0.000383800835077288	0.000397786480292083	-74.7617676440708
1513.548	0.00011187268280591	0.000300767639515551	0.000320899782078374	-69.5969541914231
1292.065	0.000121739846281547	0.000241045805185253	0.000270043830461023	-63.2040057049123
1101.762	0.000188620929485067	0.000191381711150571	0.000268709535377387	-45.4162559353343
939.101	6.97011863266287E-05	-0.000263174693160906	0.000272248369133181	75.1659320727561
801.2801	0.000157725376429242	0.000112310252388786	0.000193625636632598	-35.4532246160973
684.3433	0.000129574576890911	5.15855344017761E-05	0.000139465545336385	-21.7082249419166
582.9476	0.000167374222377868	5.13001483162061E-05	0.000175059519974952	-17.0402862187842
497.0677	0.00011815662783279	-1.00808187422853E-05	0.000118585882833208	4.8765188518296
423.5089	0.000110844736230075	1.92980560678107E-06	0.000110861533904212	-0.997418107793025
361.5036	7.13265704509931E-05	-5.12664236056665E-05	8.78392044682562E-05	35.7069303277812
308.1262	6.66908272501521E-05	-5.75168093772526E-05	8.80673026738576E-05	40.7757848089005
262.7298	1.365240632539E-05	-9.36644953670901E-05	9.46542439135467E-05	81.7070474450876
224.2111	6.20741666232494E-05	-7.40092660190279E-05	9.65948943715255E-05	50.012259807288
191.2854	-1.35249006500304E-06	-0.000108369812956484	0.000108378252383028	90.7150326043549
163.1722	-5.75049164505165E-06	-8.63178365016915E-05	8.65091732274246E-05	93.8114111208009
139.1537	7.09865752571835E-06	-4.83316193946314E-05	4.88501419852077E-05	81.6444804538594
118.6706	2.70011078398458E-05	-0.000105988351958526	0.000109373628336374	75.7076063722728
101.1982	-6.29187613524231E-05	-5.54322681804567E-05	8.38540809129362E-05	138.619518193227
86.24196	0.000116587180180586	-1.88848104865194E-05	0.000118106759542256	9.20086567142013
73.61024	-5.94750844742501E-05	-6.45128153484688E-05	8.77450227500388E-05	132.67330489958
62.69291	1.65659001396731E-05	-7.28152494894232E-05	7.4675897086306E-05	77.1830299905142
53.57697	6.21444019077571E-05	4.38468584021184E-05	7.60557274648548E-05	-35.2054203697032
45.65746	8.72675266216191E-05	-4.07802101836614E-05	9.6325732518775E-05	25.0467354225849
38.96512	-1.74203781724717E-05	-0.000106779555813154	0.000108191234004084	99.2657974431078
33.18414	4.04735386861547E-05	-4.76747760738416E-05	6.25379213555311E-05	49.6703816205114
28.30617	7.582969950016E-05	4.80835285854774E-05	8.97895820655992E-05	-32.3787388170032
24.17237	0.000136944881219248	-3.44012157640975E-05	0.000141199660545633	14.1011960762576
20.61345	1.84575683004299E-05	-0.000113618462123724	0.000115107935273486	80.7727824643473
17.55618	0.000100209396489784	5.21625457114755E-05	0.000112972803452638	-27.4985765265544
14.98558	1.37425718008029E-06	-7.18766683832055E-05	7.18898048450982E-05	88.9046578590801
12.76553	7.00262893387719E-05	6.18403860372716E-05	9.34233083539444E-05	-41.4478012772315
10.8809	4.54344439756942E-05	4.95484267245138E-05	6.72260015935427E-05	-47.4800957500191
9.278505	8.49745575004123E-05	4.47473672522017E-05	9.60364633792514E-05	-27.7711669271658
7.923394	0.000142331676855318	7.44584730907984E-05	0.000160631162765697	-27.6155745083201
6.75822	-1.08267489996764E-05	6.62250319236109E-05	6.71041976867713E-05	-99.2848196419062
5.761429	8.1993682124054E-05	-3.83163063331303E-05	9.05047139063745E-05	25.0470620085281
4.919708	-0.000100391674890635	4.56208494751358E-05	0.000110271257788147	-155.561593716348
4.191257	7.80525284303324E-05	3.18877805344065E-05	8.43150505056975E-05	-22.2221050587915
3.564097	6.69128910328759E-05	-4.30514418219408E-05	7.9566083410744E-05	32.7570399308163
3.051758	-1.22547077506295E-05	-7.80896657418089E-05	7.90453904900265E-05	98.9187569065971
2.604164	-1.1045068005736E-05	-5.71804352747746E-05	5.82374081279723E-05	100.932703556482
2.214424	6.87579637726466E-05	-5.27983737352557E-05	8.66909790650003E-05	37.5202042394994
1.892567	6.9362155951212E-05	7.80169502014626E-05	0.000104392304299396	-48.3608178248045
1.607507	-7.8532994995467E-05	-1.61513214163174E-05	8.01766579900363E-05	168.378430410307
1.376413	7.1917174315945E-05	3.06762810313665E-05	7.81864066158907E-05	-23.1006785418451
1.17375	8.82374721093042E-05	6.76996803056771E-05	0.000111216447514435	-37.4970109079525
1.001604	-3.05898786641385E-06	-7.07762277454164E-05	7.0842302479789E-05	92.4748151763197
