EC-Lab ASCII FILE
freq/Hz	Re(Z)/Ohm	-Im(Z)/Ohm	|Z|/Ohm	Phase(Z)/deg
6999984	23.5551599566639	8.42483394882466	25.0164623328178	-19.6803038514085
5969734	19.1722824685758	0.19260087522312	19.1732498589049	-0.575562461267488
5091109	13.5517508812496	-4.40591331290825	14.2499833006328	18.0102579293171
4341796	9.99589330248382	-4.58101349182168	10.9956158320893	24.6214918766168
3702781	6.85698485172497	-5.85228144826755	9.01484550097905	40.4800068063201
3157797	4.50759253842895	-4.84632942879253	6.61855720114897	47.0739660760965
2693047	4.06164535359308	-5.00102854622173	6.44261200899828	50.9178081433363
2296687	2.50982791262065	-3.43525747368276	4.25443651515251	53.8478226343882
1958656	1.8710409566417	-3.11837454725909	3.63662674444656	59.0360242242332
1670375	1.40162157320409	-2.74203653788484	3.0794979151749	62.9256628080378
1424531	1.20788020949563	-2.3847215865209	2.67317632147787	63.1374280091181
1214875	1.10849488730562	-1.78629674037277	2.1022885053791	58.1781345175838
1036062	0.817648464512799	-1.80589838627242	1.98237685445061	65.6406233202652
883578.1	0.727267463640059	-1.55704384820927	1.71851782327557	64.9635590937591
753531.2	0.661573580507284	-1.34440998950042	1.49837172366998	63.7985640089196
642624.9	0.597942496191182	-1.11497202604241	1.26518688248356	61.7960192191579
548046.8	0.565331403404542	-0.989290425797524	1.13942755024179	60.2541324966813
467390.6	0.532144408645509	-0.862417576856406	1.01338134407712	58.3238376848856
398593.7	0.507154916219722	-0.742565001936709	0.899226829641497	55.6678173410433
339937.5	0.483553405582543	-0.641912571692876	0.803663888542864	53.0092473350126
289906.2	0.46992652535162	-0.555300258279122	0.727453995847096	49.760209943632
247234.4	0.455974932179676	-0.478700563100107	0.661110707740103	46.3928109309332
210843.7	0.446064230894497	-0.413229463369675	0.608055825957033	42.8117158493845
179812.5	0.518126058542448	-0.213912134988843	0.560547066744816	22.4336410767538
153343.8	-0.512231499848792	-1.2312085964276	1.33351254863033	112.589243419521
130781.2	5.81988306618282	1.28385806582079	5.9598095973961	-12.4401284028158
111531.3	0.799538692770966	-1.54651775335878	1.74097078743205	62.6613573771439
95109.37	2.17371933933898	-2.21560413476604	3.10386169927216	45.5467241548635
81109.37	0.40405290370721	-0.316964747938475	0.513542014279191	38.1128889715166
69171.88	0.450147890317667	-0.215013760713948	0.498862747109664	25.5315379313569
59000	0.363071609180007	-0.128098003891913	0.385006612921976	19.433731464274
50312.5	0.364062581189065	-0.0960306600880836	0.376514874472441	14.7766331026255
42906.25	0.407315775386489	-0.117816235823174	0.424012743089448	16.1325319952246
36593.75	0.380214214904042	-0.11186326224844	0.396328447951898	16.3944711104246
31203.13	0.364624984529797	-0.0901242161116693	0.375597861646066	13.8835122211535
26609.38	0.359434793963512	-0.0800572224650801	0.368242488016274	12.5565763450982
22703.13	0.35989115921044	-0.0579654243256976	0.364529336124121	9.149694810737
19359.37	0.353070122071842	-0.0599585832369265	0.358125037945694	9.63805538741675
16500	0.350477123544851	-0.0545945584810977	0.354703791837667	8.85392826731252
14112.02	0.347080435345482	-0.0489368251816844	0.350513396974313	8.02555161669032
12011.13	0.345669808833598	-0.0428474872969875	0.348315265107233	7.06605357465244
10236.38	0.343168526460904	-0.0396493974316988	0.345451461525414	6.5906819511883
8750.684	0.367508304804612	-0.039422515179007	0.369616678199724	6.12269002412544
7449.463	0.353095524426882	-0.0474050228099432	0.356263505790175	7.64655149436718
6363.206	0.622101818447034	0.0426427562906401	0.623561606562792	-3.92127788620954
5414.761	0.337399694464662	-0.0283826697527946	0.338591390568548	4.80850303196962
4620.567	0.335238766619526	-0.0259967725942743	0.336245242092582	4.43424356244339
3941.215	0.333733882025217	-0.0239223624693873	0.334590172356778	4.10000347603367
3361.769	0.335646187848191	-0.0257565570475815	0.336632980630193	4.38811931401977
2867.244	0.33172959514319	-0.0213687752800993	0.332417130802304	3.68568680817647
2442.658	0.33019889105987	-0.0206606714693521	0.330844632724687	3.58035138233064
2083.003	0.328839804938139	-0.0199598055362336	0.329445004741	3.47345808423985
1777.843	0.327362968596241	-0.0185715838677224	0.327889336416266	3.24695870049992
1513.548	0.325563037597449	-0.0175450319617779	0.32603545757512	3.08476294306531
1292.065	0.324680964997421	-0.0170756206874293	0.325129675442764	3.0105259474658
1101.762	0.323255594111147	-0.0156909005460414	0.323636190009857	2.77896906526824
939.101	0.321871051306117	-0.0136438246369338	0.322160096255928	2.42726350638955
801.2801	0.322532400523153	-0.0153328592357617	0.322896649037383	2.72173344632365
684.3433	0.31958675605918	-0.0169253723628681	0.320034627623406	3.03156266587182
582.9476	0.319425596719502	-0.0140739070968057	0.319735494902551	2.52282312633485
497.0677	0.318267830235584	-0.0129973928729576	0.318533112853845	2.33854041885574
423.5089	0.31697327645127	-0.0120866903316159	0.317203635016098	2.18372034711785
361.5036	0.31479305900172	-0.00919923360493397	0.314927445445103	1.6738847393188
308.1262	0.313401067763825	-0.0126793144834994	0.313657447370977	2.31676057418944
262.7298	0.315119183023912	-0.0128801340519233	0.315382303502992	2.34059619142467
224.2111	0.303309186507603	-0.0167727934407041	0.303772594583035	3.16519418538798
191.2854	0.307970417524575	-0.0066907549695677	0.308043088337206	1.24457319300522
163.1722	0.32802303642893	-0.0162579418817629	0.328425688858661	2.83745258629063
139.1537	0.313282426816237	-0.0172444123904612	0.31375667118097	3.15062673344678
118.6706	0.311814947424613	-0.0198062518268531	0.312443353343999	3.63450219650625
101.1982	0.309724351111127	-0.0151811005327222	0.310096177797459	2.80609976278328
86.24196	0.307447146053612	-0.0117175231731358	0.307670356007568	2.18261854927782
73.61024	0.324463141057921	0.0024530740665894	0.324472414047093	-0.433171276500473
62.69291	0.387736871585934	-0.103906254041689	0.401417975701416	15.0017195724426
53.57697	0.32400041137551	0.000221807217074131	0.324000487298926	-0.0392240718602374
45.65746	0.272278312847173	0.00908504364379598	0.272429839894444	-1.91106520227556
38.96512	0.296930938221296	-0.0124415116760321	0.297191475795932	2.3993100414807
33.18414	0.287070635936476	0.0146338151685668	0.287443383231134	-2.91820411202078
28.30617	0.339172548621677	-0.0252343498982369	0.340109967735893	4.25495189031767
24.17237	0.331406924429962	-0.00480409640192413	0.33144174284837	0.830505188831104
20.61345	0.292327593443563	-0.00323358200136723	0.292345477031995	0.633751481983179
17.55618	0.316837620144918	0.0594650911363014	0.322369624193942	-10.6297937645866
14.98558	0.335207629500888	-0.0201328125550743	0.33581168088228	3.43709703664526
12.76553	0.259231333905404	0.134861095959374	0.29221293551405	-27.4850088859657
10.8809	0.347114572994307	-0.091541151089775	0.358982324255472	14.7736938291365
9.278505	0.405930737008614	-0.132585935048585	0.427034885484856	18.0881801894549
7.923394	0.474799583391973	-0.10749343658304	0.486815656380959	12.7565729930666
6.75822	0.609954022293282	-0.175455675063901	0.634687799807025	16.0480894753783
5.761429	0.377388499774598	-0.162654306902264	0.410948297619028	23.316024729145
4.919708	0.401919292449128	-0.411307877717171	0.575076766975515	45.6614417646046
4.191257	0.378021855363384	0.00158808633928717	0.378025191158733	-0.24070065835427
3.564097	0.408047801308009	-0.0092678486667595	0.408153036459623	1.30111553301771
3.051758	0.342126660158958	0.542229956804016	0.641142712387194	-57.7496193826055
2.604164	0.418312991527714	-0.478087688695783	0.635258685075097	48.8150071985826
2.214424	0.584639925741779	0.128769670847563	0.598653047183043	-12.4213353871356
1.892567	0.570086285996187	-0.206370339805983	0.606289609537029	19.90017640529
1.607507	0.318774793891865	-0.434911292887162	0.539226484792415	53.7598850719915
1.376413	0.67753367778431	-0.0442122950370286	0.678974676673861	3.73352878406989
1.17375	0.356572704599479	0.29688144779785	0.463985654640243	-39.7806717103173
1.001604	0.269140742253947	-0.00409363412250699	0.269171872567203	0.871402343289747
