EC-Lab ASCII FILE
freq/Hz	Re(Z)/Ohm	-Im(Z)/Ohm	|Z|/Ohm	Phase(Z)/deg
6999984	2.6158847046691	1.19553312419236	2.87613494800972	-24.5617381081626
5969734	4.00754176164101	0.926977670007546	4.11335368914337	-13.0239380185865
5091109	6.23944224261726	1.20808478323325	6.35532126193763	-10.958052744573
4341796	6.51367054910417	-9.86541375528014	11.8217719731493	56.565086436952
3702781	-0.97409910258149	-9.08850277189143	9.14055532756781	96.1175662462025
3157797	-2.8672681097162	-4.1592174826783	5.05176370005688	124.581479254727
2693047	0.578008484146561	0.493692726207082	0.760148877296537	-40.5015385602611
2296687	0.698565089848443	0.617493749729877	0.932358147768564	-41.4749422879868
1958656	0.83308634349404	0.680169660570053	1.07548297191367	-39.229767060721
1670375	1.07057803194286	0.756007983703041	1.31060497248461	-35.2285162984249
1424531	1.42284482019657	0.721806243230855	1.59545969398392	-26.8985865826493
1214875	1.98063969940222	0.610698733718161	2.07265206009429	-17.1363139452482
1036062	2.05202279141265	0.75946372635721	2.18805454413946	-20.3097610147172
883578.1	3.67226314866278	-0.192243357456623	3.67729168567206	2.99670448657386
753531.2	4.91071074667379	-0.983317050473221	5.00819253416328	11.3231128037406
642624.9	4.0209409384191	-1.27113568705121	4.21707860552182	17.5432514896619
548046.8	3.66826322426212	-2.05231472879038	4.2033499531307	29.2260786563415
467390.6	3.05326780631039	-2.60826226536607	4.01565391212739	40.5056982338537
398593.7	2.49725634974233	-3.2564626114689	4.10375901049553	52.5167843805197
339937.5	1.79277344140087	-4.21747407018566	4.58269834757653	66.9705156585433
289906.2	-9.91415374201362	-3.11398992852052	10.3916975367459	162.56273690239
247234.4	-15.628981674906	13.720642460977	20.797141576104	-138.720186877832
210843.7	-25.3194397468475	53.6590175134574	59.3326570246417	-115.260659139318
179812.5	-15.5171095824471	63.2843746820997	65.1589807217551	-103.776923347291
153343.8	-5.83805877340212	56.7644964183103	57.0639201585911	-95.8720538309889
130781.2	1.74594974823774	44.6508911610329	44.6850133937294	-87.7607476211014
111531.3	-3.30684265884751	88.9395431319139	89.0009974151074	-92.1293216258559
95109.37	4.7069880218597	72.3016675939822	72.4547229178928	-86.2751826498862
81109.37	9.49401946680295	52.2908376848388	53.1457252412477	-79.7093727965845
69171.88	11.9577713902355	33.6805376580799	35.7402701942567	-70.4533542078051
59000	10.4782993493996	2.9739196344623	10.8921510845135	-15.8448441567115
50312.5	10.4654293357709	0.788581352837663	10.4950975094115	-4.30915541661043
42906.25	10.6648516449296	-1.01998271606242	10.7135160124687	5.46313195009177
36593.75	10.1781870095614	-2.41789573845299	10.461439222384	13.3632894614865
31203.13	9.58585606187972	-3.42671384641759	10.1799314449708	19.6707526449637
26609.38	8.81062532256301	-4.17093092982296	9.74801433092619	25.3327731426481
22703.13	7.88943288283271	-4.72931635507015	9.19834682967847	30.9405574554453
19359.37	7.04278937649669	-5.0139074303945	8.6452385694242	35.4478502719789
16500	6.12376766215425	-5.24977901977402	8.06602195239423	40.6057996902411
14112.02	4.69054405263675	-5.30013735243444	7.0776167927062	48.4916412781667
12011.13	3.56574634554068	-5.11950436144949	6.23889989562559	55.1427015218059
10236.38	3.32102584203253	-4.53560626778841	5.62147105834847	53.7879600039529
8750.684	4.60284219204005	3.79007008688213	5.96244811367804	-39.4687076500244
7449.463	6.24579578461814	8.82959555300652	10.8153466247193	-54.7255366807491
6363.206	7.21807745897849	13.0280283761703	14.8939640651545	-61.0116972934033
5414.761	7.93103581406978	17.4838719049223	19.1986224993303	-65.6000006125904
4620.567	8.53966816423501	22.4512857361448	24.0205362879613	-69.1749707753092
3941.215	8.70254362558073	28.3271608583417	29.6338034657973	-72.9222293470238
3361.769	9.48132088498676	35.2351991024749	36.4885557608839	-74.9392126732228
2867.244	9.62297386118587	30.0460815353519	31.5494634116348	-72.2410971201723
2442.658	10.7045068042664	38.9014197079403	40.3473285511682	-74.6146893780607
2083.003	11.0358966931698	63.7845180181103	64.7321848435919	-80.1839537382914
1777.843	11.7840081237807	76.4937459530534	77.3960982052171	-81.242321377457
1513.548	12.6063469702229	92.8852726141747	93.7368329555847	-82.2710670986144
1292.065	13.9693863054346	112.540162565031	113.403844484718	-82.9241816892841
1101.762	16.0933545191438	133.865268836226	134.82917436621	-83.1447704404094
939.101	18.051727848473	160.465054431325	161.477238556904	-83.5814215760786
801.2801	21.6307811059675	190.828244913702	192.050279219006	-83.5330066423901
684.3433	23.9706950607401	224.854327942116	226.128421513077	-83.9149403086243
582.9476	28.2244050792909	265.04240630265	266.540980302802	-83.9214720274888
497.0677	31.8870923408848	320.379806652827	321.962741895486	-84.3161253567749
423.5089	37.0346417499398	374.007669724637	375.836801953188	-84.3449451338699
361.5036	41.8305051354091	438.557591570753	440.548013596955	-84.5514964190146
308.1262	46.4620683445234	515.37838955732	517.468461084874	-84.8486323315694
262.7298	54.7685218412909	602.617891331167	605.101573239652	-84.8069782998634
224.2111	62.7089084027939	707.268013667002	710.042569392524	-84.9332009021308
191.2854	70.8017908140117	824.093212763478	827.129081162851	-85.0895037886425
163.1722	78.2171044648898	967.545583296869	970.70199916769	-85.3782172216089
139.1537	89.4880181221497	1129.43565463229	1132.97528805447	-85.4697758772708
118.6706	100.785144177376	1324.36507570356	1328.19445076019	-85.648137638895
101.1982	118.964556860424	1546.85407843523	1551.42196251075	-85.6021864237255
86.24196	134.736773731155	1807.09113616789	1812.10716366667	-85.7359147731091
73.61024	162.780017637863	2110.71819296826	2116.98574021399	-85.5900397184687
62.69291	190.734989851159	2470.49479041045	2477.84671555742	-85.5852268729896
53.57697	223.236681085537	2878.23415991428	2886.87833049465	-85.5650014628215
45.65746	262.962034581706	3359.48094293202	3369.75685139963	-85.5243214593672
38.96512	316.831915342341	3903.94767588005	3916.78310844355	-85.3602263468418
33.18414	377.580283008745	4579.53970301455	4595.07897229238	-85.286658565947
28.30617	443.815100395455	5341.84702812716	5360.25200109566	-85.2506195206332
24.17237	515.691502904337	6224.76916644641	6246.0938915221	-85.2641413245983
20.61345	648.386221598891	7244.68914760677	7273.64595906418	-84.8857599966939
17.55618	749.098031529653	8397.12677171026	8430.47364511714	-84.9022038854142
14.98558	923.995667849456	9843.82057263011	9887.09115262626	-84.6376119756228
12.76553	1082.61858078938	11597.4043833423	11647.8260384605	-84.666890118954
10.8809	1387.75148615889	13435.3136931455	13506.7948907415	-84.1027558738681
9.278505	1696.5759036654	15656.4840186746	15748.1383542282	-83.81541753961
7.923394	2068.61249918389	18163.4193321206	18280.835853599	-83.5026398792481
6.75822	2488.55891826604	21200.5099755774	21346.0663522402	-83.3051413272665
5.761429	2941.59489894067	24859.2448759431	25032.6793682094	-83.2515697734218
4.919708	3817.22540114236	28630.5466981799	28883.89540903	-82.4057121804702
4.191257	4673.41714918046	33408.2207098559	33733.5150680847	-82.0366700646264
3.564097	5817.34294527085	38950.5046504649	39382.5252043184	-81.5055381885401
3.051758	7205.25543718137	45075.8783101383	45648.116186163	-80.918256448531
2.604164	9159.0572264074	52364.7125776486	53159.6788234876	-80.0788159828849
2.214424	44883.6183270195	68485.3507113909	81882.7360081951	-56.7601499183043
1.892567	53387.0536097062	77865.5900291566	94409.8914506014	-55.5642609491513
1.607507	63359.8940784744	88385.5311531999	108749.612849282	-54.3648425599804
1.376413	75387.8299809335	99571.7408527811	124891.378748445	-52.869881080925
1.17375	90019.072697861	111656.747711328	143424.763408743	-51.1238036594197
1.001604	107623.583228318	124494.561671633	164565.280520268	-49.1571031093214
