EC-Lab ASCII FILE
freq/Hz	Re(Z)/Ohm	-Im(Z)/Ohm	|Z|/Ohm	Phase(Z)/deg
6999984	-0.497170695027317	0.768740891511804	0.915500550669582	-122.892113195784
5969734	-0.896271665866723	0.375428273424529	0.971724903211827	-157.27227380527
5091109	-0.565249181013426	0.288526482589581	0.634629157691218	-152.958359974171
4341796	-0.0151186551206214	0.413270191185159	0.413546641450362	-92.0951160454865
3702781	0.727721166075785	0.407069597252005	0.83383676613688	-29.2215923968057
3157797	1.62797499687479	-0.442484182400133	1.68703729719404	15.2056753587754
2693047	1.81321558384876	-2.66577528089043	3.22398954739597	55.7771204996204
2296687	1.40090817062331	-2.91132880228895	3.23084804618793	64.3035117137684
1958656	-1.81389892120268	-5.28698277448873	5.58949158279005	108.936465588223
1670375	-5.82496685734454	-6.93666933830446	9.05801415312073	130.021369744817
1424531	-11.5638627313991	-8.6342840856996	14.4316936962785	143.252741403553
1214875	4.18478594738439	3.45643558914406	5.4276496209066	-39.5550982263742
1036062	5.6333315539805	3.20770666043561	6.48257714311795	-29.6578596507521
883578.1	5.68406370852278	2.13818314130385	6.07292412173096	-20.6148724997803
753531.2	5.58886286005834	1.10855025623813	5.69774268804279	-11.2189949132094
642624.9	1.45782508593594	5.60461992617616	5.79111547960106	-75.4198096717786
548046.8	0.899236901151273	6.93422059703885	6.99228448311351	-82.611060254245
467390.6	0.711632350070205	7.87042592017793	7.90253280706098	-84.8334489499985
398593.7	0.716142853937705	8.62183245648756	8.65152330488616	-85.251822732003
339937.5	0.854991844606394	9.1227061992518	9.16268407466997	-84.6458052720932
289906.2	1.49333104778661	34.7182753510591	34.750376702566	-87.5370648978823
247234.4	2.44453884279615	33.5137936810245	33.6028293012391	-85.8281609781251
210843.7	3.35550975932432	31.1338932747338	31.3141941647464	-83.8485917959481
179812.5	4.19856810345158	29.7083670796076	30.0035839301913	-81.955883015513
153343.8	5.09325860664245	30.7889291232085	31.2073619485546	-80.6069111826569
130781.2	5.95574548501092	35.2977576329149	35.7966841787648	-80.4227625473019
111531.3	13.7157964218856	66.5336415209792	67.9326764195904	-78.351749301022
95109.37	14.4900827370107	67.7440434651873	69.2763879163644	-77.9266719128145
81109.37	14.9517536986287	70.4492220864521	72.0183853696451	-78.0176576106812
69171.88	15.2272624893965	82.6743393126131	84.0649505067247	-79.5640134039598
59000	15.8140011811175	141.426395585355	142.307793186535	-83.6198097483524
50312.5	22.4641451755014	87.5877257003246	90.4226050930922	-75.6150736883592
42906.25	22.3964457485517	56.3406371704922	60.6289384613063	-68.3212636605643
36593.75	22.2938569819997	41.1287592247722	46.7823780338616	-61.5400789720729
31203.13	22.2167159052022	31.4035221559704	38.467696440169	-54.7221447706019
26609.38	21.9750553614012	24.2140370028209	32.6989701077974	-47.7751976624012
22703.13	19.4678404017928	14.4265448550219	24.2306006191269	-36.5401083647266
19359.37	19.2527685164914	10.7178823737998	22.0350198122945	-29.1043824206557
16500	18.0397915537276	6.84455666212274	19.2946115587475	-20.7774664628825
14112.02	17.8553584811499	4.78173227975473	18.4845554473355	-14.9922256617773
12011.13	16.9817289557307	2.64043218795496	17.1857790182782	-8.83795993356222
10236.38	16.0678467583356	1.2380884228457	16.1154758661399	-4.40615029583254
8750.684	15.2929786634961	0.307592139021416	15.2960716959007	-1.1522513575602
7449.463	14.26019188367	-0.478211289579857	14.2682079672456	1.92067714224668
6363.206	13.2337415392577	-0.705811870449033	13.2525501517384	3.05293571050359
5414.761	14.6912108128792	33.2333521233567	36.3357588128207	-66.1515870819629
4620.567	17.0874136158211	28.5442123218762	33.2678788195836	-59.0940075531004
3941.215	17.3350684039358	38.3920691957801	42.1242872189276	-65.6995233816046
3361.769	17.4332331782145	45.7125744272961	48.9239928850568	-69.1248369682352
2867.244	17.8527656179586	53.8149125647587	56.6989069961881	-71.6470544781807
2442.658	19.1125100506943	62.7956570698522	65.6397942354512	-73.0718286273325
2083.003	20.6143974523539	72.7286039852045	75.5936718248314	-74.1750015660773
1777.843	22.1049157169748	83.9425328464833	86.8042402163482	-75.2470056007671
1513.548	24.4897624278778	96.7656825564433	99.8165606720059	-75.7976180418878
1292.065	26.5589468944777	111.975296880229	115.081904622573	-76.656825551466
1101.762	28.3589683466859	129.188169586356	132.264183537197	-77.6189935768292
939.101	31.8647810825454	148.790188885502	152.164005540148	-77.9121760805976
801.2801	31.0046008972382	172.244435138923	175.012658722516	-79.7958321278698
684.3433	36.5020036065823	200.420710880351	203.717592802095	-79.6780320051909
582.9476	38.3385775072474	231.952529798837	235.099601457254	-80.6146461128912
497.0677	40.9470150240561	270.186637529171	273.271800847983	-81.382352262587
423.5089	44.7693976059872	315.174709850689	318.338493888924	-81.9154321951767
361.5036	45.2591413928462	366.535482155438	369.319170310095	-82.9608509881724
308.1262	52.8753981391962	427.727620617317	430.983439551139	-82.9528868748201
262.7298	59.7790686424463	497.257651772092	500.838007037857	-83.1449423277479
224.2111	64.6502695483255	580.782944258947	584.370161536986	-83.6482284549909
191.2854	75.9446506887951	679.003271763783	683.237171876768	-83.6181481707465
163.1722	82.0485640486551	792.124457527002	796.362431983637	-84.0863692809274
139.1537	93.514358724766	923.3203404675	928.04384939976	-84.2167744750992
118.6706	106.879969561	1073.02972456691	1078.33951874977	-84.3117708775319
101.1982	120.477589010395	1262.66515309291	1268.39983376256	-84.5496056582907
86.24196	145.342606909028	1471.92244134382	1479.08084522607	-84.360701473236
73.61024	165.037238533071	1721.76932231961	1729.66091745855	-84.524739289982
62.69291	308.429245637071	1991.8000864839	2015.53868335032	-81.1976879652163
53.57697	370.5437763432	2320.41908291706	2349.81859098789	-80.9271372943556
45.65746	442.683823121825	2708.78289495597	2744.71742430069	-80.7184660653689
38.96512	525.436762101388	3167.41156194997	3210.6977113615	-80.5810707860965
33.18414	626.579445013195	3685.6238166606	3738.50567992733	-80.3516011891466
28.30617	747.550554889963	4301.89386750719	4366.36263718581	-80.1420132276878
24.17237	893.668442425575	5018.27373411234	5097.22616287223	-79.9024595735436
20.61345	1041.32246392529	5865.99244535008	5957.70256414162	-79.9338003649373
17.55618	1259.95869982701	6859.60153718966	6974.35510812896	-79.5920310401417
14.98558	1481.02722979026	7981.92013495666	8118.15808519438	-79.4884402707821
12.76553	1765.33092183775	9343.76926598755	9509.07026788687	-79.3011403675538
10.8809	2136.82523801513	10936.0102961682	11142.8157705185	-78.9440730696283
9.278505	42708.967273116	58033.2542209941	72054.9407120332	-53.6491781668163
7.923394	49127.4049745849	68149.5354931999	84011.0772902942	-54.2130488513163
6.75822	56748.9270372862	79694.1384170318	97834.5359160877	-54.5459373302874
5.761429	74362.8354247472	127754.951250748	147821.374846431	-59.7974278381825
4.919708	84438.3285590819	147214.227617385	169711.107894665	-60.1625165452399
4.191257	96763.0272734712	170134.072720769	195726.048720355	-60.371130478447
3.564097	112182.10616409	197565.972589538	227194.054650779	-60.4111802283267
3.051758	129994.253915983	227962.694554495	262422.362156351	-60.3063289518177
2.604164	151691.105898866	263517.188995505	304058.383382063	-60.0735361996561
2.214424	178565.286849829	305311.774481208	353695.972983331	-59.6782526167953
1.892567	209733.281293799	351460.836179864	409283.237685729	-59.1734767992851
1.607507	249583.794093472	406640.311158021	477125.154370198	-58.4596286823316
1.376413	295498.349103933	465873.207773626	551685.707667362	-57.6134846104824
1.17375	353237.6997671	533954.534270716	640222.084284046	-56.5133655367855
1.001604	423185.604442504	609107.364196057	741685.807417963	-55.2098349866613
