EC-Lab ASCII FILE
freq/Hz	Re(Z)/Ohm	-Im(Z)/Ohm	|Z|/Ohm	Phase(Z)/deg
6999984	13.6331760923578	99.9000515555636	100.826007513783	-82.2289547006723
5969734	16.5989288757299	91.3938975996046	92.8890141958054	-79.7061642329318
5091109	18.7392993362233	87.7842175960259	89.7620755027367	-77.9499339992968
4341796	19.2496028935726	91.7481898824221	93.7458135505859	-78.1506984107106
3702781	19.8672269981139	100.217714455805	102.167984218833	-78.7870253379829
3157797	20.3994070598119	108.26099120282	110.166138284906	-79.3289861163972
2693047	20.1535054063202	121.028018104544	122.69451881187	-80.5458911774755
2296687	19.7473769613213	138.17905903485	139.582990556189	-81.8668453741496
1958656	21.5416987252101	157.746670243871	159.210730659075	-82.2238553762956
1670375	22.6130153871697	181.136163095513	182.542208943204	-82.8840173478454
1424531	24.7140216181856	208.935516348865	210.392093141617	-83.2540907877204
1214875	27.0796364655853	240.468986995094	241.988926229187	-83.5748898572141
1036062	29.3184220294623	278.243345953606	279.783719036251	-83.9849557511892
883578.1	31.7008928897068	322.42794566283	323.982602548899	-84.3847657006315
753531.2	35.8212514257563	376.092774027968	377.794834175587	-84.5592313492489
642624.9	38.2146902460631	429.226850431398	430.924647336237	-84.9122879426085
548046.8	39.0929197327762	508.757252794177	510.256992743765	-85.6060252409529
467390.6	164.201856668463	727.242524873696	745.549421378649	-77.2767085900181
398593.7	169.095682182456	803.993727181385	821.583387782254	-78.1226807745287
339937.5	214.881124394301	918.497263945744	943.29800248743	-76.8325517072326
289906.2	203.274918415219	1032.60901015655	1052.42674819353	-78.8634006120738
247234.4	246.459102415258	1173.60232974166	1199.20161671771	-78.1400986915007
210843.7	283.378745584065	1345.56778418813	1375.08406117363	-78.1072109140602
179812.5	308.571323264948	1549.95791214292	1580.37520575208	-78.7405584607978
153343.8	339.195637764907	1764.65430148182	1796.95811982835	-79.1195127464973
130781.2	307.891959920849	2044.66256366166	2067.71430768938	-81.4365540700064
111531.3	367.452220416888	2368.51526629072	2396.84911935263	-81.1814159638346
95109.37	405.326502164046	2754.24806887062	2783.9130730384	-81.6282084524776
81109.37	408.283575530735	3254.25500309204	3279.76692818221	-82.8489523307834
69171.88	394.258635796751	3730.42896666724	3751.20515931218	-83.9669648764221
59000	475.396343955348	4314.36955615639	4340.48227169922	-83.7119986575889
50312.5	1385.39743220734	5674.31878093459	5840.99475028301	-76.2795328433724
42906.25	1886.28975335587	6506.6631389874	6774.56671956758	-73.8330603539433
36593.75	1955.17241919697	7482.42125789599	7733.64901384866	-75.3559248776215
31203.13	2065.00785917109	8517.77055528974	8764.51211939371	-76.3724093019631
26609.38	2188.0408374131	9756.19661028276	9998.54464433101	-77.3593291040759
22703.13	2224.79642072479	11245.8137581022	11463.7710285748	-78.8094852835521
19359.37	2464.39245994364	12945.8907526429	13178.3655123081	-79.2220721918257
16500	2597.44121303294	15014.2105264952	15237.2313295126	-80.1850423581021
14112.02	2794.90728229107	17292.9790830404	17517.3808625341	-80.8191920457529
12011.13	2945.22291838387	20108.241977425	20322.7885257326	-81.667226878326
10236.38	3171.03486987769	23379.3509847792	23593.4210028024	-82.2758799440935
8750.684	3283.11053792471	27145.2742889902	27343.0929309167	-83.1038039580576
7449.463	3615.10022597645	31396.0139237624	31603.4593034519	-83.4315931126519
6363.206	3606.81647931322	36566.8064570704	36744.2575048713	-84.3667748258644
5414.761	14231.8278198279	48033.8508671411	50097.8617529729	-73.4961038746268
4620.567	13181.5594266361	54724.5726557002	56289.7180777	-76.4570924640834
3941.215	15165.6605043836	63980.1829816254	65753.0309027386	-76.6649042563774
3361.769	17265.9095905846	74666.4316446128	76636.7251944515	-76.9797445648018
2867.244	19690.0095266654	80447.4177930228	82821.9989177111	-76.2468742490499
2442.658	22643.7855111092	99175.1446473298	101727.333289003	-77.1386257613915
2083.003	19495.9188774694	108626.266807558	110361.93498405	-79.8250529754214
1777.843	21731.1844180646	129521.422330762	131331.805815634	-80.475589256013
1513.548	24901.415480646	143306.645675132	145454.03118373	-80.1425288897034
1292.065	22816.7465603393	169822.894298748	171348.823607291	-82.3477861473824
1101.762	27696.6491894426	192807.347100728	194786.492017141	-81.8254205255617
939.101	35561.9930882766	227993.477141474	230750.256709435	-81.1345480161929
801.2801	31300.1031256699	261339.197381784	263206.900638704	-83.1703243580723
684.3433	110520.157688792	393203.629205366	408440.692482797	-74.30059391477
582.9476	118177.950620568	447087.182300821	462442.403538609	-75.19372052582
497.0677	129201.886196608	491135.565590693	507845.715926452	-75.2612722498659
423.5089	168137.469075886	527106.275811858	553273.20060481	-72.3082477737616
361.5036	190206.924024389	641009.559507357	668634.376417064	-73.472784492365
308.1262	187920.258260397	732323.921640075	756050.494127841	-75.6079690116995
262.7298	186631.752971582	784528.294640323	806421.760810371	-76.6186092665308
224.2111	242253.862333929	956671.615044651	986867.52548042	-75.7899404074331
191.2854	238824.098315603	1103439.70753669	1128988.9893639	-77.7875004643772
163.1722	316953.977370832	1256713.2598203	1296066.37221222	-75.8447151726476
139.1537	229610.790569757	1375902.83263181	1394930.00540898	-80.5257803588664
118.6706	281705.4274232	1613739.81943323	1638143.50795774	-80.0978381816832
101.1982	258627.551099577	2090343.38450491	2106281.95532583	-82.9469281137507
86.24196	333539.621083126	2178967.16292067	2204347.1994944	-81.297153438451
73.61024	158268.217614397	2473038.13150533	2478097.34041789	-86.3382080073506
62.69291	859596.764939946	1288086.87910258	1548571.73111595	-56.2830823397665
53.57697	611731.247867946	2903431.89965882	2967175.74733525	-78.1022261812425
45.65746	-345371.965300942	3993137.2249276	4008045.24569251	-94.9432892450819
38.96512	958906.423742288	4335087.64820352	4439874.59812785	-77.5272057380493
33.18414	-120587.847698917	5356489.96375021	5357847.15727962	-91.2896519770916
28.30617	1536748.88531731	5399840.66181522	5614256.52330894	-74.1140961524549
24.17237	718851.855356606	9149962.39646278	9178156.66932269	-85.507877570647
20.61345	-2346197.08112608	8441012.4078982	8761011.99712544	-105.533382764044
17.55618	-930532.753350107	10800442.5064024	10840454.3050169	-94.9242670462835
14.98558	-1087867.98577402	10101648.6083153	10160057.1533998	-96.1466152064156
12.76553	785568.612997948	10743963.4321493	10772644.4421548	-85.8181342167103
10.8809	8811982.63980609	5100319.18856634	10181566.3760299	-30.0619839723917
9.278505	-710377.801184525	11018601.8667608	11041477.4246293	-93.6887981526429
7.923394	381787.324635578	16829042.7542512	16833372.8523332	-88.7003984051159
6.75822	778321.648475842	10292951.0161717	10322336.2282866	-85.6756969088408
5.761429	11851139.0246084	8688904.83088889	14695120.392186	-36.247768108917
4.919708	14046860.1727584	-901724.014779017	14075773.0484636	3.67300496033904
4.191257	11900665.2348414	-2349909.51842731	12130453.733334	11.1699497259462
3.564097	10506840.7117331	15051551.8945324	18356004.9078097	-55.0827644068572
3.051758	16390303.4628848	-18196518.3653359	24489902.5768879	47.9894208524227
2.604164	24563570.6175834	-6853284.84283824	25501696.308718	15.589207577258
2.214424	11899120.8820758	23597808.3227629	26428122.0559485	-63.2406177080212
1.892567	17927802.0502286	14040124.2722654	22771279.6287963	-38.0662043703693
1.607507	32770163.3132566	2283515.7030824	32849627.8143868	-3.98608514241679
1.376413	28422395.4650033	26214384.3026437	38665572.6497842	-42.6857911851706
1.17375	55603297.8395165	-8327342.0090574	56223405.7627764	8.5175103683235
1.001604	9048193.30520357	70901482.07094	71476499.368283	-82.7274279824361
