EC-Lab ASCII FILE
freq/Hz	Re(Z)/Ohm	-Im(Z)/Ohm	|Z|/Ohm	Phase(Z)/deg
6999984	6.57009635499751	110.892369957729	111.086830366861	-86.6093316360065
5969734	16.0233219528753	95.3397849842551	96.6768920024299	-80.4597183250878
5091109	13.9799333918675	87.8203301685944	88.9260868843445	-80.9550976347579
4341796	11.5070123082067	88.2790791199477	89.0258790606822	-82.5734742228845
3702781	9.74766668754046	98.509639398602	98.990737244926	-84.3488985426564
3157797	12.3858655384526	104.980771910357	105.708902822946	-83.2712222257948
2693047	12.2441803126462	114.894354803811	115.544938086065	-83.9170029566867
2296687	10.1114878334292	130.81392981031	131.204140249545	-85.5800129570539
1958656	11.6717540222769	149.85060773103	150.304472585867	-85.5462657429207
1670375	12.0472343116066	172.312803964828	172.733431230842	-86.000678570239
1424531	13.7205919952236	199.3935097546	199.865020393658	-86.0635893361444
1214875	17.7444345494994	228.566040274374	229.253788898217	-85.5608188709171
1036062	18.3940699610333	265.0656337692	265.703089961707	-86.0303577840268
883578.1	20.2004748317373	307.016634588247	307.68047240168	-86.2355912662426
753531.2	21.4024359855493	357.339809311227	357.98017205524	-86.5724331540001
642624.9	16.7621350994827	422.580756946302	422.913070635566	-87.7284900972355
548046.8	15.4932727749273	493.51638315807	493.759518335294	-88.2018678275726
467390.6	122.341672186327	722.46305772175	732.748493363178	-80.3887288542711
398593.7	94.7480661760658	912.48586923817	917.391768877093	-84.0719307444901
339937.5	95.1012270318085	1051.05079728439	1055.34450387307	-84.8298393158892
289906.2	78.5822259534219	1192.40152788013	1194.98810451262	-86.2295179136142
247234.4	77.8847988869896	1347.73199899682	1349.98058616324	-86.692582403639
210843.7	57.4437723862764	1524.34836479063	1525.43034066647	-87.8418784448919
179812.5	40.4197885852527	1733.52348885413	1733.99464985284	-88.6643020640227
153343.8	11.9937600437237	1983.61985615138	1983.6561153582	-89.6535709930956
130781.2	-2.84332276910799	2284.39183003779	2284.39359954185	-90.0713145215255
111531.3	-172.61270816227	2505.32304228279	2511.26237044484	-93.9413579487366
95109.37	-261.046222698937	2598.49351499607	2611.57302748018	-95.736721199779
81109.37	-208.884118582044	3011.82992701435	3019.06476980124	-93.9673702326355
69171.88	-178.252676460666	3475.82486146265	3480.3925761654	-92.9357597225025
59000	-144.513508332312	4125.1865412488	4127.7170632434	-92.0063648830208
50312.5	-233.317994940864	4685.49826117946	4691.30378916981	-92.8507327857051
42906.25	1726.83295808922	7099.10929234272	7306.11420727667	-76.3285207348561
36593.75	1927.14989597437	7793.14763737787	8027.89242700239	-76.1101092233522
31203.13	2092.92544177706	8858.10777252666	9102.00034138293	-76.7063864007448
26609.38	2209.92351333657	9964.63446950388	10206.7478682303	-77.4955211719785
22703.13	2333.95600519665	11445.6600787068	11681.2022185859	-78.474476860739
19359.37	2427.50104214985	12992.4747337822	13217.3053614421	-79.4169351379497
16500	2516.63723528864	15073.8273162073	15282.4648840715	-80.5216550627415
14112.02	2624.49273480677	17480.1291498902	17676.0537793902	-81.461305846756
12011.13	2718.28648232825	20172.9447472102	20355.2642128272	-82.3256699764904
10236.38	2904.8311901602	23731.8586263561	23908.9765172974	-83.0215845144563
8750.684	3082.80032626484	27375.9659074815	27548.9957570001	-83.5750044487731
7449.463	4310.19491301699	32021.4123853111	32310.1939229457	-82.3338632729608
6363.206	3690.08603170205	37081.1174107295	37264.2724784701	-84.3169847934676
5414.761	22623.1663471621	57554.6639718034	61841.3049706956	-68.5415659327921
4620.567	24919.0197622618	63674.6954260777	68377.0749850836	-68.6271658273846
3941.215	27118.6996730124	71362.1371649771	76341.197873154	-69.1924459880607
3361.769	28878.0983835527	79744.5157976207	84812.3361666634	-70.0930210504473
2867.244	30458.0738460028	89742.1910261709	94770.0116734524	-71.2530314024692
2442.658	31993.4877058979	101851.781236498	106758.459133854	-72.561552414989
2083.003	33550.8643221405	116475.586141602	121211.479092504	-73.9309215453516
1777.843	35016.8367044757	133031.216636909	137562.652826572	-75.2529643618365
1513.548	36911.9900585591	154539.783018839	158886.876568183	-76.5665274029534
1292.065	38430.0413566196	176755.503386458	180884.980183739	-77.7336997274144
1101.762	40597.852870767	204347.175180935	208340.955316385	-78.7633048852645
939.101	43230.5723584605	239557.834660103	243427.27565636	-79.770507393325
801.2801	45446.6462097552	274419.81165897	278157.564489372	-80.5965979423446
684.3433	207229.874538144	453225.092252273	498354.497469599	-65.4285143445078
582.9476	229793.538492467	499458.309536981	549785.115566462	-65.2935254879749
497.0677	250006.752649245	550915.704245268	604988.834239344	-65.5913489498839
423.5089	268581.742295122	613163.133844566	669406.588704035	-66.3453041124966
361.5036	286176.474843004	686670.338424847	743917.420434595	-67.3755968197008
308.1262	300242.604678338	774681.572347774	830829.2003771	-68.8152105757465
262.7298	314170.431859837	874581.16811447	929298.272824967	-70.240500386914
224.2111	326484.315559655	992140.218823893	1044477.9663135	-71.7851373068072
191.2854	340791.401557149	1132848.49598511	1182998.09561597	-73.2572950656163
163.1722	356596.133907806	1304413.50517351	1352277.85428773	-74.7102587382886
139.1537	375572.522283008	1519327.91325848	1565059.75205434	-76.1150366603903
118.6706	374852.156028752	1718700.15853852	1759103.28685945	-77.6963428791719
101.1982	404399.642965888	2025813.78549618	2065783.28116414	-78.7108219512305
86.24196	446260.015124867	2336206.60328353	2378446.82394306	-79.1856893718349
73.61024	480156.833332287	2587059.42570716	2631240.59271211	-79.4855754818064
62.69291	-78345.9017390968	2686673.19465783	2687815.27177971	-91.6703251361766
53.57697	310954.134732532	3566097.30369802	3579628.81502392	-85.0165662613223
45.65746	646085.697918799	3841712.51688872	3895661.91955548	-80.4535303809004
38.96512	935481.824223467	5023385.47073632	5109748.31386608	-79.450911535201
33.18414	883921.724738218	5532309.87752795	5602478.93315606	-80.9223244488765
28.30617	1487148.06037691	7235044.40934596	7386303.33513938	-78.3847516700216
24.17237	1226285.06944543	8333929.02128287	8423665.94798996	-81.6293543680679
20.61345	919483.568892003	8059460.58586234	8111741.79621929	-83.4914099064636
17.55618	777755.176498737	9345020.7097736	9377329.85346404	-85.2424262241629
14.98558	1743122.03375176	12014348.2378589	12140141.5974071	-81.7447480680072
12.76553	2359139.98594784	14097747.1182211	14293775.4033919	-80.5000545538651
10.8809	2639384.46252572	16375204.0145853	16586550.4810467	-80.8437146393845
9.278505	3851235.54266001	19317770.9042938	19697925.9800575	-78.7252031918883
7.923394	5068388.40442739	22169896.5140142	22741874.8668669	-77.1225829431279
6.75822	6948708.94802162	24666400.2478718	25626467.9039567	-74.2670758837549
5.761429	-2345031.08327099	31434055.110471	31521405.2902093	-94.2664542016938
4.919708	7008958.8908638	34971544.5625681	35666993.6191082	-78.666990679903
4.191257	10252979.1998405	33164202.6347172	34712935.9010289	-72.8205866341676
3.564097	14393970.6708586	41659112.2353723	44075707.8662713	-70.9390505307375
3.051758	1647985.23279737	46228848.6921392	46258213.3974953	-87.958360764642
2.604164	29989677.3934098	53287684.273741	61147019.9226315	-60.6297063313895
2.214424	25044194.9108025	54746629.1865084	60203032.3656153	-65.4179719210774
1.892567	71264005.481885	59772272.6368393	93012273.6712461	-39.9880480546869
1.607507	49638664.0220736	58227682.1946851	76514442.6867344	-49.5526559823458
1.376413	85621461.9978336	23093596.5097773	88681164.5976916	-15.0944814394743
1.17375	44983654.4426346	65053678.9074412	79091784.0638762	-55.3367164903931
1.001604	78252535.2752005	30921836.4540521	84140473.2972643	-21.5616737970781
