EC-Lab ASCII FILE
freq/Hz	Re(Z)/Ohm	-Im(Z)/Ohm	|Z|/Ohm	Phase(Z)/deg
6999984	-21.1753025906324	110.101845446489	112.119622771964	-100.886465862415
5969734	-1.52788429502271	104.194833832224	104.206035466972	-90.840109291032
5091109	4.72371610775874	95.6034452585645	95.7200722898497	-87.1713459372503
4341796	7.37548867522035	95.7630915774457	96.0466945900199	-85.5958838879791
3702781	6.86862440581896	104.022721524855	104.249242657516	-86.2222413496161
3157797	10.8050433240891	111.012297028036	111.536895477131	-84.4408009729953
2693047	11.6243779839833	122.543335156784	123.093440746705	-84.5811756328024
2296687	9.96764368055514	138.203412228176	138.562394148101	-85.8747997426488
1958656	12.1355115310551	158.559006925712	159.022732077487	-85.6233285663658
1670375	12.4649189328691	181.75058510867	182.177521641247	-86.0766527738733
1424531	14.5187310062263	211.23297838684	211.731350319707	-86.0680584069464
1214875	19.157571777342	242.260034307165	243.016330272088	-85.4785421315363
1036062	20.6356136499458	283.156991920367	283.907926314326	-85.8318279080139
883578.1	25.4096434918167	314.090469232252	315.116601982374	-85.3748940663971
753531.2	19.4752194005242	371.229675657728	371.740173050534	-86.9969375844125
642624.9	29.838511077351	423.218483850081	424.269044140242	-85.9671032434443
548046.8	43.4909687051462	507.281163806168	509.142066138177	-85.0998170289548
467390.6	133.693553079273	755.098712823383	766.842899323251	-79.9595834657181
398593.7	186.839607032599	766.522758314961	788.965257645019	-76.3013052395874
339937.5	166.087168605708	882.046239672903	897.546943895732	-79.3362053846158
289906.2	237.676469721211	1082.33306551774	1108.12227167049	-77.6146390975862
247234.4	274.7139967269	1223.90032095144	1254.35233312762	-77.3491877511021
210843.7	296.87907254221	1364.8307670071	1396.74629273992	-77.7281420368016
179812.5	273.444973952418	1500.99782129059	1525.70200671656	-79.6753391035537
153343.8	274.507980161915	1737.39511097142	1758.94752701722	-81.0215034432136
130781.2	313.75474358941	1998.24819662907	2022.73030690109	-81.0765646873257
111531.3	355.234426884084	2310.96123615503	2338.10464544572	-81.2610570973578
95109.37	312.889984588587	2718.02128602229	2735.97146434792	-83.4331973944783
81109.37	475.241392836602	3191.17015721788	3226.36348754806	-81.5295451201561
69171.88	366.885777853602	3629.16847075214	3647.66623515539	-84.2273741943091
59000	364.824931720405	4216.93665953858	4232.68850984397	-85.0554127998322
50312.5	214.175395833483	4800.64369011648	4805.41891406312	-87.4455062422204
42906.25	1551.34212113057	6808.64683099369	6983.14642879514	-77.1643515663929
36593.75	1983.21426182804	7223.55023283943	7490.84886876466	-74.6478063386193
31203.13	2090.6127817748	8269.72078014339	8529.88532073296	-75.8126868318998
26609.38	2040.66944120103	9944.43925616245	10151.6601542682	-78.4034873899223
22703.13	2063.18446545745	11371.8831585658	11557.5281401594	-79.7167639521417
19359.37	2147.71729249433	12865.0689528624	13043.1088598686	-80.5223426120956
16500	2410.28398046529	14724.4784002616	14920.4468105435	-80.7035691626955
14112.02	3025.79460414348	17355.6983800783	17617.4827727095	-80.1104432531761
12011.13	3163.73056296426	19736.4914540007	19988.4538168633	-80.8930463055453
10236.38	2773.82663275269	23282.0216014293	23446.6766096603	-83.2057904455909
8750.684	3643.47418756698	27313.5895291725	27555.5271610541	-82.4019306590223
7449.463	4228.19969712829	23511.116667259	23888.287498694	-79.8049994525918
6363.206	10913.7596960466	15396.9125230341	18872.6009321719	-54.6699253971537
5414.761	-3148.97587073378	-13513.0294138808	13875.0860528817	103.117678108213
4620.567	-458.561732162373	12123.9840130547	12132.6529337573	-92.1660482205237
3941.215	2454.1377933256	11969.2908699927	12218.2943260964	-78.4128838977625
3361.769	6504.37014659222	-22930.6925158562	23835.3412029412	74.1638288890723
2867.244	-3095.82303549275	30396.3056182677	30553.551602166	-95.81544560083
2442.658	21762.9635478384	-19779.9512053482	29408.7240809679	42.2671137355347
2083.003	-15215.7043252976	25818.194086569	29968.263279787	-120.512562176826
1777.843	13298.7807040327	25478.0188269745	28739.9897627264	-62.4367579214527
1513.548	-23094.7518302455	31692.1867128011	39214.3119376035	-126.081597353939
1292.065	13978.4981050318	-45732.1807475852	47820.8193698329	73.0037039454914
1101.762	18458.0220305821	40342.8513928019	44364.8986901035	-65.4145341743066
939.101	41951.8215820881	11496.7934590065	43498.6389889892	-15.325503752049
801.2801	46953.0183552365	-37638.8204854138	60176.9618724673	38.7166146002459
684.3433	134586.278439818	-37175.7577434182	139626.298769529	15.4413500886465
582.9476	-43640.32186341	132545.257805411	139544.699143482	-108.224049865758
497.0677	52595.6036350189	93645.0666131862	107404.357559273	-60.6793244764479
423.5089	229754.60515583	20364.8765549171	230655.385342308	-5.06531761264993
361.5036	289648.283539295	6575.90508384484	289722.920537764	-1.30056663944997
308.1262	17726.6474552274	236128.98853363	236793.440060989	-85.7067512213369
262.7298	266675.249837704	728013.377053293	775318.75125302	-69.8819433987211
224.2111	135855.850525796	990316.171801762	999591.38264302	-82.1886757676746
191.2854	216743.213021008	1054968.62780652	1077003.44755559	-78.3901374732958
163.1722	22517.8676808945	1162347.51960754	1162565.61565475	-88.8901620268633
139.1537	139714.685880904	1508130.21688415	1514588.04449587	-84.7071690519517
118.6706	406929.890317821	1458303.79600446	1514015.15747865	-74.4085964591522
101.1982	532347.529250733	1891043.40734882	1964545.50987672	-74.2775610114058
86.24196	556992.714945716	1999617.05792876	2075743.06282407	-74.4348379261692
73.61024	-48281.7022030734	640271.919659968	642089.755308934	-94.3124054168633
62.69291	-137292.740833522	690725.722767217	704238.113693	-101.241928878514
53.57697	413355.735919149	923909.736218914	1012162.12391956	-65.8963343842321
45.65746	374313.705058252	986437.059674759	1055068.16011773	-69.2202344411245
38.96512	1623576.47366326	126900.69507253	1628528.2779991	-4.46922091696274
33.18414	1454539.71935569	-167532.744557337	1464156.07627132	6.57033049030525
28.30617	1723267.82555199	187758.117251892	1733466.21229739	-6.21811614490448
24.17237	767314.287339758	-1813729.43569206	1969361.74469079	67.0687779204083
20.61345	1798113.15496203	-882779.786524881	2003125.32547128	26.1486306654467
17.55618	1989580.85987755	60060.3224474826	1990487.18667657	-1.72908693104847
14.98558	977458.765308362	-2433655.10284519	2622613.73394608	68.1175198686157
12.76553	2462871.17621648	1212722.83135804	2745256.10760362	-26.2157297528344
10.8809	-2521402.36631875	286787.773618578	2537659.77230497	-173.510986339089
9.278505	-2556187.64003086	-1879647.93214296	3172880.6469604	143.671745439132
7.923394	-914797.358231213	-3937000.5323232	4041884.1396235	103.081066105104
6.75822	1746671.08051511	-4256109.51817181	4600579.10421944	67.687171268693
5.761429	4041070.06243368	-2583131.40128106	4796125.00731393	32.587513178393
4.919708	4970370.54654306	-596732.735570338	5006063.65597203	6.84604924047811
4.191257	6096839.1663265	979943.961722886	6175090.11984198	-9.13104503450549
3.564097	5921812.88069816	3101559.41434842	6684873.86528242	-27.6433744205399
3.051758	6373792.3475641	5093696.21525112	8159103.50609246	-38.6305391506834
2.604164	5987454.83062619	6208941.78988789	8625576.70529949	-46.0403788615703
2.214424	7201999.61988969	7131955.28300172	10135757.7261706	-44.7200205410031
1.892567	501019.444373561	11438197.3114041	11449164.9572469	-87.491915823626
1.607507	-12632793.1118689	7222267.51906286	14551584.4472068	-150.243055687267
1.376413	-4443860.61106479	-22908710.3489522	23335743.1204314	100.977967222297
1.17375	-10232220.8332448	-19849211.85656	22331358.0981294	117.270996155094
1.001604	6379612.38338208	-22822418.62706	23697304.6178458	74.3825841752533
