EC-Lab ASCII FILE
freq/Hz	Re(Z)/Ohm	-Im(Z)/Ohm	|Z|/Ohm	Phase(Z)/deg
6999984	16.1100522635957	97.9013603854248	99.2179930720865	-80.655498003684
5969734	19.488667419982	90.5637995647266	92.6369793840809	-77.8555678504387
5091109	22.3049635530317	89.811002371487	92.5393297256541	-76.0525269649415
4341796	21.4101932593633	91.3815242010611	93.8561630406465	-76.8137586915524
3702781	21.4281481972048	99.597870368521	101.876892949805	-77.8580888647373
3157797	21.9845075718142	107.919497272079	110.135990777917	-78.4857068335236
2693047	21.6874064031393	120.703384604019	122.636253413747	-79.8140521857549
2296687	21.1291814858624	137.836731997618	139.446789127773	-81.2848921416353
1958656	22.8671115993402	157.480317647111	159.131880021357	-81.7380444618042
1670375	23.8584889011781	180.988763048766	182.55453936446	-82.4903953425905
1424531	25.9318402066762	208.734493346557	210.339128668797	-82.9182229282147
1214875	28.4979615901418	240.414305508799	242.097443414984	-83.2398814344011
1036062	30.5562649690015	277.979119042111	279.653492651681	-83.7270674476009
883578.1	32.9555001128751	322.180755492186	323.861859744561	-84.1595932871451
753531.2	37.8625876073563	373.764252469801	375.677111313205	-84.2156285595089
642624.9	37.6907283838158	429.407993813074	431.058947426766	-84.9837930754408
548046.8	41.437723403795	508.00500548433	509.692231172915	-85.3367350772414
467390.6	172.120913314911	709.377869221869	729.960663421062	-76.3615231038556
398593.7	174.000212098428	802.598215879823	821.242942096779	-77.7677907162247
339937.5	201.078673704686	922.740642125455	944.395534534621	-77.7065988237047
289906.2	223.12856039009	1045.32218129668	1068.8708140709	-77.9507934359895
247234.4	248.342251959474	1193.77095245384	1219.32889780848	-78.2482731232214
210843.7	263.748682891567	1359.9104443946	1385.25080202127	-79.024000682049
179812.5	284.431387964687	1553.07642437154	1578.90708858951	-79.6218248454885
153343.8	312.274183120949	1799.63261385185	1826.52476311795	-80.155993397889
130781.2	353.159652918518	2054.9513863375	2085.07720256588	-80.2485260818026
111531.3	332.634920771121	2367.52498991947	2390.77823488704	-82.0023498926981
95109.37	395.033385209996	2780.85893685833	2808.77692281451	-81.9149738289406
81109.37	428.716764697026	3187.85486735011	3216.55354682929	-82.3405668791638
69171.88	413.537928185858	3686.46570170961	3709.58798088542	-83.5994697466252
59000	478.961953839441	4307.74903502041	4334.29421035824	-83.6555623147685
50312.5	1256.14906080832	5656.18618591541	5793.99280571783	-77.4787335085812
42906.25	2012.42016382175	6778.45571258276	7070.87666157472	-73.4646484916742
36593.75	1957.2443826874	7469.06337564486	7721.25075897427	-75.3159897193009
31203.13	2074.16332536566	8506.55544759731	8755.77746881106	-76.2968934645648
26609.38	2201.05035582893	9744.7227159682	9990.20737922898	-77.272124927657
22703.13	2322.58810810006	11219.6023146784	11457.4819056992	-78.3043083955852
19359.37	2481.72029651755	12929.2729976867	13165.2966498616	-79.1344669449502
16500	2620.95326499826	14956.3816826769	15184.292840143	-80.0604240376612
14112.02	2779.78225246103	17273.8539223328	17496.0915264293	-80.8580958800423
12011.13	3001.34771432248	20069.5345165166	20292.7155356774	-81.4945946946531
10236.38	3241.02604705033	23355.0462782165	23578.8557079281	-82.0994089431932
8750.684	3329.13365655694	27015.7261470681	27220.0769682343	-82.9748884541531
7449.463	3805.65687069678	31841.5465376927	32068.1634979232	-83.1844191198325
6363.206	4408.99589947337	36142.8401636204	36410.7695597688	-83.0449611924976
5414.761	13667.3654209452	48533.2718065999	50420.9812459352	-74.2723470954701
4620.567	14514.7032321885	53942.5686742347	55861.2327566536	-74.9397283352385
3941.215	18633.876686086	62214.9617023712	64945.5373369085	-73.3266229588271
3361.769	19043.881942517	74479.5540033435	76875.7009982835	-75.6571860863013
2867.244	18630.8534378384	85499.8151301717	87506.1545670689	-77.7071144857203
2442.658	21700.9196485039	92882.0437832887	95383.4575330104	-76.84933937063
2083.003	21618.5195330408	108052.834943408	110194.26267328	-78.6860128787013
1777.843	26270.6386161164	128681.322738323	131335.559826663	-78.4614707187896
1513.548	24601.8664425411	144121.752305795	146206.468120086	-80.3128692421958
1292.065	30710.8154105373	173837.871066296	176529.769727495	-79.9812985661536
1101.762	30575.7943508564	200343.368216167	202663.130313297	-81.3226500603344
939.101	38686.0665575886	226180.643446654	229465.237488472	-80.294018930736
801.2801	32340.1051473745	267527.733838439	269475.362090255	-83.1072417048284
684.3433	120906.532698848	371783.031859109	390948.861652785	-71.9850995773078
582.9476	138802.821499329	449582.189626357	470521.379413735	-72.8425882135006
497.0677	171176.371553911	482289.259741189	511765.845128479	-70.4589691941974
423.5089	163490.502607565	530488.314809692	555109.895959801	-72.8712933990367
361.5036	193094.163010476	599241.570015898	629583.842727746	-72.1394544073161
308.1262	216908.101619324	685025.298094628	718546.298840744	-72.4300013052269
262.7298	216820.184436305	819285.812715456	847490.551744277	-75.1767609750841
224.2111	223609.962670708	886438.744653544	914207.341596285	-75.8421368625695
191.2854	288221.436828202	1091163.30956788	1128587.15427495	-75.2037472872347
163.1722	292004.941847165	1183883.39499384	1219363.26785963	-76.1445439868396
139.1537	358264.162275215	1343134.88763188	1390095.15370159	-75.0648050219155
118.6706	355638.839836955	1626333.57033666	1664764.20744938	-77.6650020877782
101.1982	341365.840578285	1846567.26151033	1877855.50253353	-79.5262554852607
86.24196	555342.709881976	2181875.22378658	2251440.6538021	-75.7199822606476
73.61024	835674.2714429	2401901.74422567	2543124.746619	-70.8160937879024
62.69291	1370135.56161398	487738.003472853	1454358.90248278	-19.5946065539908
53.57697	797379.058533876	2521288.78409202	2644373.36542641	-72.449997532277
45.65746	2017455.45819024	3580720.37316034	4109949.50291936	-60.6021470614438
38.96512	1082891.91421819	4052412.98471936	4194604.37903281	-75.0389073295756
33.18414	2076799.42951154	5097662.66014936	5504476.40262909	-67.833905760026
28.30617	1088277.16875548	6254943.88998752	6348910.95093692	-80.1300957055491
24.17237	3925320.19207831	5636543.27210624	6868679.54330844	-55.1464314770522
20.61345	3204880.14568006	5931131.45077776	6741630.14667664	-61.6154802179121
17.55618	3245482.36933349	4568556.6991473	5604004.47206979	-54.6101830878554
14.98558	3751611.2679665	9894278.7463209	10581651.0533957	-69.2347875691209
12.76553	3419712.50142444	9003383.09653388	9630957.41737812	-69.2019570874599
10.8809	4365794.91099819	8145840.60862543	9242017.33530233	-61.8107442344927
9.278505	6907630.56418709	6550813.92149852	9519901.41994078	-43.4813029766641
7.923394	6391801.80597697	6804339.78086951	9335639.78420407	-46.7905983393587
6.75822	4842433.1508939	5431348.9086063	7276586.41039156	-48.2807297842011
5.761429	7717767.09832189	2136198.28828577	8007950.55621693	-15.471539234872
4.919708	8804332.50280878	185231.034407126	8806280.79021573	-1.20524651586303
4.191257	8750516.78029961	2848830.66443084	9202574.64391931	-18.0332507256357
3.564097	5973367.19468437	6657645.24271126	8944571.30444647	-48.100935628089
3.051758	8407940.84335347	9912660.88114803	12998242.7646961	-49.6953167437555
2.604164	9879714.86461877	6791089.94588446	11988647.4824837	-34.5037418763183
2.214424	6634623.78661872	9313142.48247001	11434721.4958981	-54.5341687771754
1.892567	11336583.0552494	3631768.11447466	11904110.8448251	-17.7632902013039
1.607507	11744315.8448959	8707313.11023787	14620063.4835966	-36.5534811996649
1.376413	17253176.3673439	-3231094.27152279	17553121.2311128	10.6072192274585
1.17375	-4730451.23537421	15195827.0552015	15915097.5109124	-107.291331871064
1.001604	22136269.7881743	15719475.5268268	27149886.7580206	-35.3794391112403
