EC-Lab ASCII FILE
freq/Hz	Re(Z)/Ohm	-Im(Z)/Ohm	|Z|/Ohm	Phase(Z)/deg
6999984	2.62304456509565	0.98564179601619	2.80211572575649	-20.5943376924028
5969734	4.18631475760479	1.35652711028223	4.40061325847549	-17.9543200597785
5091109	6.17777536386102	-1.62341455053644	6.38751776899459	14.7234740783933
4341796	3.46809451428713	-5.78684734759899	6.74650144774623	59.0654742549029
3702781	1.67213315154991	-6.71605124236129	6.92108182053462	76.0190089339264
3157797	0.630639191143167	-5.9891515813247	6.02226223719042	83.9890810473142
2693047	-0.941583169532663	-9.21430130155809	9.26228521160099	95.8346396869669
2296687	1.13325416113128	-7.1833636336968	7.27220586119776	81.0348533598402
1958656	-1.1495065847798	-7.00419952514326	7.09789943409099	99.3201138420862
1670375	-4.08805535005322	-8.41147260700796	9.35227608465148	115.920190857294
1424531	-5.80754602568148	-9.99168312859787	11.5568733913077	120.166782147465
1214875	1.30651829943995	-5.18774464822487	5.34973687221692	75.864195737682
1036062	3.33143096243068	-4.67666752854161	5.74192053497411	54.5357730590017
883578.1	0.185220669004279	0.330908745082512	0.379219321499413	-60.7628044271984
753531.2	3.63721192552383	-2.87090029153576	4.63372194624503	38.2845070198921
642624.9	0.160908472443474	-1.75785727981658	1.76520643345424	84.7699079305185
548046.8	-1.0308818860331	-4.20047631858009	4.32512644507687	103.789012756768
467390.6	0.753675943617269	-3.27110211511933	3.3568045036203	77.0252374137351
398593.7	1.43979537649578	3.09998484183597	3.41802819558169	-65.0873752732869
339937.5	0.929498421555197	-2.17425891336382	2.36460760762026	66.8532311978801
289906.2	0.0582834140180951	-0.000754956390831011	0.0582883033614527	0.742121865269813
247234.4	0.00881623480953805	-0.00499114793249808	0.0101310193910085	29.5155655823314
210843.7	0.00391938762899928	0.0148039162718122	0.0153139654031599	-75.1709741013533
179812.5	-0.0125216931467858	0.0118611109203425	0.0172475723371996	-136.551885397939
153343.8	-0.0100152635514684	0.00999862180566925	0.0141519589463147	-135.047642002602
130781.2	-0.00901571909911475	0.0128054891108547	0.0156608985132515	-125.147504260537
111531.3	-0.00734789582859045	0.0116725144139673	0.0137927214809874	-122.190583671426
95109.37	-0.00623849700329082	0.0104115039835962	0.0121374733804243	-120.929732747461
81109.37	-0.00403276618800411	0.00933116116272675	0.0101653220200783	-113.373164274819
69171.88	-0.00382052808422466	0.00821109894401662	0.00905641102814908	-114.952006775081
59000	-0.00307643166916172	0.00717885830805307	0.00781027774295663	-113.197094344375
50312.5	-0.000525127040058403	0.00786736237036153	0.00788486836128423	-93.8186876847991
42906.25	0.0113933091509789	0.00798747624658845	0.0139142829567173	-35.0330402874601
36593.75	-0.0158061755795051	0.00926876634195339	0.0183233516571579	-149.612572929505
31203.13	0.0162812217604131	0.00148013606706539	0.0163483633672848	-5.19451615770516
26609.38	-0.00345522140844457	0.0165294000949843	0.0168866699642482	-101.806807968734
22703.13	-0.0055012718542104	0.00536676746041743	0.0076854528160755	-135.709064481301
19359.37	0.000548355873552802	0.00324832229595249	0.00329428169749369	-80.4181215891613
16500	-0.000572245827020035	0.00247889664963054	0.00254408999174388	-102.998846661503
14112.02	-0.000401795238107937	0.00203349575212137	0.00207281074564512	-101.177012760326
12011.13	-0.000358116774123675	0.00180706834238583	0.00184221161052736	-101.209384875751
10236.38	-0.000283325055731964	0.00153490246398717	0.00156083268198721	-100.458409093673
8750.684	-0.000207355877499087	0.00130628465295256	0.00132263980526552	-99.0197120700991
7449.463	-0.000139874478900809	0.00114067967797778	0.00114922364994776	-96.9909258133204
6363.206	-9.91361909149038E-05	0.000990271500186945	0.000995221396691017	-95.716839564288
5414.761	-3.95376307548012E-05	0.000863594749851478	0.000864499344254662	-92.6213204845347
4620.567	1.60410598655382E-06	0.00080393039467588	0.000803931995034239	-89.8856761959031
3941.215	3.47258656189236E-05	0.000763429680591857	0.000764219054297633	-87.3956016182645
3361.769	5.8114489760631E-05	0.000609494235094053	0.000612258537329635	-84.5533871797385
2867.244	7.30881491830529E-05	0.000558006829702081	0.00056277304443725	-82.5378362480273
2442.658	7.10985184650764E-05	0.000473585357182056	0.000478892566099313	-81.4620506918897
2083.003	8.92245165929217E-05	0.000420521340957646	0.000429882789329903	-78.020866174334
1777.843	8.34525818296459E-05	0.000361744285980539	0.000371245554658374	-77.0094237785895
1513.548	0.000105481855507006	0.000313781625001015	0.000331036750270236	-71.4192464588366
1292.065	0.000116358413297633	0.000238715056074405	0.000265563849839825	-64.0137096609912
1101.762	0.00015060429623534	0.000209578067950286	0.000258078710106658	-54.2987060416884
939.101	0.000144116659394423	0.000149032360404125	0.000207316800965656	-45.9606804322676
801.2801	0.000137273164690085	0.000122157080785461	0.000183756017942425	-41.6653476224647
684.3433	0.000116029410296495	5.80758207083307E-05	0.000129752167630058	-26.5891893732787
582.9476	0.000175602836829486	-1.26384637365882E-05	0.000176057056286262	4.11658602054035
497.0677	0.000124847620217081	1.33926099592554E-05	0.00012556388921736	-6.12279888610652
423.5089	8.6503596750374E-05	-4.96398826112029E-05	9.97345987930233E-05	29.8492562022156
361.5036	8.065638568057E-05	-4.88098109448735E-05	9.42753954938782E-05	31.1805408279359
308.1262	7.50823501343081E-05	-2.10634668713062E-05	7.79809524071709E-05	15.6708368743303
262.7298	2.78816660802942E-05	-5.85633994530722E-05	6.48618459413015E-05	64.5411746071887
224.2111	2.62260972314848E-05	-6.36279133820043E-05	6.88209236885348E-05	67.5995660218175
191.2854	-7.17132298490784E-06	-7.44812803439012E-05	7.48257241529988E-05	95.4996885599334
163.1722	-1.22964369398842E-05	-7.38756557875874E-05	7.48920214673276E-05	99.4501179658014
139.1537	-4.64237005559368E-05	-7.33028048036515E-05	8.67667053966527E-05	122.346657374819
118.6706	-4.07940946246801E-05	-5.19532819655724E-05	6.6055292469579E-05	128.139260683592
101.1982	-6.03161646733619E-05	-3.8938817028714E-05	7.17932531126691E-05	147.154583988394
86.24196	3.23552419205069E-05	-6.06333649339072E-05	6.87260258049518E-05	61.9146787785295
73.61024	5.36895805946988E-05	-1.5783024248032E-05	5.59613698800219E-05	16.3816540445475
62.69291	-6.28233049703029E-05	-3.89936813645924E-05	7.3941022671823E-05	148.172615398782
53.57697	6.17855010178522E-07	-7.77225558350838E-05	7.77250116137098E-05	89.5445371246822
45.65746	3.27261843334942E-05	-5.23731963592342E-05	6.17572249855249E-05	58.0001738264162
38.96512	5.64564245991195E-05	-4.40342410861955E-05	7.1598479498892E-05	37.9531139607664
33.18414	9.92468827819433E-05	-4.64601373449729E-05	0.000109583247369507	25.085559042783
28.30617	-1.62844225547123E-05	-8.14457815126251E-05	8.30577976119202E-05	101.306730405143
24.17237	-9.44228789009296E-06	-8.02214735351964E-05	8.07752537399766E-05	96.7129839869024
20.61345	6.36931887764183E-05	-4.03216202312646E-05	7.53833891157912E-05	32.3362711852281
17.55618	1.94628789426661E-05	-7.32467156700416E-05	7.57884226856899E-05	75.1194078997915
14.98558	8.69620694521209E-05	-4.36821130327707E-05	9.73166405215637E-05	26.6709389914879
12.76553	2.61651294286302E-05	-6.00110120934078E-05	6.54670571393897E-05	66.4425350503303
10.8809	5.75556698395216E-05	-3.19336273774714E-05	6.58210580905473E-05	29.0228390672527
9.278505	-4.10671430035325E-05	-3.77229017925011E-05	5.57631379507939E-05	137.430458880992
7.923394	1.95842541624425E-05	7.84551541136288E-05	8.08625637615602E-05	-75.9840585084234
6.75822	-1.23550419672302E-05	-7.16783097641176E-05	7.27353225926222E-05	99.7798551768992
5.761429	6.42166442550477E-05	-4.60118119016204E-05	7.89991407158929E-05	35.6219434980294
4.919708	-7.28205697785476E-06	0.000126107738256901	0.000126317813478938	-93.3048591341258
4.191257	-1.81046487982663E-05	8.15426432402901E-05	8.35283243859338E-05	-102.518135071388
3.564097	6.16723837815439E-05	-4.46471012842921E-05	7.6137024990394E-05	35.9022802880311
3.051758	-7.14607230679172E-06	-6.64801430502901E-05	6.68631121725644E-05	96.135270642072
2.604164	5.61609962281888E-05	3.81646088689656E-05	6.79013613078838E-05	-34.1983496419356
2.214424	4.64582880497214E-05	3.25800043053505E-05	5.67435389189601E-05	-35.0409929416565
1.892567	6.89812054548754E-05	-4.07285808034967E-05	8.01075776707466E-05	30.5588816202189
1.607507	5.75736408102513E-05	-4.23989925970306E-05	7.15010397783899E-05	36.3690690037241
1.376413	5.64979993815911E-05	3.47754091041419E-05	6.63426937385173E-05	-31.6129520759211
1.17375	4.42805266208396E-05	3.06668295626367E-05	5.38629694061021E-05	-34.7048443328312
1.001604	-6.6826130450819E-05	-1.37265203190453E-05	6.8221324167001E-05	168.392525172067
