EC-Lab ASCII FILE
freq/Hz	Re(Z)/Ohm	-Im(Z)/Ohm	|Z|/Ohm	Phase(Z)/deg
6999984	-0.474719404117742	0.854055967358594	0.977123384239027	-119.06710425127
5969734	-0.875736080609103	0.355965713967467	0.945317551091146	-157.879437180771
5091109	-0.538593718461532	0.235395578752783	0.587787607952547	-156.391981448831
4341796	0.0179647169746287	0.370703019253013	0.37113805994438	-87.2255477446697
3702781	0.767774599676546	0.303741018752057	0.825673326674065	-21.5843571961873
3157797	1.66832414357942	-0.683247095325406	1.80281225903326	22.2711101390091
2693047	1.64689544998305	-3.07637622819014	3.48946347173148	61.838246208659
2296687	1.23215561104586	-3.26322117900672	3.48809688984549	69.3140276321874
1958656	-2.29257816919374	-5.67042396340307	6.11634062055079	112.013707314312
1670375	-6.69708746030425	-7.53468872924232	10.0807993084644	131.631782219591
1424531	-13.2909328954398	-8.32335359404224	15.6820633936526	147.94343228073
1214875	5.09625164725621	3.27445018003412	6.05754115410594	-32.7216082207654
1036062	5.38309907941799	2.46649244399294	5.92126174688344	-24.6168681072101
883578.1	6.61245058681966	2.76317185770282	7.16656273804482	-22.6787867989785
753531.2	2.10894885255983	4.54966169335951	5.01468710756078	-65.1304044037012
642624.9	1.35144223160158	5.91955857194918	6.07186707628661	-77.1397143812023
548046.8	0.8532335242328	7.11241971488047	7.16341550152545	-83.1592662726262
467390.6	0.662693478312086	7.99394286871194	8.0213643000694	-85.2610473525046
398593.7	0.653405810174289	8.70396882051431	8.72845990889887	-85.7068658128959
339937.5	0.789404302290631	9.16522615164438	9.19915917697162	-85.0772424918267
289906.2	1.10349127030469	9.50559198532361	9.56942903077749	-83.3782507419252
247234.4	3.43599492542575	33.2189282277708	33.3961562717828	-84.0946198731773
210843.7	4.12530343394672	31.1277531280957	31.399922662736	-82.4506893673879
179812.5	4.64186112325598	29.0015813153136	29.3707097884328	-80.9066254052899
153343.8	5.43559183400614	29.8004470495518	30.2921161845628	-79.6629059193994
130781.2	6.04058102137858	33.7873308849757	34.3230585380538	-79.8636130350337
111531.3	12.2046207339772	56.9713047178319	58.2639024483623	-77.9086237422678
95109.37	12.9454219632098	57.4847742811897	58.924385647751	-77.3088515223249
81109.37	13.7847902775463	64.5776745698285	66.0325411887397	-77.9504496613124
69171.88	14.343359233389	87.539883960018	88.7071769240317	-80.69480290843
59000	23.3616953044696	115.044582086805	117.392609115849	-78.5212302168217
50312.5	19.9569524388266	58.7339527656036	62.0319043566916	-71.2329778796396
42906.25	20.340797269645	43.0173683160271	47.5840520595034	-64.6928365355598
36593.75	20.1711618144079	32.7523514800869	38.4654688833787	-58.3723672101331
31203.13	20.0660915520885	25.5821941472416	32.5130233531728	-51.8901690878749
26609.38	15.7742346047601	10.6530334634061	19.0345370140295	-34.0328851602798
22703.13	16.0788015196321	8.28506344090856	18.0878449387317	-27.2610855204727
19359.37	16.2495952778528	6.09640879975792	17.3555624209583	-20.5647329631284
16500	15.4039167959704	5.31009487626649	16.2934882775951	-19.0202851193076
14112.02	16.0333807569472	2.51599084299261	16.2295874383568	-8.91824277981595
12011.13	15.5256725576803	1.11418120207121	15.5656001528806	-4.10472579418114
10236.38	14.777817586999	0.089064620507451	14.7780859769201	-0.345312495800625
8750.684	14.0015592844852	-0.634984897816251	14.0159504928281	2.59664243570171
7449.463	13.1912082509854	29.7551499861882	32.5480710000059	-66.0910827387971
6363.206	18.3017485001625	19.5233344351711	26.7603173679001	-46.8497619612839
5414.761	17.6532470264484	24.6758691168595	30.3403303747535	-54.4198694266247
4620.567	17.1192574775147	30.6763683283144	35.1298811611405	-60.8358565460776
3941.215	17.3628861868046	38.7546925509514	42.4664103905039	-65.8666551704443
3361.769	17.6202633102775	46.1162671120621	49.3678414706838	-69.0889698102601
2867.244	18.3622109662757	54.1730347754527	57.2004238476642	-71.2756632353768
2442.658	19.2370499890323	63.3996184086909	66.2538731445049	-73.1208738145957
2083.003	21.1055225767057	73.2621994392629	76.2416746269005	-73.9292599677457
1777.843	23.4953637324874	84.6028370626383	87.8047388013267	-74.4792994510713
1513.548	25.3931875239418	97.3780531391747	100.634483184453	-75.3845154715985
1292.065	27.2839414590941	111.920200813328	115.197850724911	-76.2996436619815
1101.762	30.2428276258914	128.280747738651	131.797491869901	-76.7344613327062
939.101	33.3661956268856	148.77911862129	152.474683630888	-77.3596155829735
801.2801	30.3806003507881	171.592066956265	174.260776768605	-79.9597553530567
684.3433	38.3513111096768	198.364418466436	202.037782549103	-79.0575760088437
582.9476	41.7180746917561	230.364434361694	234.111448619605	-79.7352131931449
497.0677	48.7336978017491	266.504431733311	270.923578587998	-79.6372374101775
423.5089	49.8407733962703	312.281324878246	316.233661333595	-80.9319501398347
361.5036	56.1577092642864	363.850837745596	368.159096638918	-81.2260493760753
308.1262	63.7016868644877	423.28020241846	428.046766917815	-81.4414815070445
262.7298	75.1461439290994	493.045139101629	498.738861669268	-81.334109216237
224.2111	86.1567476480754	573.899551461459	580.330664649868	-81.4622225792282
191.2854	101.97034094551	669.083152703406	676.808847211732	-81.3346248782526
163.1722	118.88176395666	777.656791148908	786.691145635607	-81.3083834112356
139.1537	145.569770247033	906.127865347304	917.746297387593	-80.8733938531723
118.6706	168.667085136878	1055.45424368848	1068.84622192745	-80.9206055754911
101.1982	211.979340463435	1231.81870225946	1249.92502015901	-80.2358064187507
86.24196	266.231905461869	1430.01935556843	1454.59093383198	-79.4537763241766
73.61024	331.413348419311	1656.45717691553	1689.28540704804	-78.6860128787013
62.69291	419.860372337739	1916.51898776957	1961.97037764103	-77.6431723957837
53.57697	667.462960022232	2182.01514015989	2281.8187646894	-72.9914999444551
45.65746	834.446810339207	2514.61113160337	2649.44722960637	-71.6421270411425
38.96512	1042.24137704845	2887.76648099975	3070.09158443483	-70.1546713092034
33.18414	1298.27718732201	3298.34905740623	3544.66220670085	-68.5146942122004
28.30617	1631.42127949452	3767.09495976592	4105.18450585127	-66.5839410341686
24.17237	2008.41595648386	4252.37993348955	4702.81508811516	-64.7184477490021
20.61345	2508.29634077727	4794.31428297866	5410.82248619651	-62.3822696351357
17.55618	3118.72022212215	5354.92654394767	6196.90681832065	-59.7833903722018
14.98558	3781.14977166056	5894.48185655854	7003.00006804416	-57.3209323602886
12.76553	4629.0560947618	6460.80799905215	7947.96831454854	-54.3790633724555
10.8809	5576.77627331306	6943.96542555299	8906.1265112204	-51.2316629643531
9.278505	6574.01714165108	7390.09572173101	9890.96639136284	-48.3446260375141
7.923394	57385.9887526114	22489.4912248091	61635.4518168368	-21.4001455354748
6.75822	63658.0573860748	20143.5076561537	66769.073461164	-17.5590880431193
5.761429	68864.0629025235	16572.9097667945	70830.2230518938	-13.5315499771826
4.919708	72021.9893069836	12041.0585228887	73021.5997776472	-9.49126360030424
4.191257	73058.659661034	6441.29020643265	73342.0614040148	-5.03851178220473
3.564097	78387.3217196107	-4422.47363080965	78511.9766620925	3.22910304377246
3.051758	73036.1938060253	-7876.6699695004	73459.7000775236	6.155337159292
2.604164	66093.8016386418	-10137.4117693443	66866.7161780012	8.72002230101249
2.214424	59571.4090231092	-11632.4240923321	60696.5078341616	11.0490327128618
1.892567	52605.0880681872	-11581.4085962106	53864.8708875656	12.4160297979526
1.607507	45953.9125259616	-11336.8557029419	47331.6635422109	13.8581817570308
1.376413	40110.9037701938	-10342.9283480593	41422.9497751529	14.459214484123
1.17375	31102.1463967041	-7510.68769098454	31996.1550826583	13.5761318232217
1.001604	27289.8717278266	-6701.28661343076	28100.6110466761	13.7965372278527
