EC-Lab ASCII FILE
freq/Hz	Re(Z)/Ohm	-Im(Z)/Ohm	|Z|/Ohm	Phase(Z)/deg
6999984	46.8190622413141	57.4048035082815	74.0765553665967	-50.7994923586418
5969734	84.2567418852415	76.7197992503275	113.952297695688	-42.3193617568727
5091109	83.9549030087378	95.7422791961256	127.338170887112	-48.7529845172597
4341796	71.4951683314315	110.657854050516	131.744904105643	-57.1338158035547
3702781	64.4209036625698	115.337991115363	132.10944335372	-60.8148862907758
3157797	68.8704282995283	118.299977713326	136.886889880418	-59.7934171336166
2693047	68.8498546885968	132.072004347528	148.940648659171	-62.466723614138
2296687	79.9977727297001	146.343683000228	166.781645260454	-61.3370800252581
1958656	89.7740454025924	171.114028365584	193.234028916867	-62.3164940802547
1670375	93.3826960365458	199.444839763505	220.22391338668	-64.910388610371
1424531	94.5607931459149	232.033630238248	250.562066486379	-67.8276032242796
1214875	96.411520877543	268.991894416356	285.747826972701	-70.2814095734863
1036062	98.2927751468293	311.92897794069	327.049165914222	-72.5096997345296
883578.1	100.080683319696	362.747430633711	376.300201441743	-74.5760147268894
753531.2	101.892961636366	422.638314700599	434.747421710575	-76.4453468292832
642624.9	104.249709404431	493.47698444714	504.368452710864	-78.071343756085
548046.8	543.650192210037	1182.89622842912	1301.84446794609	-65.3168448702368
467390.6	645.702683913246	1288.59591262275	1441.32278898269	-63.3850030723942
398593.7	748.314166583183	1395.95706023349	1583.87821688563	-61.8061032763522
339937.5	849.359959805209	1506.81252064687	1729.70989292958	-60.5909170886592
289906.2	940.220168918753	1629.81283785851	1881.56951837822	-60.0198500542523
247234.4	1025.16446866267	1768.74111390604	2044.35987923604	-59.9033677345022
210843.7	1098.78282972743	1930.51155074671	2221.30559682144	-60.3529104205619
179812.5	1166.0939265952	2135.75231799637	2433.35427126201	-61.3660143939122
153343.8	1195.29941900007	2375.29575890501	2659.09207124049	-63.2874856556629
130781.2	1254.04949075783	2676.31691443943	2955.5561831548	-64.8934863554146
111531.3	1315.53816005854	3014.37131430221	3288.93220834031	-66.4224815275007
95109.37	1368.02568513461	3434.89807835157	3697.29889025101	-68.2839641081013
81109.37	1416.19636593799	3938.05800330501	4184.96272197144	-70.2205041598639
69171.88	1471.02561720288	4526.78046666582	4759.79597880564	-71.9978765361392
59000	6419.42950264954	8996.65466018154	11052.0980005632	-54.4908073312399
50312.5	7010.6441447549	9527.7166115425	11829.0538571032	-53.6537790179112
42906.25	7569.26944775521	10173.4478136488	12680.413257846	-53.3499394991533
36593.75	7999.44429114495	10930.0532411035	13544.6363118575	-53.8004963205103
31203.13	8334.44884153717	11924.1095945401	14548.1073378912	-55.04807754194
26609.38	8659.26095182792	13093.2499663824	15697.642973199	-56.5212207881568
22703.13	8921.32202522895	14571.366925511	17085.5120132735	-58.5229405186935
19359.37	9182.43055927421	16361.4858160126	18762.0694243325	-60.6978883090101
16500	9423.96930781443	18542.7981034918	20800.1576681881	-63.0590473827442
14112.02	9660.4746356153	21106.1430347393	23211.9375319735	-65.4059971031591
12011.13	9944.49384502004	24225.2423624627	26186.9304301535	-67.6817854654188
10236.38	10225.1190509779	27862.0717993948	29679.0853053342	-69.8473367478952
8750.684	10537.3222543365	32144.6048010991	33827.6629123352	-71.8503399038931
7449.463	11854.0189421421	36637.0555259168	38507.0331587591	-72.0708713592389
6363.206	60431.513108058	83013.1937023281	102679.881696414	-53.946325538527
5414.761	66519.8679333274	87707.6888721981	110079.659870339	-52.822342772663
4620.567	71917.2660982837	92798.4160832239	117403.744363655	-52.2248967613683
3941.215	76584.9252263413	99058.4994595558	125211.169977375	-52.2913770543373
3361.769	80636.7740833594	106823.134496902	133841.217113093	-52.9522151160853
2867.244	83859.3971451338	116579.409585253	143607.65031429	-54.2712957407693
2442.658	87001.2297595698	128888.83180544	155504.163750841	-55.980262685884
2083.003	89740.5125877744	143691.578594829	169412.600943939	-58.0137529261608
1777.843	91534.0639774145	161531.334056824	185663.28864479	-60.4613140354006
1513.548	94415.5274495372	183419.498709847	206293.490761454	-62.7627709068821
1292.065	96538.772787364	209522.112297931	230692.978204966	-65.2617836261247
1101.762	98964.3742267013	241299.456723807	260805.243776437	-67.6999482275244
939.101	102028.658699924	277256.305568442	295433.420881197	-69.7966872788056
801.2801	0.0114317935243699	-0.00312718237518891	0.0118518004029564	15.2990560202258
684.3433	0.00363239559020209	-0.0010276465233781	0.00377496425158314	15.7968188343236
582.9476	0.00361686386528165	0.000540249647289055	0.00365698973219451	-8.49544003405506
497.0677	0.00329257309361867	0.00491914203449914	0.00591937462342079	-56.2040657302401
423.5089	0.00393846996028546	-0.00388859317724824	0.00553468179087222	44.6348962013805
361.5036	0.00356146833917605	-0.00370536637644604	0.00513943544707493	46.1344241540631
308.1262	-0.00114597089429431	-0.00477564279910875	0.00491121303093737	103.493653013378
262.7298	0.00526414126016651	0.00473097124609181	0.00707766007507672	-41.9465610378928
224.2111	0.0075351308783988	0.00313543176104308	0.00816144164242793	-22.5926082170129
191.2854	0.00263148752464943	0.005232972475193	0.00585736523690585	-63.3037003612651
163.1722	0.0072049138101859	-0.00117190776292979	0.00729959936003494	9.23848035067047
139.1537	0.00851202541600954	0.00278228411129829	0.00895520416064175	-18.100762342636
118.6706	0.00996424374716752	0.00500101459901994	0.0111488250713955	-26.6518938743778
101.1982	0.0175255619492096	0.0015328448654843	0.0175924681331877	-4.99856229993924
86.24196	0.0155322547045615	-0.00589672564992881	0.0166139191522621	20.7889599962528
73.61024	0.0222707110828821	-0.00725333424955123	0.0234221141204828	18.0398798473254
62.69291	-0.00458986971140895	-0.0242406458106362	0.0246713561298203	100.721797792094
53.57697	0.0299539990417065	-0.00119270393744308	0.0299777350924473	2.28019039699962
45.65746	0.0289257339003393	0.0106496984373327	0.0308239218542898	-20.2123868374347
38.96512	0.0312405510201202	0.000398998206143249	0.0312430988797405	-0.731730702697321
33.18414	0.0145127084667568	-0.0340191700621239	0.0369854381987936	66.8967186945305
28.30617	0.0514809194265909	0.015577861801921	0.0537861956576861	-16.8355454802722
24.17237	-0.050041284837154	0.0657827061924008	0.0826528561040023	-127.26045801742
20.61345	0.0471682047636464	-0.0257684323053283	0.0537480385139733	28.6481934241726
17.55618	0.0712458632231093	0.0281358636780386	0.0766002601256365	-21.5496703312701
14.98558	0.142061640293813	-0.0514913514315946	0.15110548936164	19.9234442213503
12.76553	0.0518257751351297	0.0226995945922521	0.0565789940084624	-23.6533307127165
10.8809	0.0883469164720536	-0.00147965409809578	0.0883593063936676	0.959512938940555
9.278505	0.128566494740227	0.0489217372483456	0.137559732280872	-20.8326709464434
7.923394	0.113049286571285	-0.00618224347913923	0.113218202285286	3.13017443199179
6.75822	0.300937781875367	0.107772728564085	0.319653733878104	-19.7036117745145
5.761429	0.240908154409622	0.191661314781891	0.307848661593604	-38.5049983681923
4.919708	0.129998624241894	-0.054047385359652	0.140786228619847	22.5752705141322
4.191257	0.419700295008845	-0.0694135597200753	0.425401668900728	9.3910475523579
3.564097	0.468721773012735	0.154713290624928	0.493595282384461	-18.2667596750413
3.051758	0.502803741362501	0.334336084634446	0.603814723087157	-33.6216618915585
2.604164	0.406518340761271	-0.0293982491538749	0.40757995341848	4.13626712080309
2.214424	0.60068152626804	0.278797013119527	0.662228110641697	-24.897640345136
1.892567	0.523742105020299	-0.109592125825876	0.535085251725487	11.8185207613005
1.607507	0.745048292914979	0.869350108898784	1.14493081477347	-49.402844707653
1.376413	0.439503484005496	-0.445497988545254	0.62580489791215	45.3880836005477
1.17375	0.215748012536565	0.717562787635693	0.749295375077803	-73.2656602494252
1.001604	0.394769567894236	-0.175183397988986	0.431893777063723	23.9297885784451
