EC-Lab ASCII FILE
freq/Hz	Re(Z)/Ohm	-Im(Z)/Ohm	|Z|/Ohm	Phase(Z)/deg
6999984	1.02464339635066	-1.121529734425	1.51911916414889	47.5847923279234
5969734	11.602989997143	23.7130092759349	26.3995489695255	-63.9270784423674
5091109	26.4884817393406	39.1893145604338	47.301607166903	-55.9448137870993
4341796	45.1756180090565	26.4230756845977	52.3356034753987	-30.3232298086596
3702781	-0.755469370547995	3.73041709372081	3.80614577531663	-101.448480163659
3157797	38.5035641903415	19.516127719621	43.167159931229	-26.8788768344968
2693047	29.8463336114567	1.97706301637806	29.9117436505647	-3.78981615786354
2296687	85.9479952834916	-23.8024362051759	89.1830357329945	15.479537725692
1958656	78.8460950653287	-63.2587134274264	101.085961100165	38.7402892163408
1670375	4.27053451068874	52.2134198160399	52.3877721791356	-85.324187301528
1424531	83.4801597113222	72.2512941167754	110.404649209065	-40.8758805357098
1214875	59.4494633720619	3.45670776211266	59.5498742549368	-3.32773429045746
1036062	56.2155781332802	-31.1137965430409	64.2515335239609	28.9633374002284
883578.1	15.9279019993565	18.1769124980236	24.1681238424067	-48.7728546935948
753531.2	15.3939650060993	-2.69158052453477	15.6275002584888	9.91771035764216
642624.9	2.84858126577301	-15.4065594021806	15.6676892948716	79.5246512034343
548046.8	15.4522105111557	4.74044752460779	16.163002580419	-17.055028422853
467390.6	8.77042051134285	-4.1430239987994	9.69973833669812	25.2853952625687
398593.7	10.3581617449172	-2.08489159814855	10.5659021247548	11.3804372311434
339937.5	6.54897304941116	-3.49349959897717	7.42250546985095	28.0773498433058
289906.2	0.771989220163688	17.0182610538545	17.03576169865	-87.4027062949241
247234.4	3.79343263666613	-7.08910816511965	8.04024786593609	61.8484448574123
210843.7	8.59131268043324	3.54567511830134	9.29421678343658	-22.4261697071053
179812.5	4.84674340872346	-0.998073569660399	4.94844142336342	11.636068081019
153343.8	-0.111494104744213	-3.80421301373898	3.80584650101573	91.678747615765
130781.2	0.115074017200087	6.927222765635	6.92817849612482	-89.0482983783194
111531.3	2.78661356764341	0.930454396860295	2.93784964897985	-18.464241038289
95109.37	4.2663554437902	3.91881355992073	5.79300340843823	-42.5686843414238
81109.37	0.246834007360354	7.07210329350377	7.07640954306465	-88.0010461203792
69171.88	7.19717722029302	0.0282726727599033	7.1972327518519	-0.225073864745651
59000	-3.4040538663462	-8.58672984968768	9.23685618793017	111.624955450316
50312.5	9.05375284237245	-0.694083491240252	9.08031896045395	4.38386395647534
42906.25	5.90925781387948	1.14587343053421	6.0193316763325	-10.9741184811485
36593.75	1.52167776656828	-4.33415587103862	4.59351829643975	70.654347802337
31203.13	13.1556044984523	4.21464592946318	13.8142379460627	-17.7638402407873
26609.38	5.46737973137688	-1.77340453394223	5.74779999374349	17.9710389682404
22703.13	-5.20203862043538	31.7609713136265	32.1841654326084	-99.3017218968625
19359.37	7.05594713856868	4.6484270294581	8.44951264100316	-33.3767167045621
16500	4.70606160415276	-0.93007275138384	4.79708777749038	11.1794665549234
14112.02	8.11080665761614	4.70675045668621	9.37756282296984	-30.1268542539565
12011.13	12.4104919886634	-5.74453594978913	13.6755257551254	24.8383506724958
10236.38	33.0285068255888	-2.69470432411996	33.1382512290917	4.66427293915913
8750.684	7.5772976537501	-2.07160226510315	7.85537877370068	15.2907710505082
7449.463	7.49807824646681	45.6173370185837	46.2294561298009	-80.6658112439964
6363.206	31.919074599831	-15.8830164862542	35.6524548385129	26.4550599534385
5414.761	33.9899696429861	32.7140618851048	47.1755008595943	-43.9041859365163
4620.567	3.91949839228399	-35.1620379319041	35.3798159855557	83.6395194965049
3941.215	-58.2537527788061	181.935964085437	191.034538082807	-107.754453656869
3361.769	538.218859014927	92.3749208567367	546.08851498875	-9.73883293400231
2867.244	44.207962309254	-15.9725640198631	47.0049649814256	19.8650483628705
2442.658	36.663240923151	-9.64626062214381	37.910995489163	14.7406971897149
2083.003	24.4197722990621	-55.6256688573588	60.7498174068579	66.2984361648549
1777.843	45.3290773958196	106.69142274834	115.921460246243	-66.9812299693123
1513.548	206.508497558886	263.527249947207	334.801987790942	-51.9165996309643
1292.065	93.8237804504577	88.6776714498126	129.099307479849	-43.384822613542
1101.762	334.063962116185	74.8304592994712	342.342414000564	-12.6258584016855
939.101	532.735953262795	287.459905574717	605.343533220472	-28.3509314609028
801.2801	544.589838491524	-217.974499133419	586.592681901751	21.8139757621639
684.3433	538.861632155343	60.1765004729101	542.211277841292	-6.37201260867662
582.9476	373.164383187891	-30.761066601486	374.430100417234	4.71240941535925
497.0677	524.480452143444	-290.328653535268	599.475163575768	28.9669298456039
423.5089	763.310248628196	-289.439329286963	816.344082479273	20.7662078422082
361.5036	1100.06553125087	35.7284153573117	1100.64557997123	-1.86022379232463
308.1262	-136.020792267949	-800.299023348012	811.775943657474	99.6459549401771
262.7298	789.466308884962	970.323398148001	1250.91348616039	-50.8678003869773
224.2111	177.467741951543	-1811.20764467328	1819.88129600705	84.4038451952094
191.2854	1893.36458540461	1961.95147963214	2726.55149624854	-46.0191966118843
163.1722	1506.67244296578	192.943899955672	1518.97636549176	-7.29755717177505
139.1537	1479.1151628743	1158.11188562837	1878.56455962481	-38.0600966402733
118.6706	3173.04718950541	-2086.79861216081	3797.75682667341	33.3314759570586
101.1982	794.355051826956	-616.685274512386	1005.63446448669	37.8234249638386
86.24196	4305.71376951819	3546.69788754396	5578.37225098212	-39.4789292170896
73.61024	4840.78903382694	-858.58771852549	4916.34125548888	10.0576839469926
62.69291	-714.167550806903	-3792.18993047878	3858.85212977255	100.665361449274
53.57697	2099.22860517116	5227.00565685735	5632.79228035151	-68.1190095588831
45.65746	10197.7882796634	5681.37200140116	11673.5972868326	-29.1229691715298
38.96512	-608.358376326912	-9234.09648333407	9254.11464039482	93.7692987228588
33.18414	4494.30001510615	-4035.67740053162	6040.31660651532	41.9223994076722
28.30617	5859.34193283612	4846.4364477229	7603.9354368451	-39.5951651649877
24.17237	7287.74932272066	6368.94214160797	9678.56984238711	-41.1510034097757
20.61345	-1762.98571202112	-5499.00916298584	5774.70522151502	107.775882278406
17.55618	2330.95470728344	-804.785220728664	2465.97426971778	19.0477412568503
14.98558	4667.91119191985	1046.35027301629	4783.74788105434	-12.6344642277683
12.76553	3276.44529223733	-4967.26426674982	5950.53006451978	56.590852348999
10.8809	1241.12505982321	-2157.66417602878	2489.15771108203	60.0917562575412
9.278505	878.942954167144	928.044814298174	1278.2049499301	-46.5565336208918
7.923394	2306.31606712448	-862.429530729206	2462.29131033481	20.5029050874558
6.75822	17357.4109605899	-16778.6045032776	24141.2776035613	44.0285922625731
5.761429	539.740134544465	5811.72140763111	5836.73068872942	-84.6941056142227
4.919708	15201.9440518251	-9554.5573256829	17955.1850072501	32.1497275862894
4.191257	4134.19011708105	-5648.19300759649	6999.54371193098	53.7977690414055
3.564097	6012.40507886189	-4867.06638464904	7735.46055674159	38.990310809402
3.051758	9299.74105527748	832.368637782979	9336.91711671354	-5.1146011503559
2.604164	146.686872572589	-9183.03264300934	9184.20413324749	89.0848530856487
2.214424	2982.71945256096	-5219.13853989324	6011.32451555267	60.2521844401779
1.892567	5360.25698511592	2886.32009537546	6087.95521003992	-28.3009867299013
1.607507	4408.19924532092	-3997.20783107653	5950.62106265115	42.2006907383452
1.376413	3820.62184312086	-2702.0328818688	4679.54409775487	35.2688410680462
1.17375	2440.67689399234	1217.57865186602	2727.52662211536	-26.5131979809104
1.001604	827.185848008107	-1464.0943409146	1681.60895164216	60.5343661542798
