EC-Lab ASCII FILE
freq/Hz	Re(Z)/Ohm	-Im(Z)/Ohm	|Z|/Ohm	Phase(Z)/deg
6999984	-0.559807022332853	0.513263985502464	0.759489184298926	-137.483572068601
5969734	-0.980424392790426	0.709835093627609	1.21041226452965	-144.095161249734
5091109	-0.94480477374801	0.770720659532999	1.21928929935763	-140.794294096206
4341796	0.088286974170826	1.40780851009054	1.41057413519871	-86.4115466051273
3702781	66.0815349857834	-0.973524121014849	66.0887056560463	0.844029857585167
3157797	119.635122402757	-51.1355303517218	130.105361060467	23.1432722243351
2693047	-20.3899849254755	1.36423730355132	20.4355726291562	-176.172203410133
2296687	-18.0124761866755	0.13806209384987	18.0130052883274	-179.560847697875
1958656	-15.3097354861867	-0.16236052771143	15.3105963828312	179.392398106107
1670375	-12.6037865221471	0.0425839906145064	12.6038584604919	-179.806417408868
1424531	-9.53306212850441	0.796201783418835	9.56625375086007	-175.225734428356
1214875	5.58214534699921	1.98600729973411	5.92491111069373	-19.584465201017
1036062	4.31037292070618	2.53760684483558	5.00187596952519	-30.4862133830625
883578.1	3.18563372572611	3.40219113873229	4.66081181544075	-46.8827700598614
753531.2	2.26439069657045	4.648684400185	5.17085407638217	-64.0291222256802
642624.9	1.52929576165849	6.06757900925659	6.25733653883166	-75.8535960184721
548046.8	1.06163502755571	7.32993545771583	7.40641767293831	-81.7588428297675
467390.6	0.891337790683312	8.23466724111721	8.28276690659765	-83.8222357373721
398593.7	0.907793658430959	8.94745384330696	8.99338754888257	-84.2066904179049
339937.5	1.05740194500152	9.40409186688474	9.46335261490877	-83.5845728439518
289906.2	1.48511801945041	35.5013638480571	35.5324135206692	-87.6045593261487
247234.4	2.52172404722915	34.1023925101904	34.1955006848776	-85.7709224943915
210843.7	3.45003876608954	31.7448672223991	31.9317923464259	-83.7974266648429
179812.5	4.27895460926601	30.3597691348831	30.6598276980083	-81.9774835243894
153343.8	5.21754640046244	31.6077762131048	32.0355163463724	-80.6266209308095
130781.2	6.08255670167411	36.1778760526725	36.6856404020921	-80.456165986758
111531.3	14.4452018436103	68.8479003970226	70.3469775141831	-78.1504692275926
95109.37	15.310671555703	70.162818715877	71.8139108644254	-77.690097639205
81109.37	15.498547996913	72.3346799772695	73.9764213613136	-77.9065610942054
69171.88	15.8474033443661	84.2764112748352	85.75344710345	-79.3504147379351
59000	18.1534084315557	140.591324774129	141.758480661397	-82.6425729329772
50312.5	24.3961180142802	96.7111339092402	99.7407338862998	-75.84207956679
42906.25	24.3756450918019	61.1537837402126	65.8327983560336	-68.2679785856171
36593.75	24.7764904140351	44.972930939779	51.3462656339378	-61.1487487979986
31203.13	24.7717165188456	34.493927801179	42.4672696843463	-54.3160895811927
26609.38	24.811319480539	26.8587218938976	36.5649082610514	-47.2691326898519
22703.13	24.4692369932424	20.8070690091156	32.1197397215725	-40.3757055692945
19359.37	23.8588330681955	15.8716208645673	28.6557544699941	-33.6330580221036
16500	19.0695188532078	0.787275766568962	19.0857630820849	-2.36408574215165
14112.02	18.2015630022479	1.23300018414933	18.2432778079739	-3.87537823724161
12011.13	17.9298595146196	0.185577803560656	17.9308198734796	-0.59300215063568
10236.38	16.6572592240133	-0.296088975377471	16.659890561985	1.01834653717577
8750.684	22.5506678211709	14.1175563329381	26.6052253513191	-32.0480963325891
7449.463	21.9384093361468	17.7248680831587	28.203984696594	-38.9360517062031
6363.206	21.446439099706	22.1971273214318	30.8652265726537	-45.9854150202834
5414.761	21.0084757564365	27.3805725238351	34.5116184109318	-52.501812993333
4620.567	21.1264441976936	33.1122149592069	39.2777981045653	-57.4610778369776
3941.215	20.8272096838531	40.0556500578464	45.1467359259984	-62.5275144362014
3361.769	21.2327722718175	47.3410466319079	51.8845382994909	-65.8434503797415
2867.244	21.7718413133453	55.6480699104402	59.7555081890425	-68.6324943348793
2442.658	22.7704830456527	64.7805116627404	68.6659274270638	-70.6333202512557
2083.003	24.166184644183	74.8267552789963	78.6323583891489	-72.1015246012784
1777.843	26.5506377136138	86.0066407946924	90.011547169165	-72.844307086886
1513.548	28.5857810724047	98.878417164044	102.927587460244	-73.8754019350034
1292.065	30.4493598319145	113.94161649309	117.940050378283	-75.0381051886624
1101.762	32.5056593215217	131.179061814024	135.146454434937	-76.0826645449654
939.101	36.7998490915499	150.404495526041	154.841019008542	-76.2514006156315
801.2801	39.1975933743039	172.115184880126	176.522203115237	-77.1702530316828
684.3433	41.3271283969827	201.853546009513	206.0407376665	-78.4292704907032
582.9476	45.1413247076159	233.970196805602	238.285106940427	-79.0797494755152
497.0677	46.6950181992351	270.801806824942	274.798186501076	-80.2165550368343
423.5089	52.9557139076344	315.396670835575	319.811456345189	-80.4688283540304
361.5036	55.7660605504223	367.255323240365	371.465107321937	-81.3658510780872
308.1262	67.2795974440776	425.277425037698	430.56640890684	-81.0102161746495
262.7298	71.7536986394889	496.78424051055	501.939413563122	-81.7812454795571
224.2111	82.6950780567749	579.514289055897	585.384734302816	-81.8788774878474
191.2854	94.7157040397503	674.044915601253	680.667035223277	-82.0012612728873
163.1722	110.290012358641	788.122235307237	795.801824961306	-82.0337479798712
139.1537	134.906306648264	919.854511520018	929.694591754306	-81.6564552717776
118.6706	154.775490738296	1069.7151895764	1080.8543099529	-81.7670934220174
101.1982	192.343671738939	1249.75987998609	1264.47453342519	-81.2505719697069
86.24196	236.56720271313	1465.09305380208	1484.06930353627	-80.8276718211208
73.61024	292.219390969439	1692.4351911019	1717.4775249006	-80.2037780780029
62.69291	365.499922851844	1967.9120715627	2001.56641533748	-79.4783562135878
53.57697	612.161426756412	2248.16703762955	2330.0207384254	-74.7680128840377
45.65746	751.826625690725	2609.7658560653	2715.90152593605	-73.9292599677457
38.96512	930.572550602093	3005.34628793954	3146.12008390748	-72.7954337869614
33.18414	1180.65360018244	3464.24692347775	3659.91115608683	-71.1803230582671
28.30617	1486.11395903987	3983.77890009627	4251.94414640002	-69.5424086093266
24.17237	1839.97557309734	4551.02130029662	4908.90058825278	-67.9865417166488
20.61345	2289.16425893348	5161.47746708237	5646.33710006563	-66.082259188752
17.55618	2901.20594748933	5867.51846314188	6545.5915595963	-63.6898166194038
14.98558	3599.87574405788	6593.45617687964	7512.17476694256	-61.3664727601483
12.76553	4409.67759673643	7321.68942840009	8547.06923998541	-58.9404548640053
10.8809	5443.78391024836	8043.94084320116	9712.86608321142	-55.9115936941376
9.278505	6654.1939776389	8666.21842560577	10926.1905205957	-52.4818167662829
7.923394	62482.1970402556	28514.9491790024	68681.3458928872	-24.5304947195941
6.75822	70809.7185733363	28342.1751404067	76271.1946682664	-21.8141648382363
5.761429	79797.6518456549	26911.5978606226	84213.4154365694	-18.6365752839085
4.919708	108095.332863673	21916.6453310604	110294.788315114	-11.4615164887324
4.191257	115962.409469777	17195.5847887607	117230.407942068	-8.43468931903734
3.564097	122924.763163008	11537.8854738185	123465.056594522	-5.36214985757335
3.051758	128581.934394833	5840.26681768776	128714.500229069	-2.6006204816733
2.604164	133376.023327319	-160.637493287147	133376.120062828	0.0690067503666588
2.214424	137513.161609225	-6105.35174970667	137648.628528411	2.54216618149847
1.892567	140811.758900767	-11792.6174482524	141304.696563874	4.78720103410445
1.607507	143857.152580226	-17126.0033522712	144872.980018057	6.78903421028464
1.376413	146062.485703565	-21760.8305179278	147674.586421408	8.47377077024321
1.17375	147728.066217228	-26304.888050746	150051.753350782	10.0964330826773
1.001604	148419.197329121	-30615.932998599	151544.03151954	11.6554970798519
