EC-Lab ASCII FILE
freq/Hz	Re(Z)/Ohm	-Im(Z)/Ohm	|Z|/Ohm	Phase(Z)/deg
6999984	-5.09552947837045	100.77446014979	100.903202323546	-92.8946213528121
5969734	5.35404040192661	99.7887961116279	99.932324990633	-86.9288129025714
5091109	12.6381212650997	94.2643323352396	95.1077623526064	-82.3638289656461
4341796	12.4489617702624	93.4608159491797	94.2862702997838	-82.4128741529093
3702781	11.341692378574	104.787628964785	105.39962604332	-83.8226368078287
3157797	16.0228004909717	110.2932229849	111.450998972509	-81.7342056445768
2693047	18.9096657808084	124.133327145433	125.565354967591	-81.3385209912595
2296687	10.2810170743301	140.247548288461	140.623874619521	-85.8073626101619
1958656	13.2541248409309	158.22716513543	158.781320098095	-85.2117156863439
1670375	21.6273965621079	183.48249860827	184.752730906984	-83.2774674657617
1424531	19.354160200853	214.589158787361	215.460183296468	-84.8463405003889
1214875	23.384181590474	236.63379090045	237.786397728243	-84.3563469939931
1036062	30.673878808019	282.226650366625	283.888656022558	-83.7971401859454
883578.1	32.4438790500236	315.081032945622	316.747000948537	-84.1209759317533
753531.2	30.5214948477561	377.819027826903	379.049837667566	-85.3814830810411
642624.9	35.3236952790236	432.154194401345	433.595446455381	-85.3271093862832
548046.8	39.4737044738987	502.141894746334	503.691032086467	-85.5051846690099
467390.6	147.915543942227	707.316297946448	722.617017153896	-78.1883990336302
398593.7	172.891517954109	801.112525157674	819.556437925407	-77.821534157408
339937.5	197.803371923515	908.391588943876	929.678144740583	-77.7155369653088
289906.2	220.534168679604	1030.93058959586	1054.25480796612	-77.9254114056652
247234.4	245.149470886932	1174.24171150923	1199.55902736141	-78.2075931197671
210843.7	265.392611057275	1342.56097899318	1368.54054390761	-78.8181369462585
179812.5	288.180691978855	1539.94441479142	1566.67702857886	-79.40043395345
153343.8	309.107741934868	1772.02054075761	1798.77858364807	-80.1050001541223
130781.2	332.918592837204	2044.86225857917	2071.78581084489	-80.7529581246358
111531.3	356.916468170213	2362.52457304016	2389.33290344182	-81.4090520958401
95109.37	379.585939275476	2737.75424670949	2763.94352342291	-82.1063417325143
81109.37	408.297616494743	3172.42729891123	3198.5937395225	-82.6662360899162
69171.88	435.41013150474	3678.83719697961	3704.51415228742	-83.250137378934
59000	455.307295345105	4251.51530752684	4275.82590189656	-83.887323742899
50312.5	327.073778630463	4877.72641089279	4888.68000550135	-86.1637996545127
42906.25	1869.96166198512	6798.50132632256	7050.98410871162	-74.6208200264686
36593.75	1970.93669701214	7487.22873264238	7742.29846741488	-75.2520476293643
31203.13	2091.78204618607	8484.67211473162	8738.7191866572	-76.1506746352475
26609.38	2203.21017323295	9732.18309299144	9978.45292733025	-77.2441645872546
22703.13	2299.08033281873	11096.5969838306	11332.265219201	-78.2946254088475
19359.37	2511.62127927598	12854.6487096047	13097.7186905909	-78.9444741400849
16500	2671.26772564302	14877.4589627897	15115.3715287304	-79.8209276792965
14112.02	2955.70351060742	17949.2554831959	18190.985559987	-80.6490235805991
12011.13	1687.43666574417	12218.0148861363	12333.9908488188	-82.1365939040972
10236.38	11687.7598608042	6801.37889303884	13522.6656177878	-30.1961191218098
8750.684	12341.5822257011	-3669.33113878692	12875.5055372522	16.5579760764211
7449.463	-4621.24506212587	10055.0310284847	11066.1445367397	-114.683289569165
6363.206	5906.1598709069	5773.12861772232	8259.0398023908	-44.3474088980957
5414.761	15177.8516434221	49347.6109090693	51629.0023430884	-72.9036655144616
4620.567	16808.3955909919	55985.3609259604	58454.1084984907	-73.288750448569
3941.215	19522.308434469	66587.367639234	69390.1870276558	-73.6597406209162
3361.769	15438.6903277336	67082.6863009633	68836.3273307714	-77.0393894712749
2867.244	21781.4613670872	82137.2696077689	84976.2503168105	-75.147941197989
2442.658	23492.3796136558	94164.9272733847	97051.1485162022	-75.9917361428782
2083.003	26288.1386038873	108599.156381823	111735.594141262	-76.3924055290131
1777.843	29421.4327889745	125752.887131859	129148.787564399	-76.831806862099
1513.548	30819.4809713715	143165.859760343	146445.566024591	-77.8512706669753
1292.065	34145.6825063491	166268.708784588	169738.655452194	-78.3948357272159
1101.762	43666.6690458635	192700.613870488	197586.19529619	-77.2321897693364
939.101	47457.276464943	221938.476183826	226955.679154033	-77.9301669553648
801.2801	55951.2381472619	265612.770759531	271441.86309552	-78.1045753082026
684.3433	149376.673685448	375127.982242909	403775.177175325	-68.2874591506515
582.9476	198762.828079918	408042.165225105	453877.814425776	-64.0286638594441
497.0677	224716.410835416	470216.976459398	521153.979404714	-64.4568925155249
423.5089	269101.274887247	517731.325350399	583490.5495336	-62.5359369157898
361.5036	328027.002746503	575324.417887511	662268.75235697	-60.3099385859271
308.1262	311704.801530998	670068.853389503	739021.076546672	-65.0529405097995
262.7298	257235.21741191	771017.400193163	812796.277352189	-71.5497089487879
224.2111	414537.393404749	872595.49296838	966055.973988844	-64.5893603577592
191.2854	513972.304185092	853105.399548194	995970.055878999	-58.9322042717555
163.1722	584028.133517609	983881.615527298	1144164.27758983	-59.306804078212
139.1537	679349.889265407	936721.404055612	1157135.80052682	-54.0487933106082
118.6706	628507.858613956	1138103.74742331	1300116.25181692	-61.0907081733518
101.1982	811186.960029433	1351271.17452225	1576057.76265229	-59.0230180822837
86.24196	924787.313918463	1350157.92500168	1636507.86690116	-55.5909034866249
73.61024	1213122.45953254	1507528.97369795	1935021.88834159	-51.1760459511798
62.69291	469465.419762303	666599.291095895	815323.491162952	-54.8441389443411
53.57697	963461.228190958	893661.733422785	1314111.42298187	-42.8475658186258
45.65746	2027057.66131458	-510550.729334107	2090364.7551367	14.1369257243619
38.96512	910220.718957533	1357287.1128226	1634236.84447937	-56.1534964752418
33.18414	1297123.77639982	783711.714003735	1515497.98481173	-31.1400327118201
28.30617	1653752.77601768	25532.911926054	1653949.87039439	-0.884540838489892
24.17237	1683754.60379913	-172367.43501474	1692554.31182232	5.84505759491685
20.61345	1436462.91433654	-92527.4667220582	1439439.83422796	3.68552466112044
17.55618	1312540.17145212	934060.040320318	1610971.7131591	-35.4372906598147
14.98558	821052.352669838	795883.580095928	1143484.86605245	-44.1082219369404
12.76553	1225783.48127278	-564989.308247802	1349725.17995166	24.7459669576089
10.8809	-523160.269232486	1013259.38362276	1140346.98482654	-117.30795193288
9.278505	894326.880134595	-671091.344580882	1118116.34515495	36.8840893066113
7.923394	-1337850.37306544	689143.903896636	1504912.93468733	-152.746422885753
6.75822	907787.747553494	480047.36908596	1026900.22454696	-27.870340191925
5.761429	387584.919191284	-1333046.07842927	1388248.50686042	73.788140462805
4.919708	1392781.68425437	-961349.618587775	1692345.68252273	34.6148784998398
4.191257	-163465.81268855	1416317.28211969	1425719.36773996	-96.5837247083209
3.564097	1093850.22596925	743135.369802581	1322406.32738375	-34.191239235698
3.051758	1661693.18102882	-44862.3370849317	1662298.66665603	1.54649387610721
2.604164	826532.695935933	-1539471.07921827	1747320.09122558	61.7689183154482
2.214424	-1105649.33345212	-2486931.35313677	2721633.33382324	113.969154973314
1.892567	2641330.86372272	-1491317.06846603	3033258.20370642	29.4494290640394
1.607507	-2454161.19933316	-2656125.06330509	3616338.96976346	132.736788623281
1.376413	-1476572.02219925	-3638645.14736049	3926831.22188255	112.087446982545
1.17375	-41520.3136993188	-2873839.84892265	2874139.76934064	90.8277334026572
1.001604	2473444.29627438	-3331494.78348098	4149311.28973632	53.408226495652
