EC-Lab ASCII FILE
freq/Hz	Re(Z)/Ohm	-Im(Z)/Ohm	|Z|/Ohm	Phase(Z)/deg
6999984	27.6042290041143	84.9911866606746	89.3615984016692	-72.0067573819638
5969734	22.5165076482422	85.8512818964603	88.7549194126097	-75.3038430140441
5091109	23.5543653824084	86.0005889028643	89.1678721300865	-74.6831005387994
4341796	22.0112905256331	90.0683603680101	92.7189648884496	-76.266985067659
3702781	22.5387453386501	98.5180422059902	101.063344895871	-77.1137593930828
3157797	22.3915851237067	107.376922193531	109.68676540088	-78.2207711490551
2693047	22.2424643458479	120.422360634501	122.459267354342	-79.5351936268647
2296687	21.6974191440075	137.372000800282	139.074960368082	-81.0244828237483
1958656	23.1513916814665	157.544305355791	159.236286966342	-81.6401259746164
1670375	23.5821925112782	181.270569860403	182.798083417618	-82.5877981677627
1424531	25.4729169411951	210.029090791707	211.568165082283	-83.0847817592592
1214875	28.0908928674118	242.324902255069	243.947651177495	-83.3876472497654
1036062	30.2250551609093	280.362390004243	281.98692112999	-83.8468729225627
883578.1	31.9971753992543	325.007526019137	326.578797846111	-84.3773172492948
753531.2	34.6604412550979	377.739394594711	379.326240084676	-84.7573601548051
642624.9	37.7294737355603	439.624187894552	441.240229093299	-85.0947750003577
548046.8	41.5544218489192	512.172454626643	513.855420574191	-85.3615441497706
467390.6	146.907471830722	714.483433183406	729.430175940947	-78.3811420359122
398593.7	177.720429524033	808.66010183581	827.958761878458	-77.6050707024075
339937.5	201.143841108281	919.19051049603	940.941039280223	-77.6566941997488
289906.2	223.222105473525	1044.89541692096	1068.47299482694	-77.9411104492518
247234.4	244.626921092322	1193.15207013716	1217.97134325718	-78.4134568555576
210843.7	264.930585195832	1365.98981613752	1391.44399555412	-79.02388609049
179812.5	286.417165154071	1570.08556874931	1595.99607947192	-79.6617027080296
153343.8	307.661992991318	1808.87682669896	1834.85456538111	-80.3472467099036
130781.2	328.391063074291	2089.29638902019	2114.94682946873	-81.0674546583831
111531.3	353.342830999847	2417.52429411364	2443.20995185609	-81.6845874995185
95109.37	374.940427591718	2803.85991528466	2828.81790661449	-82.3834241222396
81109.37	409.281629259696	3251.46931691624	3277.12742671035	-82.825575652742
69171.88	669.04664152391	3502.39825100032	3565.7281047697	-79.1853455971579
59000	-14.3574096341378	3920.9794710068	3921.00575710725	-90.2097984206086
50312.5	2629.8153305468	7870.97706792596	8298.6871658471	-71.5247279889202
42906.25	1696.23839269399	6897.9573475497	7103.45269945989	-76.1848229198373
36593.75	1910.71541496838	7577.08112525845	7814.28127058053	-75.8467778207101
31203.13	2017.01361969618	8632.15699678699	8864.67587445917	-76.8480788634807
26609.38	2146.62588855662	9888.78659576295	10119.0959597171	-77.7524354473152
22703.13	2025.89197646165	11926.3106862702	12097.1535861018	-80.3593361193809
19359.37	2401.94236964478	13149.6456271728	13367.2176337232	-79.6483527914031
16500	2552.87534891529	15215.6489077179	15428.3227938113	-80.4756465517925
14112.02	2716.88675871165	17584.9887672388	17793.6309842476	-81.2172258260303
12011.13	2897.65624724052	20436.366032379	20640.7719898395	-81.929870731614
10236.38	3113.61855632187	23850.8439795364	24053.2197231568	-82.5623588416589
8750.684	3529.9177691321	27471.7688538907	27697.6245085826	-82.6780390204958
7449.463	3394.12596486771	32148.9635670608	32327.6344557036	-83.9733247079481
6363.206	4262.36195547855	36948.6727940724	37193.7111711501	-83.4195037031746
5414.761	12729.8337798242	48949.991289175	50578.1604575756	-75.4226744607542
4620.567	16064.3849769144	58888.7611142111	61040.5656121659	-74.7414276423437
3941.215	14857.4881493827	65414.1953693896	67080.2646829432	-77.2035418795799
3361.769	16519.9002699	75055.7527739112	76852.2812243457	-77.5870225318609
2867.244	18319.1228425823	85653.1118162057	87590.2153526354	-77.9277032368457
2442.658	22538.1897784336	96649.2842116119	99242.4009035736	-76.873460893805
2083.003	23645.9536461954	110397.359840154	112901.320557	-77.9105145029918
1777.843	22871.0694318571	127133.40112226	129174.252457176	-79.8016762973801
1513.548	24802.5094291583	152074.208798273	154083.514548456	-80.7369153063721
1292.065	27165.866896391	170589.114917956	172738.618880446	-80.9517744795462
1101.762	24549.8335035922	202336.833541505	203820.726455031	-83.0820315618426
939.101	26672.0324578825	236789.813403951	238287.249023762	-83.5732855753878
801.2801	29080.947822546	268665.741403577	270235.049781096	-83.8222357373721
684.3433	116333.757548809	388762.750330792	405795.538652394	-73.3406604248078
582.9476	136322.114297428	445554.310849459	465942.445762411	-72.9879476061253
497.0677	155987.147404119	492296.754494575	516418.516942572	-72.4188859240014
423.5089	153876.579193073	559824.64363582	580587.317503693	-74.6309040836629
361.5036	171298.865980545	623192.304147894	646306.389752865	-74.6305030132064
308.1262	177884.518690046	713336.614440155	735181.628912565	-75.997752199727
262.7298	187957.386552718	823256.602523786	844440.295556018	-77.1392560149662
224.2111	198112.891073549	954416.736686111	974761.522053515	-78.2733686746481
191.2854	211202.248336646	1052563.88332658	1073544.18548376	-78.6539845379535
163.1722	282810.854553341	1262655.58935143	1293940.15192883	-77.375200035001
139.1537	161669.10879414	1453775.48916486	1462737.18542834	-83.6544163991783
118.6706	257250.180726256	1710891.33842154	1730123.35611353	-81.4490445499402
101.1982	223339.606259733	1917025.93362897	1929991.97146783	-83.3548167681044
86.24196	205640.712168905	2405189.66996867	2413964.6747675	-85.1131669455814
73.61024	367069.027246533	2727533.91706025	2752122.98770926	-82.3352383716691
62.69291	293437.43677579	2902108.61192376	2916905.88204412	-84.2263428702779
53.57697	183519.729084394	3588867.83388881	3593556.98717649	-87.0726826049288
45.65746	373874.016209771	4439700.05141812	4455414.49548287	-85.1863909517991
38.96512	193392.149254864	4797367.21292347	4801263.65647905	-87.6915343194496
33.18414	-80850.5338862716	5540854.44213516	5541444.28445857	-90.8359839949071
28.30617	515386.818865657	6766169.86938092	6785770.27863298	-85.6441269343291
24.17237	677291.155561083	8206711.57912228	8234612.21019551	-85.2821321993654
20.61345	1461808.07268895	8776062.75677601	8896974.78653556	-80.5431982758384
17.55618	-306493.531365496	11104967.6707955	11109196.4270231	-91.5809437201361
14.98558	-2654603.87813867	11172514.9302143	11483553.962763	-103.365711537725
12.76553	1852816.572114	11120558.0135705	11273852.0383712	-80.5407345573193
10.8809	1314416.98099439	7588394.09674212	7701390.58660168	-80.1730675401839
9.278505	8542932.01770098	3915202.66968149	9397366.62069442	-24.6218585696056
7.923394	12173511.2981384	-4091269.42118333	12842619.000913	18.5764490928875
6.75822	9282790.03880833	6034690.08779591	11071931.8711931	-33.0276708157684
5.761429	11077451.5430386	5334265.37575699	12294889.986794	-25.7127988594245
4.919708	11219441.5993847	6511881.59833182	12972296.3176415	-30.1313290543364
4.191257	10973098.9243581	14063631.267833	17838010.6637853	-52.0369895228772
3.564097	17914569.6383479	-2056884.22603186	18032264.9172675	6.54980714208367
3.051758	12805984.0089838	14078293.7651005	19031331.5817579	-47.7095252399234
2.604164	20857502.1984153	590320.362636603	20865854.3100311	-1.62118350836487
2.214424	20823745.8040694	-60855.3213903665	20823834.7256849	0.167440727682796
1.892567	25479950.529112	7534607.38712676	26570626.4029311	-16.4733330213464
1.607507	17121208.1753948	-33750860.1122268	37845162.5402813	63.1021338089381
1.376413	-13696378.1467187	27714393.570521	30914048.3489246	-116.298457593639
1.17375	28930627.1864018	22229323.8404072	36484572.4628954	-37.5374674578667
1.001604	70026503.3043197	-8896743.13297799	70589398.6615843	7.24053641200363
