EC-Lab ASCII FILE
freq/Hz	Re(Z)/Ohm	-Im(Z)/Ohm	|Z|/Ohm	Phase(Z)/deg
6999984	23.7490323627821	2.66331634654399	23.8979035090997	-6.3986551461502
5969734	23.2804527420042	-3.86776654235481	23.5995571547191	9.4328448235127
5091109	12.8528680986241	-6.76649220050896	14.5252068852797	27.764910228043
4341796	7.66722916408018	-5.63500143439904	9.51523222103385	36.3138874384751
3702781	5.69287376008621	-5.22782165876134	7.72909638600091	42.5615624760304
3157797	4.35233348184964	-5.08124700163932	6.6904318118413	49.4183489455892
2693047	2.69275008679252	-4.75986170382153	5.46874633434646	60.5022805177525
2296687	2.25636575086646	-3.51563551044114	4.17742497765763	57.3072959647645
1958656	1.79075401729951	-3.21043735599645	3.67609955894176	60.8476021808778
1670375	1.55539807450519	-2.96956225944849	3.35224748234901	62.3553406187646
1424531	1.26170049965998	-2.44656792343107	2.75274095308732	62.7197417764678
1214875	0.790701744026734	-2.3648919044204	2.49357634084061	71.512638579443
1036062	0.835895697992475	-1.84117515145616	2.02204044377504	65.5818951462643
883578.1	0.730891104896486	-1.58645031385545	1.74671875399243	65.2640754573052
753531.2	0.673864020055534	-1.36974890605791	1.52653358403026	63.8045800657685
642624.9	0.625783156030307	-1.21391721505065	1.3657230917604	62.7285653265128
548046.8	0.557609983940212	-1.00841305988182	1.15231323585648	61.0592527903991
467390.6	0.521652853397497	-0.86863401344244	1.01323578142842	59.013335095546
398593.7	0.490196613370357	-0.753259783473749	0.898717431208879	56.9452496635992
339937.5	0.467227850418526	-0.651578145935275	0.801782978409474	54.3567867733808
289906.2	0.448871763665297	-0.563969234762964	0.720796197253507	51.4831799772596
247234.4	0.433043700369859	-0.486385975086125	0.651228195942483	48.32038992278
210843.7	0.420410836875155	-0.41951214967992	0.593915579431232	44.9386956130927
179812.5	0.411376293616465	-0.359789484200611	0.546515258607627	41.1729247750174
153343.8	0.405626082425872	-0.31174986791599	0.511586257526331	37.544606511994
130781.2	0.401505313457565	-0.270016696649361	0.483854867914016	33.9212615226324
111531.3	0.396723146336591	-0.234869167187555	0.461034467837905	30.6265020992003
95109.37	0.391764404172367	-0.203921444283722	0.44165971495631	27.4979061659341
81109.37	0.388130711349991	-0.175393069748328	0.425920389285124	24.3178185156195
69171.88	0.382850040380167	-0.151284980362977	0.411656772934106	21.561685256234
59000	0.372785426566304	-0.127870576143757	0.394106405052693	18.9326798724321
50312.5	0.369636586545079	-0.0905308828494284	0.380561488937326	13.761901929137
42906.25	0.411811500940044	-0.0863387945692476	0.420764898433986	11.8409062223562
36593.75	0.397039912497516	-0.0882890299165074	0.406737808569148	12.5367749236985
31203.13	0.380122964220637	-0.0771055938409895	0.38786433263379	11.4665184102839
26609.38	0.37732489347033	-0.0688691540505243	0.383558386183943	10.3437388557896
22703.13	0.376717418069252	-0.0617870855546003	0.381750778673856	9.31440298810325
19359.37	0.372866032281304	-0.0549438828769731	0.376892435974511	8.38252724136863
16500	0.369798748333822	-0.048546117014047	0.372971633970203	7.47885820688829
14112.02	0.366545268911766	-0.0435650957726813	0.36912511663565	6.77799331357247
12011.13	0.363210204467322	-0.0392419106244985	0.365323938688193	6.16642389262778
10236.38	0.360340042018065	-0.035058850214567	0.362041529192368	5.55703343017797
8750.684	0.357180048241824	-0.032078744254527	0.358617669245366	5.13202995352598
7449.463	0.354421117532105	-0.0291553745834767	0.355618284709616	4.70267428946218
6363.206	0.352328008231175	-0.0268012842358193	0.35334591298165	4.35006231135159
5414.761	0.350331120201524	-0.0238719942203683	0.351143511814916	3.89817909269884
4620.567	0.348697256765762	-0.0220124512407173	0.349391363495998	3.61215684249615
3941.215	0.347398288029759	-0.0204829650452922	0.348001612615594	3.37431232145483
3361.769	0.345863442043739	-0.0191790389394051	0.346394797993535	3.17395127232876
2867.244	0.344594417679652	-0.018179686359701	0.345073635173879	3.01994021699759
2442.658	0.344052252904118	-0.0173467422290644	0.344489277328571	2.88634708565371
2083.003	0.342234541027502	-0.0169536019121883	0.34265420716825	2.83599784644879
1777.843	0.340324311405112	-0.0160974140574481	0.340704804299412	2.70808444572804
1513.548	0.338309022021302	-0.0151751108683222	0.338649196619268	2.56832456963516
1292.065	0.338083960223746	-0.0135423021020875	0.338355076963233	2.29381533336783
1101.762	0.335964506294625	-0.0117984271073784	0.336171611490321	2.01129099050441
939.101	0.335753449235178	-0.0113272169457917	0.33594446641827	1.93223828463683
801.2801	0.333946484076971	-0.0110360439204567	0.334128790278218	1.89278441086412
684.3433	0.334140968730404	-0.0102402341663655	0.334297845311445	1.75536277553317
582.9476	0.33341035881015	-0.011927288384606	0.333623631612214	2.04880253735163
497.0677	0.331608914517042	-0.0120607536055642	0.331828169335735	2.0829531137726
423.5089	0.330979583781839	-0.0115270294601102	0.331180248940925	1.99463453444216
361.5036	0.3301461761679	-0.00852848915804677	0.330256313740714	1.47976205466611
308.1262	0.327922103249684	-0.00873811217131435	0.328038504453388	1.52639451665402
262.7298	0.327100367825516	-0.0112037846163734	0.327292186618193	1.9617181091119
224.2111	0.323551371646488	-0.0106165580048692	0.323725503163088	1.8793485505683
191.2854	0.318179250313868	-0.016129887062698	0.318587834963845	2.90208738220154
163.1722	0.315968899652123	-0.00844955872851965	0.316081857420005	1.53182386472068
139.1537	0.311640550410864	-0.0189695261924336	0.312217353112141	3.4832900400043
118.6706	0.321590514865855	-0.000228951806995979	0.321590596365341	0.0407909108946919
101.1982	0.321994475904645	-0.0161996718961524	0.322401724379151	2.88014539047921
86.24196	0.308406258271602	-0.0191863641062696	0.309002486573666	3.55985897382999
73.61024	0.310368988843878	0.0137341099796227	0.310672713660057	-2.5337373993743
62.69291	0.249869095466545	-0.0856451514125598	0.264139464733594	18.9196680009047
53.57697	0.307336076493138	-0.0193996722353752	0.30794774101629	3.6118331213419
45.65746	0.335071723320171	-0.0150999601040861	0.33541178954219	2.58028047994616
38.96512	0.31904022973212	-0.00621766552736935	0.319100810954993	1.11647644579003
33.18414	0.282194022794977	-0.0040588874259284	0.282223211427317	0.824046808564389
28.30617	0.328640729653407	-0.00850365525890223	0.328750728272784	1.4822108762825
24.17237	0.276854690896132	-0.0339025872360273	0.278922758649217	6.98146781535728
20.61345	0.294339719654002	-0.0280667345640493	0.29567484193804	5.44696422702877
17.55618	0.327499369329638	-0.0209742732002479	0.328170317133633	3.66442950101932
14.98558	0.26709305797724	-0.0282943487102689	0.268587549578479	6.04704240643432
12.76553	0.283454943729373	-0.0210196009278696	0.284233229492592	4.24100609758419
10.8809	0.2697950635825	0.0882220403263912	0.283852963227155	-18.1075633516642
9.278505	0.29474466355575	-0.00185353450272037	0.294750491576766	0.360306113749845
7.923394	0.251070205189261	0.0113867284282977	0.251328282368057	-2.59674270331586
6.75822	0.277579216600696	-0.0663340003083043	0.285395201581172	13.4400944539238
5.761429	0.0860707094807803	-0.139448624957909	0.163872163692241	58.3162173462103
4.919708	0.0727866077771162	0.125162990465872	0.144788343640155	-59.8205180373263
4.191257	0.126754497393854	-0.0916775326058099	0.15643360442775	35.8770300379996
3.564097	0.122078194911385	-0.0429176184669757	0.129402502478503	19.3695544616414
3.051758	0.142649885085733	0.0255005948152973	0.144911248876361	-10.1353369169667
2.604164	0.106717457465671	-0.0673622344153385	0.126199391255918	32.2609558830582
2.214424	0.100754046548431	0.0612977971847021	0.117935566457199	-31.3159307549253
1.892567	0.108730676870685	-0.0573339037779966	0.122920855086442	27.8027712791452
1.607507	0.0808891834718101	0.096547520316643	0.125954292034963	-50.0431422324455
1.376413	0.112528803412301	-0.049505048048753	0.122936899992287	23.7462415487749
1.17375	0.137029433553925	0.0473535323682796	0.144980766613586	-19.0637153201785
1.001604	0.239285763522436	0.0555824939608788	0.245656447624373	-13.0770454766171
