EC-Lab ASCII FILE
freq/Hz	Re(Z)/Ohm	-Im(Z)/Ohm	|Z|/Ohm	Phase(Z)/deg
6999984	6.22969030184013	104.49729873156	104.682828025659	-86.5883040849252
5969734	13.8483080580263	101.698124147565	102.636660561437	-82.2456850682901
5091109	17.6376684175875	92.1101653072283	93.7836334342708	-79.1599635668336
4341796	17.1987673786415	94.0215930439283	95.5816800326437	-79.6338569591863
3702781	15.9850285270961	104.157714289788	105.377182459416	-81.274922676
3157797	19.4111934288019	109.785617507773	111.488457886427	-79.9731625654627
2693047	19.5323723659209	121.381595221212	122.943097523559	-80.8584969504989
2296687	17.4469283174438	137.690703199906	138.791660611863	-82.7784785219823
1958656	19.886487534059	157.991242776894	159.237888646609	-82.8258621316396
1670375	19.9822913915546	180.91674473396	182.016923648296	-83.6972163464746
1424531	22.7327846087364	210.241946064601	211.467386093217	-83.8287674562366
1214875	26.9136893841613	240.886284304502	242.385124630816	-83.624909072729
1036062	29.778965328723	277.523955467463	279.117059017101	-83.8754635165398
883578.1	32.14563038882	320.450758870577	322.059048023531	-84.2716065360932
753531.2	35.1979760567922	371.307234428546	372.971794989205	-84.5848425626912
642624.9	38.0524709316401	431.552377356263	433.226782350591	-84.9609320594151
548046.8	41.7948500005996	501.9682687603	503.705223646515	-85.2404208718799
467390.6	152.054109440769	705.589888377954	721.787740806837	-77.8387801870414
398593.7	177.173978269294	799.697985799343	819.089425561882	-77.5078397645738
339937.5	198.020512971351	936.915461123958	957.613024582767	-78.0659579528108
289906.2	311.675021599292	1061.51478709714	1106.32498042609	-73.637051492229
247234.4	101.379941673823	1150.23447383583	1154.69356860346	-84.9630520032571
210843.7	322.957196195287	1146.49784724645	1191.11656201862	-74.2679926162271
179812.5	377.061619399982	1334.79321993398	1387.02862436442	-74.2257083309464
153343.8	165.814426639132	1721.99058055841	1729.95548602083	-84.4998156258938
130781.2	335.459556980749	2037.92549447993	2065.35068097913	-80.6524613273698
111531.3	533.751538572646	2226.84615785688	2289.920198542	-76.5210918497995
95109.37	385.812294176769	2726.08706490875	2753.25295092927	-81.9446530427284
81109.37	417.179645481597	3162.54656841423	3189.94351893459	-82.4853533139933
69171.88	454.972775888783	3660.59011513577	3688.7559173561	-82.9150716603415
59000	463.309417326508	4234.82105744862	4260.0897883488	-83.7564028867116
50312.5	338.679275391548	4857.77863275464	4869.57050430808	-86.0118512472441
42906.25	1878.9332447296	6764.8292227483	7020.91906740845	-74.4773513945679
36593.75	1989.78638285604	7468.84039349476	7729.3483989854	-75.0822229388875
31203.13	2043.29594814918	8470.18670313666	8713.15793026362	-76.4374400117104
26609.38	2230.93874856452	9661.91182795079	9916.12968203532	-76.9982511015845
22703.13	2318.2128605148	10974.4273855092	11216.6023066912	-78.0723177843367
19359.37	2521.98340314541	12806.130261782	13052.1022278969	-78.8589888370513
16500	2684.07316966648	14794.8625216092	15036.3627853759	-79.7172796141573
14112.02	2883.59721215902	17099.3104046	17340.7482305359	-80.427804575899
12011.13	3144.49514242816	19853.4717784634	20100.9500113551	-80.9999602301167
10236.38	3283.88099623201	23026.2655298159	23259.2514636004	-81.8835184459879
8750.684	3645.80722760059	26779.8039167859	27026.8349638341	-82.2474039416755
7449.463	4175.55366407947	31108.8954965311	31387.8738912928	-82.3552345987191
6363.206	4624.93271205514	36081.692908064	36376.8960427202	-82.6956861205859
5414.761	15497.5140233506	49050.9552294607	51440.9287418735	-72.4662122378792
4620.567	17066.6144890851	55447.6783269659	58014.7771000607	-72.8918052881024
3941.215	18788.9223961588	62645.7803423446	65402.7323550795	-73.3047932668326
3361.769	20308.8088766937	71582.8041208138	74407.967072007	-74.1607922127581
2867.244	27811.6084897879	-2345.15819378538	27910.3087360767	4.81994958280074
2442.658	24668.7770697267	93543.8300344458	96741.9076699915	-75.22666559904
2083.003	26398.9985488145	108043.577415654	111221.948126944	-76.2695633777371
1777.843	29673.8610621928	124162.205221443	127658.886239032	-76.5588497684986
1513.548	33390.251453276	143920.716004935	147743.295575421	-76.9382051246548
1292.065	38180.6268464794	165203.198057192	169557.827642117	-76.9866773541228
1101.762	43128.179364164	190061.467211597	194893.307155203	-77.2151156270415
939.101	48579.9253561979	221133.93980559	226407.218262926	-77.6097689563276
801.2801	59633.9646115201	253156.306874267	260085.227272727	-76.7449464603572
684.3433	63156.0110316747	288925.454959124	295747.527889532	-77.6697003416983
582.9476	186621.632745257	402056.269527499	443257.123659479	-65.1007824856929
497.0677	222950.132642157	471128.959254039	521219.011446196	-64.6753040270288
423.5089	232593.65667366	507698.154467285	558441.783155873	-65.38588628455
361.5036	255670.746405132	520292.648879208	579717.147447874	-63.8305923496674
308.1262	274759.922023646	579371.528047379	641221.008905974	-64.6279204173715
262.7298	402013.840863499	782926.002857666	880106.956111872	-62.8205823484108
224.2111	446693.946578799	638348.24312773	779117.424663575	-55.0170060407101
191.2854	501720.576039383	785641.512115258	932178.159999493	-57.4371854969206
163.1722	363678.912279665	776735.911322484	857660.204961668	-64.9103313145915
139.1537	211389.319271439	1069876.71257718	1090560.23419938	-78.8232935664147
118.6706	626639.846217207	876953.206079704	1077833.20718959	-54.4517373391899
101.1982	339258.142987824	1193329.88159176	1240617.70658142	-74.1297951960415
86.24196	825682.99701322	911546.841478921	1229906.52318253	-47.8295828163151
73.61024	705415.014398929	1166903.87328571	1363552.34297354	-58.8462606024858
62.69291	1001400.82881083	477894.407253436	1109588.52032054	-25.5116849437556
53.57697	1181059.90591472	890717.223208866	1479283.49990129	-37.0224185070898
45.65746	1025084.11223687	1319326.35428697	1670754.1609335	-52.1536723778556
38.96512	1247673.46350781	1330141.21903956	1823722.76789254	-46.8323440443119
33.18414	1459178.92478515	1528444.24657148	2113136.28273583	-46.328112536707
28.30617	1589397.34459385	1693367.49685194	2322429.20202029	-46.8140380427575
24.17237	2530630.26518159	2010303.09539529	3231935.65443512	-38.4632182857714
20.61345	2713196.60436004	1050408.30474926	2909431.80373713	-21.1638061745613
17.55618	3224513.48917346	325661.030926613	3240916.89941686	-5.76705512068774
14.98558	3033981.05619163	30925.0441942331	3034138.65993103	-0.583989524518272
12.76553	3393911.51740476	-320789.921815014	3409038.21655181	5.39951186243604
10.8809	1676998.53085407	4484162.98041651	4787488.03731399	-69.4950822954488
9.278505	3100349.53826591	517686.401498319	3143273.20952569	-9.47960963875128
7.923394	3390944.0741359	1798644.46898293	3838440.26131973	-27.9426360065146
6.75822	3121631.1036562	1035450.46062808	3288881.02608299	-18.3507724765413
5.761429	2475621.308973	351039.561952217	2500385.89811589	-8.07065485432302
4.919708	138118.322304066	2274721.5977482	2278910.92810101	-86.5253360232403
4.191257	2747307.74789191	1397040.34693296	3082113.16998346	-26.9539056577692
3.564097	3177224.68503802	-990193.562815134	3327948.31556253	17.3098342135035
3.051758	2694331.68473037	-999704.89700606	2873818.55871937	20.3568696046329
2.604164	2992356.99363627	-53579.2984537259	2992836.63412935	1.02579326963908
2.214424	2811261.27406105	560512.385875448	2866594.5101732	-11.2758323264864
1.892567	3156835.23702295	910848.079597266	3285613.02313826	-16.0945448934075
1.607507	3413170.5692757	1622971.34172109	3779387.42536641	-25.4312072918515
1.376413	2676505.62619061	1942933.21366853	3307366.29961157	-35.9767075056185
1.17375	4882878.67742755	2788430.7877873	5622975.22996116	-29.7290840342648
1.001604	2942789.82053407	3203502.95910011	4349993.46399533	-47.4289134301801
