EC-Lab ASCII FILE
freq/Hz	Re(Z)/Ohm	-Im(Z)/Ohm	|Z|/Ohm	Phase(Z)/deg
6999984	10.6533648197126	91.2925850987565	91.9120790538196	-83.3439878657764
5969734	18.0210184709694	86.7345945090333	88.5869459422631	-78.2625397723202
5091109	18.9981968360402	87.1311584370434	89.1783059583556	-77.6996660343836
4341796	19.229576894449	90.5353480137582	92.5549883448312	-78.0086621732977
3702781	20.4536982336167	99.1306427620283	101.218763605592	-78.3417225396072
3157797	20.3234070133543	107.809663386265	109.708542931215	-79.3243451582566
2693047	20.1110472232351	120.852105329508	122.514021985199	-80.5519645301039
2296687	19.8326542800627	138.247622273114	139.662948701372	-81.8361921321101
1958656	21.3613705937004	157.916017417006	159.354249113381	-82.2963345373797
1670375	22.1384286901863	181.651021228113	182.99509156829	-83.0514356155826
1424531	23.8634944907913	210.181704116117	211.532066397667	-83.5225215147392
1214875	26.0965844213404	242.684528882427	244.083617388275	-83.8624000788108
1036062	28.3375987912365	280.720011818852	282.146672035715	-84.235739378118
883578.1	30.4237172043564	324.972325578621	326.39334392801	-84.651592145824
753531.2	32.9437930696958	378.515959855313	379.946871768946	-85.0258481776034
642624.9	34.4584959447884	440.86042482359	442.205045333512	-85.5307385866727
548046.8	40.8451819546817	506.421377711244	508.065882235626	-85.3888169408188
467390.6	136.783543497902	702.411040992962	715.605343943615	-78.9804558896191
398593.7	199.500461351886	817.977734632704	841.954873157977	-76.2934557177941
339937.5	215.729861391159	899.693692371363	925.196256579471	-76.5161071169819
289906.2	217.952302679907	1016.88742353102	1039.98232599358	-77.9026649811985
247234.4	283.239412716444	1210.13987005586	1242.84474895892	-76.8267648335018
210843.7	266.527358496966	1348.26597322466	1374.35729247631	-78.817850467361
179812.5	273.979294957728	1551.68682669129	1575.68926574779	-79.9865697778688
153343.8	306.171875171145	1812.21670198456	1837.89841724118	-80.4105012504861
130781.2	327.760617737552	2093.4734981994	2118.97576914011	-81.101832126091
111531.3	351.094618069565	2423.35735386257	2448.65846850009	-81.7563791112484
95109.37	377.746195806093	2809.23038393991	2834.51363349996	-82.341598203195
81109.37	404.952286093142	3259.73645512424	3284.79346548273	-82.9185094071123
69171.88	435.448308670739	3786.46366141876	3811.41998325676	-83.4397291133428
59000	470.628971906523	4395.28998191855	4420.41464733246	-83.8882977711507
50312.5	1785.69584942368	5883.79041858914	6148.79657791103	-73.1172641804863
42906.25	339.759554351323	7413.41437200065	7421.19594174408	-87.3759491658915
36593.75	1847.63376618279	7601.78545891286	7823.09994166493	-76.339005862507
31203.13	2004.11072897756	8598.55017618173	8829.0160803069	-76.8799926126695
26609.38	2170.71010448283	9951.91073050439	10185.8975817368	-77.6953688509201
22703.13	2202.12232089348	11387.467113681	11598.4373939486	-79.0551695861041
19359.37	2416.08919686823	13164.0801956911	13383.9640766781	-79.599880561935
16500	2562.3001358268	15242.9577905214	15456.8154608145	-80.4579421559229
14112.02	2731.33350100416	17607.6601871029	17818.2457037217	-81.1824472878659
12011.13	2862.75856227421	20422.0408669303	20621.7152476811	-82.0202834716857
10236.38	3048.46535401295	23693.1627082426	23888.4721180295	-82.6683560337581
8750.684	3510.31913476435	27855.6694101185	28075.9801024595	-82.8175542436102
7449.463	4149.8696769846	32069.2343997653	32336.6234063337	-82.6267020020521
6363.206	4232.91656233999	36546.7068043682	36791.0228298723	-83.3933195319372
5414.761	14610.5195987646	52366.8136702987	54366.8139302431	-74.4107164029942
4620.567	16966.5336704608	58682.3001026869	61085.8053080475	-73.8740841320746
3941.215	15328.0829300316	64523.6471832569	66319.3122109943	-76.6366574370774
3361.769	19927.7685726144	71421.2338791608	74149.2320196606	-74.4099715578605
2867.244	21476.3281332111	86335.3464631681	88966.4246724607	-76.0309264560651
2442.658	21674.6467830383	94584.3830637647	97036.0542928372	-77.0931329124581
2083.003	20357.8489139829	113690.244542149	115498.544217917	-79.8479712872267
1777.843	24243.278376151	132181.250278732	134386.083623537	-79.6069279428151
1513.548	21954.8444363837	149726.590228343	151327.680929934	-81.6580022578244
1292.065	31737.8958906338	170397.050837035	173327.577060097	-79.4490780702566
1101.762	32072.9576231927	196047.546199072	198653.756524704	-80.7088403744107
939.101	36576.9925533385	229674.812899619	232569.121047318	-80.9513161133101
801.2801	38394.0450450013	268141.041155322	270875.839909686	-81.8514328094606
684.3433	116056.901612995	378093.524819259	395504.637042677	-72.9359803341069
582.9476	117241.720995418	431525.859562196	447169.082800745	-74.8001558163446
497.0677	145967.733553117	500320.794249261	521178.929348497	-73.7354856414325
423.5089	150574.612421747	548743.413507198	569027.282099453	-74.6557704519716
361.5036	187306.946271904	600355.36276389	628896.21856159	-72.6724197483468
308.1262	197887.69157589	699087.3106123	726555.301636684	-74.1949977931274
262.7298	245615.745019375	845579.095644931	880528.875842878	-73.8029800696989
224.2111	244332.18160855	977371.661684543	1007449.04587458	-75.9643487602709
191.2854	212299.958278234	1052104.22383889	1073310.09969374	-78.5917040256228
163.1722	355061.77979643	1328599.87252503	1375225.97733817	-75.0376468224263
139.1537	365121.934090166	1353268.71330897	1401659.81506736	-74.90070990939
118.6706	332532.247121719	1626210.32694291	1659860.75404884	-78.4433079566839
101.1982	409752.741772834	1797847.29477764	1843950.16329879	-77.1608565238426
86.24196	463523.786332082	2122354.85522329	2172382.20209647	-77.6800135820106
73.61024	1424725.31981408	1432821.44757211	2020598.80667637	-45.1623324996882
62.69291	1690665.01743279	2177738.19076418	2756971.49580547	-52.1763844248546
53.57697	599420.029460441	1884377.09288323	1977417.86173317	-72.3541416931516
45.65746	2151276.80468259	2032714.03260579	2959715.90337955	-43.3768298523
38.96512	1121926.31283439	2585951.98783096	2818841.31068016	-66.5461831154695
33.18414	355702.581975524	3119439.70783351	3139654.18758698	-83.4947903574548
28.30617	544061.680424982	3073154.61933035	3120942.55416827	-79.9605574939699
24.17237	2642208.30982512	3979570.91798802	4776845.13500332	-56.4181055737671
20.61345	3647637.69229523	2882856.90649674	4649314.43092299	-38.3205632539397
17.55618	813830.790883505	4088160.55539169	4168378.25573095	-78.7413033059315
14.98558	3191001.02977099	3186637.68212136	4509672.63657966	-44.9608003248289
12.76553	-346120.013088866	4621823.03949034	4634765.07191296	-94.2827834988551
10.8809	3360243.25950152	-4380522.27488286	5520888.53027936	52.5086426502509
9.278505	-4847771.10320035	3485448.15373542	5970697.90739759	-144.284638392583
7.923394	2460750.23127657	4061690.9565777	4748960.42597459	-58.7906836963582
6.75822	6225655.82747241	-1747499.98516287	6466262.18771597	15.6790760074242
5.761429	-2512180.32283784	-12726721.9594141	12972297.4760328	101.166298449557
4.919708	-10967018.6285535	6514536.6363888	12755966.6503912	-149.289195549933
4.191257	-1239022.53703089	8731613.17543789	8819084.1640587	-98.0763943561957
3.564097	4159788.34129901	7265569.51970892	8372116.7866992	-60.2073791405986
3.051758	7843432.55769901	4750269.24033389	9169759.65567447	-31.2006287282332
2.604164	10932266.8839488	911720.912764566	10970218.5139885	-4.76727814565216
2.214424	13960485.7005566	-6517396.69539093	15406869.2692752	25.0253297193588
1.892567	14353660.4546361	-1229539.1287875	14406225.5610623	4.89602290813365
1.607507	13654089.0966243	3101859.47918782	14001988.4761837	-12.7989088445488
1.376413	13264731.2571715	6246642.43182888	14661979.3000845	-25.2167377299782
1.17375	12821275.3937091	9454980.12869992	15930528.9289289	-36.4067180604422
1.001604	12895653.2779199	12666992.8022041	18076243.5288811	-44.4874970790052
