EC-Lab ASCII FILE
freq/Hz	Re(Z)/Ohm	-Im(Z)/Ohm	|Z|/Ohm	Phase(Z)/deg
6999984	-13.5900189617265	110.177517119731	111.012494315049	-97.0317204083337
5969734	-2.2290932194581	101.321398413104	101.345915719223	-91.2603165379809
5091109	6.65884086544029	95.1682061862319	95.4008785618686	-85.9975845981453
4341796	8.34447454625418	95.5110348065561	95.8748560638933	-85.0069405703641
3702781	7.51170221086478	103.469154154476	103.7414648612	-85.8476988389391
3157797	11.6604010101328	110.770204772212	111.382239234965	-83.9907999206996
2693047	12.2965131080758	122.157347986802	122.774679400053	-84.2518967879407
2296687	10.5389239435799	137.979532894715	138.381430892054	-85.6322094121904
1958656	12.7198071899504	158.325676994239	158.835806701869	-85.4067505198064
1670375	12.9467218582468	181.42550284394	181.886862332196	-85.9182299435197
1424531	15.2232836724151	211.073932442985	211.62219477814	-85.8747997426488
1214875	20.1192463961639	242.665092803169	243.497702947523	-85.2604743947095
1036062	21.9468309974348	279.95071371298	280.809660623057	-85.5174459658257
883578.1	24.4393338197031	323.130349235776	324.053241975428	-85.6747801763686
753531.2	31.3911807166098	371.738781264094	373.061828283861	-85.1731556267316
642624.9	33.5611627643965	434.321770954239	435.616519855394	-85.5813880557623
548046.8	34.2436926772056	499.943369422616	501.114760427	-86.081637506691
467390.6	152.169838979675	706.621005921075	722.820106184113	-77.8470307792913
398593.7	166.977241837786	793.133635154098	810.519810062967	-78.1112216186261
339937.5	222.100436009339	935.182500207478	961.194523689065	-76.6400951838482
289906.2	177.61579821286	1127.45812801871	1141.36287052376	-81.0474011355535
247234.4	126.386212522349	1094.60004580765	1101.87237691025	-83.4136022378848
210843.7	364.278444921173	1215.81833508609	1269.21747914441	-73.3209506766553
179812.5	401.734317319127	1417.27352667307	1473.11055631279	-74.1743140167232
153343.8	387.117556840767	1646.20459976163	1691.10898143518	-76.7668907439107
130781.2	365.326383247035	2010.25650971755	2043.18246888479	-79.6999762887444
111531.3	397.876137964585	2332.65158972121	2366.34081657535	-80.3203176935325
95109.37	341.457838559368	2741.27667131318	2762.46108464889	-82.899716391432
81109.37	429.829015427778	3142.60439527488	3171.86307518225	-82.2117086710389
69171.88	469.545224729224	3699.94214270712	3729.61721594136	-82.7674777323158
59000	496.263570599641	4259.43473705028	4288.24693909934	-83.3544729934273
50312.5	1189.40769164007	5661.87186942073	5785.45449577389	-78.1362025784938
42906.25	1982.55431513183	6843.63613308727	7125.01769363035	-73.8440611436098
36593.75	2096.88048167551	7432.98656811686	7723.09504513814	-74.2459910368941
31203.13	2071.61874402739	8547.39088113007	8794.8561725267	-76.3760189360724
26609.38	2138.91783942062	9550.62529974047	9787.20660555577	-77.3765751337094
22703.13	2365.16646336857	11161.1006965246	11408.9517992411	-78.0353620065508
19359.37	2432.42391744114	12879.4453488073	13107.1277786956	-79.3050364805607
16500	2551.56472729875	14815.6999481385	15033.8101461628	-80.228357967414
14112.02	2818.96252522828	17122.7061739037	17353.2019073277	-80.6510862286615
12011.13	3032.26476671097	20084.1446903171	20311.7576186067	-81.4144378991143
10236.38	2909.26673017865	23119.2719128384	23301.6000885579	-82.8277528923635
8750.684	3404.66783717027	27093.5097883263	27306.5932648434	-82.8375504706603
7449.463	3959.28214970682	30891.2742491221	31143.9679532885	-82.6963163741605
6363.206	3749.00657531946	36724.4548008985	36915.3170205136	-84.1711670346068
5414.761	15182.8668403087	50737.5521328589	52960.5385350746	-73.3405458332488
4620.567	17455.0302463892	55670.7724429113	58343.0628720568	-72.5916899950128
3941.215	18044.8773743735	61406.8210500122	64003.2442218704	-73.6241599418386
3361.769	18556.7472590115	72112.6979467606	74462.031089647	-75.5691797689692
2867.244	19911.9004900497	82641.940443648	85006.9061983619	-76.453253646856
2442.658	20683.4214849356	94704.0072280846	96936.33430959	-77.6800135820106
2083.003	22597.1270197489	109276.53580792	111588.491466308	-78.316569692401
1777.843	23608.8797553014	126207.079157987	128396.285121069	-79.4044446580159
1513.548	26062.5741387989	145373.673176034	147691.443975041	-79.8359964693084
1292.065	26358.4813474657	169358.673488788	171397.57823501	-81.1536275107708
1101.762	29383.9363812859	196595.913419343	198779.69939218	-81.4992929485732
939.101	31185.0759973352	227918.242658875	230041.809899134	-82.2088438820632
801.2801	38445.9738826501	264954.521258198	267729.324585384	-81.7437740397555
684.3433	31511.8119618695	307942.195901468	309550.303359145	-84.1572441601851
582.9476	139969.726295179	421238.789496362	443884.717078103	-71.6193233208963
497.0677	160570.137741089	488191.899063793	513920.324024751	-71.7935597863956
423.5089	163648.43258442	528425.656658058	553185.759127833	-72.7927408853242
361.5036	183597.533286953	627331.390708473	653645.720553023	-73.6871280035235
308.1262	189643.936963481	713712.884230266	738478.776907836	-75.1195224913505
262.7298	199333.765694297	812496.073395523	836590.592481778	-76.2155907534358
224.2111	202877.091863211	910640.068947064	932965.406419116	-77.4404599278664
191.2854	210266.666144599	977974.182049213	1000322.73374466	-77.8659956823101
163.1722	348317.402125403	1236559.72937826	1284680.8852565	-74.2683936866837
139.1537	297953.744259676	1549066.78687727	1577461.36051715	-79.1124653656172
118.6706	228343.609436821	1692779.84836923	1708111.36025014	-82.317591271579
101.1982	137038.120123038	1982897.41311584	1987627.12733258	-86.046572489629
86.24196	463215.639047278	2267554.99858261	2314384.2377304	-78.454480633689
73.61024	495601.736874362	2406195.92607429	2456705.09346348	-78.3616041750983
62.69291	923901.914641844	1372766.37017106	1654715.15825277	-56.0585802869004
53.57697	-762417.458111882	3235905.09037807	3324509.30730664	-103.257766289123
45.65746	602054.124209066	3244775.93800925	3300157.58053474	-79.4885548623411
38.96512	574983.372999779	4152853.6236614	4192469.33188351	-82.1172279306218
33.18414	874326.19388196	4283646.96952951	4371964.96473468	-78.4639344373086
28.30617	5290091.7211627	4741236.96728332	7103829.84018115	-41.8682377072985
24.17237	2445.19273298453	6232540.4212408	6232540.90089812	-89.9775213304625
20.61345	228824.448189068	6857456.95388955	6861273.67932057	-88.0888232545933
17.55618	2704621.99600926	7086138.31821388	7584743.66120281	-69.1092525162077
14.98558	8656405.02667467	4544641.33178714	9776866.20653195	-27.6996216872878
12.76553	-512763.861155919	9534038.72252316	9547817.61136432	-93.0785408050491
10.8809	4686238.49207487	3314430.88670928	5739885.3043747	-35.2705828597434
9.278505	4020612.83656977	2835251.42086165	4919753.87606816	-35.1906838952124
7.923394	3780258.37503373	6461472.24963927	7486052.16485105	-59.670403095002
6.75822	7065546.52804289	-62396.954693085	7065822.04134055	0.505974903583905
5.761429	568150.190931325	6767582.13411373	6791388.85511872	-85.2011732629135
4.919708	6814102.31700695	-2412555.3847241	7228583.11642058	19.4966766076471
4.191257	5283321.37545469	7061307.88433152	8819044.94793279	-53.1958997959324
3.564097	6029445.12681906	4776910.9754568	7692404.50085419	-38.3885103188643
3.051758	4670383.53840882	9480244.77825824	10568231.8034538	-63.7731246828158
2.604164	11235891.2304407	-1657489.49374919	11357487.5374875	8.3916028928435
2.214424	10182882.5804022	-6914599.31858214	12308646.6105252	34.1781299613454
1.892567	-2938875.73435104	11173676.9357955	11553702.7332144	-104.73605469634
1.607507	15721587.0960897	-4463526.80224936	16342930.3472276	15.8498117007953
1.376413	-9646214.79916472	11021850.5426423	14646864.8295793	-131.192094407608
1.17375	12366362.1252397	11696201.4189131	17021399.4678565	-43.4046813307213
1.001604	29379557.0954299	258584.091355883	29380695.0369784	-0.504275625355106
