EC-Lab ASCII FILE
freq/Hz	Re(Z)/Ohm	-Im(Z)/Ohm	|Z|/Ohm	Phase(Z)/deg
6999984	-0.525292848802629	0.876073435504032	1.02148775881017	-120.946864185535
5969734	-0.933662512247777	0.298263325708926	0.980146263697301	-162.283649160382
5091109	-0.518222485074375	0.192959724953728	0.552981011871908	-159.577225719302
4341796	0.0532598184650586	0.301149018508542	0.305822398806217	-79.9706415511642
3702781	0.836595769968109	0.190779440246339	0.858073002226057	-12.8462007809589
3157797	1.72800442727249	-0.864453034397079	1.93216933764917	26.5770082905542
2693047	1.68514851827351	-3.4213995165669	3.81388255988613	63.778281302972
2296687	0.518104289544204	-3.41067071395635	3.44979807726244	81.3624133313164
1958656	-2.39066990150767	-6.07807066154812	6.53132800774442	111.471058986544
1670375	-6.96893055792325	-7.96308318703531	10.5819037495529	131.190948492018
1424531	-13.8040834821759	-8.77290942862993	16.355936556059	147.562816417424
1214875	4.8375211996443	3.33308563176787	5.87461242855267	-34.5671110084597
1036062	5.15266963758128	2.54633167450843	5.7475046229348	-26.2975309372453
883578.1	6.69304639917275	2.83339975068786	7.26808257029853	-22.9446334863412
753531.2	2.09253946264305	4.54174048967907	5.00061277028214	-65.2628149501559
642624.9	1.33282354373985	5.90350923710234	6.05209384521587	-77.2777399140493
548046.8	0.847532145268495	7.06620842875279	7.11685410106463	-83.1605267797755
467390.6	0.655419024860935	7.96101441822879	7.98794871449462	-85.2935340594885
398593.7	0.631512248016023	8.65853352823521	8.68153273212556	-85.8285047528022
339937.5	0.752692685187748	9.13818585105291	9.16913228864753	-85.2912995240875
289906.2	2.20970096596583	34.0877520076282	34.1592976405041	-86.2910535808113
247234.4	3.21387317242005	33.4730532382722	33.6269872849265	-84.5156292610394
210843.7	4.02016963772382	31.3000555034482	31.5571741199211	-82.6810184010305
179812.5	4.51933515044321	29.2357958711542	29.58303822162	-81.2126421636692
153343.8	5.28025322053397	30.036003739278	30.4965997235574	-80.0294270209446
130781.2	5.99235883804384	34.1401717118451	34.6620785435345	-80.0447249940746
111531.3	8.65334543148883	83.1423204724687	83.5914220521661	-84.0581224616274
95109.37	12.9766053266095	41.6881358145221	43.6611148906281	-72.7097765965893
81109.37	11.7773910724699	26.4967026827921	28.9962444729344	-66.0355631284489
69171.88	11.6211627361348	20.7122666462618	23.7497244818877	-60.7042481405361
59000	13.1098709227631	16.3890828158486	20.9873950540855	-51.3431662808635
50312.5	11.1879275947416	13.9551413855088	17.8861872671266	-51.280622207947
42906.25	11.9014522475893	11.9998673621123	16.9009284452049	-45.2359174693169
36593.75	12.4289733467389	9.85586710972879	15.8624555141561	-38.4135428449336
31203.13	13.0029602525549	8.05559875430219	15.296066377335	-31.7790582703075
26609.38	13.5711823646782	6.43948941586014	15.0214518177281	-25.3842132934949
22703.13	14.1698835369797	4.92590992607913	15.0016728417671	-19.1691051770149
19359.37	14.5967166798391	3.50729731953954	15.0121708063538	-13.5108948486681
16500	14.041122316722	3.59723691757764	14.4945931075809	-14.3697127469456
14112.02	14.8679954075034	0.979597952838458	14.9002315279578	-3.76956152684787
12011.13	14.5410881989935	-0.0288302316576591	14.541116779435	0.113598680462982
10236.38	13.2385468798925	-0.390333519163407	13.2443000474655	1.68885498058998
8750.684	18.9671296422611	13.9911048786842	23.5691116207778	-36.4143441286954
7449.463	18.2629240402918	17.4922953797908	25.2886297010202	-43.7653009669766
6363.206	17.8239537035825	21.9041744937621	28.2397979079283	-50.8639214627043
5414.761	17.4489595138017	27.0700849156937	32.2064540963012	-57.1947957016905
4620.567	17.0518068205989	32.9689315954033	37.1175775932294	-62.6516170946267
3941.215	17.2479591499571	39.9427715967154	43.5076671135786	-66.6445026731139
3361.769	17.5202055447263	47.4077768468519	50.5416156042758	-69.7175045115186
2867.244	17.8462549615679	55.9446130655367	58.72212996142	-72.3073883370689
2442.658	19.6680901606044	64.7004876316826	67.6238631722795	-73.0914237839259
2083.003	20.8361305236374	75.1004936942048	77.9373369336633	-74.4936806917291
1777.843	22.6289823812979	86.3709291724866	89.2861033405076	-75.3186253251585
1513.548	25.1558502659655	98.9009430624851	102.050053117343	-75.7292068811492
1292.065	27.5110386488047	113.802870454837	117.080957338486	-76.4098807417646
1101.762	28.775071128072	130.688017872524	133.818394602068	-77.5826680526179
939.101	32.0852675628975	151.349794368416	154.713362868062	-78.0308356399693
801.2801	35.7361406477653	174.478962969963	178.101039490146	-78.4249733072397
684.3433	36.9008751477405	201.438136396144	204.790130087904	-79.6192465354104
582.9476	38.6458436449996	234.069020676626	237.237871495149	-80.624787465865
497.0677	42.4889468205123	272.732804471399	276.022631747382	-81.1450904396233
423.5089	47.0745382733001	314.657330893187	318.1591552014	-81.4913288352209
361.5036	53.5215004796706	366.450688227016	370.338572006278	-81.6904889648084
308.1262	56.6855124125464	426.604053295185	430.353651785777	-82.4310942107945
262.7298	62.5632372901874	497.512980963204	501.431276335174	-82.8325657378426
224.2111	70.4617934670159	580.271907502306	584.534302650369	-83.0765311670093
191.2854	78.7036833406943	677.346959322813	681.904079086827	-83.3722919808559
163.1722	90.9679088522672	788.993289082599	794.220102149481	-83.4230560415045
139.1537	106.111924203994	916.531855248073	922.653988309133	-83.3959551377948
118.6706	113.892334503826	1076.24578736626	1082.2552650287	-83.9592299461879
101.1982	143.790587601455	1252.19203929567	1260.42081717108	-83.449354804301
86.24196	171.216920317752	1451.54620331089	1461.6092549479	-83.2727692118416
73.61024	214.713169065778	1706.19340735078	1719.65045525465	-82.8274091176864
62.69291	367.244376107548	1971.6592422949	2005.56939533627	-79.448906182918
53.57697	452.042744123042	2288.34530934946	2332.56659011827	-78.8255853975952
45.65746	549.456129666726	2668.40714744372	2724.38960924407	-78.3647554429715
38.96512	661.378040531204	3096.91984206665	3166.75439854167	-77.9450065622587
33.18414	817.942354552016	3607.24578192109	3698.81762547947	-77.2242256559841
28.30617	1016.72528931276	4201.21310361264	4322.49023780213	-76.3955567968864
24.17237	1235.46865504133	4880.99397679408	5034.92651377254	-75.7957272811639
20.61345	1532.68104075583	5647.5357511258	5851.81777167885	-74.8162559303878
17.55618	1895.82305466868	6530.04805917869	6799.68180945231	-73.8107722957127
14.98558	2387.14020478382	7588.72146885277	7955.32097964138	-72.5382903285066
12.76553	2930.57981242749	8749.0880400026	9226.85426181232	-71.4812977880493
10.8809	3701.90615722078	10048.0019135864	10708.2422298109	-69.7750867699292
9.278505	50749.4195274462	47055.5502496787	69207.8636548822	-42.8370978797088
7.923394	59761.2185926371	53335.3127194446	80100.3048093945	-41.7480712689257
6.75822	70240.2643336237	59732.2918592384	92204.3460169561	-40.3778255131365
5.761429	107947.267417234	86344.7421573087	138231.787375625	-38.6555774063307
4.919708	124520.004992886	91862.8260601814	154738.522854497	-36.4175125853024
4.191257	144637.670216631	95724.0802226041	173444.962971424	-33.4973816162166
3.564097	167174.276839237	98191.7675123694	193878.472358137	-30.4283446457543
3.051758	190239.272295906	97187.2620944678	213626.647769174	-27.0610602246145
2.604164	214641.82502605	91912.9693118888	233493.269663692	-23.1813624585554
2.214424	238695.448241302	83938.3015670348	253024.021549485	-19.3744475212118
1.892567	261923.823139035	73425.7026281638	272020.997230376	-15.6598991100212
1.607507	282352.316641897	57537.8376922293	288155.224626143	-11.5180445048
1.376413	300081.072759034	42805.0804130579	303118.665108867	-8.11819316258502
1.17375	315705.478426381	26053.5311203079	316778.685508143	-4.71763249861967
1.001604	327519.080323701	8560.0415171727	327630.923886709	-1.49714215642361
