EC-Lab ASCII FILE
freq/Hz	Re(Z)/Ohm	-Im(Z)/Ohm	|Z|/Ohm	Phase(Z)/deg
6999984	2.68371720810582	104.612231480987	104.646649795799	-88.5304591230801
5969734	12.9706091873937	102.080478243477	102.901218365523	-82.7586541822707
5091109	14.8139987594517	92.6498107856088	93.8266593130873	-80.9157354342324
4341796	15.660874311635	94.3809598788737	95.6714616375353	-80.5786070675775
3702781	14.507660699262	104.663843959562	105.664527876466	-82.1084043805768
3157797	17.9666263418165	110.449841571654	111.901595901533	-80.7607503506496
2693047	18.220082943077	121.807315042164	123.162467579347	-81.4927039339292
2296687	16.269094227295	138.2103797963	139.164623774916	-83.2864629031453
1958656	18.6151575586042	158.514902217129	159.60419266372	-83.3021619467318
1670375	18.8952495979036	181.390899692865	182.372390862088	-84.0530231372508
1424531	21.5590963920419	211.031571099632	212.129956955684	-84.1668698511433
1214875	25.6458776270566	242.628108190576	243.979732607853	-83.9662200312885
1036062	28.4894476208921	278.261180506229	279.715807923799	-84.1542074838709
883578.1	30.9307108819509	321.109178762297	322.595433261321	-84.4979821609494
753531.2	33.6539563306547	372.426219402359	373.943682491147	-84.8365429220922
642624.9	37.1130713939167	432.315000639826	433.905104655963	-85.0933426058698
548046.8	40.6300115033519	501.675029374318	503.317626288296	-85.3697947420204
467390.6	150.447782765097	707.446976990846	723.26741983337	-77.9941663410809
398593.7	175.281744570422	800.740884515535	819.700954076773	-77.6527407909624
339937.5	199.745188636496	908.664357526301	930.359637463984	-77.6022632092114
289906.2	222.759216790913	1030.37622104526	1054.18064180709	-77.8008503810037
247234.4	245.834263656558	1174.02955550292	1199.49150992492	-78.1735021309568
210843.7	267.349031174987	1342.54022557391	1368.90093204521	-78.7376363760426
179812.5	288.530131203625	1541.29169862901	1568.06560349849	-79.3969389108997
153343.8	309.738907028953	1772.3512100832	1799.21288412763	-80.0870092793552
130781.2	320.123933089131	2176.44858113202	2199.86539562038	-81.6326202275001
111531.3	777.186566861231	2003.9352695921	2149.36630764156	-68.8022044337971
95109.37	93.4260904236696	2355.84796887451	2357.69974484073	-87.7290057592511
81109.37	1037.0758243883	3234.52734523182	3396.71803548412	-72.2227624707281
69171.88	1018.5430471574	3576.42432462576	3718.63427735069	-74.103381841686
59000	451.212309555994	4253.85169647655	4277.71513823808	-83.9451924802072
50312.5	326.453793386291	4884.13767907259	4895.03554096933	-86.1760609513286
42906.25	1855.82743979323	6789.25856347902	7038.33270938954	-74.7118057243354
36593.75	1965.77576097294	7489.88962412558	7743.55996451327	-75.2939881399679
31203.13	2004.34201312783	8488.04177417016	8721.48152928429	-76.7137202605225
26609.38	2185.13261895048	9717.69525729348	9960.34164454341	-77.3271861717691
22703.13	2396.42339494961	11115.7434736525	11371.1300256355	-77.8339100457828
19359.37	2405.90136569469	12911.9103088445	13134.1459259861	-79.4450100699111
16500	2597.69134651409	14848.7898894136	15074.3013606504	-80.0769252221609
14112.02	2744.57537088896	17187.5202571408	17405.2735271846	-80.9273664774736
12011.13	2951.66167447431	19978.429251406	20195.2950459753	-81.5957790412732
10236.38	3213.98565359604	23179.5996673949	23401.3577495455	-82.1059406620577
8750.684	3422.61605496064	27029.1857394462	27245.0212405341	-82.7832340716819
7449.463	3778.00356786788	31510.1589425491	31735.838220276	-83.1629904982946
6363.206	4182.78140277124	36586.2611047012	36824.5863776464	-83.4778881024985
5414.761	14473.0655935623	49411.9020616054	51487.9179324746	-73.674351044692
4620.567	16045.0216140025	56003.0574469059	58256.2027770026	-74.0128545100553
3941.215	17345.9216153745	63589.3681979768	65912.7358293113	-74.7420578959183
3361.769	18748.0099494267	72330.6550347588	74720.8908861577	-75.4687975632623
2867.244	20021.6821673063	82605.5294984927	84997.3014897237	-76.3755605698363
2442.658	21242.0865449216	94639.5348400534	96994.1637188734	-77.3494742299997
2083.003	21775.7718156583	109186.120563771	111336.396393695	-78.7210778957634
1777.843	23993.474119122	126165.593239623	128426.802957214	-79.2323854321381
1513.548	24234.4227312671	144660.969635967	146676.867232485	-80.4897986093322
1292.065	29050.8661791331	171447.557738951	173891.396798142	-80.3828846847608
1101.762	29551.992542326	197524.398010717	199722.828121168	-81.4909850605438
939.101	34938.5691765772	229229.506253404	231876.842641273	-81.3338227373394
801.2801	30202.1696154056	264754.021554994	266471.129728944	-83.4920401600382
684.3433	123818.139051458	380478.650315717	400118.651032711	-71.9736977171847
582.9476	148092.774896915	444806.4364374	468811.514228061	-71.5854615152041
497.0677	137957.190112926	461152.962440831	481346.279794296	-73.3450721998304
423.5089	192159.301721736	571713.891524102	603143.40831996	-71.4219393604737
361.5036	170004.065257066	649649.928358629	671525.436316674	-75.3353556927763
308.1262	171480.81798114	738610.488156693	758255.315939525	-76.9293815746097
262.7298	261140.616754744	751037.06827585	795142.188318185	-70.8270945775689
224.2111	192190.563932418	847525.704303127	869043.745917991	-77.2233089235119
191.2854	304768.98740434	995144.505162908	1040767.37162509	-72.9724777456568
163.1722	252285.077203598	1328820.6451014	1352557.60211065	-79.2499752364486
139.1537	303663.880197771	1584202.37989317	1613043.37591893	-79.1490200729466
118.6706	440429.578588357	1485981.30078738	1549876.97575816	-73.4907180713526
101.1982	277172.936718465	1836770.15195566	1857565.45724891	-81.4186777867983
86.24196	133690.769169259	2089688.91415949	2093961.07407042	-86.3394112187203
73.61024	53242.9885570681	2512706.5493811	2513270.58215648	-88.7861128912675
62.69291	187238.467947961	1412267.36657142	1424625.3397164	-82.4477672826328
53.57697	-454306.997086484	2627205.74729071	2666196.70808421	-99.8107948978363
45.65746	1874566.49831057	2834276.3089431	3398105.61225288	-56.5196852612658
38.96512	715026.582771298	3092724.44954693	3174304.25997493	-76.9821509875413
33.18414	719788.606494371	4750415.61380561	4804637.77426844	-81.3840138401929
28.30617	2067310.84325677	4604572.30793008	5047361.71297476	-65.821391504629
24.17237	3404791.03877597	2243402.70704491	4077432.73687078	-33.3807216795501
20.61345	2960582.81263478	-30590.9848688619	2960740.85303387	0.592002339283177
17.55618	2611534.41026925	1651588.56260267	3089960.63990147	-32.3101099323025
14.98558	2576972.10942536	473023.24268203	2620026.00003771	-10.4012981958885
12.76553	2609883.87771067	-1518115.20844387	3019299.19703938	30.1856741012046
10.8809	1889346.05832369	-2297488.17389927	2974572.31166268	50.5677309305114
9.278505	1224728.94366384	-3574421.48693428	3778418.97514098	71.0866444587632
7.923394	1867924.65716963	-2766068.86053697	3337705.7189175	55.9688665553388
6.75822	3630033.31577843	-2440855.28542903	4374347.53969872	33.9171133081956
5.761429	2919332.29720855	2772200.92961918	4025866.24910794	-43.5191812165002
4.919708	4479468.82191028	-2288005.73984621	5029971.29137289	27.0568604439762
4.191257	560076.21224569	4580414.27306447	4614529.25837687	-83.0286891911159
3.564097	3471199.43178134	3870897.46273047	5199333.86715763	-48.1160617138805
3.051758	4133217.42686429	-5026445.85477891	6507583.59368197	50.5697362827944
2.604164	6347777.28270951	-3863398.65873898	7431024.53415604	31.3256252008189
2.214424	-530127.878742952	7945512.41677659	7963177.95437045	-93.8171406987522
1.892567	-525867.020472883	7610083.67609619	7628231.09773208	-93.9529316961982
1.607507	1857482.13104238	6876871.91108287	7123314.33734201	-74.8847816826854
1.376413	2770937.45767168	7362178.1237557	7866368.99212305	-69.3749330458098
1.17375	3302146.56313317	7706721.18701142	8384373.76187053	-66.8060194755613
1.001604	5680920.72961951	7820647.68895954	9666198.35359532	-54.0053344618476
