EC-Lab ASCII FILE
freq/Hz	Re(Z)/Ohm	-Im(Z)/Ohm	|Z|/Ohm	Phase(Z)/deg
6999984	2.42666521076166	0.682577754004849	2.52083645550108	-15.7103480438825
5969734	4.33882663988622	0.68536349296248	4.39262333104856	-8.97630632277451
5091109	5.77228796182059	-1.35675653086577	5.92959497758707	13.2270802048501
4341796	4.44900336253547	-5.14986966443239	6.80549693119414	49.1760680123402
3702781	2.64651721295043	-6.4292778321324	6.95267335642859	67.6262085592911
3157797	1.04482669169041	-6.04716861245613	6.13676714917091	80.1972463591384
2693047	0.246568791092581	-7.84035212012872	7.84422829450723	88.1987165596994
2296687	-2.80340810343735	-7.64499902586204	8.14279479661926	110.137900788833
1958656	0.188641040835235	-7.31960337226944	7.32203380008762	88.5236982210976
1670375	3.99451320946442	-6.98531817844599	8.0467885416925	60.2371729459454
1424531	2.20226676911387	-12.3941009349039	12.5882372438292	79.9244611528766
1214875	10.558376463157	-0.221455768810512	10.5606986603769	1.20156927273388
1036062	3.65175108482796	-12.1955178428263	12.7305122222256	73.330519071834
883578.1	10.299423244138	-11.4069415319553	15.3686835570044	47.9208549930794
753531.2	3.01433176911299	-7.20632427911942	7.81135747678403	67.3009404189953
642624.9	3.50627254781943	-3.64280752408717	5.05608483286606	46.0941165731756
548046.8	1.93891438253407	-1.50336149479543	2.45346383034904	37.78865788483
467390.6	0.0401975168890274	-0.160760234858947	0.165709666211562	75.9612547881772
398593.7	0.043275033289071	-0.159700592731573	0.165459988592366	74.8383148055003
339937.5	0.0420847674683207	-0.135367294588936	0.141758358121102	72.7298874151984
289906.2	0.0442142457430457	-0.131160790441513	0.138412616751035	71.3710607082661
247234.4	0.0466783722804183	-0.127490983804116	0.13576752700882	69.8907669487661
210843.7	0.0454221485986864	-0.123001594447424	0.13112041725044	69.7317711606173
179812.5	0.0432185858734608	-0.114270921106236	0.122170739440217	69.2828014323528
153343.8	0.0422016117698136	-0.105062002358765	0.11322102444159	68.1155145163328
130781.2	0.0396236092448419	-0.0953008176339089	0.103209865087013	67.4237252744918
111531.3	0.0387533945070137	-0.0870489740110152	0.0952856204376434	66.0018159143157
95109.37	0.0367894298537884	-0.079185254532993	0.0873141837528228	65.0804424839658
81109.37	0.0356010184458693	-0.0725297864661298	0.0807960546017286	63.8560316757712
69171.88	0.0458937468474273	-0.0752518462918688	0.0881423642185232	58.6222914003692
59000	0.0457152463335949	-0.0708564878296741	0.0843239326342054	57.1706684489376
50312.5	0.0435745607454918	-0.0664732747482244	0.0794823162717059	56.7543573149955
42906.25	0.0395215912251563	-0.0628118211676522	0.0742110574737046	57.8216401774534
36593.75	0.208968164119288	-0.183195803381129	0.277899974796406	41.2400238624052
31203.13	0.132100536040146	-0.155029454733113	0.203677891428943	49.565696501763
26609.38	0.0773079415700225	-0.120435478640103	0.143112621194166	57.3034571475371
22703.13	0.0441163235855951	-0.0953665808029477	0.105076328165549	65.1748659286034
19359.37	0.0232323264462288	-0.0744452931089782	0.0779861696596634	72.6682944522218
16500	0.0193632797246296	-0.0597112440041973	0.0627723606551724	72.0330561447603
14112.02	0.00374622644623354	-0.0455914404596036	0.0457450943355464	85.3025867926516
12011.13	-0.00090964869880281	-0.0351426681298688	0.0351544390375004	91.4827387540507
10236.38	-0.00319321524189955	-0.0261863976187311	0.0263803723216217	96.9524230494876
8750.684	-0.00400817422223757	-0.0192934107139464	0.0197053586004627	101.736162272594
7449.463	-0.00389020131268967	-0.0139110959868539	0.014444800372754	105.623509025218
6363.206	-0.00343713959829415	-0.0106050735596787	0.0111481619033972	107.957681786801
5414.761	-0.00269900411778696	-0.00879815147054314	0.00920283068009248	107.054413822778
4620.567	0.0325349893075172	-0.00665343192894526	0.0332083375927397	11.5576759954892
3941.215	0.0289018933510957	-0.00634132585540707	0.0295893875043497	12.3750976930685
3361.769	0.0359806444177349	-0.00656392383030291	0.036574470177509	10.3387369342381
2867.244	0.0437574989455944	-0.00751264715154502	0.0443977317122993	9.74203003849914
2442.658	0.0502581829838562	-0.00793416447748551	0.0508806045836188	8.97113824346243
2083.003	0.0550426943521424	-0.00874958345372998	0.0557337726352447	9.03216397822181
1777.843	0.0595468711177026	-0.00930766702267803	0.0602699139315242	8.88391687830966
1513.548	0.0625777789332504	-0.00997319854414559	0.0633675240594085	9.05523698863173
1292.065	0.065643053347229	-0.0103681523811131	0.0664568208428987	8.97557293679674
1101.762	0.0682220640794558	-0.0107235320924427	0.0690597145070773	8.93298498388466
939.101	0.0706563255786128	-0.0105191972194758	0.0714350743991575	8.46790368242107
801.2801	0.07237073517137	-0.0105771044303928	0.0731395819469595	8.31500416521246
684.3433	0.0745534803746841	-0.0100932697644916	0.0752336063904769	7.70999511102202
582.9476	0.076099692423609	-0.00899000652013766	0.076628867955882	6.73738779463155
497.0677	0.0806655217295511	-0.00682857081149641	0.0809540349533505	4.83871796129584
423.5089	0.0861364188247686	-0.00469833661965733	0.0862644597441355	3.12212151018122
361.5036	0.095643494541375	-0.0022957909111506	0.095671044229661	1.37504255845005
308.1262	0.107662141633885	0.000368630907399505	0.107662772720846	-0.19617771237648
262.7298	0.115595496206339	0.00206265290924126	0.115613897435445	-1.0222609848321
224.2111	0.121960292882405	0.00314026751174093	0.122000714424167	-1.47494176073568
191.2854	0.130128756077936	0.00284653635767061	0.130159886015725	-1.25313203654889
163.1722	0.136912984866599	0.00260336496895618	0.136937733785262	-1.0893331432035
139.1537	0.147823675376325	0.00124274374197565	0.147828899115745	-0.481670434984912
118.6706	0.157955074678392	-0.000120759189604613	0.157955120839555	0.0438035344406457
101.1982	0.162080139022905	-0.003708810549817	0.162122567033028	1.31084607525241
86.24196	0.171663903622049	-0.00729900763388852	0.171819007444461	2.43470279040152
73.61024	0.175612522825555	-0.0109292653187109	0.17595228618453	3.56121631084666
62.69291	0.178012931015774	-0.0137281955337212	0.178541499269606	4.40986993783853
53.57697	0.192909111865595	-0.0173560103997431	0.193688297369171	5.1410528928837
45.65746	0.20405602298567	-0.0212470403123039	0.205159199741959	5.94441993574844
38.96512	0.209553447158685	-0.0256765498924294	0.211120658464458	6.98562175937197
33.18414	0.224158263380335	-0.0292606637881766	0.226059977632071	7.43709531320121
28.30617	0.236656896970256	-0.0332344156770236	0.238979106344014	7.993935805555
24.17237	0.248490772455594	-0.0378750267387303	0.251360660498092	8.66633615560873
20.61345	0.242426846309228	-0.039142638092661	0.245566532590031	9.17191411403217
17.55618	0.231442247596852	-0.0372978073573386	0.234428326800214	9.15472538017825
14.98558	0.220909781921501	-0.0365828050547184	0.223918363191313	9.40288486040531
12.76553	0.241529408976249	-0.0419725641593672	0.245149243405988	9.85831182302094
10.8809	0.259033811970118	-0.0480332816064244	0.263449638234051	10.5051754441457
9.278505	0.26616258931003	-0.0510862305653752	0.271020897536699	10.8649986690658
7.923394	0.277947540333219	-0.054666253513666	0.283272367961485	11.1268174631288
6.75822	0.283011334860911	-0.0566587043584013	0.288627137392393	11.3209183753853
5.761429	0.289121340420792	-0.0596675717648177	0.295214106382173	11.6607396436773
4.919708	0.298080354245126	-0.060441692278518	0.304146503764865	11.4624446803605
4.191257	0.309984797075196	-0.06433035308159	0.316589590393229	11.7240285617275
3.564097	0.304961570428644	-0.0646909713785495	0.311747463848874	11.9765196028857
3.051758	0.305834037408181	-0.0639885374526527	0.31245638313646	11.8173175499307
2.604164	0.302355102396497	-0.0637063357734658	0.308993697610287	11.8982077314473
2.214424	0.286994341313232	-0.0593502234533674	0.293066888217998	11.6840246484715
1.892567	0.282342645529372	-0.0576885628326855	0.288175883387603	11.5477924735232
1.607507	0.299476356491821	-0.0632539952930398	0.306083576851402	11.9264545507472
1.376413	0.239472158418397	-0.141212230966152	0.278006850332872	30.5270538146994
1.17375	0.323727191809205	-0.208045477469613	0.384814520791813	32.7271028860207
1.001604	0.324148870321112	-0.205664262339428	0.383888367802509	32.3940940859127
