EC-Lab ASCII FILE
freq/Hz	Re(Z)/Ohm	-Im(Z)/Ohm	|Z|/Ohm	Phase(Z)/deg
6999984	2.30858062098018	0.799303733991299	2.4430372372802	-19.0974739934676
5969734	4.1680949185308	1.34264451000973	4.37900782485503	-17.8550092851485
5091109	7.10002530399471	1.08645476354015	7.18266964788053	-8.69998596691676
4341796	6.09474233544925	-12.6717629661788	14.061275219785	64.3138249540807
3702781	-0.0796006034550636	-9.9864736241134	9.98679086099149	90.4566859345304
3157797	-3.11146620509783	-4.06299338608638	5.11753233510522	127.445122314791
2693047	0.726295079337512	0.50767279170554	0.886135545900275	-34.953152782085
2296687	0.862358441888607	0.625184620679373	1.06513749921339	-35.9410122349819
1958656	1.03033667823171	0.642222715378863	1.21410200834121	-31.9358424413671
1670375	1.24765847452534	0.659376488570012	1.41118001074768	-27.8560563540924
1424531	1.60942329423719	0.615218221350202	1.72300226346763	-20.9198579341284
1214875	2.13244056405827	0.427796378321801	2.17492815985871	-11.3437278252094
1036062	2.90528767340496	0.0482991620511786	2.90568912210058	-0.952430034677148
883578.1	3.77957866387151	-0.501947745980973	3.81276361922532	7.56491073813899
753531.2	4.93353178960505	-1.22946714050592	5.08441986549374	13.9934341741494
642624.9	3.8444648988794	-1.42972719295818	4.10171064374364	20.3997841434882
548046.8	3.56214826717047	-2.02860069674295	4.09928299390656	29.6609937298915
467390.6	3.10103652367745	-2.47218744096784	3.96587169036779	38.5623170660172
398593.7	2.75108852000381	-3.16432858376337	4.19302557002919	48.9960847801558
339937.5	2.19194992765593	-4.25656006248561	4.78779156301716	62.7534316948215
289906.2	-11.712432119948	-3.07335319271666	12.1089457019004	165.297006092314
247234.4	-16.2733914877915	15.4555396971352	22.4431944661326	-136.476541447879
210843.7	-25.022876112672	57.2954068744774	62.5212602069252	-113.592549814575
179812.5	-13.5165592971109	67.5658920496972	68.9046235292208	-101.312689166213
153343.8	-2.62001973546267	60.7408481375818	60.7973283614255	-92.4698877392816
130781.2	6.10593412577025	48.1646996256408	48.5501876574793	-82.7750407752115
111531.3	11.5044201248844	33.6767992820006	35.5876171201445	-71.1391846885767
95109.37	4.2172151116132	105.320564343996	105.404962772326	-87.7070041799181
81109.37	12.5404080595099	85.2421636025729	86.1596674201266	-81.6309586498943
69171.88	17.6146596918222	62.1534366582157	64.601284232479	-74.1769496225808
59000	20.4225597391425	39.3552632791107	44.3386704138382	-62.573924017607
50312.5	16.245549352566	1.43763388993556	16.3090362979591	-5.05715983956285
42906.25	16.6223552537185	-0.680792287467045	16.6362908221604	2.34531965548773
36593.75	15.953215781936	-2.28819075036456	16.1164794758367	8.16233956069985
31203.13	15.2438988090279	-3.44650946468131	15.6286556808326	12.7398712733385
26609.38	14.3733744238624	-4.32305683695248	15.0094207997532	16.7396266157894
22703.13	13.403460834706	-4.95682850570719	14.2906581787715	20.2952537233445
19359.37	12.3543737413366	-5.30445923490178	13.444993057468	23.2366929928312
16500	11.2554672075301	-5.34259742911156	12.459088624347	25.3921430293795
14112.02	9.84296891710468	-5.61675980485146	11.332785527331	29.7106691707293
12011.13	8.63597074867436	-5.44892937545215	10.2113085405654	32.2501785469318
10236.38	8.33770943576457	-4.78961224459723	9.61549707965393	29.8752914044263
8750.684	9.39255344935229	3.44990134171127	10.0060921226261	-20.1683722196128
7449.463	10.9804856717971	8.47389172635479	13.8700362861286	-37.6581896653008
6363.206	11.9298638851182	12.7356581531638	17.4504624841778	-46.8711218278864
5414.761	12.6292307344687	17.2177428017783	21.3529420954734	-53.7399174928312
4620.567	13.2632262306814	22.1192212397901	25.7909503179122	-59.0520670424968
3941.215	13.6142498308756	27.9599055097455	31.098297615326	-64.0376020010482
3361.769	14.2229872407136	35.2529650392108	38.014009392661	-68.0281384525753
2867.244	14.4855624308516	44.0583255792673	46.3785248987806	-71.8000915052601
2442.658	15.1769593624127	54.2986457997269	56.3798104925206	-74.3838446824025
2083.003	15.5805581041401	66.5070602863428	68.3077071695992	-76.8151337902607
1777.843	16.6773634528189	80.7487384964713	82.4529758135444	-78.3305498626022
1513.548	17.8693829617522	97.6104822161035	99.2326613867331	-79.6258355500544
1292.065	19.6076431738177	116.771027067079	118.405795606179	-80.4680835088968
1101.762	21.6368643745579	138.997528768199	140.671485751837	-81.1521378205034
939.101	24.6787560713226	165.694577079665	167.522338435317	-81.5285710919044
801.2801	27.8484740211204	194.519315857591	196.502676182821	-81.8525787250509
684.3433	32.1494909368617	233.043947240062	235.251081002252	-82.1453601583627
582.9476	31.3612440625032	271.571539829959	273.376350247718	-83.4126282096331
497.0677	39.7599526920524	322.248832038999	324.692413814325	-82.9662367914466
423.5089	46.4242308112998	375.835103090393	378.691475902729	-82.9583299738738
361.5036	52.3206859487581	438.714982386252	441.82382229608	-83.1990868393878
308.1262	58.7876293315437	511.957713859721	515.321924764408	-83.44946939586
262.7298	67.0418382504304	597.398859422147	601.148904444547	-83.5968914365472
224.2111	80.3669790609708	700.235723583958	704.832547422816	-83.4527352552922
191.2854	89.2508121780862	814.038816591165	818.916908111923	-83.7431102658645
163.1722	107.875693181785	957.117101077636	963.177195719826	-83.5693894623809
139.1537	124.043527242746	1115.90264728501	1122.77580792807	-83.6570520050359
118.6706	152.442849360695	1310.42473177416	1319.26183904735	-83.3645570506216
101.1982	174.187081079386	1519.39161388668	1529.34365515542	-83.4600118192904
86.24196	222.946946264222	1782.90439273026	1796.78975243777	-82.8723290088247
73.61024	273.768072669783	2074.09541052736	2092.08525867948	-82.4807696516323
62.69291	333.334908691365	2415.42620465158	2438.31825475466	-82.1426672567256
53.57697	423.811397898596	2803.66838195059	2835.5197930782	-81.4040673630224
45.65746	518.729902450279	3257.15384985879	3298.20131486027	-80.9511442259715
38.96512	653.411616454466	3794.47566589138	3850.32366425986	-80.2294465872248
33.18414	846.300583442063	4415.80908727102	4496.17554959319	-79.1506816505524
28.30617	1064.67902891877	5090.31734576957	5200.46845152068	-78.1864509771268
24.17237	1364.22838621584	5885.09953913446	6041.15185004297	-76.9487475480852
20.61345	1758.98418861557	6827.99828503124	7050.9280209196	-75.5539390916187
17.55618	2241.28979297106	7898.91952925133	8210.74355132739	-74.1589014520342
14.98558	2863.33462969248	8940.48557652478	9387.80951796764	-72.2414981906289
12.76553	3704.83885615731	10153.254689624	10808.0716014682	-69.9533912357739
10.8809	4741.40342013258	11533.5942520298	12470.1524755273	-67.6526792094261
9.278505	6011.60444933868	12924.8126207546	14254.4789219714	-65.0558625945547
7.923394	7532.91334172856	14358.1270226996	16214.2096635627	-62.3164940802547
6.75822	9386.50139397413	15715.0114260563	18304.8625381388	-59.1503293043618
5.761429	11575.2688047922	17002.8961941133	20569.0380643089	-55.7536636074877
4.919708	14054.5484429006	18032.4120792413	22862.5942825701	-52.0669781338743
4.191257	16770.7174652516	18820.9932301984	25208.862538212	-48.2969043827576
3.564097	19671.9729380379	19289.2267075935	27551.0578064043	-44.437157007125
3.051758	22562.4280580818	19328.041980111	29709.196668053	-40.5849211081865
2.604164	25436.9700579132	19056.2337243532	31783.3209322806	-36.8389001253094
2.214424	28192.4434967638	18403.7549804035	33667.6709574177	-33.1361145376528
1.892567	30643.4520190681	17522.5207842093	35299.5734574509	-29.7617598173211
1.607507	32918.768644267	16475.8672118224	36811.6765366151	-26.5879976210648
1.376413	42528.691582028	-1973.11504134998	42574.4382305353	2.65632802217828
1.17375	42582.5107103771	-3902.52204250942	42760.9622984756	5.23630884519759
1.001604	42737.1082839475	-5396.70730371649	43076.500254731	7.1970374561973
