EC-Lab ASCII FILE
freq/Hz	Re(Z)/Ohm	-Im(Z)/Ohm	|Z|/Ohm	Phase(Z)/deg
6999984	3.21263140083194	1.56700602083618	3.57442420355338	-26.0014549966114
5969734	5.93118826876737	4.65671287894053	7.54082018857725	-38.1362771087138
5091109	2.01322712424945	-10.8640533799742	11.0490153089197	79.5015610042906
4341796	-7.76269689654254	11.4795100243552	13.8577997354148	-124.067421520936
3702781	15.1419434908754	18.3191761898614	23.7670079933519	-50.4241419774737
3157797	-21.9618621087848	-16.4754305350669	27.454748197736	143.123367533412
2693047	-22.2335174898758	-20.1374347111463	29.9974261682281	137.832102295379
2296687	-7.03126669695247	-20.6313647175576	21.7966034388974	108.819353014899
1958656	23.5688807208323	-33.3899794435707	40.8703176605577	54.7829986180227
1670375	-43.4144623424599	-27.1370177655132	51.1979811485828	147.991789918639
1424531	0.2353782702294	-12.6789727511987	12.6811573981137	88.9364570167098
1214875	1.44712881162524	-48.929248518505	48.950643942476	88.3059169631684
1036062	7.3953743252339	-19.0343093489468	20.4204920068478	68.7674258956326
883578.1	0.100174457502726	-11.5175540719164	11.5179896996592	89.5016798816064
753531.2	0.725761112412172	-10.687666044856	10.7122796210077	86.1152128334856
642624.9	19.5884363898641	-10.833240337823	22.3845021480663	28.9444641704568
548046.8	7.07630870043912	-6.39164392871108	9.53557847932361	42.0897832979417
467390.6	6.68150463468941	-15.2101341502414	16.6129673764718	66.2850862482283
398593.7	23.8197562972373	-17.4572839208598	29.5319750770802	36.2373517362015
339937.5	3.20693571676813	-3.23816852781569	4.55743042799549	45.2776517151142
289906.2	10.0504939930269	-3.35054486324829	10.5942711115257	18.4368994923054
247234.4	-3.21342344396791	-7.88805928868305	8.51748610635917	112.164910876447
210843.7	1.6511449014774	5.72030419556631	5.95383570276241	-73.8994088666194
179812.5	8.3592570348023	-1.60280581732304	8.5115312759771	10.8541697667378
153343.8	9.00667906185682	-1.60854228003805	9.14918990894604	10.1259461387045
130781.2	37.7740257881685	5.02437186647779	38.1067098671332	-7.57651313349039
111531.3	7.65080658041775	5.45819908609703	9.39823273783077	-35.5046246598985
95109.37	72.1557330415163	-189.730179496484	202.987661749493	69.1778355642848
81109.37	45.9688512060089	-41.8665532937217	62.1767124082339	42.3259794194064
69171.88	-16.6627986433685	-291.512526920565	291.988359717032	93.2714556946696
59000	29.1062495238032	-318.334713460438	319.662577658507	84.7758093958083
50312.5	-28.3363477478799	-399.196064918521	400.200508308174	94.0602466912262
42906.25	-63.1887783021062	-472.134854366741	476.344562697232	97.6229555571292
36593.75	-54.9788855432095	-501.422051328462	504.427151741474	96.2572533566554
31203.13	-69.212280662784	-678.900014623956	682.418910678003	95.8210605872223
26609.38	-85.9343217516448	-748.312182282128	753.230263469781	96.551008818219
22703.13	-187.647049333227	-661.641249779554	687.735820306981	105.833784536031
19359.37	-199.630224860423	-988.137193014331	1008.1008575019	101.421551147288
16500	33.3137761244888	-25.5937607586307	42.0100972320058	37.5337604209322
14112.02	79.8891778746564	14.4378399584179	81.1833231898853	-10.2441129543723
12011.13	-109.517776885115	-1580.49681860341	1584.2866966144	93.9638751900852
10236.38	172.630022580737	-299.218456496444	345.445812544225	60.0177874061898
8750.684	1861.64002475885	-159.769086248518	1868.48327332754	4.90520111905385
7449.463	201.575570383458	-6.97648998565937	201.696261710366	1.9822042150768
6363.206	304.45232367803	42.8028736865685	307.446423607074	-8.00274789644411
5414.761	466.504533779064	-43.1968898858643	468.50021486893	5.29032787908032
4620.567	893.920511707902	-954.832391949344	1307.97506779289	46.8870729729028
3941.215	178.552482027728	-696.457037295618	718.980801994637	75.6206313789719
3361.769	1033.59953290577	-385.380873192314	1103.10761571367	20.4481303222413
2867.244	11.8329003436634	193.647979732146	194.00916881654	-86.5032771481278
2442.658	205.871112262072	-110.856472499354	233.820598662784	28.3013591524681
2083.003	290.49325821998	58.0644653571218	296.239455860404	-11.3034488922117
1777.843	447.756696727827	278.4495231348	527.276205037372	-31.8765241208372
1513.548	-13.5483203266134	43.901318890418	45.9443444179009	-107.15067073236
1292.065	82.7832731560753	-21.7338628840369	85.5887323793003	14.7104106406643
1101.762	-15.4500906362691	209.976678852497	210.54432066098	-94.2082416897085
939.101	665.277266933605	571.33412401767	876.935871752139	-40.6556871254631
801.2801	18869.3484717445	-9373.29873259606	21069.1964934265	26.4157665078485
684.3433	-3505.9747871226	-21685.2348846675	21966.8220553438	99.1838644784041
582.9476	-3873.13987182383	-25190.4363608411	25486.4531960863	98.7410253985475
497.0677	-4322.34403174992	-28825.1123044444	29147.3799387293	98.5279996903179
423.5089	-4908.15504583143	-33381.3873992994	33740.287649278	98.364420239808
361.5036	-17230.9149980974	-53179.9310461302	55901.7843878245	107.952926237102
308.1262	-21070.6735077403	-60960.6749712966	64499.4354628461	109.067386444411
262.7298	-21323.6282327688	-72078.5773502959	75166.6045119235	106.480252816277
224.2111	-128398.399537499	-226212.576114098	260112.050078361	119.579271224337
191.2854	-178138.370849302	-112773.865886692	210834.589182784	147.66337051047
163.1722	291630.25572373	-99913.2940813892	308270.777706357	18.9115950255713
139.1537	115774.377530866	-327682.070879431	347533.086293222	70.5410167504601
118.6706	-30175.2230021295	-145770.72398276	148861.170402783	101.695310381801
101.1982	-35277.6193461072	-171215.406578378	174811.972920987	101.64242637731
86.24196	-39332.9416997321	-198952.008692158	202802.815723547	101.183200704513
73.61024	-199757.952897519	-286945.317236548	349629.596615891	124.843836629118
62.69291	1441821.60399939	-1543327.21001585	2112038.92363154	46.9475085611332
53.57697	-34627.1081968866	-714556.907304337	715395.422405272	92.7743575116141
45.65746	-201102.359012261	-746654.354121284	773262.493160355	105.074214387026
38.96512	-218661.709684456	-538727.712686344	581412.497026327	112.091514982891
33.18414	-321580.846253383	-293402.591448576	435315.197696775	137.623431066392
28.30617	-479443.209014465	-674092.19172398	827203.767891157	125.422065635964
24.17237	-286643.991889537	-801429.633243181	851148.773791438	109.680393989421
20.61345	-559402.487039443	-1334086.10726591	1446622.57832021	112.749041348583
17.55618	-191783.755282217	-1116576.83760036	1132927.55419566	99.7460506669865
14.98558	-436776.658258899	-727459.452317563	848511.110101677	120.981184357464
12.76553	3046310.37624677	-614753.26965138	3107720.78716473	11.409205442037
10.8809	-1378905.31543461	-1020397.02750498	1715397.90214248	143.498368410325
9.278505	2511313.469447	8941.31825803683	2511329.38679858	-0.203995893378378
7.923394	1036085.49709135	-2399139.53015373	2613301.29193502	66.6425546166105
6.75822	15007143.6379709	-4507563.05530775	15669476.2155046	16.7182266421412
5.761429	-1296423.16707917	-5232725.53484809	5390930.30479813	103.915006175917
4.919708	3900061.27763289	-5428478.82765503	6684224.73826176	54.3048481492522
4.191257	7163247.17947769	-1143311.38289766	7253914.18977082	9.06837491087408
3.564097	208024.12542753	-6669270.47491473	6672513.9718347	88.2134415750342
3.051758	5644698.0753758	-5957357.90723079	8206870.87731959	46.5436707183911
2.604164	-1159682.45065027	-9521227.86271713	9591592.32870784	96.9444016403558
2.214424	8221648.52163891	-8423791.30114324	11770971.255533	45.6957676661109
1.892567	7778954.29809025	-9699456.94915744	12433486.8432124	51.2704235591937
1.607507	-9470518.7053277	-9462727.48838845	13387827.9070006	135.023577775207
1.376413	-4708477.73337831	-14788608.8070616	15520074.5170253	107.660717761585
1.17375	17188247.6743169	-3225122.86831052	17488203.8994678	10.6271466995731
1.001604	-5614126.03604877	-19359760.8344044	20157349.7939084	106.17160045204
