EC-Lab ASCII FILE
freq/Hz	Re(Z)/Ohm	-Im(Z)/Ohm	|Z|/Ohm	Phase(Z)/deg
6999984	21.5894939554864	12.4467736217222	24.920441866957	-29.9643061274778
5969734	17.1954354489516	-3.50315062790512	17.5486485120893	11.5150364763756
5091109	12.700887111872	-6.82303321003041	14.4175696847178	28.2451004265642
4341796	9.0337934965083	-6.21902149201056	10.9674816277779	34.5442041558104
3702781	5.60626596044593	-4.81127636394423	7.38773295872984	40.6360690505578
3157797	4.21271159586468	-5.2460035116074	6.7281120556758	51.2344017026138
2693047	3.12753523683639	-4.66309406590192	5.6147950029456	56.1502592636993
2296687	2.29656006317167	-4.01648824272115	4.62670140895998	60.239808551803
1958656	1.73524682843186	-3.37311591550826	3.79328255407345	62.7771521475399
1670375	1.47251699891713	-2.83513554798988	3.19473001794765	62.5534694243208
1424531	1.17283340947614	-2.46213113156853	2.72720148053318	64.5292570850499
1214875	1.18151518951426	-1.89690511795318	2.2347767605669	58.082679748915
1036062	0.84027029182048	-1.87036322606221	2.05044208909248	65.8077551091049
883578.1	0.718868541463252	-1.58279279889491	1.73839150485128	65.5735299624554
753531.2	0.640804599535707	-1.36517101365252	1.50808568433732	64.8548690000228
642624.9	0.58379326634131	-1.16964813606221	1.30724570759259	63.4753585166863
548046.8	0.551429718226961	-1.02057761567673	1.16002301863552	61.617141795518
467390.6	0.520671531290157	-0.882402951932616	1.02456518244348	59.4568044289773
398593.7	0.489884475824677	-0.765479669578499	0.908815671185321	57.38195236547
339937.5	0.469295456085578	-0.662672871571517	0.812018201655241	54.6944193428955
289906.2	0.450758188097542	-0.573484221854701	0.729429295307825	51.8326785027115
247234.4	0.435332710368312	-0.495924813426987	0.659890891958066	48.7226922386311
210843.7	0.424685541611591	-0.430920915367736	0.605021193476144	45.4175450903733
179812.5	0.414682397228242	-0.379516717000457	0.562133817746065	42.4647039607635
153343.8	0.406039998894779	-0.331204076376343	0.523989141977941	39.2038922866929
130781.2	0.398914638406899	-0.289237705469864	0.492738611233967	35.9444270634409
111531.3	0.391175909825711	-0.253530170439411	0.46615034028842	32.9482072991617
95109.37	0.384925422747791	-0.222568122289667	0.444639348390483	30.0369743646343
81109.37	0.377871119224825	-0.194345541516201	0.424919724479162	27.2175292688868
69171.88	0.371077440707454	-0.169467587214429	0.40794329277275	24.5457353969446
59000	0.353960499160818	-0.134620767919443	0.378696165971344	20.8231655766221
50312.5	0.350519454353024	-0.103578590953479	0.365502958105471	16.4624239049271
42906.25	0.384653825460897	-0.101276344723531	0.397763074508257	14.7507583285974
36593.75	0.370999614997499	-0.0921626402181313	0.382275642148789	13.9508519508152
31203.13	0.368955432589655	-0.0794713186310786	0.377417277986027	12.1555345363964
26609.38	0.365844798320655	-0.0674241574973082	0.37200595892069	10.4422761373962
22703.13	0.368881329200913	-0.0601823765744881	0.373758415936264	9.26607399808397
19359.37	0.356802517595642	-0.0598383082298141	0.361785377944431	9.52031256051737
16500	0.352529022463493	-0.054028931062061	0.356645253817817	8.71340463847873
14112.02	0.349159574446426	-0.0488205250183273	0.352556168703193	7.95966147025028
12011.13	0.346097821119254	-0.0444576502624705	0.34894152010094	7.31978793422612
10236.38	0.343761419690822	-0.0402648050542382	0.34611149676644	6.68061913628998
8750.684	0.341864613041758	-0.0356535276006164	0.343718762479675	5.95393103514761
7449.463	0.344235288792546	-0.0277035068902812	0.345348256610783	4.60115648140532
6363.206	0.347643228709711	-0.0241272950574887	0.348479469746072	3.97010191176382
5414.761	0.353476361145891	-0.0217509843009011	0.35414494660661	3.52122614857771
4620.567	0.344351134594235	-0.0231506979106092	0.345128466965686	3.84620265335575
3941.215	0.337096983457159	-0.0237502124755343	0.337932609921785	4.03012210559275
3361.769	0.335189309561428	-0.019615777996188	0.335762791253978	3.34921447819691
2867.244	0.34342667582143	-0.0174252756983821	0.343868465985065	2.90466454636404
2442.658	0.344982610398591	-0.0139401510653867	0.345264144227506	2.3139645401492
2083.003	0.346537918588251	-0.0194067939277949	0.347080902197215	3.20532644119012
1777.843	0.329543346421613	-0.0217561038970844	0.330260723107571	3.77712571565919
1513.548	0.324194126486831	-0.0131393478992597	0.324460281254543	2.32088529735658
1292.065	0.329334340555202	-0.0130435827925302	0.329592540754483	2.26806546413906
1101.762	0.342068957808809	-0.0109704314826018	0.342244827957004	1.8368929509069
939.101	0.339429712223326	-0.0104355428778511	0.339590091279421	1.76096630276955
801.2801	0.330406945480344	-0.00963668066994184	0.330547447783198	1.67062059875994
684.3433	0.317441187260381	-0.0161533768741306	0.317851913559944	2.91305207552696
582.9476	0.324213418130498	-0.00907249022632233	0.324340331403247	1.6028941225865
497.0677	0.332281198953683	-0.0156924159370628	0.332651540047598	2.70385945494675
423.5089	0.33815884429004	-0.013722768008035	0.338437170436963	2.32383545704371
361.5036	0.336362231524617	-0.00897228891209283	0.336481875833665	1.5279730153796
308.1262	0.316782191396445	-0.0140989274505081	0.317095784489779	2.5483638659684
262.7298	0.314437948466121	-0.00772750306129648	0.314532888167748	1.40779511785091
224.2111	0.319975312277136	-0.0128017375557799	0.320231299143756	2.29109722158773
191.2854	0.329649043720014	-0.0124530512939148	0.329884177419968	2.1634164417318
163.1722	0.324378525791942	-0.00482090199924619	0.324414347850152	0.85146513089258
139.1537	0.314940566220086	-0.0149374916413542	0.315294606531041	2.7154784660742
118.6706	0.308302834791486	-0.00693164577841027	0.308380747864817	1.28797761077536
101.1982	0.305018941479832	-0.0117843108292052	0.305246498166968	2.21250402787184
86.24196	0.318651463920514	-0.0125197581480844	0.318897318588246	2.24998348908253
73.61024	0.306499805967769	-0.0174703570061416	0.306997303623667	3.2623048020847
62.69291	0.220666086102263	-0.0942393308436083	0.239947021305834	23.125756904538
53.57697	0.296182782584259	-0.0133732884376085	0.296484545200909	2.58527151529954
45.65746	0.334717936925591	0.00787109416968239	0.334810470898315	-1.34709654199255
38.96512	0.300338268787381	-0.012247548906399	0.300587887567705	2.33518116730289
33.18414	0.303694716791561	-0.00799854965294814	0.303800029301607	1.50867694275519
28.30617	0.288638010260865	0.00164996116138322	0.28864272611515	-0.32752020820531
24.17237	0.306920511005095	-0.0263513190284397	0.308049658480848	4.90721793049271
20.61345	0.298130747353547	-0.0307302874988917	0.299710348649073	5.88506723775083
17.55618	0.281376032115381	-0.0224972247698758	0.282273974307484	4.57131970422388
14.98558	0.330960415759811	-0.0457131271304725	0.334102509406849	7.8640863804445
12.76553	0.25366004979146	-0.0158039236318305	0.254151893288967	3.56512273709386
10.8809	0.290920552476766	-0.0096655696295177	0.291081073052938	1.90289998073715
9.278505	0.304140614067783	-0.0485317279814141	0.307988379239201	9.06625496703209
7.923394	0.296150276892355	-0.00041437048018326	0.296150566783711	0.0801676244411301
6.75822	0.319273268374793	0.00630967379874858	0.319335610106623	-1.13216689500969
5.761429	0.232358332193074	-0.0187370477138279	0.233112572583671	4.61027510471482
4.919708	0.23925530521588	-0.0928845098536279	0.256652748367698	21.217377728406
4.191257	0.312837534601043	-0.1317177357029	0.339436127944504	22.8331358994088
3.564097	0.169848996917303	0.117028162948459	0.206262630345162	-34.5673459211557
3.051758	0.215540588756509	-0.000709266672077489	0.215541755724302	0.188539153643355
2.604164	0.207380699483401	0.0984462265446255	0.229561351361897	-25.3942801619554
2.214424	0.17704476078372	0.0570601570705407	0.186012657757153	-17.8637297027904
1.892567	0.232436088186998	0.189845144932998	0.300112835690686	-39.2406704475624
1.607507	0.195159260855818	0.0391588921302469	0.199049129439588	-11.3457904732719
1.376413	0.187043139986873	-0.0207583492834388	0.188191512245165	6.33286240253533
1.17375	0.211984525949137	-0.0583557830725455	0.21987004493539	15.3913366027095
1.001604	0.212821753666968	0.0183651629131486	0.213612682307746	-4.93204304584014
