EC-Lab ASCII FILE
freq/Hz	Re(Z)/Ohm	-Im(Z)/Ohm	|Z|/Ohm	Phase(Z)/deg
6999984	-0.435379541042443	0.33972095839044	0.552236972981751	-142.035549863577
5969734	-0.920134458310003	0.469770830902188	1.03311763847878	-152.953604424472
5091109	-0.827082457150856	0.466615647642397	0.949629166333591	-150.569584334712
4341796	0.221914816714021	0.861058458491312	0.889195060049623	-75.5480376263288
3702781	-140.401165590479	-471.257199151162	491.727399125739	106.590318008722
3157797	-7.76865482150706	-398.471374620154	398.547096827227	91.1169052018597
2693047	-20.4442308629406	1.25789509469707	20.482892267609	-176.479136900984
2296687	-18.0972005336408	0.164646603876814	18.0979494876899	-179.478742845833
1958656	-15.4023947232881	-0.108182863944035	15.4027746443303	179.597574292543
1670375	-12.8162648545793	0.0954015979022778	12.8166199244422	-179.573510065147
1424531	-9.8526467516155	0.828727561301528	9.88743836304329	-175.192044510003
1214875	5.56549584181975	2.08143917499763	5.9419805624495	-20.5052885918836
1036062	4.25955299515558	2.5985399925912	4.98960938467479	-31.38527583687
883578.1	3.12159466663303	3.4563300888422	4.65731370489338	-47.913137251579
753531.2	2.17550839531349	4.71513125425884	5.1928122942167	-65.2319325249984
642624.9	1.46111825099815	6.11157057230745	6.28380150893504	-76.5544379934761
548046.8	0.980815431617071	7.39082069621837	7.45561731009231	-82.4406053101936
467390.6	0.822569414347066	8.31108176435662	8.35168848408754	-84.3476953312866
398593.7	0.839909601357646	9.01563472499144	9.05467380047035	-84.6776044297229
339937.5	-0.458402844303739	35.9521376140275	35.9550598968439	-90.7305024648235
289906.2	1.0724448263298	35.8842578881075	35.9002799722471	-88.2881552715193
247234.4	2.15958516316121	34.3538698585741	34.42168186386	-86.4029522382004
210843.7	3.19790234585953	32.067221616298	32.2262824663725	-84.3050099755493
179812.5	4.10484035690479	30.8371939490818	31.1091987201368	-82.4177442941679
153343.8	5.16348566191193	32.1735977815533	32.5853031041594	-80.8824465863353
130781.2	6.04392880608094	36.7989907455762	37.2920205312876	-80.672915920656
111531.3	14.2415806787559	69.627994271636	71.0695448593874	-78.4402712803697
95109.37	15.0553808986289	70.8799004501256	72.4611950068623	-78.0082038070616
81109.37	15.350756104854	73.0628268050927	74.6580362301453	-78.1345410008879
69171.88	15.7559435562089	85.4042629760798	86.8454828522119	-79.5472257405625
59000	15.9514979183551	140.442853059806	141.345835670591	-83.5201150919996
50312.5	23.9204596386163	96.0107945290018	98.9457480411001	-76.0099562007633
42906.25	23.6739913484416	60.9336863008506	65.3710332836843	-68.7678269660892
36593.75	23.8370849163929	44.7225340380101	50.678512883591	-61.9424099358138
31203.13	23.7897176272117	34.3152393060779	41.7550753012836	-55.2676005915664
26609.38	23.7312236550224	26.698718834389	35.7210381086895	-48.3676245634106
22703.13	23.3310805011152	20.7095104984989	31.1965245249684	-41.593418500864
19359.37	16.3682856475057	3.71479269396798	16.7845303716696	-12.7867163026684
16500	15.4038048357588	1.80025008653438	15.5086460979743	-6.66594568715668
14112.02	16.7197300075941	1.16945614542988	16.7605787251791	-4.00101871438908
12011.13	16.406199174639	0.176066932073435	16.4071438990001	-0.614859344604331
10236.38	15.1739162174673	-0.253320954840893	15.1760306035827	0.956435582622908
8750.684	21.0017514759263	14.2302539530269	25.3687542584221	-34.1205706212466
7449.463	20.4021180036678	17.8262679896803	27.0928449867393	-41.145205076889
6363.206	19.9100718872473	22.2819443332357	29.8813655281142	-48.2175611872879
5414.761	19.5532224714079	27.5123571551841	33.7529006938779	-54.5983285910741
4620.567	19.4622389727658	33.3370335525228	38.6022868741617	-59.7235162826107
3941.215	19.448800199603	40.0331449417959	44.5073985213124	-64.0887098363739
3361.769	19.561036676839	47.6590423755176	51.5171668089776	-67.684936733292
2867.244	20.4777469388824	55.6617269779505	59.3090715646503	-69.8016147158438
2442.658	21.4418327370998	64.8421444440379	68.2953577282324	-71.7021157222927
2083.003	23.0767704401742	74.9561956603567	78.4281110433126	-72.887966470875
1777.843	24.6939850066664	86.1677048189222	89.6362998414726	-74.0087292139304
1513.548	27.0338201662396	98.9901298035625	102.615170570958	-74.7252129367415
1292.065	29.5266544547205	113.370255203098	117.152200526085	-75.4019333885705
1101.762	31.7193343065469	130.702734223148	134.496546060697	-76.359002089557
939.101	34.7597851962142	150.209208065858	154.17862645211	-76.9705772400797
801.2801	38.1405618577097	173.296800566516	177.444311110311	-77.5877673769946
684.3433	39.4646869863264	200.504880346302	204.351825442333	-78.8650048939002
582.9476	43.3806909466069	232.483516384598	236.496236201663	-79.4303423503558
497.0677	47.9617022359159	269.756866385616	273.987393585095	-79.9183878002482
423.5089	53.0522161144405	314.591894862296	319.033850786564	-80.427804575899
361.5036	58.5146935150523	364.441079193882	369.108750317791	-80.8784358817694
308.1262	66.9140950835599	424.358214690946	429.601432139767	-81.0392078390831
262.7298	74.6979425459181	493.566573943069	499.187084703213	-81.3939833058282
224.2111	85.214154329259	575.318682272211	581.595252963334	-81.5748087859714
191.2854	103.306132803421	671.04782378487	678.953119796358	-81.2481655469674
163.1722	120.568882008123	779.743796081602	789.010293238583	-81.2101784451502
139.1537	142.210229870516	911.289073274339	922.3185591481	-81.130308128509
118.6706	171.156540592495	1058.44211379039	1072.19134002875	-80.8144364960533
101.1982	213.486601448201	1234.09354957466	1252.42301883177	-80.1855007243382
86.24196	264.092155355817	1435.19764447718	1459.29330336068	-79.5735817991385
73.61024	332.565977746092	1665.16100846771	1698.04632259412	-78.7054934437358
62.69291	424.319691970924	1929.16694850709	1975.28031332427	-77.5953304198903
53.57697	669.112854751533	2196.49882808046	2296.15311208826	-73.0578484571313
45.65746	842.887179382989	2529.89461279423	2666.61312323582	-71.5734294015063
38.96512	1055.25830982705	2905.15010955254	3090.8683665747	-70.0371003696425
33.18414	1314.25631481638	3327.38978836556	3577.54000183843	-68.4469133050364
28.30617	1668.19902392129	3784.71220093088	4136.0530010249	-66.2134092280575
24.17237	2064.79588256078	4282.84379992899	4754.59073435665	-64.2608836538107
20.61345	2587.32438999575	4808.47518282862	5460.37371275498	-61.7163780856347
17.55618	3184.90731259515	5303.53962194489	6186.36946127221	-59.0141372364592
14.98558	3980.34670501801	5886.11913735369	7105.60049476954	-55.9324207099906
12.76553	4854.93025227736	6377.26954337991	8014.98063524791	-52.7184655244058
10.8809	5849.080938593	6823.71709345276	8987.48367440472	-49.3978313269456
9.278505	7001.41121728875	7185.36494740551	10032.408906189	-45.7428877151825
7.923394	8089.73904966566	7427.51473326823	10982.3427830587	-42.5562912643152
6.75822	65471.425947852	16451.4785410113	67506.7312334882	-14.1050979188424
5.761429	71866.4519539793	14033.6251661753	73223.8318565638	-11.0493134621814
4.919708	77735.3197361181	11030.1478942319	78513.9738966583	-8.07599482097364
4.191257	94993.8833280225	1527.47938118154	95006.1632895355	-0.921223315407553
3.564097	98387.4027834888	-2765.38339850632	98426.2585483224	1.60999364262596
3.051758	100830.293958003	-6703.91388570579	101052.910106757	3.80383185144803
2.604164	102935.543296014	-10475.8938797743	103467.243252277	5.81106400893174
2.214424	104447.931247159	-13942.2909124577	105374.369832986	7.60321296674349
1.892567	105723.684101408	-17158.5585517657	107107.018964905	9.21851277151016
1.607507	106931.526389245	-20182.7139574435	108819.544561727	10.6885104794317
1.376413	107829.678327954	-22738.8662297603	110201.159548005	11.9079308252306
1.17375	108666.339782007	-24991.2229486182	111503.070029871	12.9517453364
1.001604	109366.888063433	-27010.4364732665	112652.917774711	13.8727807216507
