EC-Lab ASCII FILE
freq/Hz	Re(Z)/Ohm	-Im(Z)/Ohm	|Z|/Ohm	Phase(Z)/deg
6999984	23.3969485879662	4.59385736421568	23.8436727185786	-11.1083911404374
5969734	7.09711012499353	11.2197111096219	13.2759515481814	-57.6843021939605
5091109	7.14548394676739	25.1090991443749	26.1060299677213	-74.1148409975886
4341796	1.27524636634196	-0.00253748091713586	1.27524889087494	0.114006798300454
3702781	8.81790056491482	16.07995761414	18.3390405213921	-61.2605901596081
3157797	28.3827968717956	-11.3986457283093	30.5861452737202	21.8805935650038
2693047	20.8104680683551	35.5153046842112	41.163241466585	-59.6314992607126
2296687	7.0195732977706	14.2773296814695	15.909637083106	-63.8185602359697
1958656	30.2436948580458	29.2490405207225	42.0735956396581	-44.0421656327397
1670375	5.14720596713239	36.4979466307721	36.8591079318365	-81.9726706789103
1424531	28.5183751206164	60.8085379459109	67.1637998228173	-64.8740630861597
1214875	77.4516134753953	133.439924164641	154.288579587107	-59.8681308301017
1036062	88.9510931450128	64.7416719584747	110.017185292442	-36.0484189032571
883578.1	11.3635639922883	100.925546570212	101.56326371825	-83.5759211812453
753531.2	55.1164523289149	54.1632292038425	77.2753435133971	-44.5002339307909
642624.9	149.972630011867	23.5634084124825	151.812463153358	-8.9292034624368
548046.8	-7.14790850430386	111.754729486958	111.9830887174	-93.6596918966503
467390.6	182.793704154072	23.5972251499886	184.310518726267	-7.35575249502649
398593.7	-156.502868234905	116.402304223883	195.045236277078	-143.359196961888
339937.5	71.3321101008297	52.7764636833764	88.7334494447254	-36.4966151384982
289906.2	33.5528091305896	82.3730176949885	88.9443929920974	-67.8375726899148
247234.4	-61.2717735577204	65.0439869709253	89.3585501000462	-133.289463712464
210843.7	91.0674416115375	41.3779429077711	100.027061743058	-24.435429562226
179812.5	-44.6865754465849	70.7941284486574	83.7179708781115	-122.260885592888
153343.8	79.7437517633311	36.5288533500084	87.7121603448359	-24.6114708447799
130781.2	49.5780521224638	72.0004116513683	87.4187767600544	-55.4494745844748
111531.3	-4.55297370833011	-75.9304994698845	76.0668805679244	93.4314828068497
95109.37	-0.745429003348322	0.304597547486528	0.805260246732496	-157.774070242246
81109.37	-0.699021262567744	0.294403096394697	0.758487909388533	-157.160890809897
69171.88	-0.676945361064947	0.249684863703161	0.721524464609356	-159.7539831991
59000	-0.674115957630744	0.222219152200194	0.70979833469584	-161.755439369051
50312.5	-0.661546534939505	0.17842652092382	0.68518599026793	-164.905847805578
42906.25	-0.707914476606836	0.166955897885916	0.727335670807106	-166.729744354818
36593.75	-0.677591254345814	0.156249321710834	0.695373107404241	-167.014848153675
31203.13	-0.666799037119285	0.138731593419306	0.681078123944577	-168.246936596324
26609.38	-0.660180521880204	0.121712095382755	0.671306305372204	-169.554139805915
22703.13	-0.656148278841033	0.105941808546585	0.664645943810817	-170.828168759168
19359.37	-0.650896789906003	0.0975351592745861	0.658163914541551	-171.477788307287
16500	-0.646741082533114	0.0877881353923513	0.652672034448979	-172.269959754835
14112.02	-0.641507342826995	0.0776718833976728	0.646192380310611	-173.096394078532
12011.13	-0.71964549564742	0.115288972268135	0.728821779677489	-170.898413384851
10236.38	-0.686666374018294	0.402340259838858	0.795857018499323	-149.632569156555
8750.684	0.251871526159658	0.983072648887113	1.0148256493999	-75.6294549290169
7449.463	-0.934398201318973	0.437770203482443	1.03186372631525	-154.896676195099
6363.206	4.78288787781856	4.02936484940619	6.25394255981089	-40.1126090793483
5414.761	2.51854915969347	2.76451950616686	3.73974036127774	-47.6656653207061
4620.567	-1.08216937411601	0.850486714417605	1.37637865635714	-141.835874071974
3941.215	5.22394051071476	2.54931979850214	5.81279501569785	-26.0127021581298
3361.769	1.10896692210251	-3.26173355801475	3.44509991695409	71.2223208646502
2867.244	-0.977151097730546	0.0940036867314775	0.981662345674479	-174.504953522082
2442.658	-0.512037924094536	0.611309808172432	0.797422420852873	-129.949807316205
2083.003	-0.602928729039605	0.316041406582786	0.680738733271539	-152.337502907368
1777.843	-0.489800711475231	0.420051314918679	0.645250218230535	-139.383729300373
1513.548	-0.753671569609315	0.095346352542211	0.759678722737758	-172.789861658137
1292.065	-0.663077794262573	0.155930124339152	0.681165446070588	-166.766700132604
1101.762	-0.639709221685162	0.137270124036654	0.654271331530027	-167.889009861706
939.101	-0.370715900884439	0.45491436664146	0.586836740623286	-129.177059137912
801.2801	-0.255687479148576	0.665000126149369	0.712461405812294	-111.03137117456
684.3433	0.56768771329574	0.414642108446748	0.702991762344419	-36.1445898691698
582.9476	-0.200519889864246	-0.681852682308965	0.710725901176466	106.387605540804
497.0677	0.573478953061561	-0.434113394697996	0.719258332632165	37.1250753552434
423.5089	0.471308206602796	0.284140070135057	0.550333539835161	-31.0847365550121
361.5036	0.515039419694317	-0.377991525051662	0.638860858755598	36.2752414351935
308.1262	0.486504870224956	0.364579381832564	0.607951572421698	-36.8473340640537
262.7298	-0.530810281344224	0.0351967431194519	0.531975906885782	-176.206408990502
224.2111	0.513578806134168	0.277878285160824	0.583934526701511	-28.4161627058785
191.2854	0.482902354109636	-0.338094923598898	0.589493732763948	34.9970585379259
163.1722	-0.149386990720767	0.52810454586532	0.548826825474322	-105.794823405962
139.1537	0.435469283920681	-0.35344037940583	0.560850781432038	39.063855671985
118.6706	0.44985211291445	0.271275384876954	0.525316340821161	-31.091337028812
101.1982	0.41666274115421	-0.308345885704742	0.518348362683998	36.5028145418415
86.24196	1.38020414839505	-0.568713516354432	1.49278215253637	22.3941241776236
73.61024	0.15896473591448	-0.879297016559139	0.893550799112263	79.7524019269988
62.69291	3149.88463806121	200.61336541274	3156.26661666536	-3.64419549648427
53.57697	0.494109544807214	0.323258808541234	0.590457872814895	-33.1937139847973
45.65746	0.523146004759325	-0.294903493182171	0.600541266347859	29.4104622043926
38.96512	0.460858497418449	0.385900184151856	0.601090265077739	-39.9411457295775
33.18414	0.462014548733927	-0.211767134549103	0.508234948145985	24.624637414912
28.30617	0.62338837032829	0.0953772506926048	0.630642434514393	-8.69869108229977
24.17237	0.0993202655987884	0.519473096709949	0.528882608301727	-79.1760063850972
20.61345	0.273455174211245	0.533316407782202	0.599336402292247	-62.8537566047489
17.55618	0.604941484215333	-0.37393763801669	0.711184614885721	31.721808327418
14.98558	0.694025572243572	0.39315499724101	0.79764800932717	-29.5308979329291
12.76553	-0.145951867645121	0.594650470159773	0.612299868798237	-103.790158672358
10.8809	-3712.2863948132	-11021.485791365	11629.8847512078	108.614692490478
9.278505	2.73917068933433	-0.252358953167678	2.75077100220141	5.2637833173897
7.923394	1.37118440248167	-0.952183416249348	1.66937111625585	34.7770427445957
6.75822	2.15046568111637	-0.560788265033517	2.22238298316438	14.6158153086882
5.761429	3.80475338932703	-1.86398779054787	4.23681470410343	26.1007084754619
4.919708	4.08046040734892	-0.0386979289143777	4.08064390331286	0.543360628899309
4.191257	1.63657750968713	2.62152692459527	3.09043514113978	-58.0241234622526
3.564097	0.0332757370371052	-2.11777142914453	2.11803283751132	89.0998072841016
3.051758	0.647611933928103	-1.34254571053097	1.49058049156401	64.2484504696563
2.604164	4.39903564819264	2.12452832392145	4.88519551637538	-25.7783681494993
2.214424	2.74114370793672	2.28893279889279	3.57114578047555	-39.862839587717
1.892567	2.33573059053976	-0.182149737337869	2.34282221228916	4.45913227610608
1.607507	3.72413997807639	-0.378051831772691	3.7432795465759	5.79645931473385
1.376413	3.58064827369488	0.645971287244318	3.63845035198478	-10.2265174204838
1.17375	1261.51671247221	-925.26777963011	1564.46312831857	36.2584308534844
1.001604	69.1631897801725	17.4223768641192	71.3238111444106	-14.1387878371961
