EC-Lab ASCII FILE
freq/Hz	Re(Z)/Ohm	-Im(Z)/Ohm	|Z|/Ohm	Phase(Z)/deg
6999984	2.62887811000597	2.17887140944963	3.41445174752632	-39.652678668463
5969734	2.94862001920351	4.44339358015281	5.33273912035747	-56.4318909383179
5091109	6.32904061564369	3.5664087197203	7.26471102457382	-29.4012203951571
4341796	10.133932282322	7.54283513980282	12.6329309920118	-36.6608534904725
3702781	22.5066559476596	10.4076271908104	24.7965373729724	-24.8169736171595
3157797	24.6561228158626	-6.40850566198565	25.4753476351276	14.5696750174463
2693047	-3.93046550234752	-16.1242887964887	16.5964227548504	103.699287566051
2296687	-8.46739887498742	-17.6815640373228	19.6044523135457	115.588963955928
1958656	14.6896945139132	-27.8831226057545	31.5159586742912	62.2183464099488
1670375	-8.36437213922876	-9.33018717017417	12.5305671824538	131.875747648758
1424531	-7.50293093224531	-21.6965833672516	22.9572581635121	109.075980811338
1214875	9.93606541798058	-10.8288357063946	14.6965669034124	47.461869962556
1036062	-10.4904120616027	-13.7484642318751	17.2936119407534	127.344510925966
883578.1	0.571822818682747	-12.3228140400929	12.3360742216751	87.34317598001
753531.2	0.68938816143497	0.044814529895377	0.690843237801769	-3.71934979751379
642624.9	1.80895768850547	0.880611667831055	2.01191571103843	-25.9571023336903
548046.8	1.25821496360371	-4.26135128954404	4.44322177114028	73.5501337947077
467390.6	0.0823223381294703	0.0691386581803527	0.107504052993748	-40.0253189592602
398593.7	0.000142934961891718	-0.0186125888342986	0.0186131376591371	89.5600069851507
339937.5	-0.0156227287249223	0.00436499742827019	0.0162210620910383	-164.389612832165
289906.2	-0.0168160704480549	0.00653862207029688	0.0180425553592644	-158.752338381652
247234.4	-0.0156861323542628	0.00792677451320556	0.01757522410721	-153.190866247436
210843.7	-0.0141157798369884	0.0105824804691287	0.0176421124949883	-143.141415703959
179812.5	-0.0117591184735036	0.00988449725954223	0.0153616455286467	-139.950212672419
153343.8	-0.0117892790757874	0.0102979735845607	0.0156536053698536	-138.862681481481
130781.2	-0.00958738245206174	0.011043295412442	0.0146243726651287	-130.963312360012
111531.3	-0.00711950382643882	0.0104504961585247	0.0126451652695415	-124.265034664476
95109.37	-0.00574213663371289	0.0096623712938427	0.0112398199336245	-120.722092842505
81109.37	-0.004196415397718	0.00867625728066086	0.00963780797642417	-115.811500763557
69171.88	-0.00359374198508357	0.00797584480948055	0.00874809018473576	-114.255290096202
59000	-0.00290748474597747	0.00669330342104645	0.00729751863541874	-113.479505241595
50312.5	-0.00230623288832259	0.00596145100265559	0.00639199563456079	-111.149343184578
42906.25	-0.00181533851554811	0.00506191098872485	0.00537758280120407	-109.729209993566
36593.75	-0.00147051775227024	0.00445225246772102	0.00468881376214388	-108.277678715382
31203.13	-0.00124041121108986	0.00389008751737216	0.0040830626820332	-107.685641425673
26609.38	-0.0010142673523204	0.00337022434554863	0.0035195383790082	-106.749141909532
22703.13	-0.000808349169791701	0.00281580703414305	0.00292953880906746	-106.01747480515
19359.37	-0.000638543919482104	0.00251217449334486	0.00259205690950644	-104.261416458853
16500	-0.000570659508901867	0.00214084781973604	0.00221559961689125	-104.925589134969
14112.02	-0.000378856175947789	0.00189924693145356	0.00193666489323516	-101.281119191701
12011.13	-0.000291580546034558	0.0016589340196563	0.00168436376605495	-99.9687020661743
10236.38	-0.000175410235800986	0.0014649251744201	0.00147538961548247	-96.8280912079442
8750.684	-0.000138025320039021	0.0013112942660283	0.00131853844884803	-96.0087615609071
7449.463	-0.000102906293124206	0.00119145203371597	0.00119588780987619	-94.9364137515403
6363.206	-5.36044571965652E-05	0.00109240790810087	0.0010937223027408	-92.8092506413376
5414.761	-4.89696451620491E-05	0.000944264555304324	0.000945533487800072	-92.9687047957225
4620.567	5.29723930190902E-05	0.000810793043435894	0.000812521651223035	-86.2619473248186
3941.215	7.01210262913854E-05	0.000763519299814949	0.000766732469325557	-84.7527191966646
3361.769	8.56497192285968E-05	0.000576723339541195	0.000583048612703508	-81.5526926150794
2867.244	6.06134765913375E-05	0.000600754286206812	0.000603804360650322	-84.2386041670937
2442.658	0.000144816343491926	0.000500247559275819	0.000520787282778473	-73.8548327501582
2083.003	8.1631223941119E-05	0.000369141868317908	0.000378060015959583	-77.530414301702
1777.843	7.45437769816517E-05	0.000404192016500026	0.000411008468147613	-79.5505488957743
1513.548	8.83260364098988E-05	0.00032032578269804	0.000332280146516452	-74.5844372064778
1292.065	0.000192871286018757	0.000302485332467567	0.000358743235934204	-57.4775217256978
1101.762	0.000131497800213257	0.000145999249155523	0.000196487791516171	-47.9914433934395
939.101	0.000100578793644755	0.000190932717271986	0.000215804069136563	-62.2208101284679
801.2801	0.0001305944199555	5.96566677581474E-05	0.000143575138974404	-24.551333194603
684.3433	0.000141462355898485	8.22164714949933E-05	0.000163618905757974	-30.1647153050587
582.9476	0.000160011526312074	6.14913162241937E-05	0.000171420157868622	-21.0214204328933
497.0677	8.99963963206349E-05	5.13132958615777E-06	9.0142564274723E-05	-3.26330346752161
423.5089	7.88795071898884E-05	2.91309397655868E-05	8.40867903189668E-05	-20.269659698636
361.5036	6.4827206034354E-05	-5.85165878235664E-05	8.73313099222366E-05	42.0711392512881
308.1262	4.44262378791321E-05	-8.73932173063663E-05	9.80370595400076E-05	63.053546987911
262.7298	8.74110922024468E-06	-5.20337134796263E-05	5.2762811987991E-05	80.4639582127718
224.2111	2.90168385744427E-05	-7.20564413464236E-05	7.76795189246551E-05	68.0655525965974
191.2854	-2.39618133767824E-05	-5.80243660430427E-05	6.27773490599974E-05	112.43872740674
163.1722	-2.10487029953475E-05	-6.85080209141821E-05	7.16686600081539E-05	107.079280191086
139.1537	-4.35439815639977E-05	-5.84967256991896E-05	7.29242432115137E-05	126.663378699115
118.6706	-4.07183851630992E-05	-4.01548103842999E-05	5.7187373495288E-05	135.399266201474
101.1982	3.31579714456739E-05	-8.28399216717685E-05	8.92295001273506E-05	68.1854726631183
86.24196	-3.59983076991368E-05	-6.18466989675503E-05	7.1560410356457E-05	120.201847164527
73.61024	6.41819828343634E-05	-4.35057568858499E-05	7.75375896114987E-05	34.1313823348407
62.69291	-6.51417775976407E-05	-3.96631070656783E-05	7.62667243998583E-05	148.663869412327
53.57697	5.03718174008194E-05	4.55529541392376E-05	6.79145906199322E-05	-42.1241149290259
45.65746	8.28120942911756E-05	-2.84319122056104E-05	8.75569334350975E-05	18.9489060371902
38.96512	4.05435651607616E-05	-4.94841239606441E-05	6.39723315199416E-05	50.6713904548065
33.18414	-2.40017156982046E-05	-8.13862418183763E-05	8.48516512142025E-05	106.431379516352
28.30617	7.64231193744062E-05	-4.03124131580726E-05	8.64036100492444E-05	27.8111880291557
24.17237	7.29196320945257E-05	-6.60278935857907E-05	9.83715176063554E-05	42.1604805602829
20.61345	-8.52388364285802E-05	-2.32632209994916E-05	8.83563053039761E-05	164.734705312172
17.55618	1.35391213119956E-05	-9.09305157167255E-05	9.19329456419764E-05	81.5311494019825
14.98558	-1.77481002533743E-05	-8.87238397457081E-05	9.0481571614478E-05	101.312001616859
12.76553	4.36227318445429E-05	-4.88106536145627E-05	6.54631395509085E-05	48.2124160262876
10.8809	6.55933949379991E-05	-4.31143858492119E-05	7.84942273460097E-05	33.3168254262371
9.278505	0.000140685417864037	-1.36366072065806E-05	0.000141344769467021	5.53637199912776
7.923394	2.42742315948213E-05	-0.000110936229349976	0.000113560932110957	77.657496340662
6.75822	4.19915946907918E-05	-4.73838075103136E-05	6.33128678773138E-05	48.4525942044285
5.761429	6.75341368550563E-05	2.37321109823439E-05	7.15826287058234E-05	-19.3619398525441
4.919708	7.65355138797216E-05	-2.56748051421191E-05	8.07271980432794E-05	18.5446785831474
4.191257	-3.49812912559872E-05	-9.77979225203105E-05	0.000103865896170133	109.681597200791
3.564097	6.83214287662198E-05	4.78951974621291E-05	8.34372073393758E-05	-35.0315104901471
3.051758	5.12954105321435E-05	3.65134640383739E-05	6.29638959860551E-05	-35.4442922040712
2.604164	5.68684880581157E-05	3.68546352764723E-05	6.77664302983257E-05	-32.9459727637607
2.214424	6.02925718951021E-05	5.85499584201427E-05	8.40433927011903E-05	-44.159919918795
1.892567	5.46425969793517E-05	2.91864776455861E-05	6.19488812005847E-05	-28.1081978909956
1.607507	6.0907318108682E-05	-4.07553149909465E-05	7.32850400777912E-05	33.7879285141275
1.376413	-1.58568353283411E-05	5.93681473717172E-05	6.14492973839414E-05	-104.954237024726
1.17375	5.60313794363218E-05	3.14876035218395E-05	6.42727364991224E-05	-29.3344077866669
1.001604	6.29247929158958E-05	4.12471800645099E-05	7.52386830479008E-05	-33.2448275497009
