EC-Lab ASCII FILE
freq/Hz	Re(Z)/Ohm	-Im(Z)/Ohm	|Z|/Ohm	Phase(Z)/deg
6999984	20.4548453968545	89.8849682193216	92.1830147695208	-77.1797068353024
5969734	21.4315405595916	85.8835852928483	88.5172364769222	-75.9884702834459
5091109	18.8553419266769	85.6040995419556	87.6560652639676	-77.5782562775954
4341796	18.2777976325877	91.8628710392932	93.6635732922871	-78.7469182923238
3702781	22.3792374013845	100.046653366332	102.519086595963	-77.3911855574852
3157797	23.1690174567083	108.672011428899	111.114397977544	-77.9646590146317
2693047	22.2490312293909	123.0464291502	125.041765491621	-79.7506257578339
2296687	23.7172002078636	139.29527925594	141.29996606047	-80.3371626527094
1958656	22.444317857924	154.957625811747	156.574625023728	-81.7584990550904
1670375	22.525538199854	183.002987595711	184.384091884709	-82.9828525675054
1424531	29.0937565536743	207.854349032859	209.880625790658	-82.0319718107063
1214875	30.6679876394552	239.32079014667	241.277777804505	-82.6975768813098
1036062	30.7178982016501	277.512602660606	279.20751047454	-83.68363724673
883578.1	32.8062676424347	321.589072831525	323.258074858567	-84.1752350349522
753531.2	35.9517124453753	373.689221710397	375.414650819966	-84.5046284713729
642624.9	39.0393982657093	434.573508623325	436.323514165963	-84.8666805021161
548046.8	42.8079918024993	505.683778582597	507.492470962611	-85.1612381045928
467390.6	154.539807502538	711.405241759997	727.997232210755	-77.7439556719472
398593.7	179.252391301144	806.044310865659	825.735339479953	-77.4622896198609
339937.5	204.393800766306	914.229911783653	936.799422177257	-77.3976599805702
289906.2	228.092608628608	1037.13043937198	1061.9160919691	-77.5965909270396
247234.4	252.133211266391	1184.00532775197	1210.55349835046	-77.9784672974943
210843.7	273.192927506354	1352.73693206589	1380.04767418178	-78.5823648135622
179812.5	296.051066129141	1552.05718449096	1580.04042280133	-79.2007008660674
153343.8	317.702462507502	1785.44243697303	1813.48822726466	-79.9103663911164
130781.2	340.25094706959	2061.43767386368	2089.32907657129	-80.6275376632817
111531.3	363.609954798012	2382.14903547648	2409.73986696692	-81.3213895531851
95109.37	390.342944095266	2760.88566588975	2788.3431055235	-81.9526744518602
81109.37	419.145348168167	3206.15302967698	3233.43471754076	-82.551873714008
69171.88	450.768178971535	3717.94552343206	3745.17167381974	-83.0871308862193
59000	476.749739166439	4303.72210385681	4330.04783588138	-83.6787671054713
50312.5	408.824491233649	4961.51908708768	4978.33396993088	-85.2895233549226
42906.25	1840.60705405054	6692.58998056524	6941.08024556573	-74.6225961956335
36593.75	1958.03269493925	7476.18754337509	7728.3421390469	-75.3237246495351
31203.13	2070.96223068414	8506.62123816115	8755.08363469216	-76.317348057851
26609.38	2199.61188879308	9743.88551285128	9989.0738984589	-77.2791150127576
22703.13	2332.79204784299	11176.4688604016	11417.3278364951	-78.2102860214042
19359.37	2468.37615825109	12910.4458452582	13144.295065996	-79.1761209766563
16500	2604.2786524203	14934.4766079398	15159.8436288952	-80.1082087177751
14112.02	2778.30143704346	17270.817635386	17492.8585619915	-80.861304443695
12011.13	3017.00787627098	20059.8649542886	20285.4755554258	-81.4468100145392
10236.38	3219.93298602051	23346.9026370068	23567.8983190342	-82.1474801022047
8750.684	3463.6467570473	27103.7327772409	27324.1501115348	-82.7175158125803
7449.463	3796.37649723808	31497.1037000512	31725.0692040311	-83.1272379318784
6363.206	4063.50986952429	36687.8740490845	36912.2231070036	-83.6797411337231
5414.761	14895.1783528415	49764.7497858763	51946.093783978	-73.3369361991395
4620.567	16255.2989531156	56093.4530839277	58401.2861410942	-73.8389618192331
3941.215	17587.0910183598	63718.943781196	66101.509567326	-74.569941374261
3361.769	18891.7004228139	72429.4723253555	74852.687367888	-75.3813069079458
2867.244	20175.4034895186	82800.1751826062	85222.7429518386	-76.3059461977279
2442.658	21310.3779037331	95212.4341232958	97568.1291102933	-77.3840235850461
2083.003	22504.8664608804	109636.756110462	111922.684496249	-78.4001642347106
1777.843	24154.3633199258	126700.237583292	128982.105235779	-79.2065450355777
1513.548	25357.2372236844	146483.027637778	148661.585036445	-80.1790263012532
1292.065	27681.6733073705	169488.543981081	171734.217842347	-80.7240810517612
1101.762	29489.5961056563	197112.73052756	199306.45954034	-81.4912142436619
939.101	30783.3482905002	229723.286250411	231776.622586625	-82.367725078653
801.2801	32698.2333854251	266276.508253466	268276.63579631	-82.9992391604462
684.3433	122143.668430836	383539.52251408	402519.118885141	-72.3351767901328
582.9476	133909.267024539	428914.19484032	449331.813174373	-72.6613616629007
497.0677	149921.322424558	486143.405684005	508735.504764088	-72.8608082713858
423.5089	164200.174708888	542738.944736513	567033.737539605	-73.1673406917808
361.5036	180939.67005528	623589.756264135	649309.901601136	-73.8194812541987
308.1262	186821.598346124	703204.52399335	727598.042997172	-75.121814322531
262.7298	201259.37691398	818138.488188275	842529.478802255	-76.1798381870196
224.2111	234115.672787609	931092.354950109	960074.539653737	-75.8860254296765
191.2854	232561.478911157	1069207.73796384	1094207.48873104	-77.7288295861558
163.1722	195978.048555081	1287942.48329721	1302767.52945306	-81.3480320906587
139.1537	217638.037182595	1442312.59372172	1458640.44001151	-81.4190788572549
118.6706	262472.487402575	1650618.63011974	1671356.83465311	-80.9647806214957
101.1982	308148.354234861	1817574.40546721	1843510.81570658	-80.3776707688251
86.24196	292253.011492064	2138721.59747429	2158597.20518423	-82.2188133476985
73.61024	316691.978055049	2611229.85514709	2630364.07468166	-83.0848963508182
62.69291	619038.710215472	1334721.76617864	1471288.93078697	-65.1183149942239
53.57697	760333.159401393	3085412.27890327	3177715.4441662	-76.1565188047578
45.65746	590287.407615641	4426520.5062232	4465705.20921434	-82.4042797859823
38.96512	1304002.5800446	4512346.76525916	4696987.97727945	-73.8814752876318
33.18414	616210.541479808	5597083.42612564	5630902.08673896	-83.7173271650836
28.30617	868210.896733541	5581335.52126586	5648459.64508474	-81.1581538773523
24.17237	2457787.96558312	7341493.53726603	7741979.65907197	-71.4904651127714
20.61345	2839848.36571046	8482410.57781778	8945167.85481991	-71.4898348591967
17.55618	2764169.55168787	10628180.1539669	10981750.6207186	-75.421528545164
14.98558	990577.132822151	10599167.8821118	10645355.9287259	-84.6607594705461
12.76553	3547935.17687699	10637607.968659	11213676.7972953	-71.5550374562826
10.8809	4116925.10125567	9698015.70811289	10535681.3241552	-66.9981895200482
9.278505	2458119.57174929	11073387.6139316	11342938.996459	-77.4841766076349
7.923394	7423998.30598296	11739159.7273226	13889694.8112919	-57.6902036592504
6.75822	4846102.45775572	8161501.87535915	9491829.21741415	-59.2991837395368
5.761429	13127292.1969157	7588940.31724066	15163041.1053272	-30.0323792431173
4.919708	12394500.8355969	-1532271.17164304	12488855.2680804	7.04743817588864
4.191257	10195055.4147691	-1679243.37199932	10332425.3306093	9.35329536323673
3.564097	13334289.2695893	1258361.53408546	13393533.6664956	-5.39105672425329
3.051758	17188168.4006842	-2622628.51215908	17387101.9230656	8.67546910286312
2.604164	11257026.2101629	13962685.6629692	17935362.5561119	-51.1234713438986
2.214424	6007159.27442336	16183262.5695674	17262211.6179779	-69.6352850679173
1.892567	15242068.7828524	13761875.6719427	20535576.027743	-42.0784902997997
1.607507	9990710.25745896	26146174.6225071	27989939.9577622	-69.0876520073313
1.376413	16847037.6153254	8637358.8988606	18932159.0200356	-27.1438984626346
1.17375	28923735.2730249	11009035.997582	30948042.5187132	-20.8379708060483
1.001604	21932356.9447133	24951173.5581166	33220315.2164089	-48.6841722860645
