EC-Lab ASCII FILE
freq/Hz	Re(Z)/Ohm	-Im(Z)/Ohm	|Z|/Ohm	Phase(Z)/deg
6999984	4.85366782103594	2.22383321926973	5.33886930951558	-24.6161060733425
5969734	6.95470918420024	2.3154729659363	7.33003375795644	-18.4144567354701
5091109	10.0770591264847	3.78318543050913	10.7638103216419	-20.5774182487126
4341796	0.46087782321238	0.59861691479051	0.755480362817123	-52.4071660951553
3702781	6.91859317501976	-0.49947280403054	6.93659892190663	4.12918077879291
3157797	-0.241042414074578	-10.1838472213596	10.1866994494476	91.3558858982088
2693047	0.491661296337898	-9.105731222029	9.11899511558978	86.909332337537
2296687	9.26494955261	-12.9380333376975	15.913264808322	54.393478990581
1958656	3.00059967882662	-10.9922698187703	11.3944545372397	74.731744655606
1670375	9.04363468287369	-12.0404752741811	15.0585647757495	53.0896848798711
1424531	7.05674587490486	-13.0921167206002	14.8728337101175	61.6750105328262
1214875	17.6829296182532	-17.5569056719182	24.9184858419755	44.795100930477
1036062	10.6458907624397	7.34216433764418	12.9322220552685	-34.5929112979745
883578.1	5.37440167735376	11.2220207422608	12.4425858618405	-64.4095089058676
753531.2	12.1364314761432	5.0521080284369	13.1459790242536	-22.6008015134832
642624.9	18.7446848704797	14.6106034454684	23.766214337465	-37.9347449338545
548046.8	7.35678323603616	0.516676597765883	7.37490435793587	-4.01736176253739
467390.6	4.75565228789486	4.44050219246353	6.50648049291112	-43.0372549558598
398593.7	4.47105719153909	3.99525776783781	5.99603511009415	-41.7834113057293
339937.5	5.45544402242229	-8.21929108228502	9.86501978594636	56.4263160589713
289906.2	4.9074776929733	0.179177609632254	4.91074759306809	-2.09100546262537
247234.4	4.96801930737673	-3.99841889479185	6.37719134860296	38.8282095900036
210843.7	2.14061313048928	1.13948495377791	2.42500526480034	-28.0271358221405
179812.5	1.78121059041084	2.22618379193659	2.85107092911995	-51.3360558746259
153343.8	1.85821275012653	1.54129396458201	2.41423729363742	-39.6739984280198
130781.2	-1.40268956326006	1.88677054261357	2.35105106098379	-126.628370977832
111531.3	0.375381385620283	1.13822013347665	1.19852253083612	-71.7476085712261
95109.37	1.75763783966829	0.453196338454319	1.81512470552913	-14.4584467206775
81109.37	-1.64344597747889	0.823809261969545	1.8383624182947	-153.376791051955
69171.88	0.103029703085544	-3.07561921013363	3.07734441450107	88.0813748032566
59000	-0.511158240552397	0.200119200392541	0.548935735082325	-158.619584060521
50312.5	-0.545452010563305	0.180444498973222	0.574524249303064	-161.694935025885
42906.25	-0.576422857549344	0.169148040377976	0.600728199994856	-163.645970909865
36593.75	-0.547289015343585	0.156749582993758	0.569294034822487	-164.017705927346
31203.13	-0.535798860048979	0.134200223121454	0.552349634122839	-165.938546935522
26609.38	-0.532516061784884	0.120523049919517	0.545984580021071	-167.24723983538
22703.13	-0.529148219738295	0.109248130093403	0.540308238305795	-168.334599138979
19359.37	-0.523149625877154	0.0963709353218168	0.531951960453392	-169.562390398165
16500	-0.519625194420282	0.0870176015981687	0.526860897831878	-170.493332223694
14112.02	-0.516549152526279	0.0775751782185229	0.522341780112651	-171.459167178946
12011.13	-0.512627523127962	0.0698593385451499	0.517365735868037	-172.239707583252
10236.38	-0.510408226652942	0.0650463846639318	0.514536286371378	-172.737378724103
8750.684	-0.506851959923224	0.0582497809947885	0.510188147906195	-173.444064868617
7449.463	-0.502383430419708	0.0527517819077807	0.505145386650933	-174.005735395184
6363.206	-0.500082960803012	0.0476778890226089	0.502350623356992	-174.553884117786
5414.761	-0.424266819174253	0.0782225593931426	0.431417550234401	-169.5536241439
4620.567	-0.471895680986615	-0.0402221088857408	0.473606748027345	175.128159715845
3941.215	-0.158667933096316	-0.505115997648188	0.529450360348524	107.438639320192
3361.769	0.380861062891716	0.267594291063008	0.465469498288042	-35.092009103735
2867.244	0.390867728922428	-0.282360012296261	0.482187471899593	35.8440735056237
2442.658	0.397739398634636	0.274017927997476	0.482993223648398	-34.5644467547124
2083.003	0.40065537001581	0.277149285446559	0.487171891580419	-34.6731540371826
1777.843	-0.475508755989241	0.0375084388485181	0.476985806924366	-175.489810676132
1513.548	-0.1259572725309	0.466217843204319	0.482933030373271	-105.118561320369
1292.065	-0.481886727357914	0.0271292681197748	0.482649785240224	-176.777762503807
1101.762	-0.476841835407275	0.030203715308215	0.477797447055756	-176.375660723184
939.101	-0.474652849879215	0.0286451857589685	0.475516429333021	-176.546402146133
801.2801	-0.481667256728849	0.026660318292276	0.482404517781644	-176.831907015446
684.3433	-0.495520267978325	0.0254512833805765	0.496173461405414	-177.05971503479
582.9476	-0.454564587696283	0.027416896277878	0.455390657116506	-176.548407498416
497.0677	0.403022332791965	0.26917502382014	0.48464646308175	-33.7386083071226
423.5089	-0.458798006578741	0.0524278512995803	0.461783813523729	-173.480963350624
361.5036	-0.109470254485238	0.481660044021805	0.493943452860902	-102.804499377395
308.1262	-0.129132215920502	0.449429949766384	0.467613525184584	-106.030652834438
262.7298	-0.511466359665126	0.0319485959601197	0.512463218048788	-176.425679938699
224.2111	-0.112917538781605	0.439663831636571	0.453932434855504	-104.403796470943
191.2854	0.388908993588976	0.250962874745524	0.46285264371604	-32.8341428613071
163.1722	-0.451250945631424	0.0248672374023127	0.45193560982653	-176.845772594089
139.1537	0.318821627610993	-0.249728638487291	0.404983484988264	38.0711146186736
118.6706	-0.109469655302825	0.448258770891026	0.461432043873041	-103.723638272344
101.1982	0.387053777890153	0.238831627382993	0.454808941444041	-31.6766707123176
86.24196	0.392242356631199	0.26299607993805	0.47225099724445	-33.8416089299533
73.61024	0.358952949899951	0.237607869296563	0.430470347171009	-33.5024522927036
62.69291	0.419195492971196	-0.205371871128488	0.466800242907157	26.1011152754965
53.57697	0.367259375645977	0.239244750041312	0.43831210275579	-33.0815345780886
45.65746	0.310265356791673	0.376368193015327	0.487767986176508	-50.4989702655178
38.96512	0.283601904355186	0.288232858800105	0.404361497976711	-45.4639947788246
33.18414	0.310957883246279	-0.190105589980211	0.364465280232192	31.4397297457192
28.30617	0.438449937462489	-0.299923761422995	0.531218044052513	34.3742648737746
24.17237	0.470420629104643	-0.324189261081077	0.571309237880417	34.5725770258253
20.61345	-0.033651481051799	0.44811065035791	0.44937242587988	-94.2946437252143
17.55618	0.177812133745422	0.547271708031053	0.575433295281326	-72.0006840293354
14.98558	0.569579523650212	0.233003941932773	0.615395540053561	-22.248518413147
12.76553	0.477891012723142	0.201803124776864	0.518752658991987	-22.8932907383196
10.8809	0.0140183943717022	-0.447692453988082	0.447911876085722	88.2065087857132
9.278505	0.0132640433780468	0.511352431860294	0.511524431885879	-88.5141298259189
7.923394	0.474310959495645	-0.374620260764084	0.604409816327158	38.3023833031002
6.75822	2.38021015833348	0.306522755640441	2.39986595408145	-7.33814550198212
5.761429	0.883972894462778	1.17665789932459	1.47171053206392	-53.0840240568551
4.919708	0.416598129042472	-2.38368186091355	2.41981264050959	80.0864936173396
4.191257	1.56625520398731	0.633895884434035	1.68966841608634	-22.0341978203004
3.564097	1.91276147517359	-1.26047657879645	2.29073299766748	33.3841880742106
3.051758	1.07938950838143	-2.74990645844745	2.95416100458572	68.5690679069583
2.604164	1.65294388367789	1.375468692729	2.15038080517516	-39.7649497484189
2.214424	2.46244877612728	-0.832161561255822	2.5992589018954	18.6722017996097
1.892567	2.77391137409413	0.408249632807382	2.80379244488891	-8.37238588839481
1.607507	0.775566291622955	-1.6113852094044	1.78831355354396	64.2982977978327
1.376413	0.48261863457916	1.51503128375028	1.59004419346919	-72.3305358319922
1.17375	0.221461402701418	-1.62382452225845	1.63885668439139	82.2337675461514
1.001604	0.447734888885644	-0.663152539296657	0.800148624382398	55.9743039248146
