EC-Lab ASCII FILE
freq/Hz	Re(Z)/Ohm	-Im(Z)/Ohm	|Z|/Ohm	Phase(Z)/deg
6999984	-0.335036578286765	0.268757360519762	0.429511382414544	-141.264348671331
5969734	-0.79467439047783	0.348398565704208	0.867691735275876	-156.326549668627
5091109	-0.70591524790464	0.280049926572726	0.759436829892822	-158.360836320239
4341796	0.3666779968379	0.491472716839469	0.613186908505575	-53.2741142645457
3702781	34.7339148102271	-172.350156553863	175.815304516373	78.6057414916035
3157797	66.0883860391593	-268.255394157935	276.276367545416	76.1600138473081
2693047	-19.9012350714197	1.361904819874	19.9477803804409	-176.085171121052
2296687	-17.8313952012931	0.227766620063934	17.8328498131374	-179.268180856122
1958656	-15.2384552729058	-0.119862882342933	15.2389266752916	179.549331246193
1670375	10.3372710577741	7.49778826176774	12.7701214457889	-35.9539782698857
1424531	-9.8224963876074	0.683119799554905	9.84622201380328	-176.021687397352
1214875	5.47925852689488	2.14956513825486	5.88582231197569	-21.4205485625594
1036062	4.17550450256974	2.65911359634155	4.95032554174255	-32.4904713166317
883578.1	3.05767034095542	3.50071354831325	4.64804725248167	-48.8646711802646
753531.2	2.13238699945955	4.78331250399138	5.23709392949032	-65.9728242498821
642624.9	1.43363509043254	6.20348581597249	6.36698875776386	-76.9873076076975
548046.8	0.959249754103124	7.49386587767282	7.5550106474641	-82.7055409946621
467390.6	0.822073057243676	8.40267434892234	8.44279221143595	-84.4122676747978
398593.7	0.826576010200631	9.10794887928239	9.14537919871344	-84.8144267512001
339937.5	1.00407313358116	9.56871264202746	9.62124859273866	-84.0097075279389
289906.2	1.19509614964642	35.5800388206729	35.6001041752337	-88.0762181831004
247234.4	2.29126259657052	34.0395831172406	34.1166103691732	-86.1491319349574
210843.7	3.26790656088954	31.7626920073033	31.9303588586397	-84.1257887772324
179812.5	4.14149602402355	30.4267402175754	30.7073038475347	-82.2488936319428
153343.8	5.16654216822375	31.7675339249577	32.1849245711307	-80.7625265198145
130781.2	6.13710021386974	36.449455607588	36.9625055038834	-80.4425868870134
111531.3	14.4033496672731	69.9994898332979	71.4659713329338	-78.3728914436624
95109.37	15.2649173893759	71.433603313174	73.0464056967102	-77.937672702481
81109.37	15.5569866713808	73.2919182608707	74.924796407142	-78.0162252161934
69171.88	15.805311433413	85.0685611964649	86.5243779148043	-79.4747465794784
59000	18.4375336966344	139.411716793987	140.625635743492	-82.466216523636
50312.5	23.8322584151892	101.285435725708	104.051506626838	-76.7592704052354
42906.25	23.4649793528022	62.7833198060595	67.0249990816664	-69.5069998175875
36593.75	23.5052724865012	46.0504463240649	51.7024316769555	-62.9591235432734
31203.13	23.2459251433795	35.3536133854015	42.3113579925774	-56.6740343616961
26609.38	23.1925711709042	27.4499537662665	35.9359891931143	-49.8054048545119
22703.13	22.745901468801	21.3220612032259	31.1770160147265	-43.1494114442566
19359.37	15.3137864419182	3.84525614034339	15.7891750884435	-14.0954206616827
16500	15.9087948471586	3.16294876289543	16.2201725750894	-11.2447780139903
14112.02	15.6945223855985	1.2646170557776	15.7453894588167	-4.60676745709303
12011.13	15.3855446335236	0.222650679617848	15.3871555849442	-0.829093420823902
10236.38	14.1101414885576	-0.119192597006928	14.1106449073845	0.483983121829178
8750.684	20.0091236000112	14.3148980387707	24.6024659963372	-35.5806332410005
7449.463	19.3530960601942	17.9392459477951	26.388612549556	-42.8288071804132
6363.206	18.9278594407526	22.3590118472776	29.2948677040124	-49.7506587371871
5414.761	18.5278493581307	27.5874461534026	33.2317376479845	-56.1145181564391
4620.567	18.3910002355422	33.4169611133169	38.143442158681	-61.1738443494253
3941.215	18.489874928008	40.063127623517	44.1240259930074	-65.2258018765905
3361.769	18.3180641697863	47.7819923819872	51.1729447161358	-69.0247985372054
2867.244	19.3513800457326	55.8034095459627	59.0634948731348	-70.8745927787853
2442.658	20.3267805580966	65.0691334598166	68.1701557653233	-72.6518505635016
2083.003	21.8578907116428	75.1178626757443	78.2333731813611	-73.7759937575482
1777.843	24.1459657634352	86.1557422254228	89.4753573955561	-74.3439668198614
1513.548	25.7587243119512	99.2932644069125	102.580038188529	-75.4568800411235
1292.065	27.7400996151105	113.606719574126	116.944430645715	-76.2782150404436
1101.762	29.8081093329721	131.090334081915	134.436598706284	-77.1895617093787
939.101	33.1029885765432	151.799342721861	155.366818540793	-77.6980617525573
801.2801	35.7941763562833	174.654805385084	178.284951987335	-78.4180405179187
684.3433	39.6180240534402	200.818630743734	204.689301830084	-78.839852046694
582.9476	42.1779246266155	234.802028457472	238.560201822416	-79.8164586084945
497.0677	44.9555418063404	271.264212539025	274.964131739976	-80.5901235192596
423.5089	47.973359155628	315.760927993021	319.384418586269	-81.3611528241672
361.5036	52.1797734718347	366.201931582846	369.900775147308	-81.890565826868
308.1262	58.6866946253162	427.198005348634	431.210231673481	-82.1779041611262
262.7298	64.7071462073013	498.709550334037	502.889878964242	-82.6072214370177
224.2111	74.1798552691819	575.700812084055	580.460227717626	-82.6578136103277
191.2854	81.7068632654836	677.269639860989	682.180457490625	-83.1209926919115
163.1722	95.2551464379835	790.043319168631	795.76503384222	-83.1250606922569
139.1537	110.16543346427	922.666994564194	929.220536572719	-83.191180021815
118.6706	121.006057660339	1073.17148380729	1079.97199021439	-83.5667538565233
101.1982	157.195614416992	1250.72185853891	1260.56163221754	-82.83640455507
86.24196	183.897457169589	1458.905641542	1470.45025270374	-82.8156634828863
73.61024	225.253292664983	1706.37140040372	1721.17471570209	-82.4800248064986
62.69291	275.934997828207	1983.030918063	2002.13679478207	-82.0782668005529
53.57697	477.400924328656	2286.71462606828	2336.01699985776	-78.2076504155466
45.65746	588.623386278694	2659.54890179469	2723.90856159151	-77.5202156529487
38.96512	719.888454912187	3101.75218776062	3184.19629134161	-76.9335068707347
33.18414	871.739851685978	3599.11138051474	3703.17878293342	-76.3846133029994
28.30617	1069.25995342218	4175.18698960212	4309.93077045737	-75.6353563943068
24.17237	1313.34089833685	4827.93827382648	5003.3840839099	-74.782107645798
20.61345	1625.40957121342	5596.68117640814	5827.93243479653	-73.805443788218
17.55618	1967.06368721232	6471.9796315316	6764.30779167456	-73.0941166855631
14.98558	2402.80039977487	7488.12463285852	7864.18846915439	-72.2095271456606
12.76553	3023.81056322259	8617.65991142751	9132.77026270131	-70.6647756342084
10.8809	3659.94339509994	9911.63959132751	10565.7836928316	-69.7329743719871
9.278505	50012.5951709443	46061.2850436238	67991.9234586192	-42.6448762690203
7.923394	58166.5568203487	52786.4229857675	78547.7866267868	-42.22388979947
6.75822	67948.215206157	59692.8964489668	90444.4682452681	-41.2994911519618
5.761429	102528.437046944	87686.9709883459	134911.397903959	-40.5385630929825
4.919708	117999.308692008	95733.0139292627	151949.487685126	-39.0524710005957
4.191257	136343.066196131	102539.232443446	170598.141519343	-36.9456478921202
3.564097	157868.5078945	108390.996314303	191496.929131626	-34.4731172821685
3.051758	180679.868274348	112336.800631508	212755.191654067	-31.8710752922055
2.604164	206237.414442416	114098.940383352	235695.649753017	-28.9531559402089
2.214424	233371.543084366	113569.775305974	259538.765860954	-25.9497742034906
1.892567	261207.558936581	111536.818195843	284024.383915994	-23.1227030394899
1.607507	289980.595386447	107500.922986317	309265.572192555	-20.3406319807189
1.376413	318507.562548085	101408.636122217	334261.542628658	-17.660793781333
1.17375	347529.672797135	92935.6852997706	359741.455877164	-14.9715991811526
1.001604	376214.966846429	83899.6103449807	385456.671878046	-12.5717998337149
