EC-Lab ASCII FILE
freq/Hz	Re(Z)/Ohm	-Im(Z)/Ohm	|Z|/Ohm	Phase(Z)/deg
6999984	20.4546862399459	7.51580007331934	21.791774593106	-20.1751789582189
5969734	17.8232344312317	-3.77698462332244	18.2190367043775	11.9647453201958
5091109	12.2071962982745	-5.27505100153126	13.2981880169203	23.3704442605266
4341796	7.0434754844861	-7.18732009338118	10.0632061007056	45.5791249181782
3702781	8.27480421715102	-5.8700556910017	10.1454393028415	35.35147304126
3157797	4.8680205345976	-4.88525592436377	6.89661869119898	45.1012494691493
2693047	3.30395888708042	-4.20619615613089	5.34866622919845	51.8504344647826
2296687	2.4198723632549	-3.56731619950682	4.31062955050752	55.849175671936
1958656	1.96825896155845	-3.17941119832763	3.73934471636493	58.2398420721194
1670375	1.4861819924875	-2.82470935114239	3.19182077084936	62.2495153140039
1424531	1.22657170649464	-2.46004785803462	2.74887497260132	63.4993081525228
1214875	1.0896544605026	-2.32297744028162	2.56584703974157	64.8698231984757
1036062	0.764296994809814	-1.85304227371505	2.00447388719593	67.5860442178524
883578.1	0.688396115968546	-1.57290332536643	1.71694906256108	66.3629512125866
753531.2	0.627720935987682	-1.37020579936628	1.50714880024974	65.3864592423452
642624.9	0.561223493403518	-1.1549591245558	1.28409594226551	64.0837251035562
548046.8	0.532093802889982	-1.02894175002996	1.15838030889196	62.6552840245156
467390.6	0.492850368255584	-0.89056406614759	1.01784372150296	61.0392565633491
398593.7	0.460286796597979	-0.774469731976625	0.90092580208937	59.2759216530544
339937.5	0.433361167993993	-0.673428232533475	0.800816761998822	57.2381113110024
289906.2	0.409253556298288	-0.584556152516154	0.713578565252127	55.0037535269087
247234.4	0.38979015731604	-0.507628903092986	0.640018335671605	52.480625014069
210843.7	0.374515006054527	-0.439280980406432	0.577260140237361	49.5502953962299
179812.5	0.361850672461888	-0.379254908868655	0.524185267879681	46.345295540983
153343.8	0.353707512150334	-0.329614029026116	0.483481553197646	42.980623807389
130781.2	0.346964281222866	-0.287371079612899	0.450517868505105	39.6330491344018
111531.3	0.338655271079234	-0.250370531595154	0.421156497897147	36.475811040957
95109.37	0.331022041852453	-0.21843709928557	0.396598485292696	33.4202958744597
81109.37	0.323456889476102	-0.190184928137018	0.375226153459535	30.4545116282579
69171.88	0.315929901829898	-0.164907887008129	0.35637945236466	27.5634869151648
59000	0.304773062297065	-0.138096973991255	0.334600349263822	24.3759508135135
50312.5	0.296952752951222	-0.0984028766499079	0.312832325085319	18.3339332469424
42906.25	0.342396204838305	-0.113404044433706	0.360687729735289	18.3252357476123
36593.75	0.317598897976344	-0.104198857229201	0.334255084992973	18.1637934296783
31203.13	0.308923694443231	-0.0914513113399945	0.322175714997669	16.490441541109
26609.38	0.302120662283646	-0.081128037154821	0.312823677159039	15.0309690678841
22703.13	0.296768188115455	-0.0723326194451555	0.305455995706629	13.6978738955311
19359.37	0.292595921481095	-0.0639174007282488	0.299495922147909	12.3226491365022
16500	0.289552708086664	-0.0569555353915109	0.295101175484027	11.1281123477458
14112.02	0.282735321548862	-0.0520555162211671	0.287487458544526	10.4321233252665
12011.13	0.27639945006333	-0.0473345736110511	0.280423283366862	9.71787413785643
10236.38	0.274885946681164	-0.0431591824661002	0.278253479248584	8.92302697740529
8750.684	0.26379392490226	0.150583701083557	0.303747733896669	-29.7193838587933
7449.463	0.31970822857972	-0.0343781268607597	0.321551251013018	6.1374150394603
6363.206	0.325814011582742	-0.0302335405742383	0.327213748365336	5.30151488003025
5414.761	0.331045981957805	-0.0279478930639598	0.332223609782812	4.8256384807486
4620.567	0.333391633034364	-0.0246227612204711	0.334299658012748	4.22393195528929
3941.215	0.332960883452943	-0.0218982414796845	0.333680210515497	3.76282182430375
3361.769	0.337056528670501	-0.019440182638045	0.337616682378713	3.30095309719746
2867.244	0.337996664269762	-0.0166649306248279	0.338407247218815	2.82268345320554
2442.658	0.337183050652576	-0.0227317343374571	0.337948430079749	3.85685050102046
2083.003	0.340376966930125	-0.0157058940067316	0.340739130014593	2.64190495560146
1777.843	0.339029599810353	-0.0180148992092602	0.33950788818684	3.04164557715053
1513.548	0.340101816486711	-0.0173440667457534	0.340543774321073	2.9193660704293
1292.065	0.338664155565192	-0.0112015450988599	0.338849354252427	1.89440588142434
1101.762	0.342026933182882	-0.0128819190361338	0.342269436059578	2.15693800794226
939.101	0.333887268740591	-0.00528653826141146	0.333929117798735	0.907105635335529
801.2801	0.334214126379271	-0.00954793216310999	0.334350482697499	1.63639840261457
684.3433	0.338614167489569	-0.0138202121290004	0.33889607948152	2.33717506042995
582.9476	0.33726130545668	-0.0121502242821441	0.337480097351607	2.06325367886042
497.0677	0.336241288379694	-0.0150512064270258	0.336577989218168	2.56302642890359
423.5089	0.337800414363582	-0.019303706929784	0.338351522895108	3.27062758701677
361.5036	0.335973046605067	-0.00794251115252961	0.336066915254237	1.35423846090885
308.1262	0.321527019957471	0.0060702798679846	0.321584316875696	-1.08158904564451
262.7298	0.310510910922502	-0.0449743011479557	0.313751037553135	8.24139054769405
224.2111	0.312571000583535	0.000756880592105431	0.312571916963158	-0.138739610147087
191.2854	0.323003767322208	-0.00545863399660666	0.323049888391016	0.96818350925427
163.1722	0.330178160573206	-0.0236461388894024	0.331023802171208	4.09631821149539
139.1537	0.311337017432625	-0.0105065071428436	0.311514245446634	1.93279348074031
118.6706	0.279610867290796	-0.0130366246337567	0.279914613210801	2.6694350046997
101.1982	0.304511054132396	-0.0347916980209769	0.306492160323892	6.51802517318776
86.24196	0.287094340046628	0.025892099516165	0.288259537403646	-5.15337721505697
73.61024	0.318461852655368	0.0100720595833235	0.318621088412144	-1.81150175325788
62.69291	0.255587889304366	0.0954666044351237	0.272835191501084	-20.4815509504313
53.57697	0.302891188252118	-0.0256405002497409	0.303974517309983	4.83869561594183
45.65746	0.335900525755854	0.0441611150404252	0.338791037786823	-7.48976732330759
38.96512	0.3521130549932	-0.0153013238461336	0.352445363153054	2.48826345804815
33.18414	0.299385130069115	0.0293724794504697	0.300822536814596	-5.60331925269982
28.30617	0.298781671023345	-0.104928779476198	0.316671021253709	19.3507041501816
24.17237	0.286492513433217	-0.00650272302492622	0.28656630238048	1.30025953407178
20.61345	0.285619060360716	-0.0219176686951215	0.286458778609362	4.38813020021788
17.55618	0.242398156737796	0.151783087761587	0.285998203001912	-32.0536712119358
14.98558	0.281066482184891	-0.0772436704799854	0.291487481784399	15.3668483865457
12.76553	0.280622619144375	-0.0259664259065586	0.281821414462794	5.28660938298992
10.8809	0.233193106530363	0.0246948293052501	0.234497035221549	-6.04501413583956
9.278505	0.323504932935102	-0.0173999346442717	0.323972528710337	3.07872625973581
7.923394	0.256678756430235	-0.00554030086852324	0.256738541976629	1.23651282274332
6.75822	0.297516637857794	-0.00294883363957255	0.297531251168747	0.567868039149338
5.761429	0.289643965154592	-0.00946621034465908	0.289798612296132	1.87188749416011
4.919708	0.296654258020248	-0.00503164074699353	0.296696926526296	0.971717512934637
4.191257	0.296445397081559	-0.00741289880633743	0.296538065886247	1.4324368867039
3.564097	0.298409707437327	-0.00722216956746928	0.2984970908168	1.38641290589442
3.051758	0.293345823147108	-0.014083187821251	0.293683687216472	2.74859256184379
2.604164	0.290211191981363	-0.00221368045632547	0.290219634643155	0.437033756884789
2.214424	0.291369066970424	-0.00230246056818875	0.291378164095877	0.452754057205573
1.892567	0.291966571583287	-0.00207562298755464	0.291973949407965	0.407315238192266
1.607507	0.291583299987895	-0.00227635134152162	0.291592185435859	0.447291305699457
1.376413	0.288570988562836	-0.00464311825750853	0.288608340120804	0.921811743063152
1.17375	0.287776213470508	0.00358415890220024	0.287798532370232	-0.713563356929313
1.001604	0.293130203576692	-0.0113920828105284	0.293351488490641	2.22559783236396
