EC-Lab ASCII FILE
freq/Hz	Re(Z)/Ohm	-Im(Z)/Ohm	|Z|/Ohm	Phase(Z)/deg
6999984	26.9965423513262	4.57302397631839	27.3811220956142	-9.61423753187317
5969734	17.1913362254527	-2.30142189420628	17.3446990158865	7.62491087844509
5091109	11.4838886519584	-5.74689747834803	12.8415937171841	26.5848177053018
4341796	9.64564488543934	-4.15902864964108	10.5040937050532	23.3248368200342
3702781	6.27585202574442	-4.68237282223284	7.83012987730249	36.7263826735016
3157797	4.02035038605825	-3.98387835792424	5.65990317915561	44.7389281482424
2693047	2.68886117853707	-3.55048614618286	4.45375418177521	52.8625529507253
2296687	2.18265154246526	-2.96900446526387	3.68496340152555	53.6786854932655
1958656	1.64019341212403	-2.66709853235838	3.13107793107793	58.4096094668166
1670375	1.41950192071296	-2.45907790299362	2.83937490231552	60.0043228980043
1424531	1.0607652512895	-2.03322736517731	2.29330251751686	62.4482743731348
1214875	0.701236278019547	-1.17396354699243	1.3674511791204	59.149126092992
1036062	0.767392331319085	-1.54169019223079	1.7221206807271	63.5376963247965
883578.1	0.656980156902294	-1.3224504002672	1.47665093631848	63.5822724412577
753531.2	0.59581983909166	-1.13058859578923	1.27797959826591	62.2107833670531
642624.9	0.553817921627286	-0.974535326409802	1.12090739703877	60.390897522379
548046.8	0.482180713321307	-0.887972186647398	1.0104419055831	61.4974509121152
467390.6	0.502664461014927	-0.679286956841636	0.845045756218323	53.4989887399787
398593.7	0.456949769218986	-0.642873052886382	0.788726095496239	54.595045542908
339937.5	0.413720467985586	-0.549840146749692	0.688105233672827	53.0408173095243
289906.2	0.383707333031925	-0.485290956808851	0.618658734831185	51.6674661224855
247234.4	0.356418662011124	-0.425334625254932	0.554926847494833	50.0379225869319
210843.7	0.351038687073089	-0.363516689880548	0.505343985463078	46.0004322440938
179812.5	0.350430651196521	-0.314387857560322	0.470788026907426	41.8967767350739
153343.8	0.343351973692515	-0.272167256947826	0.438138783484239	38.4030577172827
130781.2	0.329265274938658	-0.234538193648484	0.404257078553145	35.4625638281579
111531.3	0.312036902251495	-0.205135672916989	0.373426930830939	33.3212543899934
95109.37	0.31240084525029	-0.172159891146958	0.356697793983686	28.8585663378108
81109.37	0.322484194701495	-0.148718559046422	0.355124296038888	24.7575177867588
69171.88	0.318818087463683	-0.125462207450876	0.342616021797649	21.4807721564056
59000	0.301393504304142	-0.104078053045585	0.318857782659434	19.0509612796589
50312.5	0.187800975017984	0.253718239095768	0.315661450081512	-53.4913397534137
42906.25	0.331014286745613	-0.0871824990132321	0.34230285737034	14.7554565825175
36593.75	0.251556633094698	-0.2582720962564	0.360534624354743	45.7546562682944
31203.13	0.331692096323982	-0.0876294763856036	0.343072254627816	14.798812298875
26609.38	0.325316988472859	-0.0533790571721831	0.329667206033056	9.31824180533063
22703.13	0.294056296641622	-0.0574746292475713	0.299620490957697	11.0592943869726
19359.37	0.277007262058952	-0.0532093338094025	0.282071367632089	10.8733008275172
16500	0.271804191842507	-0.0478345992209275	0.275981281223538	9.98122845881036
14112.02	0.262017289834163	-0.0427407190786875	0.265480374490098	9.26459003739458
12011.13	0.26513791000806	-0.0364089273902264	0.267626084896725	7.81899460196771
10236.38	0.257087336856721	-0.0453458212148508	0.261055822141033	10.0031097170064
8750.684	0.250026776299744	-0.0533511261630054	0.255655493838296	12.0452229720999
7449.463	0.2411047274608	-0.0099450103275174	0.24130974459056	2.36197897633895
6363.206	0.268729540712311	-0.0223600250613341	0.269658185064339	4.75642059543443
5414.761	0.217633071844051	-0.0344164794294032	0.220337577404745	8.9863330841893
4620.567	0.210635711057168	-0.0217069182123846	0.211751252819996	5.88380673060155
3941.215	0.234900261247594	-0.0254362185410607	0.236273430473797	6.18020352760067
3361.769	0.231904077547207	-0.0224903434777036	0.232992095858993	5.53929236500954
2867.244	0.229414071812685	-0.0210356330930817	0.2303764619168	5.23896450457802
2442.658	0.227012916128771	-0.0198247195230073	0.227876904475759	4.99089841647157
2083.003	0.224715521968294	-0.0187374666272061	0.225495362411488	4.76647084811882
1777.843	0.222718482248882	-0.0175899112171885	0.223412012461	4.51574566288516
1513.548	0.220524987888906	-0.0168436904683275	0.221167312666214	4.36776899905232
1292.065	0.218971817641756	-0.0162521046643555	0.219574105548345	4.24471428043427
1101.762	0.217307408867156	-0.0154978044671626	0.217859339693895	4.07928073849938
939.101	0.215624520503655	-0.0153161834444152	0.216167803610376	4.06299441317279
801.2801	0.213460859882356	-0.0153202271027468	0.214009925144126	4.10511712435521
684.3433	0.211800724511882	-0.0137875681570401	0.212249013989331	3.72452188753043
582.9476	0.210224192353188	-0.0146083797464797	0.21073114579807	3.97506659105863
497.0677	0.208525707504686	-0.0131098496543483	0.20893740413887	3.5974066170183
423.5089	0.206926598260002	-0.0142433352598336	0.207416223248762	3.93761749661108
361.5036	0.20707045569736	-0.0125013609517358	0.207447481663089	3.454895970551
308.1262	0.205162056019858	-0.012867306704477	0.20556516439349	3.58876297572096
262.7298	0.201869753400358	-0.0134940007150343	0.202320254530333	3.8242520672665
224.2111	0.196594850986246	-0.013016297471403	0.197025276130166	3.78795289911378
191.2854	0.202803090655173	-0.0142000147905163	0.203299616328564	4.0052408403814
163.1722	0.200749956557811	-0.0130211587798706	0.201171806260056	3.71115306329665
139.1537	0.199521240048328	-0.0158457223766232	0.200149474513574	4.54082689036701
118.6706	0.19303508718678	-0.011186722032296	0.193358960576012	3.31668136163159
101.1982	0.196556277568456	-0.00236272417808455	0.196570477735365	0.68869641566284
86.24196	0.189070388186999	-0.0143143462777739	0.189611476969466	4.3295515682015
73.61024	0.184863173617896	-0.0156083801513401	0.185520927366777	4.82615471572201
62.69291	0.234354145315084	0.0647823691024434	0.243143210419063	-15.4523623374689
53.57697	0.201416999678554	-0.0126825151603623	0.20181589122342	3.60295571326414
45.65746	0.170604676631733	-0.0222633267838303	0.172051188336791	7.43488942568996
38.96512	0.181683995103001	-0.0275900816274296	0.183766935765919	8.63482347687654
33.18414	0.189046263307315	-0.0167891451286088	0.189790318679874	5.07510716953753
28.30617	0.213062773510743	-0.0148738874698109	0.213581314689639	3.99333305852519
24.17237	0.188895901606961	0.00106101223632351	0.188898881391268	-0.321822142932734
20.61345	0.173009472934273	0.00361803425457002	0.17304729959425	-1.19801464257289
17.55618	0.183652387350396	-0.0215029355286667	0.184906937716923	6.67806947410165
14.98558	0.15226321365263	-0.0242856851849234	0.154187809948542	9.06223280331028
12.76553	0.189998063410402	-0.0449320176318617	0.195238700846357	13.3052488368398
10.8809	0.225409707101508	-0.0360606839922772	0.228275949205295	9.0890701464342
9.278505	0.218350691318186	-0.114592029416572	0.246593506818282	27.6908153259767
7.923394	0.199299455196188	-0.0162121709087544	0.199957763857951	4.65053054644292
6.75822	0.235601007427008	0.00876627683355992	0.235764039476218	-2.13088676291325
5.761429	0.24645701676963	0.0757012279013302	0.257821133774473	-17.0747553597393
4.919708	0.174067513967226	-0.0424719420642252	0.179174120010222	13.7120717896945
4.191257	0.177048779250219	-0.103540751480128	0.205102309716547	30.3197290365313
3.564097	0.100406375644793	0.0945707880274105	0.137931411282016	-43.2856722670947
3.051758	0.162420541577755	0.163484376117522	0.230450805077671	-45.1870269806583
2.604164	0.127644272943864	0.0113731170558049	0.128149944233045	-5.09161408361525
2.214424	0.232139743988066	0.0501545081299221	0.237495969280742	-12.1915392042424
1.892567	0.0976571493135907	-0.128265023143643	0.161210529972754	52.7154403072475
1.607507	0.0721093416521755	0.132524161428646	0.150872166140332	-61.448405724852
1.376413	0.148762058965006	-0.157411696794968	0.216583915550945	46.6182182571156
1.17375	0.147173314097124	-0.0601289510943867	0.158982625283525	22.2229014701267
1.001604	0.234234248501115	-0.109538037110776	0.258581253661134	25.0628183478942
