EC-Lab ASCII FILE
freq/Hz	Re(Z)/Ohm	-Im(Z)/Ohm	|Z|/Ohm	Phase(Z)/deg
6999984	15.7424640251703	95.9267475549681	97.2099072628832	-80.6803070762132
5969734	12.5157187510532	91.3617804142416	92.215064584457	-82.1995619657821
5091109	17.3940606498025	90.2612100383665	91.9219200380362	-79.0923545470081
4341796	18.3037294635356	91.4137008402016	93.2281674901753	-78.6774185117744
3702781	16.7242611993707	99.6823932150572	101.075617384936	-80.4758757349105
3157797	18.957713230917	107.929516140123	109.581820322473	-80.0376776131945
2693047	18.8751232291829	120.116672093821	121.590645988132	-81.0695746022251
2296687	17.6649222930804	136.756497200176	137.892672053603	-82.6398227355606
1958656	19.6398079251985	156.917867497871	158.14214869989	-82.8659691772988
1670375	20.1726370719827	180.216870589158	181.342371583111	-83.6131634379289
1424531	22.1069082770876	208.913126655665	210.079532279129	-83.9595164250855
1214875	26.3184708943781	241.308359308924	242.739337938009	-83.7755969728484
1036062	28.9308996723649	277.67739172425	279.18046283835	-84.0518772216605
883578.1	31.4037028058922	321.053653579083	322.585866129313	-84.4134135903881
753531.2	35.8904240351521	373.773635887314	375.492814074844	-84.5151708948033
642624.9	32.4621022624542	433.948201215398	435.160693791819	-85.7218773071283
548046.8	40.4930319342539	496.276587763491	497.925835037109	-85.3353599785331
467390.6	168.442396678334	707.181410863962	726.96519096191	-76.6024518567081
398593.7	183.680985710283	795.274044759708	816.210457406647	-76.9946987632547
339937.5	221.868867107331	911.472657105788	938.087521952497	-76.3192388185749
289906.2	232.974624361762	1023.51714513809	1049.69734780466	-77.1767274547677
247234.4	258.146411574236	1169.41861977089	1197.57232686611	-77.5517283316809
210843.7	275.85460605572	1354.02183016715	1381.83605404235	-78.4847328052719
179812.5	265.535969129589	1556.51962201033	1579.00686654769	-80.3187707074857
153343.8	313.190927954946	1757.52032606201	1785.20762206372	-79.8959278546791
130781.2	335.051841800379	2030.10272696989	2057.56575077065	-80.6282825084153
111531.3	340.913955513046	2362.89448244247	2387.36102427359	-81.7901263253816
95109.37	372.927211110344	2720.31788161773	2745.76111157466	-82.1940042751693
81109.37	428.131688186705	3161.29276488614	3190.15182832276	-82.2873963957756
69171.88	431.617477428942	3729.68805530702	3754.57942208205	-83.3988199267704
59000	501.18382036821	4290.5790880588	4319.75162858773	-83.3374561469119
50312.5	319.747378059752	4875.30362583217	4885.77770982557	-86.2476233799404
42906.25	2030.33795017609	6910.98896858646	7203.05773375787	-73.6280560548455
36593.75	1972.16774030687	7458.59890818494	7714.92989398379	-75.1890795676794
31203.13	2082.76322276276	8487.77730997324	8739.58044220601	-76.2129551475782
26609.38	2210.15746069548	9709.78732415108	9958.15072597884	-77.1767274547677
22703.13	2345.2566141117	11159.3365996124	11403.1145714442	-78.1313897330147
19359.37	2490.98672800933	12860.3872283155	13099.4112288049	-79.0378662606912
16500	2660.20767876922	14881.2993516507	15117.2013047264	-79.864758950624
14112.02	2836.26262944511	17187.2546984038	17419.7046407507	-80.6294284240056
12011.13	3106.55372686771	19977.7329526333	20217.8260449695	-81.161247849446
10236.38	3278.94425235361	23148.6336443373	23379.7073337069	-81.9378348449663
8750.684	3444.65564171553	26877.9524901977	27097.7855655278	-82.6968320361761
7449.463	3685.05004955695	31463.4812660406	31678.5455355234	-83.3198663426014
6363.206	5054.85361513725	36026.2310851807	36379.1268624373	-82.012949611908
5414.761	13500.7352337274	48894.0374104727	50723.7296159097	-74.5639826131917
4620.567	19549.7362529063	57795.8850258135	61012.7569732367	-71.3116449849111
3941.215	17616.2998581412	61557.3742017984	64028.4650707182	-74.0301005396888
3361.769	18109.2163321986	73067.6624761383	75278.3303208383	-76.0802008264464
2867.244	24177.3605784049	83121.5955805698	86566.4162155163	-73.7820098143971
2442.658	20514.0818636528	95444.4455051689	97624.1247463854	-77.8698344995375
2083.003	28704.6967496589	110416.613093242	114086.756735707	-75.4275446020128
1777.843	31997.8514435152	125672.627644591	129682.195524665	-75.7152840067275
1513.548	30855.7652337814	141358.504884034	144686.921147738	-77.6866025966547
1292.065	39687.0667405048	165243.101275102	169942.183655145	-76.4948503827825
1101.762	40786.1581969182	197012.598514645	201190.145568705	-78.3036781420106
939.101	50898.8221340026	218875.165812938	224715.438508951	-76.9086977982055
801.2801	55453.9487443747	255711.858339415	261655.68009646	-77.7642383778949
684.3433	73676.3705459811	299462.715411442	308392.81038705	-76.1781193136342
582.9476	197135.239333906	443738.406016085	485557.489449944	-66.0463347349973
497.0677	193877.066728941	413139.080481681	456368.509895969	-64.860369394856
423.5089	174835.941888215	554878.85526589	581771.562210739	-72.5109602416789
361.5036	190549.877642302	619339.113181705	647989.34635239	-72.8986234858644
308.1262	326468.920274329	706907.932663704	778653.184137815	-65.2112487485942
262.7298	263877.170343239	667891.562044008	718129.723432988	-68.4415275017622
224.2111	355390.434763364	700329.238561092	785342.857295367	-63.0939405124677
191.2854	580905.18291661	892927.209380441	1065255.75933262	-56.9534716079594
163.1722	462657.896783421	976757.310248481	1080790.06869045	-64.6546202506246
139.1537	573765.781389872	1106594.61039716	1246498.61759008	-62.5934045826414
118.6706	520369.977472054	1267529.63257218	1370188.41146129	-67.6799520004743
101.1982	827729.134530371	1333005.45534992	1569088.60939816	-58.1618052204226
86.24196	899876.512173919	1509203.72344389	1757120.83136567	-59.1941032799098
73.61024	787512.304203325	1618500.22191158	1799921.83096919	-64.0538740024299
62.69291	1196391.86149617	367970.973517226	1251701.29168484	-17.0961839812772
53.57697	1672970.03722748	1416398.25727963	2192033.93420031	-40.2524852658736
45.65746	1299702.86116078	2041024.08885654	2419712.14374813	-57.5114408271696
38.96512	1933813.84903184	2122869.20055282	2871621.43141521	-47.6682493603621
33.18414	1504943.99638268	2335225.54887869	2778153.12687837	-57.2001070204514
28.30617	2354490.07626854	2013882.80765019	3098281.37556873	-40.5415997692966
24.17237	2356245.67581717	3543735.66787645	4255579.4163177	-56.3798892888318
20.61345	2414754.63898729	2611648.15392831	3556929.3001728	-47.243234997512
17.55618	2050910.85085267	3635320.57270039	4173941.89998422	-60.5699468333574
14.98558	2106604.97297218	3475157.96234937	4063804.54444248	-58.7761878641413
12.76553	3893240.81980273	2005334.41982765	4379348.1497049	-27.2521359197127
10.8809	2762615.84616671	3154825.25982217	4193443.54123237	-48.7920315909979
9.278505	-137801.78112886	4938616.60632849	4940538.76770397	-91.5983043413286
7.923394	4907196.75877711	1682667.87794193	5187673.00596425	-18.9267383000966
6.75822	4789366.63518663	-1092731.14542557	4912442.78566397	12.8524746688156
5.761429	4337539.00505044	1313780.34439604	4532136.73819042	-16.8508319942463
4.919708	3075895.22773293	3022457.26951496	4312351.95665127	-44.4979478291883
4.191257	5263524.62609681	-380338.829984289	5277248.25217854	4.1329720405233
3.564097	4580537.87722433	2468532.75197062	5203362.48902941	-28.3210116048411
3.051758	4858437.26844425	1045532.06231102	4969662.96490299	-12.1447915777377
2.604164	4820695.72694669	1828629.9877584	5155869.94831439	-20.7731921977308
2.214424	4811360.65270808	3016834.90039633	5678950.97237834	-32.0886674740623
1.892567	5611662.91494755	1570555.16098761	5827298.18910122	-15.6355197558384
1.607507	5676101.31424763	3906968.61932255	6890756.84681841	-34.5403767977389
1.376413	6860330.27322391	67758.8451691443	6860664.88897476	-0.565886693797996
1.17375	5941914.00888609	-336719.852328423	5951447.08016032	3.24340177850774
1.001604	10572498.363193	-1247758.98388485	10645873.5724967	6.73087326450091
