EC-Lab ASCII FILE
freq/Hz	Re(Z)/Ohm	-Im(Z)/Ohm	|Z|/Ohm	Phase(Z)/deg
6999984	2.8778792513987	0.992158129983897	3.04410360213385	-19.0217977278867
5969734	3.82364884294074	1.20929926502949	4.01032357628695	-17.5505165945042
5091109	7.92564252671668	0.526888350362592	7.94313671008172	-3.80336660971839
4341796	7.89587792548988	-10.3620950363993	13.0275823450711	52.6927339898265
3702781	-1.2999775317324	-9.4274490188886	9.51665574594105	97.8511646469298
3157797	-1.1246202763693	-2.01247173337339	2.30538787271206	119.197566741221
2693047	0.769576052445097	0.491205832677302	0.91297889929241	-32.5493198117696
2296687	0.946391007814839	0.618570867822806	1.13061304529527	-33.169042422139
1958656	1.14357497225059	0.619225164743221	1.30046281062136	-28.4347437271745
1670375	1.38304459069071	0.534870970093524	1.48286860324427	-21.1432026122484
1424531	1.84853641386761	0.436241295619771	1.8993139133378	-13.2784458711836
1214875	2.54138300048303	0.0808454705694543	2.54266858738132	-1.82205620880199
1036062	3.34256344692673	-0.440702957672497	3.37149069309586	7.51088654763611
883578.1	4.27622919215603	-1.63056740364005	4.57655833150424	20.8723310850223
753531.2	4.14212868564498	-1.0191427592999	4.26566313863113	13.8226755624665
642624.9	4.01678512935404	-2.00987945225061	4.49156745334843	26.5820159416836
548046.8	3.57982924255611	-2.68584079988001	4.47536794109265	36.8798207710376
467390.6	2.91614304133235	-3.15401794746132	4.29554646703061	47.2441345412504
398593.7	2.36074326153641	-3.78618022404224	4.46186837948164	58.0558080283234
339937.5	1.54469060032865	-4.84944519708007	5.08951743981948	72.3317963391415
289906.2	-12.0826490987254	-2.78022127114738	12.3983885872104	167.041777170046
247234.4	-16.4508008853563	16.0610782622593	22.9910218284455	-135.686776423071
210843.7	-25.9725901266726	44.0476475014799	51.1348285252112	-120.525625614555
179812.5	-18.2675730377267	73.0851982220971	75.3335942581523	-104.03349384795
153343.8	-5.96119398191785	70.5282371347689	70.7797150815701	-94.8312759961338
130781.2	4.27035840741585	58.8045043350068	58.9593562635619	-85.8464956275693
111531.3	11.0844158231446	43.3796275926818	44.7733890187032	-75.6664107068029
95109.37	-2.53706155308676	134.179790852284	134.203773994947	-91.083215283506
81109.37	9.51811975979802	119.738143232918	120.115850530347	-85.4550508619359
69171.88	17.1918536696826	96.6790989120715	98.1957636512385	-79.9168408142014
59000	21.8781509623608	69.0833751691468	72.4649309272626	-72.4274229951488
50312.5	23.3863262400091	43.172222891862	49.0995018755665	-61.5556634241005
42906.25	24.6154731922834	24.0459978454405	34.4112123131829	-44.3295096965758
36593.75	16.9172867035078	-2.4983772192651	17.1007741970481	8.40082751334511
31203.13	16.2072036693066	-3.59960680117946	16.6021269692013	12.5220900154093
26609.38	15.3561048785165	-4.46757219808808	15.9927845725855	16.2213691013597
22703.13	14.3150701166863	-5.0803299175293	15.1898316158076	19.5394593662095
19359.37	13.3196871599051	-5.41941332353591	14.3799898055965	22.1400517729508
16500	12.2528075788314	-5.65900118693409	13.4965028061935	24.7900159528986
14112.02	10.7414864295477	-5.74564933012156	12.1816262026415	28.1424435784106
12011.13	9.52375048188562	-5.57518524099905	11.0356021001425	30.3446240527298
10236.38	9.20394842852956	-4.91342037210586	10.4333295945281	28.0950084025517
8750.684	10.2676196440143	3.36563457919262	10.8051612331702	-18.1486845326207
7449.463	11.8004855477318	8.4379089392374	14.5068868620766	-35.566572856708
6363.206	12.7766891611075	12.6673082182927	17.9917893333817	-44.7536932706229
5414.761	13.4583020709774	17.1325004789885	21.7864285117184	-51.8488702900019
4620.567	14.0730871452921	22.0167254471384	26.130212039202	-57.4132931568637
3941.215	14.298175661197	27.9431454395245	31.3888069905956	-62.9017131722013
3361.769	15.1174552029581	35.6359315658963	38.7099092014266	-67.0123988733674
2867.244	15.3563049194258	43.788137626426	46.4027703652401	-70.6744586209461
2442.658	15.7964664412632	54.1689425558287	56.4251955215631	-73.7425330223126
2083.003	16.4194347575546	66.2423000292956	68.2469057974704	-76.078711136179
1777.843	17.0344660739707	80.0279891885963	81.820853625438	-77.983566621871
1513.548	18.1788101140437	97.256251331007	98.9406264389025	-79.4126379544863
1292.065	20.059959143656	116.738780962304	118.449757033984	-80.2497292931724
1101.762	21.197155795267	138.874466100028	140.482869946398	-81.3216187363031
939.101	24.5286049462588	166.515636491936	168.312535649975	-81.6203016349048
801.2801	27.2141644707941	196.010595671305	197.890788980344	-82.0955701259659
684.3433	30.405170113137	229.743520821345	231.746757752932	-82.4610599034798
582.9476	34.6398798823356	271.348885735958	273.550980748395	-82.7250788554761
497.0677	38.6996051730755	321.603876074416	323.923930185222	-83.1384106088835
423.5089	43.3301011974278	375.245052861543	377.738464240593	-83.4131438716487
361.5036	48.1248714049363	440.527171267188	443.148047352588	-83.7655129156541
308.1262	54.2983393442695	514.305783788303	517.164141152155	-83.9732674121686
262.7298	60.1568597714504	602.959043529894	605.95251955252	-84.3024889612508
224.2111	67.5167783804537	703.450497020602	706.683180160252	-84.5175773175429
191.2854	78.1744859308544	821.496901607239	825.208100784794	-84.564044194728
163.1722	89.4039721497721	960.363699848482	964.516203193509	-84.6814432469503
139.1537	98.5804038387129	1124.63070506824	1128.94300954622	-84.9904966816438
118.6706	121.504030906505	1309.03535259248	1314.66223185404	-84.6970276989778
101.1982	133.927521481151	1536.30380006765	1542.13032753797	-85.0178267684716
86.24196	141.696378459704	1793.92070679867	1799.50808999282	-85.483756047472
73.61024	191.279220208535	2093.72729885061	2102.44660860529	-84.7800492834923
62.69291	227.45760540937	2447.15916424469	2457.70725217739	-84.6897511349797
53.57697	271.899675558625	2848.55951249212	2861.50672369964	-84.5475430102282
45.65746	332.303272851811	3322.07061933321	3338.64922760462	-84.2877639459159
38.96512	398.530986255732	3864.93750471843	3885.43033168593	-84.1127826352829
33.18414	502.493890465141	4518.32392510789	4546.17984709769	-83.6540726245012
28.30617	598.773781626284	5287.4789024216	5321.27458275896	-83.539137290798
24.17237	743.08584858505	6129.44956728698	6174.32818825513	-83.0876465482349
20.61345	906.668902093982	7128.88155020198	7186.30646819592	-82.7518932802882
17.55618	1159.10178133079	8361.09941616878	8441.06038282763	-82.1073730565455
14.98558	1393.68652592754	9663.75653850689	9763.73660890577	-81.7935067763729
12.76553	1815.87904603578	11309.509178954	11454.3622510674	-80.8783212902104
10.8809	2257.381585811	13111.1268168979	13304.0376590243	-80.2309935732716
9.278505	2827.72480162171	15252.2917409557	15512.2026451736	-79.496805454591
7.923394	3571.04371766495	17588.748111413	17947.6018832658	-78.5232355691047
6.75822	4546.75362117806	20363.4031005485	20864.8305607096	-77.4134163199363
5.761429	5712.4745129721	23585.8561128316	24267.7764460725	-76.3851862607945
4.919708	7390.20356047137	27010.2192215128	28002.9828957449	-74.6979401456933
4.191257	9466.53240316607	31022.0558384524	32434.2902525129	-73.0301745956265
3.564097	12145.0461713814	35475.7755005425	37497.1038064258	-71.1014840656571
3.051758	15414.1454013669	40150.0391913329	43007.2264337059	-68.9975257461572
2.604164	19551.6210803031	45170.4372472552	49220.2629815808	-66.5950564153941
2.214424	56781.0125514607	44606.1927931926	72206.6189616479	-38.1525720284074
1.892567	66348.7986454499	45650.330425921	80536.424987022	-34.5293530897606
1.607507	76826.7838343788	45629.980060612	89355.7485261369	-30.7074839539641
1.376413	87125.6443098455	44373.1346439224	97774.5006355613	-26.9897670861664
1.17375	97856.4379362275	42052.8476864678	106509.738728944	-23.2551422338344
1.001604	108631.90505636	37831.5421391665	115030.936607513	-19.2008986050667
