EC-Lab ASCII FILE
freq/Hz	Re(Z)/Ohm	-Im(Z)/Ohm	|Z|/Ohm	Phase(Z)/deg
6999984	2.55302482182379	1.11287353931873	2.78503559319521	-23.5525760844428
5969734	4.01972869162475	1.31867448273097	4.23049892396595	-18.1621089337606
5091109	6.42573892523505	-1.57428851234059	6.61577698047391	13.7661532759769
4341796	3.14860293233268	-4.69314298301962	5.65148577672812	56.1425644405107
3702781	2.03593607819106	-5.2228134585366	5.60560577789332	68.703369214137
3157797	1.8766969474484	-6.65105830697245	6.9107574140111	74.2427824732413
2693047	2.79572553724102	-6.9686325482058	7.50852321508663	68.1399798141849
2296687	-1.84036353225296	-8.19748807582756	8.40153251997405	102.65329581526
1958656	-2.0738117097666	-7.09773168396883	7.39449052100144	106.287280630877
1670375	1.40719779114808	-10.5319711818098	10.6255645778417	82.3896693622065
1424531	-4.80166514527735	-8.62374660935985	9.87041000920513	119.108872874535
1214875	6.18142470336597	-0.22107220356652	6.18537664840007	2.04825077899492
1036062	4.84903314798364	-9.54862239304822	10.7093095984413	63.0773820321884
883578.1	8.54046291915517	-6.94913827392342	11.0104509273495	39.1342951033184
753531.2	3.06634417890791	-8.15583338056167	8.71321322790889	69.395273047537
642624.9	1.5058374919632	-5.13283552596829	5.34916321389095	73.6497138595014
548046.8	7.4608626083603	-3.94059698215393	8.43758113659297	27.841629276811
467390.6	0.109772181735321	-0.0983900461199484	0.147412798150018	41.8702316004255
398593.7	0.0655397799239465	-0.176012847705743	0.187819022758517	69.5767860770344
339937.5	0.0396398923456015	-0.115404166446604	0.122022304102186	71.0430423705537
289906.2	0.0444920697031571	-0.111272783466025	0.119838126682402	68.2061564395225
247234.4	0.0453574350491456	-0.109755689029462	0.118758613113194	67.5467393131064
210843.7	0.0455417421746888	-0.10398498672635	0.113520604934897	66.3482834930313
179812.5	0.0436467878696169	-0.096729502170352	0.106120868265669	65.7139046222624
153343.8	0.0412768503026418	-0.0883378357556928	0.0975056490512548	64.9551366141707
130781.2	0.0395665657468554	-0.0814567493685932	0.0905578000102589	64.0924340620422
111531.3	0.0393021815162059	-0.0747134056953041	0.0844201069800548	62.2538697932469
95109.37	0.0375884200868407	-0.0684676852147645	0.078107062697895	61.2334319601189
81109.37	0.0484621541650789	-0.0725980567099447	0.0872872168440501	56.2752786545969
69171.88	0.0450431570066153	-0.0664869883089942	0.0803081914098614	55.8834099001951
59000	0.0447642037018622	-0.063231265356227	0.0774727490903182	54.7036382338192
50312.5	0.0394926790291093	-0.0581659574221715	0.0703061185085205	55.8248478839548
42906.25	0.397719244075537	-0.275151827940675	0.483620848937586	34.6764256261928
36593.75	0.244361169567971	-0.227145164185521	0.333627497076446	42.9089009505946
31203.13	0.141544248789131	-0.160965697868985	0.21434721891298	48.673406409094
26609.38	0.0817155078159898	-0.120350782837418	0.145470736394659	55.8243665994069
22703.13	0.0465894629708971	-0.0926705985730819	0.10372279354033	63.3093726434369
19359.37	0.0253566531706039	-0.0726202319009084	0.0769198150111921	70.7524381768634
16500	0.0307117497209381	-0.0421313495344267	0.0521369560342142	53.909730724152
14112.02	0.00455198896861447	-0.0442965203881661	0.0445297913993498	84.132778862333
12011.13	-0.000200630998484495	-0.0338632434285647	0.0338638377668536	90.3394587696467
10236.38	-0.00281115638071406	-0.0250979112608337	0.0252548559658041	96.3909244102594
8750.684	-0.00373260285923609	-0.0184666445852085	0.0188400978325801	101.427051542121
7449.463	-0.00374526105888355	-0.0133710929705537	0.0138857159565642	105.647630548393
6363.206	-0.00332757956137845	-0.0100726030096606	0.0106080213577994	108.28146023683
5414.761	-0.00263607675207889	-0.0082372651321155	0.00864878242873623	107.745630106824
4620.567	0.0325307557333112	-0.00613975824148034	0.0331050857096638	10.6881094089751
3941.215	0.0292061154974163	-0.00586557327739524	0.0297892955996095	11.3558573417323
3361.769	0.035459778291965	-0.00624534145310831	0.0360055574374461	9.98875712423838
2867.244	0.0429562191021593	-0.00658457029141278	0.0434579489331385	8.71478546676499
2442.658	0.050074359342613	-0.00724140997245892	0.0505952515752453	8.2286766142201
2083.003	0.0558282006613415	-0.00816091910572484	0.0564215259429697	8.31654542168136
1777.843	0.0600377458754903	-0.00871431147171738	0.0606668785601835	8.2586480364834
1513.548	0.062506350693651	-0.00924245192187254	0.0631859699186917	8.41104908041024
1292.065	0.0654367745910103	-0.0096649779452392	0.0661466799435667	8.40181300075273
1101.762	0.0679353213317312	-0.0103306963237136	0.0687163093521353	8.64653473420901
939.101	0.0704297370755055	-0.0099825684084759	0.0711336737175491	8.06725148501994
801.2801	0.0730647408240782	-0.0105233232924627	0.0738186743636555	8.19580029593549
684.3433	0.0755518823674568	-0.00974707630305688	0.0761780311226514	7.351220398867
582.9476	0.0786982885521383	-0.00803947476099301	0.0791078616539992	5.83285359388056
497.0677	0.0838054585042169	-0.00614888236128598	0.0840307302681284	4.19632398393091
423.5089	0.0916127196112522	-0.00357748321583676	0.0916825434896388	2.23626802538269
361.5036	0.0978609488965872	-0.00188708199709175	0.097879141789271	1.10471476817158
308.1262	0.103513885996254	-6.47149438951131E-05	0.103513906225538	0.0358202441909242
262.7298	0.109128264537465	0.00139266683699366	0.109137150603622	-0.731154307155419
224.2111	0.116596040973297	0.00237294387661267	0.116620185359518	-1.1659135361851
191.2854	0.124564023732926	0.00270388240529223	0.124593366551348	-1.24351092925305
163.1722	0.135722757578448	0.00222340549603695	0.135740968232505	-0.938533516314045
139.1537	0.14874896789601	0.00150810589390135	0.14875661273878	-0.580878936648507
118.6706	0.162027028330859	0.000556988737012504	0.16202798568822	-0.196960831090865
101.1982	0.17352665331986	-0.00369973918153788	0.173566089667315	1.22141080117926
86.24196	0.186541795659882	-0.00780336131554329	0.186704938273828	2.39538356171067
73.61024	0.192137055394806	-0.0110468983906647	0.192454363473111	3.29059172843031
62.69291	0.189103714193928	-0.0140389197747149	0.189624117639027	4.24580748390738
53.57697	0.202798236664824	-0.0178602886533315	0.203583188660415	5.03301081441368
45.65746	0.208684700993133	-0.0213763942805249	0.209776678067486	5.84863285155847
38.96512	0.221624092112222	-0.0260417316042368	0.22314885164283	6.70175554935236
33.18414	0.237995472612303	-0.0308603708661273	0.23998793193398	7.38819909496474
28.30617	0.227280880738881	-0.0316080904314654	0.229468233379188	7.91737718496962
24.17237	0.224137605843295	-0.0316622712560634	0.226362907240247	8.04055165176685
20.61345	0.234892791109168	-0.0359022906380262	0.237620701514226	8.69014255199642
17.55618	0.243537306476957	-0.0389607083125355	0.246634053687373	9.0890701464342
14.98558	0.256945032343829	-0.0444065463873095	0.260754081479503	9.80529030865954
12.76553	0.26071493070392	-0.0465192589266725	0.264832619862125	10.1167960027163
10.8809	0.265646844411192	-0.0491300045957472	0.270151815276526	10.4781604841053
9.278505	0.274126407723876	-0.0513638986362101	0.278897001587876	10.6126279490445
7.923394	0.299909009493393	-0.0584923193431608	0.305559757490168	11.0360609483801
6.75822	0.299458565718987	-0.0600665236814842	0.305423345292483	11.3420891659153
5.761429	0.30704939909456	-0.0627021291911267	0.313386168312246	11.5416045293358
4.919708	0.310275723292847	-0.0632116936080606	0.316649242338741	11.5151396087787
4.191257	0.283553191388236	-0.0551802452341397	0.288872414416042	11.0122831998821
3.564097	0.29354073695076	-0.0590902247576533	0.299429155079303	11.3816232537794
3.051758	0.297447732802233	-0.0597174565994538	0.303383137916227	11.3521388456419
2.604164	0.294108104195704	-0.0599396232361862	0.300153852860974	11.5192018795462
2.214424	0.304372240081451	-0.0641155169616248	0.311051860704058	11.8953544016275
1.892567	0.332234810968075	-0.0738525691565441	0.340344195763663	12.5325235768586
1.607507	0.265717378420243	-0.0514541022868504	0.270653375808749	10.9592444967869
1.376413	0.2402258570618	-0.12707906165818	0.271767456316977	27.8787626715134
1.17375	0.310249362775166	-0.194690707891347	0.366277406949474	32.1094944899153
1.001604	0.323208842944987	-0.205676257812863	0.383101395436953	32.4709277262398
