EC-Lab ASCII FILE
freq/Hz	Re(Z)/Ohm	-Im(Z)/Ohm	|Z|/Ohm	Phase(Z)/deg
6999984	2.71100551042497	1.09578144188316	2.92408752364393	-22.0084319082534
5969734	4.55076995644371	1.06829597974982	4.67448002421877	-13.2110087386967
5091109	5.81092367920139	-1.8703817460757	6.1045197912331	17.8419859544652
4341796	4.20558254726382	-5.37131866525364	6.82187575125435	51.9401138188765
3702781	2.32534696577662	-5.79869938994522	6.24757177839499	68.1486314768914
3157797	1.3808866040592	-6.87280708657316	7.01015870451736	78.6393741141777
2693047	1.46738799546447	-6.84440325070737	6.9999345273743	77.8993991217662
2296687	-1.79282700528097	-7.12604395985597	7.34811072240099	104.12184393996
1958656	-1.2792100428545	-13.821740772725	13.8808103625887	95.287694175735
1670375	-4.66135169319468	-8.9214969781377	10.0658485950549	117.586409421313
1424531	-1.07026614360396	-7.40480330241096	7.48174989995931	98.224389354678
1214875	-0.428967718192015	-12.5363107820916	12.543647847753	91.9597834142766
1036062	-3.58655233943581	-10.0148385477684	10.6376853131393	109.703656075904
883578.1	7.30198536232491	-4.37319093763726	8.5113917315936	30.9175761182826
753531.2	2.82404862641999	-8.07164821917277	8.55141833957733	70.7164564273292
642624.9	5.85577819398671	-3.4904498706233	6.81713859009075	30.7978737757239
548046.8	6.26623958206755	1.0306494727984	6.35043280695495	-9.34018608888414
467390.6	0.0891776259042012	-0.0837059598831587	0.122308367178499	43.1872266587353
398593.7	0.055565735153365	-0.151175392831145	0.161063808227624	69.8186888581387
339937.5	0.0382716613936509	-0.106923485890941	0.113566508711418	70.3059321671179
289906.2	0.0428121411248361	-0.106321476527065	0.114617345103558	68.0669849910852
247234.4	0.0434584289086391	-0.10080426953831	0.109773110552445	66.6783071830266
210843.7	0.0422302048749925	-0.0966127593068106	0.105439155272885	66.3894791585012
179812.5	0.0413963401354737	-0.0905419706063386	0.0995565438225479	65.4298321474366
153343.8	0.0392908743230065	-0.0833349911843918	0.0921330210118443	64.7570078086144
130781.2	0.0379405228545651	-0.0765305073415303	0.0854189781514026	63.6297706424741
111531.3	0.0361397270649	-0.0701747696719749	0.0789340114959337	62.7517128214361
95109.37	0.0345112588587807	-0.0642159750613272	0.0729021154775001	61.7453124542888
81109.37	0.0326550232432906	-0.0587688219454961	0.0672318747015229	60.9411661888227
69171.88	0.0307731351115329	-0.0538479595925557	0.0620208722679243	60.2528146937525
59000	0.0294574375085969	-0.051333261779137	0.0591848324273906	60.1507709104397
50312.5	0.0366816930481201	-0.0540529173846484	0.0653243023894486	55.8381806118475
42906.25	0.0339482087488455	-0.052789574719704	0.0627632063899097	57.2555177688185
36593.75	0.200089152036237	-0.167540774493315	0.260970457869086	39.9404696393792
31203.13	0.128376731769306	-0.145641382670503	0.1941442700827	48.6051843244278
26609.38	0.0754647550204731	-0.113497164060622	0.136295764791515	56.3798950184098
22703.13	0.0431167233358993	-0.0892640254126235	0.0991318216522322	64.2183128896324
19359.37	0.0230502755732532	-0.0709704157947771	0.0746198038196728	72.0068719735228
16500	0.0101281169134978	-0.066952292506741	0.0677140179292419	81.397879418835
14112.02	0.00358391772111274	-0.043235254937015	0.0433835422216811	85.2613911271817
12011.13	-0.000993396799658576	-0.0327908530399551	0.0328058970352817	91.7352412543649
10236.38	-0.00329393617054379	-0.0245504337951163	0.0247704221809803	97.6417485728095
8750.684	-0.00409262118438036	-0.01801202786439	0.018471131420311	102.801176222183
7449.463	-0.0040420567207118	-0.0131455818132094	0.0137529830851795	107.0918279668
6363.206	-0.00344438638058738	-0.00984044579915747	0.0104258415039234	109.291241054968
5414.761	-0.00277870596647694	-0.00798340609761538	0.00845316389096869	109.190973440821
4620.567	0.0321904577671501	-0.00597656864007473	0.0327405703060927	10.5179294846653
3941.215	0.0286098097594454	-0.00566220790847901	0.0291647357757704	11.1948218238329
3361.769	0.0355924000371509	-0.00582869390929427	0.0360665026457075	9.30033687423279
2867.244	0.0428423555411973	-0.00631516037991902	0.043305296199685	8.38527743878526
2442.658	0.0495211079653316	-0.00713458426152349	0.0500324137604694	8.19828120318841
2083.003	0.0551336757886956	-0.00777450711529557	0.0556791268507219	8.02646834916253
1777.843	0.0591926372783926	-0.00845664946842858	0.059793672141818	8.13063207631732
1513.548	0.0626461286644735	-0.00907531463550397	0.0633000692920565	8.24288596753935
1292.065	0.0640876452735632	-0.0091589907281395	0.0647388089778319	8.13326768217492
1101.762	0.0670822216651302	-0.00904135827000913	0.0676887776732327	7.67608173912823
939.101	0.0697365804544874	-0.00976562827712267	0.0704170302493092	7.97163055859056
801.2801	0.0728653333135251	-0.00888887805510841	0.0734055103651606	6.95517478213872
684.3433	0.0754130897284568	-0.00960641145941282	0.0760224785410198	7.2594612079768
582.9476	0.0789262657513342	-0.00812515728324403	0.0793433904388241	5.87767608219365
497.0677	0.0829496907651164	-0.0066729078974918	0.0832176597714502	4.59926858547036
423.5089	0.0881012845855077	-0.00432191023647363	0.0882072290331623	2.80845920298362
361.5036	0.0973855272294097	-0.000194706065589824	0.0973857218703136	0.114553170853891
308.1262	0.103681791836886	0.000385383262510272	0.103682508065567	-0.212966349802065
262.7298	0.109295725675169	0.00104005825915044	0.109300674160977	-0.545210251253551
224.2111	0.11734546175477	0.00223069959914083	0.11736666228168	-1.08904322655917
191.2854	0.12818737452563	0.00290949016529846	0.128220388865406	-1.30022859435085
163.1722	0.1409771167136	0.00307417454975699	0.141010630755424	-1.24920498382106
139.1537	0.157568894131171	0.00220786588999172	0.157584361754295	-0.802779761124723
118.6706	0.169657025945507	8.50327192893976E-05	0.16965704725486	-0.0287168509567631
101.1982	0.175556714508107	-0.00394672494579865	0.1756010724531	1.28786072738515
86.24196	0.182149882681505	-0.00666897101306626	0.182271925801148	2.09680780621666
73.61024	0.193128607705451	-0.0110284641352312	0.193443237502447	3.2682830437191
62.69291	0.194704243997493	-0.0140726923651113	0.195212149470873	4.13399419722981
53.57697	0.205918893588993	-0.0179061217314172	0.206695960125918	4.96977690031186
45.65746	0.213204476974159	-0.0212627255988894	0.214262111680339	5.6952342881103
38.96512	0.21544776627331	-0.0247159336034456	0.216860824876345	6.54430101767246
33.18414	0.226109254343009	-0.0285640104330453	0.227906335128207	7.19994235221861
28.30617	0.242721370280961	-0.0341734915127444	0.245115260873816	8.01417267487902
24.17237	0.243110390730669	-0.0351237722256758	0.245634568936417	8.2210161684992
20.61345	0.24497177286663	-0.037520912111787	0.247828546271651	8.70799018731474
17.55618	0.250933346896327	-0.0405858647645471	0.254194329211488	9.18743554070226
14.98558	0.263419032097353	-0.0457494495967758	0.267362298407076	9.85259943380349
12.76553	0.265478450330777	-0.0473405591963857	0.269666342236211	10.1108028641792
10.8809	0.260763191658677	-0.0466692502009933	0.264906513771071	10.1468992052724
9.278505	0.254439191745026	-0.0460564142196029	0.258573965407637	10.2600984768564
7.923394	0.264406760755288	-0.0487354024214001	0.268860697355117	10.4435309149676
6.75822	0.264577348196515	-0.0496693166414702	0.269199209126496	10.6324293704442
5.761429	0.268841329904727	-0.0516694820531064	0.273761567866234	10.8792022928071
4.919708	0.275231410680308	-0.0529342012036063	0.280275505676355	10.8865476117407
4.191257	0.283908811714615	-0.0555306378313561	0.28928854990677	11.0669491031156
3.564097	0.293318311431191	-0.0590049200991407	0.299194272031987	11.37401437426
3.051758	0.305446320301998	-0.0628473496302217	0.311844903664584	11.6266773027568
2.604164	0.304490995284406	-0.062412786339036	0.310821688606008	11.583705468122
2.214424	0.285162975202444	-0.057891081616855	0.290979895795361	11.4756914645839
1.892567	0.28870140095445	-0.058230369659616	0.294515321950757	11.4034242978841
1.607507	0.299920332898546	-0.0619025673507133	0.306241953250341	11.6619027480015
1.376413	0.235796825914969	-0.127644194141143	0.268129042458134	28.4280687688613
1.17375	0.319336613871075	-0.201523285351316	0.377607610486642	32.2547335614031
1.001604	0.324033924065211	-0.205951048775735	0.383945072161272	32.4394207770855
