EC-Lab ASCII FILE
freq/Hz	Re(Z)/Ohm	-Im(Z)/Ohm	|Z|/Ohm	Phase(Z)/deg
6999984	7.82511473360271	121.93741989172	122.188243257867	-86.3281812459358
5969734	18.2875868946099	95.001169899537	96.7453260716434	-79.1039282944698
5091109	13.6254001455023	85.9719179373971	87.0449435806561	-80.9942879479449
4341796	9.55971347666161	87.5948661608505	88.1149743204478	-83.771643564062
3702781	10.0170267660933	102.75838762322	103.245469886851	-84.4323211976274
3157797	13.6575081504722	105.925725312159	106.802559949597	-82.6531153564077
2693047	13.7563853378625	115.627151541354	116.442588047204	-83.21530154499
2296687	11.5976763807836	131.848496351722	132.357591726517	-84.9730787646719
1958656	13.6325087819076	150.625065582934	151.240720963475	-84.8284642171809
1670375	13.8968129490711	172.928414587425	173.485901392193	-85.4054900126571
1424531	16.103505773134	200.27256098706	200.918942816503	-85.4028544067995
1214875	19.9435604061641	230.220574930371	231.082796250489	-85.0489383767472
1036062	21.6706986134324	265.366961113749	266.250339397231	-85.3314065697467
883578.1	23.7816402836767	306.89600117209	307.816052131791	-85.5689548716079
753531.2	25.9318333986588	356.272778079358	357.215274566751	-85.8369845281701
642624.9	28.6581615496655	414.186591228263	415.176856985905	-86.0419315314884
548046.8	32.7588384811572	482.261698993586	483.37303174134	-86.1140096221159
467390.6	141.721866610876	669.901311216896	684.728306882217	-78.0548425715852
398593.7	165.191466959724	761.609966318276	779.318908760484	-77.7622330256119
339937.5	184.938938907295	862.509530748361	882.113995896173	-77.8979094314989
289906.2	205.303588873897	980.267042298121	1001.53534027532	-78.1711530039968
247234.4	224.412144069368	1118.80375470713	1141.08836290297	-78.6579952425194
210843.7	245.176796693829	1283.01177811015	1306.22773068344	-79.1815067799305
179812.5	264.216715588486	1474.28446485183	1497.77339944993	-79.8394915118587
153343.8	283.746308365788	1698.6056322556	1722.14199804827	-80.5164984425853
130781.2	305.50175774312	1961.91757383375	1985.56085036491	-81.1492157357483
111531.3	327.162304706125	2271.6794275204	2295.11712011392	-81.8047367491574
95109.37	350.934093321965	2630.10253890938	2653.41178542518	-82.3999253067393
81109.37	376.433809402597	3051.42020031545	3074.55161800132	-82.9673254112574
69171.88	399.858686510282	3537.82284170158	3560.34793643026	-83.5515704749523
59000	413.761603272099	4090.44408224014	4111.31748400384	-84.2239937433178
50312.5	328.639056426998	4682.18501148125	4693.70430589198	-85.9850368224319
42906.25	1708.42312379426	6403.83604449019	6627.80700191448	-75.0624558949555
36593.75	1807.56153405631	7119.82986538526	7345.69642793874	-75.7548753903711
31203.13	1909.57527780021	8098.37898910697	8320.46993821833	-76.7321695015257
26609.38	2011.3408763275	9282.63248513661	9498.03969116255	-77.7742651393097
22703.13	2132.18781164654	10678.4977969884	10889.2855626263	-78.7081863453729
19359.37	2258.27687436379	12334.802968567	12539.8237114665	-79.6250907049208
16500	2402.74634598039	14274.0487141704	14474.8629250032	-80.444993309753
14112.02	2549.00460092605	16505.5944088963	16701.259570659	-81.2210073474782
12011.13	2715.59242024879	19164.4535352685	19355.8962979858	-81.9349127602112
10236.38	2956.6157593132	22236.7751470902	22432.4707888023	-82.4263386610949
8750.684	3263.40024772863	25710.137531491	25916.4224588398	-82.7661026336075
7449.463	3618.84729976024	30364.8520312348	30579.7366675674	-83.2036132059693
6363.206	3429.95026078195	34800.4109428448	34969.0314504465	-84.3710720093279
5414.761	3984.81782470805	38736.4784963989	38940.8980301956	-84.1266482139251
4620.567	14037.6431357642	51936.8869809775	53800.5172287581	-74.8753278790658
3941.215	14438.8518071538	61066.5840235747	62750.3635512756	-76.6970471886842
3361.769	18862.0192884425	69577.1083295454	72088.4857320423	-74.8319549739743
2867.244	20254.4767403845	78501.9788492022	81072.8346073292	-75.5325104700808
2442.658	17654.3228574663	90019.2475248914	91734.0724077119	-78.9041379113077
2083.003	19660.8173368643	102817.145668494	104680.051498697	-79.1745166948299
1777.843	23308.7172385179	123416.687953361	125598.468002928	-79.3049791847812
1513.548	22732.1911484972	138072.803974478	139931.596545549	-80.6507424539844
1292.065	26650.4666419938	165587.638724128	167718.554341696	-80.856949964452
1101.762	30409.3255483181	190907.370551289	193314.125741268	-80.9494826483657
939.101	26810.3369600716	219367.679293524	220999.938657319	-83.0320696421072
801.2801	36614.812974255	254611.621810941	257230.873905792	-81.8165969755167
684.3433	29094.3421059619	283425.189153921	284914.581216046	-84.1389668065204
582.9476	137781.999985337	406684.711487997	429390.654390654	-71.2839711234062
497.0677	138850.811244742	469970.64703202	490053.014331122	-73.54045080797
423.5089	144427.323932282	509855.64590707	529917.004408762	-74.1841115950199
361.5036	147323.379824001	589434.645298388	607566.769434277	-75.9669843661285
308.1262	161641.698929838	674659.466600065	693753.151132309	-76.5264776530738
262.7298	217503.638553126	770130.784501561	800255.745384461	-74.2290314861582
224.2111	199451.706925535	875025.247859891	897468.755883888	-77.1594814251343
191.2854	219528.443490419	1040565.64688083	1063470.54635747	-78.0869855038921
163.1722	288143.717343907	1147279.80014582	1182910.70739401	-75.9015525859246
139.1537	207167.922146182	1371475.73205016	1387034.32962882	-81.4101407156509
118.6706	354271.899536689	1605574.54658937	1644195.30575203	-77.5569995433961
101.1982	364100.30266691	1820569.9883062	1856621.69348615	-78.6904819495034
86.24196	424026.997455172	2134038.63801313	2175757.29416306	-78.7618724907767
73.61024	312898.865099898	2619215.7096401	2637839.38734076	-83.1875703877057
62.69291	1287008.62880785	2083145.78419377	2448650.15239624	-58.2914082736812
53.57697	748379.939069703	3226973.79758493	3312617.15619262	-76.9431325616929
45.65746	616717.831451009	4589477.18202825	4630727.98682751	-82.3466402317922
38.96512	1372062.50289856	4030639.29061104	4257770.3793039	-71.2010068346713
33.18414	1081918.28686581	5158887.76768031	5271116.59698172	-78.1556258477488
28.30617	1337689.07976304	5102918.89729518	5275338.22105176	-75.3108903949242
24.17237	2621599.68350643	6651484.58637995	7149477.75039625	-68.488739224081
20.61345	2138963.81475104	9030520.76319177	9280380.99731104	-76.6745299473356
17.55618	1703281.2160106	6295026.87679771	6521390.21071582	-74.8596861312587
14.98558	406418.479151401	8892773.53616774	8902055.78199559	-87.3832830256692
12.76553	5744171.67920282	7711523.9228768	9615773.99345768	-53.3182549330826
10.8809	2023778.55963155	8288967.90510835	8532447.98345356	-76.2794755475929
9.278505	1550934.59056639	10355984.8345947	10471476.4956319	-81.4825625809554
7.923394	6966980.17615958	14162631.961488	15783502.6800632	-63.8061843475948
6.75822	-1326863.9653972	12693138.3773705	12762301.1189105	-95.9676804869963
5.761429	13675002.3128548	2172692.38567268	13846525.9346648	-9.0277292848875
4.919708	11826140.1496631	9904234.24488884	15425674.9225796	-39.9457236623606
4.191257	8528070.60235021	9491142.42312458	12759693.2837237	-48.0593732696302
3.564097	12763625.6160072	7524388.86022061	14816428.9417324	-30.5201210253783
3.051758	13887221.2271237	8250716.21396046	16153304.0414147	-30.7155168222518
2.604164	21860169.8979259	17496682.836325	28000016.754301	-38.6734651486946
2.214424	19404685.7663911	7115894.71002829	20668279.7352995	-20.1384982001747
1.892567	16539424.639169	11295274.4771059	20028374.6946154	-34.3303533883558
1.607507	11281940.5523955	17764389.8978937	21044137.6889663	-57.5808833119394
1.376413	23810258.3729017	17886796.2412443	29780293.5438878	-36.9146909824493
1.17375	31527162.3861933	-497768.233875231	31531091.6610899	0.904542222160114
1.001604	36260625.6860271	27553004.6943991	45541201.5962661	-37.2297547444138
