EC-Lab ASCII FILE
freq/Hz	Re(Z)/Ohm	-Im(Z)/Ohm	|Z|/Ohm	Phase(Z)/deg
6999984	4.62309619895515	2.2415697546212	5.13786467607177	-25.8670448274517
5969734	6.72271166424339	3.77552158076294	7.71034469575523	-29.318869171263
5091109	10.4307310553159	10.3476635075426	14.6926611072896	-44.7709450298343
4341796	0.299258767040822	0.665265860287886	0.729475479036392	-65.7801958391591
3702781	-0.379878681042703	-5.40420958164576	5.41754455585393	94.0208844907008
3157797	4.6878509290486	-9.9211017358043	10.972885034719	64.7086501707054
2693047	2.70924854253921	-13.702160248959	13.9674343797779	78.8155013404009
2296687	-3.82791442019898	-11.0598372653821	11.7035434439789	109.091221488688
1958656	-10.9568525589206	-8.80073388185217	14.0536662425541	141.22796585134
1670375	-0.425475301112941	-10.3393979239896	10.3481485620597	92.3564420958457
1424531	14.9838197264729	2.96844930037518	15.2750301094413	-11.2057882360317
1214875	13.1801866067715	-18.6423700051698	22.8310157110667	54.7396257129313
1036062	3.95794056770297	-10.91650306144	11.6118617210117	70.0711340626733
883578.1	10.8237063622401	1.35470245482976	10.9081546632379	-7.13408085366832
753531.2	3.33451716706869	-13.9144008710033	14.3083736440049	76.5234982725391
642624.9	9.93762696910158	0.615349473604665	9.95666032119609	-3.54329762876174
548046.8	6.46529185103907	0.176520060462354	6.467701141121	-1.56394215984232
467390.6	12.3945675221864	10.551828877291	16.277788446766	-40.4086449129365
398593.7	5.36277300750812	-0.0424016912401824	5.36294063303685	0.453009539086421
339937.5	2.81314024294822	-12.5273597177865	12.8393340763965	77.3436300604893
289906.2	9.71751510783312	0.734053414343089	9.74520057700577	-4.31987373808394
247234.4	2.35738513792255	-3.7371265517131	4.41852685315108	57.7562083972495
210843.7	-0.811629229063157	4.26181470278029	4.33841060370084	-100.782416726819
179812.5	-0.545906265661092	2.33529486640922	2.39825264806803	-103.157384083416
153343.8	2.3508907168095	1.77152313534992	2.9436340433996	-36.9999986685663
130781.2	-2.98179883746118	0.789308503881871	3.08449869855461	-165.173361800124
111531.3	0.0606087112292892	1.81666102917236	1.81767178302092	-88.0891670292704
95109.37	-1.80955913476289	1.26391811939611	2.20725922237095	-145.066954966055
81109.37	0.328198189942024	1.54011406540538	1.57469533127545	-77.9702167052444
69171.88	0.509313790848547	-0.00163501035034591	0.509316415214906	0.183931541646472
59000	-0.527908000261079	0.198344931131623	0.563939330464953	-159.407859395062
50312.5	-0.545262750226147	0.184303059782193	0.575568488217745	-161.324345923995
42906.25	-0.573564413726204	0.170506816981056	0.598371716686288	-163.444060582861
36593.75	-0.552023725291638	0.160045128360565	0.574756153857275	-163.831838418605
31203.13	-0.539171941783626	0.151952383732146	0.560174892090503	-164.26081191982
26609.38	-0.534279904128128	0.123092686133034	0.548276230867806	-167.02602083068
22703.13	-0.531481544618044	0.109823521502235	0.54270971812262	-168.324916152242
19359.37	-0.524689827899707	0.0963969979424817	0.53347145819973	-169.589605893434
16500	-0.521260132384643	0.0880669961397295	0.528647256138468	-170.410425230738
14112.02	-0.51767996850998	0.0784370078900492	0.523588496820965	-171.384281595122
12011.13	-0.513636383932469	0.0708131508027054	0.518494780326504	-172.150326167212
10236.38	-0.511861783564094	0.0619965815040931	0.515602619845564	-173.093987655792
8750.684	-0.497753950875466	0.0613446905350973	0.50151985670458	-172.974124885051
7449.463	-0.482704669004534	0.0600183015049645	0.486421621635303	-172.912360034736
6363.206	-0.53267188997766	0.0455944672520921	0.534619675859741	-175.10764782678
5414.761	-0.455486267483684	0.0422749502158916	0.457443888670484	-174.697410045466
4620.567	-0.42662687337618	0.0907305637657983	0.43616800007336	-167.993803842435
3941.215	-0.449029997805949	0.0605070020845261	0.453088331598671	-172.325593956743
3361.769	-0.455479124683233	0.0393238844530495	0.457173491041072	-175.065592724617
2867.244	-0.480988409100004	0.0530392552318489	0.483903928775229	-173.70733897548
2442.658	-0.497672255590451	0.0308431470350037	0.498627088818398	-176.453640279101
2083.003	-0.489666096406491	0.0340299393286754	0.490847148041714	-176.024552186328
1777.843	-0.487252131088549	0.0303851896687747	0.488198626587109	-176.431638699768
1513.548	-0.488835773813357	0.035413212869402	0.490116832403701	-175.856503665016
1292.065	-0.482172003283356	0.0245988945613977	0.482799074526792	-177.079482078722
1101.762	-0.478874581173841	0.0289595633945403	0.479749435441486	-176.539297469473
939.101	-0.481741254795571	0.0264687155284793	0.482467853306041	-176.855111806149
801.2801	-0.473312400405154	0.0229882104424127	0.473870326351665	-177.219398372293
684.3433	-0.153020093646351	-0.448673092792272	0.474049251929925	108.831958086392
582.9476	0.375627353359429	0.256767479631159	0.455000491415061	-34.3553286186455
497.0677	-0.463525607320788	0.0381452249615143	0.465092514269441	-175.295520687803
423.5089	0.372122601856767	-0.262327108379836	0.455291931186548	35.1818488860115
361.5036	-0.111950382744972	0.497524195957321	0.509963933783286	-102.681198859883
308.1262	0.381780009438606	0.252941650673394	0.45796883545971	-33.5257659453874
262.7298	-0.141272900228279	0.49565956857664	0.515399301765621	-105.908612824075
224.2111	-0.108139583908477	0.48513942857765	0.49704570692095	-102.566034343061
191.2854	0.383637868626413	0.250106626264755	0.457964342220827	-33.1017026924772
163.1722	-0.459359979491159	0.0692387876195522	0.464548813871205	-171.428399345347
139.1537	0.374129738030956	-0.288205951781846	0.472266589461494	37.608388173748
118.6706	0.364081733874011	0.243054028796354	0.437756518917588	-33.7263183624171
101.1982	-0.419798282308612	0.0975337079643073	0.430979607427692	-166.920252821699
86.24196	0.378331904627247	0.211102112954132	0.433242578877676	-29.1606984423392
73.61024	-0.446161092882937	0.0551366133947695	0.449555076647057	-172.955102686253
62.69291	0.340828882215391	0.221446851190919	0.406451762026647	-33.013003096213
53.57697	-0.098908888950366	0.442241180026703	0.453166889373889	-102.606943529634
45.65746	0.377278678214134	-0.292408447311593	0.477327875882166	37.7773419683762
38.96512	-0.43881615579629	0.0553203311599473	0.442289450052202	-172.814785322225
33.18414	0.294132819550409	0.268023892551472	0.397933314155923	-42.340853403768
28.30617	0.322345669694959	-0.219423401416692	0.389940200364571	34.2434471499903
24.17237	0.457291884043746	0.0609296971662194	0.461333171589737	-7.58940468388084
20.61345	-0.0758585895921514	0.379492029467877	0.38699964605224	-101.304152095065
17.55618	-0.0839891651825485	0.44016438811854	0.448105867441869	-100.802928615885
14.98558	-0.269462985069794	0.795968015530554	0.840342419535259	-108.70275610359
12.76553	0.0294476198714745	0.731981434962446	0.732573534497238	-87.6962325733697
10.8809	18134.9975521123	-4325.72029828567	18643.7655079149	13.4160073082165
9.278505	7098.2386252251	3931.78838856173	8114.42860052797	-28.9825257567873
7.923394	6897.39940682866	-5263.13890001255	8676.10221575021	37.3458531824411
6.75822	-1525.01142020948	-10156.0308568553	10269.8891229246	98.539630733559
5.761429	5079.95842509892	-8425.14442236291	9838.14190477076	58.9120361573669
4.919708	6280.30244770315	1811.97113028132	6536.46985853978	-16.0937255637604
4.191257	2553.58386912304	1461.19472413467	2942.08779584912	-29.7787652046806
3.564097	5933.73770321253	1396.76119459795	6095.91543291577	-13.2458961388422
3.051758	9213.33260733204	3326.87675882642	9795.59118694462	-19.8543340521016
2.604164	2413.93143404094	4683.51854408591	5269.00473723905	-62.7329771015353
2.214424	2017.97586856278	3154.81624863414	3745.00896777934	-57.395015803199
1.892567	5719.96612295935	-167.817019914476	5722.42736956753	1.68050813143051
1.607507	2670.793297308	5088.07431069956	5746.44559951159	-62.304461966557
1.376413	649.83046148294	-5985.14053239558	6020.3145118171	83.8034427216918
1.17375	251.248345772117	-2259.05117083291	2272.97996552868	83.6537288498241
1.001604	27.3368365866629	77.0811715591345	81.7851431709612	-70.4729493643986
