EC-Lab ASCII FILE
freq/Hz	Re(Z)/Ohm	-Im(Z)/Ohm	|Z|/Ohm	Phase(Z)/deg
6999984	-17.340395008987	17.0578923852074	24.3240825457615	-135.470542151188
5969734	4.55657136874309	5.41076644029498	7.07380633816559	-49.8982469356349
5091109	6.59127377708989	7.08227106135375	9.67488777149594	-47.0565252408127
4341796	8.60870008497022	8.62499690449845	12.1860694547329	-45.0541809862793
3702781	20.25744145235	5.49238585915805	20.9888121774737	-15.1698654965797
3157797	24.6507953852776	-12.1008110555515	27.4607236126251	26.1459263046536
2693047	0.0765706681860737	0.717465900837525	0.721540287226613	-83.9082367024212
2296687	10.2961291887227	-9.40985169063961	13.9483183613904	42.4248547461122
1958656	-2.82868798439957	-24.3788917228957	24.5424497014817	96.6184459507058
1670375	20.8170021901353	-14.6894628976074	25.4779885470631	35.2086060150441
1424531	-3.66619276421762	-18.8515205205033	19.2047076343109	101.005354604905
1214875	26.9005687843283	-14.3003501580467	30.4654003020332	27.9951246701266
1036062	1.90568555941636	-23.4823992908767	23.5595991881767	85.3603982341803
883578.1	8.38299195982838	11.0411265586766	13.8629372747359	-52.7923598912438
753531.2	1.02166143899919	18.0929977991057	18.1218200370266	-86.7680982410372
642624.9	34.2167646001165	-8.3481299235663	35.2204238038177	13.7110347360853
548046.8	3.00395472541383	10.1195129084669	10.5559597146334	-73.4665965481776
467390.6	6.75746462157847	0.395286369651825	6.76901613426332	-3.34777348934216
398593.7	3.6664517718451	-4.29515401900734	5.64723088267701	49.5150928692971
339937.5	8.29026596884341	7.40952195640855	11.1188814840641	-41.7891236949468
289906.2	15.0225990269963	3.8070672146395	15.4974914841949	-14.2206635061203
247234.4	-2.48560083796709	-6.52922146519282	6.98633984767685	110.841263778136
210843.7	2.41320497906675	3.10079928074619	3.92918750512987	-52.1080706669411
179812.5	5.37557410937489	-7.29224399386678	9.05944918146063	53.6037254249286
153343.8	4.24289570465656	2.85602666872993	5.11459209449685	-33.9457382796404
130781.2	11.6415540679034	2.02738977120934	11.8167715726556	-9.87904716562673
111531.3	0.73980783820647	5.62228176697973	5.67074667965202	-82.5038025549966
95109.37	5.63764550225882	1.73800232286974	5.89946598290385	-17.1337528239039
81109.37	10.2829456187536	-2.98101392827809	10.7063259168975	16.1668120601073
69171.88	6.39989076815026	-1.40724661458115	6.55278146121974	12.4011901910588
59000	6.38788711908028	1.33403747475961	6.52569979620384	-11.7960321678416
50312.5	2.46084052964712	-2.17628378487641	3.28510992581221	41.488452632796
42906.25	9.84331269642905	-4.79934352989052	10.9510046643029	25.9926600944561
36593.75	5.39078994721123	0.54068957046795	5.41783734220275	-5.72754108634654
31203.13	28.5448781814802	-65.9969466652815	71.9055424813384	66.6106408674217
26609.38	3.03579512517265	-0.190081216913787	3.04174011234448	3.58280192282041
22703.13	9.21955582393846	3.93722402807659	10.0250657173896	-23.1249719523587
19359.37	0.859474236910295	-12.7478324169805	12.776772960937	86.1428866949905
16500	6.37949779621155	-1.31434095553852	6.51348480302778	11.6415169096507
14112.02	13.921853070136	-1.06436991498311	13.9624810195888	4.37193955884307
12011.13	15.7115960972585	2.79429060373281	15.9581424953375	-10.0845499380063
10236.38	9.16427180355311	20.6322299141114	22.5759338437671	-66.0505173269018
8750.684	14.3159051375531	-9.35233402197656	17.1000377650471	33.1558930407407
7449.463	-23.9753950616442	71.778024173579	75.6763128239267	-108.470421717664
6363.206	89.5924107672053	-15.4829207713285	90.9204097147108	9.80473453959826
5414.761	2.13599064158528	-3.79175207484887	4.35199262614961	60.6063296533482
4620.567	0.202432524602948	0.733703892404039	0.761117815286149	-74.5755563606533
3941.215	0.845449444691582	1.00974525307203	1.31695491176836	-50.0609039240946
3361.769	-0.460122993383791	1.3847104465474	1.4591559854306	-108.381040301624
2867.244	-0.48997463664868	0.0383576606703833	0.491473757886533	-175.523729777604
2442.658	0.435052027228371	0.324861913093876	0.542959969955915	-36.7494213064438
2083.003	-0.155360622240616	0.506650582448011	0.529935595745275	-107.047767512354
1777.843	0.427901112725129	-0.30732462271251	0.526828042151127	35.6864413570273
1513.548	0.386026852180872	0.240044460479533	0.454574607310596	-31.8747364925164
1292.065	-0.521100274630859	0.0292689559001219	0.521921610972222	-176.785210955143
1101.762	0.421435343696356	0.299484774404584	0.517009554086412	-35.3987592480921
939.101	0.429387387369047	0.28910873538622	0.517646007719789	-33.9525851252922
801.2801	-0.514938693741367	0.0493135221886789	0.517294579309235	-174.529705298831
684.3433	-0.547227848849473	0.0360138419792566	0.548411629499711	-176.234713105582
582.9476	0.393707998559989	0.26869873189876	0.476660252857435	-34.3128437981366
497.0677	0.446039879999047	0.294350586952369	0.534409807721348	-33.4216136773885
423.5089	-0.517321025915548	0.0714075939613108	0.522226089284764	-172.140929659372
361.5036	-0.424118348003904	0.0508553646666253	0.427156459893721	-173.162398816531
308.1262	0.392349715465123	-0.297465536834912	0.492365763259435	37.1681044856577
262.7298	-0.556219681641569	0.0628246398669334	0.559756437765443	-173.555791638668
224.2111	-0.118760389567362	0.541103006388517	0.553982394713842	-102.378906327172
191.2854	0.393593309727164	0.282125377497291	0.484262761411583	-35.6327322933118
163.1722	-0.55134586455247	0.0471351211535382	0.553357011345541	-175.113606587849
139.1537	0.390930713339641	-0.272179037621417	0.476348875460792	34.8469264068678
118.6706	0.455403682903423	-0.285195169969405	0.537334904297012	32.0567308065618
101.1982	-0.156640260866424	-0.449470218511687	0.4759828239057	109.21343338639
86.24196	0.55623546162626	-0.196666749605818	0.589979405717773	19.4719362900533
73.61024	0.44855531942902	0.210079315708091	0.495313227641308	-25.0958780126733
62.69291	0.00233258258576355	0.533850602495131	0.533855698411034	-89.749656015339
53.57697	1475.43400721512	984.862640546197	1773.93909996665	-33.7233905480839
45.65746	4244.70014972701	-6801.94312848689	8017.72471991041	58.0340929278879
38.96512	-2125.56426834948	4943.13709910284	5380.76461475605	-113.267854632074
33.18414	1533.8797539935	3559.0069408693	3875.47642295331	-66.6846670145526
28.30617	4977.58087135338	6434.22171419084	8134.83376586319	-52.2740909176582
24.17237	6824.48477632935	1317.62235240318	6950.51948604588	-10.9277948434121
20.61345	0.212314785823689	0.549856836045048	0.589423539082746	-68.887059483256
17.55618	-0.0774560521017088	-0.532282053222231	0.537888114936235	98.2793933030106
14.98558	0.605802651081654	0.200297952237891	0.638056519227139	-18.2955565338246
12.76553	0.707489193136643	-0.12742698589591	0.718873142591692	10.2101652050108
10.8809	2273.04464161492	28.6261917316664	2273.22489024455	-0.721531480986197
9.278505	4606.34717603346	82.8850982374438	4607.0928193017	-1.03085019513891
7.923394	2578.79501906285	-538.209650599637	2634.36014590677	11.7887441446875
6.75822	8562.4685582857	-1951.69207572983	8782.08231401288	12.8403795297604
5.761429	7035.75637231291	6027.05522792144	9264.30042965775	-40.5844226349047
4.919708	8118.73363029028	-780.810381104662	8156.19400277158	5.49346376280821
4.191257	5497.12954364472	8362.86924110571	10007.7977179519	-56.68205004125
3.564097	6646.9300396906	-1063.21933970913	6731.42736103368	9.08784401675262
3.051758	5992.36800698769	9135.98141167442	10925.8697908052	-56.7387900517018
2.604164	4384.25236147329	4748.67529436863	6463.09413674527	-47.285009350355
2.214424	6702.41985205248	-5115.40432900161	8431.47634298737	37.3515082758791
1.892567	1973.82852005839	2860.86983116471	3475.71218852544	-55.3966536053417
1.607507	7225.8535237063	-5380.21506735409	9008.86637247122	36.6705765842558
1.376413	4299.17971486124	-3519.84666183621	5556.28173723344	39.3080502842697
1.17375	4446.9083211328	-2859.35603970427	5286.86207294586	32.7409627350849
1.001604	1507.46488944452	1490.06057125583	2119.60630752959	-44.6673313421629
