EC-Lab ASCII FILE
freq/Hz	Re(Z)/Ohm	-Im(Z)/Ohm	|Z|/Ohm	Phase(Z)/deg
6999984	10.5759746578519	29.3961771949245	31.2407822187429	-70.2125973422911
5969734	26.0634539331819	-1.890743983013	26.1319448900459	4.14918961091447
5091109	2.78612138936047	20.9588143500531	21.1431873509234	-82.4278856471417
4341796	15.2968931604638	32.8736141019182	36.2583706816023	-65.046294199376
3702781	30.3281793784405	36.4264334897024	47.3991932546386	-50.2196705291253
3157797	42.3973221076003	33.7155995898422	54.1689447709495	-38.4927542601104
2693047	-0.409038493914111	0.521290031022742	0.662612847707631	-128.120066597455
2296687	18.410603129435	-14.0643052658098	23.1679733727283	37.3770851118537
1958656	53.7055745103074	-26.2636864507158	59.7835258199421	26.0600628494753
1670375	48.1153775337751	-44.0314709461035	65.221622096474	42.4623376450696
1424531	55.5902759491482	-16.9501664028397	58.117010600911	16.9571156652431
1214875	65.0689187727705	30.9431420462026	72.0516636168026	-25.433149618777
1036062	60.7347712416358	76.6510566061397	97.7962009313832	-51.6083139597162
883578.1	13.0962964324354	140.798916724114	141.406675694361	-84.6859696135318
753531.2	74.9973302079588	42.9713654666217	86.4357436966188	-29.8114982835165
642624.9	98.7052188861844	-17.3482066548085	100.218164568643	9.96836555630967
548046.8	7.67010381137774	21.8043467506761	23.1140656246587	-70.6196838557316
467390.6	10.59330864019	6.2067485241802	12.2776999144277	-30.3665568771274
398593.7	7.07730807478592	-6.85162754653055	9.85053752958722	44.0717589028582
339937.5	3.21205707766648	-2.32617213893981	3.96590311154561	35.9120606775939
289906.2	14.9829250388197	1.0908215907793	15.0225808189472	-4.16403322851293
247234.4	6.02238074257787	-15.1707940220772	16.3224404140087	68.3483072684945
210843.7	3.40449056130572	1.06126869429444	3.56606887531764	-17.3136214645294
179812.5	0.29517326241368	-2.73689753733106	2.75276867620451	83.8444664998232
153343.8	0.372814607299009	4.86820639966059	4.88246088372573	-85.6207502562877
130781.2	7.54869137800306	0.366207205544283	7.5575690031736	-2.77739400428943
111531.3	-0.683583158333147	0.384942354239672	0.784516762373055	-150.615077183645
95109.37	-0.633554621909517	0.363967202336727	0.730659690498754	-150.123307508085
81109.37	-0.595492023894599	0.302060244745341	0.667720856329725	-153.103833958355
69171.88	-0.597014471845841	0.271057033361387	0.655666222195443	-155.580959689824
59000	-0.587537422450427	0.237742980155159	0.633815389046959	-157.969620737724
50312.5	-0.556723123617178	0.192377973048601	0.589024550323971	-160.937198341825
42906.25	-0.584935154780434	0.175144505417009	0.610593754533879	-163.330958714102
36593.75	-0.563543933956515	0.159201288652018	0.585599535354707	-164.225002057624
31203.13	-0.555321363839433	0.14335279419608	0.573525797798418	-165.525444365232
26609.38	-0.550542352781238	0.124587270027192	0.564463346957736	-167.248786821427
22703.13	-0.540390625842605	0.118135680564417	0.553152842821024	-167.66847840636
19359.37	-0.539585991298096	0.0979923620270349	0.548411838877304	-169.706890354097
16500	-0.535844512316592	0.0874992440422712	0.542941487720155	-170.725895792737
14112.02	-0.532386189142931	0.0785463206246079	0.538149216178744	-171.607334064767
12011.13	-0.529269128319861	0.0704717840133747	0.53394014883177	-172.415720217917
10236.38	-0.526204292473318	0.063076580449068	0.529971331694926	-173.164518760373
8750.684	-0.523039819254994	0.0576614990747912	0.526208609775486	-173.708943257306
7449.463	-0.522144140007781	0.0503945695746268	0.524570410514239	-174.487191830433
6363.206	-0.518083979897248	0.0482259095976424	0.520323695965014	-174.681940184998
5414.761	-0.515041842282239	0.0446296959151543	0.516971864862066	-175.047544554071
4620.567	-0.513032807931995	0.0413589705407092	0.51469721823493	-175.390975456472
3941.215	-0.510757463416422	0.0386272304982402	0.512216018269189	-175.675105227077
3361.769	-0.507335014331076	0.0344213991732199	0.508501376091899	-176.118574560509
2867.244	-0.50494670053566	0.0320011471912521	0.505959725475661	-176.37371266668
2442.658	-0.503232934770059	0.0301437236775696	0.504134933043165	-176.572070655355
2083.003	-0.501962408366799	0.0290647441911301	0.502803161056385	-176.686146552365
1777.843	-0.499716622811796	0.026109253736518	0.500398237651877	-177.00912286148
1513.548	-0.497774462539249	0.0249108086883232	0.498397395604897	-177.13505898485
1292.065	-0.496219428868378	0.0249618323876316	0.496846872449256	-177.120219377956
1101.762	-0.49397110635539	0.0249948251215229	0.494603068325323	-177.103317123
939.101	-0.491732896356099	0.0243452263372415	0.492335181968716	-177.16565493111
801.2801	-0.490295759707263	0.0245208129946378	0.490908547752878	-177.136892449795
684.3433	-0.488402453064174	0.0239125355141617	0.488987490140411	-177.196995722504
582.9476	-0.486399905217697	0.0230866061385053	0.486947491192612	-177.282538321317
497.0677	-0.4842795924345	0.0221943882071862	0.484787906734911	-177.375987737703
423.5089	-0.481251268024737	0.0224959248255638	0.481776763251586	-177.323676691007
361.5036	-0.480235768230785	0.0198886312645677	0.48064742872691	-177.628490238017
308.1262	-0.477054115428959	0.0191499990510204	0.477438322206503	-177.701255877998
262.7298	-0.475442156450644	0.0192843498938428	0.47583309078002	-177.677306242162
224.2111	-0.473319237578165	0.0185383349537392	0.473682140812204	-177.757061967244
191.2854	-0.474052739655946	0.0204840639607917	0.474495096762504	-177.52575890535
163.1722	-0.471700587939101	0.0197955114622031	0.472115777046418	-177.596920263505
139.1537	-0.469614398787391	0.0177244494932913	0.469948762801099	-177.838536565712
118.6706	-0.465265783373938	0.0171419318420136	0.465581459044323	-177.889988175715
101.1982	-0.465239014517615	0.0179655910895793	0.465585763412628	-177.788574645976
86.24196	-0.127142974572658	0.445570471268659	0.463355566330823	-105.926030741047
73.61024	0.382302054968552	-0.281483757226732	0.474750425819351	36.3637061187617
62.69291	0.465969512456112	0.261515647290871	0.534338862816986	-29.3024080938089
53.57697	0.391491861587519	0.252022447218812	0.465597671376716	-32.7713638756946
45.65746	-0.134339451043346	0.453213901899585	0.472704906872855	-106.510619579419
38.96512	-0.453838422265552	0.0175394377349737	0.454177218055403	-177.786798476811
33.18414	-0.126423649774354	0.440989870053802	0.458753751714727	-105.996619141407
28.30617	-0.44713067462981	0.00831027824628884	0.447207894518243	-178.935235081372
24.17237	-0.453012630576363	0.0137471047153655	0.45322116714665	-178.261837784754
20.61345	-0.453406657177954	0.0206241025209457	0.453875478934565	-177.395582894296
17.55618	-0.449654032977014	0.0206823091369645	0.450129433922877	-177.366476638304
14.98558	5.86446854430237	4.36018762182451	7.30775118655689	-36.6305211047982
12.76553	-0.447033057794046	0.0121093549571898	0.447197038494414	-178.44833554707
10.8809	-0.447437354784798	0.0143527384943962	0.447667496652488	-178.162716086197
9.278505	-0.437355390640403	0.0148235589012909	0.437606530596516	-178.05878154216
7.923394	-0.214990522013164	0.389904696821414	0.445248915954763	-118.872012122028
6.75822	0.158189013037922	0.418671577364911	0.447559664781283	-69.3016517438126
5.761429	-0.431590810842869	0.0775155759188372	0.438496627711131	-169.817986870573
4.919708	-0.177983825900368	0.399671463169672	0.437510595019503	-114.004621060833
4.191257	-0.118686923859107	0.419282417527902	0.435757193334981	-105.805308533613
3.564097	-0.123252776878474	0.418422177566073	0.436197622285346	-106.413159458467
3.051758	-0.437396485693303	0.0144264758909216	0.437634332409471	-178.110920701517
2.604164	-0.430541056793229	0.0096137078120972	0.430648377406123	-178.720834274434
2.214424	-0.120141561674108	0.416698932404267	0.433672681994554	-106.083193064251
1.892567	-0.118476100400107	0.413334389214047	0.429978957244381	-105.994155422888
1.607507	-0.120003248518758	0.41631460799179	0.433265083387079	-106.079698021701
1.376413	0.354608774242628	0.241930944679025	0.429276093864012	-34.3036650142586
1.17375	0.34385523106355	0.244994128085959	0.422206753530029	-35.4695711019924
1.001604	-0.41795964519584	0.0326648799139919	0.41923413433549	-175.53123552472
