EC-Lab ASCII FILE
freq/Hz	Re(Z)/Ohm	-Im(Z)/Ohm	|Z|/Ohm	Phase(Z)/deg
6999984	21.1174467891186	96.2084301872135	98.4987746014091	-77.62008219664
5969734	22.8158258410243	88.2617262070047	91.1630090653452	-75.5062117072843
5091109	22.0811340685426	87.1587548129001	89.9123185235938	-75.7835805759071
4341796	21.3481765635567	90.9681395506617	93.4395368989886	-76.7929603235891
3702781	21.6733342894505	98.9564466441361	101.30208167484	-77.6462090720979
3157797	22.1691380508293	107.452273564881	109.715367092212	-78.3425246805204
2693047	21.8536436739834	120.394894011098	122.362217394802	-79.7118938108831
2296687	21.5869898577621	137.347459693557	139.033531262758	-81.0678557288397
1958656	23.1517361972682	156.785778859	158.485908967867	-81.6001335205162
1670375	24.1990652637319	180.161871827596	181.779797612555	-82.3499060912244
1424531	26.2102217522438	207.91229653692	209.557864981389	-82.8149759335321
1214875	28.9408619510987	239.59914594239	241.340680836852	-83.1126848038821
1036062	31.2665023158362	277.214862558497	278.972533039353	-83.5649203915788
883578.1	33.8155230227292	321.267872224752	323.042621524034	-83.9913728784947
753531.2	37.2246919363782	372.620724862856	374.475476215837	-84.2950978056936
642624.9	40.6140869541008	433.326289606866	435.225432762802	-84.6455187931956
548046.8	44.5675892338941	503.931188710318	505.89812508559	-84.9459205651827
467390.6	157.57056375502	710.199732177051	727.469684692379	-77.4905364391609
398593.7	183.535207344133	804.565862356436	825.234148108407	-77.1497411426171
339937.5	209.91175110812	911.404108712294	935.264878326418	-77.0299929634347
289906.2	235.486906716174	1034.38217190692	1060.8489811437	-77.1746648067053
247234.4	261.487956807855	1179.39453481926	1208.03452778349	-77.4989589187493
210843.7	285.360753525549	1347.77918338363	1377.65724576722	-78.0455033595246
179812.5	311.023991381242	1545.06833115504	1576.06220408743	-78.6184038588759
153343.8	337.552548580594	1776.43368183202	1808.21966281769	-79.2410943906241
130781.2	364.741736372958	2047.92037944514	2080.14769062177	-79.9013136579533
111531.3	397.126068875445	2366.86396598702	2399.948780301	-80.4753027771154
95109.37	435.513279341996	2740.30962650847	2774.70154532307	-80.9695934669748
81109.37	478.822237880366	3173.94211828193	3209.85658646811	-81.4210269137583
69171.88	528.234647812008	3677.25064482323	3714.9971935389	-81.8254205255617
59000	577.905041187674	4255.11314412849	4294.17769846162	-82.2657385911197
50312.5	550.689477693626	4921.71389368377	4952.42632980263	-83.615741748007
42906.25	2033.18886710825	6591.97408537478	6898.40411338634	-72.8584591444257
36593.75	2204.12977686664	7345.40365436916	7668.97274208808	-73.2971156323779
31203.13	2395.72159074192	8331.10918012841	8668.72897901225	-73.9567046461325
26609.38	2621.13606615529	9509.33963532385	9863.96951420883	-74.5897657139726
22703.13	2843.20514441891	10894.1386609218	11259.0440383117	-75.3729417241369
19359.37	3181.84874374136	12502.2022739455	12900.745060914	-75.7211854720174
16500	3541.58969874227	14382.512774677	14812.1413478263	-76.1665455661726
14112.02	3952.72063689961	16524.1739157351	16990.359738123	-76.547161429478
12011.13	4546.84576720603	19051.0767393623	19586.1515198834	-76.5765541643682
10236.38	5191.33249627121	21963.6742996692	22568.8484825608	-76.7016308510453
8750.684	6145.89313054602	25527.6287410013	26257.0339435072	-76.4633949998299
7449.463	6990.69284511619	29018.7420578284	29848.9057935721	-76.455373590698
6363.206	8183.17685703452	33348.9099465295	34338.2320176103	-76.2131270349167
5414.761	19959.3537370369	45157.631280815	49371.9299247478	-66.1549102371746
4620.567	22684.4662301719	49966.4508387353	54874.6864917474	-65.5822389209414
3941.215	25484.5232351542	55729.0738630469	61279.6099706587	-65.4257068513116
3361.769	28721.0144741519	62061.6702045299	68385.2877525589	-65.1661569701174
2867.244	32092.801016523	69393.0895671664	76454.8805293875	-65.1804809149956
2442.658	36207.860362472	77899.849320761	85903.4089907121	-65.0709886803461
2083.003	40614.3297506963	87378.1449787433	96355.9235388493	-65.0704730183305
1777.843	45795.443093587	97946.6580660819	108123.866164931	-64.941328331308
1513.548	51918.0320689399	110084.920996254	121713.482756279	-64.750590681309
1292.065	59469.1590254933	123379.3252358	136963.640324141	-64.2658110908488
1101.762	67939.9763083126	139827.153450992	155458.91168724	-64.0855585685006
939.101	76801.8308148933	155365.507448815	173311.748365041	-63.6954316057961
801.2801	86916.0251771101	171707.183054959	192451.947626563	-63.152038432894
684.3433	100437.277693135	193473.202831094	217989.740502	-62.5649285802234
582.9476	116053.623135266	214461.950358187	243849.075442701	-61.5804724966296
497.0677	132718.184527993	236071.117356812	270820.399812311	-60.6554894321704
423.5089	255163.266894543	313919.708667969	404541.56308404	-50.8947637808162
361.5036	280860.92234463	333641.401511068	436118.610589535	-49.9091675112101
308.1262	315918.704232531	373120.055386119	488899.993265803	-49.7455937902782
262.7298	335199.088190282	382593.451003401	508661.161751404	-48.7776388911842
224.2111	368458.97632253	414363.958626079	554490.313207474	-48.3559992497474
191.2854	413209.855475576	448905.548170562	610129.966351809	-47.3709644787805
163.1722	420136.607871509	487665.056631281	643686.240906988	-49.2542137260181
139.1537	463660.121506456	505896.186323053	686230.034034937	-47.4943566695399
118.6706	504027.139483173	545853.101055416	742966.328488314	-47.2813882570898
101.1982	561273.085328753	596102.708244915	818758.764894386	-46.7237169759331
86.24196	609717.378145617	648118.109500765	889838.392673417	-46.7486520991772
73.61024	599694.744269848	751032.168296808	961084.33767359	-51.3928417217014
62.69291	745964.339981698	-96998.4976382239	752244.312087771	7.40865941782887
53.57697	809423.195268961	827374.075771841	1157460.05127552	-45.6283419927799
45.65746	727378.707007221	1050997.28337285	1278152.99282387	-55.3135002405344
38.96512	866952.508810393	991802.433306246	1317299.78336172	-48.8427039783992
33.18414	899340.490193415	1186556.10334115	1488868.26270072	-52.839989872753
28.30617	1255050.5969248	1085413.99223024	1659299.71233966	-40.8544576437499
24.17237	1049337.4139564	1140947.3915859	1550119.33692067	-47.395034435754
20.61345	1087119.38822557	1421644.77919033	1789665.45545671	-52.5951707364716
17.55618	953204.535604919	1566753.14041687	1833934.10178881	-58.6838843633458
14.98558	1826566.18832029	1284863.44635109	2233208.03242424	-35.1237452360073
12.76553	1278700.03024137	1989795.12133856	2365239.60567255	-57.2740243056012
10.8809	2030793.5289008	1119201.1624265	2318778.47130816	-28.8598268449601
9.278505	1536538.67735833	1729240.81706513	2313271.47356772	-48.3769064796917
7.923394	1720163.78753314	1839575.64034627	2518531.71361724	-46.9212728236942
6.75822	1419803.43493842	1022589.5309658	1749723.16173268	-35.7626848508254
5.761429	1866417.39634954	1663708.21736783	2500287.76942444	-41.7135333730352
4.919708	2528628.68911441	-700837.355967564	2623954.27683717	15.491300549226
4.191257	1413551.0477776	2404636.2703645	2789337.2254759	-59.5511132820558
3.564097	2898565.58496877	186281.476789927	2904545.27232067	-3.67715833139594
3.051758	2702183.37343909	1226788.82199144	2967626.29005975	-24.4180059156761
2.604164	2252598.52758566	1062733.60807901	2490703.28385814	-25.2570567700215
2.214424	3393945.12836486	841282.559408732	3496658.38753472	-13.9217285060887
1.892567	2344997.34102086	2480121.18497612	3413211.62859297	-46.6041063066216
1.607507	3560279.19075503	-3773414.78042995	5187894.27622523	46.6646908638787
1.376413	1547777.50918387	2656176.78531025	3074230.03901082	-59.7702696386933
1.17375	3585315.49370644	975985.208314009	3715781.79072174	-15.2279233099603
1.001604	4490859.13088726	6663224.78495053	8035320.79435865	-56.0209426893383
