EC-Lab ASCII FILE
freq/Hz	Re(Z)/Ohm	-Im(Z)/Ohm	|Z|/Ohm	Phase(Z)/deg
6999984	10.9282197754659	2.63038490882269	11.240325272404	-13.5334636562183
5969734	6.95010995994413	-6.16421384299978	9.28986333363116	41.5705632144162
5091109	11.9007051058703	5.0212538673035	12.9166471042913	-22.876296810116
4341796	5.89894036572406	-6.54428408342705	8.81051369688313	47.9688745858893
3702781	10.449415001655	-6.58244040279068	12.3498500206725	32.2082151180164
3157797	14.9760723935456	-27.4288136163367	31.2509609570083	61.3655560276761
2693047	12.2361690991271	-23.1150503596862	26.1539554819775	62.1050726538514
2296687	9.04249158359542	-0.65115629078727	9.06590638350219	4.11880050241853
1958656	3.81339070957114	-11.4125936848686	12.0328402017041	71.5235247775504
1670375	12.8135904837868	-12.0264430096199	17.5733728279414	43.1849806641784
1424531	11.6463422768121	-17.53775204713	21.0525541275939	56.4129489536109
1214875	7.54622924781433	5.35688084154692	9.25428269565507	-35.3699967667766
1036062	5.44970120052828	0.642864422665535	5.48748738868423	-6.72770480789383
883578.1	1.17898883115001	0.680177186653741	1.36112294419742	-29.9813229739932
753531.2	-6.58799250779082	-6.48018401179859	9.24091067533271	135.47266209503
642624.9	4.25923391095	-0.656011346841833	4.30945755233437	8.75594675476719
548046.8	-4.07948587589452	-7.97564370995945	8.95840932307955	117.089425829817
467390.6	-0.0108271299610692	-0.077916080335678	0.0786647463484737	97.9110960323005
398593.7	-0.0189312575982249	-0.0124090797231483	0.0226357631597832	146.755919954542
339937.5	-0.0194370941048394	-0.00375915874202501	0.0197972700564528	169.054062242325
289906.2	-0.0173527947741397	0.00411281779264236	0.0178335290021041	-166.666260631117
247234.4	-0.017171783995894	0.00490289940059585	0.0178580118751782	-164.064860353885
210843.7	-0.0159020009029257	0.00794609220096143	0.0177767830043242	-153.449098325701
179812.5	-0.0134488557320896	0.00914543815454978	0.0162637867528216	-145.783667871984
153343.8	-0.012555849032697	0.0101129919329353	0.0161220951109803	-141.150616548997
130781.2	-0.0102471335754497	0.0105062003176528	0.0146759664631587	-134.284805994165
111531.3	-0.00805645248900305	0.00986213617677185	0.0127345261661656	-129.24564218599
95109.37	-0.00655885963345447	0.00992061713708393	0.0118927408141253	-123.470055723732
81109.37	-0.00461966110933989	0.00812714937209218	0.009348359518196	-119.614909199195
69171.88	-0.00353155860545225	0.00737436812975231	0.00817638132041617	-115.589594209503
59000	-0.00406688772931282	0.00590519203760494	0.0071701372932342	-124.555065900372
50312.5	-0.00225106905738867	0.00578232778093228	0.00620504846615028	-111.271039420263
42906.25	-0.00194239419955778	0.00486579972140723	0.00523916998725203	-111.761548588675
36593.75	-0.00165357273700819	0.00420652242704789	0.00451985992325355	-111.459657126421
31203.13	-0.00126631874366921	0.00374184163966503	0.00395030910396883	-108.696911934079
26609.38	-0.00103479610243041	0.00322680285773449	0.00338866635363953	-107.780408644988
22703.13	-0.000730489226443707	0.00280126057674778	0.00289493960710611	-104.615618967803
19359.37	-0.000638896349741586	0.00239491586053083	0.00247867112072885	-104.937048290872
16500	-0.000526823715011481	0.0020561765053133	0.00212259394319802	-104.370908693503
14112.02	-0.000407772433367658	0.00180681835161213	0.00185226102726828	-102.717753567212
12011.13	-0.000294352480178842	0.00156051548614254	0.00158803399367838	-100.681919929553
10236.38	-0.000207630001054295	0.00141262575459817	0.00142780311664174	-98.3615554508324
8750.684	-0.00013212587340191	0.00126480793566916	0.00127169035561095	-95.9636697824303
7449.463	-0.000117751214337495	0.00113501178837742	0.00114110346079296	-95.9229324831965
6363.206	-4.6951470845015E-05	0.000983361201997328	0.000984481434161223	-92.7335629166008
5414.761	-3.13197206957873E-06	0.000904491809216632	0.000904497231719933	-90.1983965604855
4620.567	-4.53865777349373E-05	0.000761441643839553	0.000762793103280024	-93.4111428051225
3941.215	-3.08098305273662E-05	0.000678633221047787	0.000679332241518699	-92.5994334967607
3361.769	4.1493384550857E-05	0.000585971005795402	0.000587438269603165	-85.9495707349133
2867.244	6.8604171323232E-05	0.000538928643116873	0.000543277658932099	-82.7454188572032
2442.658	4.06185992969891E-05	0.000426429235579678	0.00042835938599022	-84.5588302787923
2083.003	0.000108490739581968	0.00040061620998238	0.0004150464892945	-74.8471956513248
1777.843	0.00012794522020605	0.000353120574925066	0.000375585036721358	-70.0831661763711
1513.548	0.000130847541743128	0.000275627094449208	0.000305108791047934	-64.6050594013458
1292.065	0.000170740794853883	0.000270684763955032	0.000320035405017518	-57.7573543128397
1101.762	0.000173024547438501	0.000204896532724799	0.000268179199676155	-49.8206340727065
939.101	0.000123156771692701	0.00015789436074201	0.000200245398368842	-52.045956312371
801.2801	0.000138621475516321	0.00012720358497794	0.000188140015694593	-42.5405062770593
684.3433	0.00010731840072803	6.68022733959914E-05	0.000126411165905923	-31.9009435820657
582.9476	0.000116278296409397	-4.63939604697262E-05	0.000125192019649569	21.7515405512285
497.0677	0.000142674884781266	-3.52919356554193E-05	0.000146974975657946	13.8937452473746
423.5089	0.000157355124237244	3.18658565757349E-06	0.000157387386571706	-1.16013353794782
361.5036	5.50765414459228E-05	-6.02976614565884E-05	8.16653745156281E-05	47.5910834045139
308.1262	7.89682467703153E-05	-4.30723881174123E-05	8.99511790701735E-05	28.609788063165
262.7298	1.05882840890273E-06	-6.29621192330675E-05	6.29710217156948E-05	89.0365527435192
224.2111	0.000113087609851008	-8.96483519679553E-05	0.000144310895334982	38.4050458808318
191.2854	4.24801676446291E-05	-0.000101323043167765	0.000109867755596865	67.2539005840151
163.1722	-4.3579383533146E-06	-8.2788822598663E-05	8.29034424735438E-05	93.0132236164042
139.1537	-2.5617226522124E-05	-8.52996675207833E-05	8.90633233932014E-05	106.716082244753
118.6706	-7.30556135010416E-05	-5.67369511467855E-05	9.2499752915596E-05	142.166126945087
101.1982	6.54977672191033E-05	-1.79037743446225E-05	6.79006822238997E-05	15.2882901432553
86.24196	-7.72685124817261E-05	-6.04764286256898E-05	9.81214626901618E-05	141.950465631
73.61024	3.21135037694843E-05	-7.24120015854519E-05	7.92134780069918E-05	66.0835196959013
62.69291	2.54473171473829E-05	-8.00990936134923E-05	8.40442190022757E-05	72.3750546526739
53.57697	5.23421538309917E-05	-8.40452265815917E-05	9.90116214331343E-05	58.0859456083472
45.65746	3.53277933593629E-05	-9.48558836279809E-05	0.000101221003959094	69.572832668248
38.96512	4.09957145607678E-05	-6.25460951271717E-06	4.14700946768213E-05	8.67457528870271
33.18414	0.000100166331249619	-8.13014579680292E-05	0.000129008608176879	39.0650130467311
28.30617	9.42900499575547E-05	5.80847243409084E-05	0.00011074497154615	-31.6339738974245
24.17237	0.000109663930301448	9.5508196705415E-05	0.000145423496200171	-41.0531651366792
20.61345	1.17110437144057E-05	-9.38581508573928E-05	9.45859451887532E-05	82.8877415735137
17.55618	0.000101876642574523	-0.000113744521231542	0.000152697958114868	48.1504048041206
14.98558	8.95779956117508E-05	-2.53341421382191E-05	9.30915466393073E-05	15.7917825353044
12.76553	0.000101974322329047	-5.0342665888234E-05	0.000113723992293635	26.2746240845959
10.8809	7.35488783603932E-05	4.01186654113342E-05	8.37791431232052E-05	-28.6111173252497
9.278505	0.000103489504612983	-6.64535260247277E-05	0.000122988408747165	32.7056628053269
7.923394	5.91187162781592E-05	7.23232662275661E-05	9.341133470945E-05	-50.736638888516
6.75822	2.80969379493431E-05	-4.99882581024371E-05	5.73433855840855E-05	60.6609325312242
5.761429	-5.35536645674849E-06	8.21883771975363E-05	8.236266931232E-05	-93.7281030573889
4.919708	7.53457641913708E-05	-6.08316835567212E-05	9.68373786609629E-05	38.9162617439593
4.191257	0.00010199268736823	-5.37805703936749E-05	0.00011530333051765	27.8026051213847
3.564097	-1.10061447501202E-05	9.72731067877402E-05	9.78937818576834E-05	-96.4553821622116
3.051758	-1.64023968758675E-05	7.77561436932192E-05	7.94673297985658E-05	-101.911716541022
2.604164	-7.73628479630435E-05	1.69574939109945E-05	7.91995381596029E-05	-167.636621952951
2.214424	5.64389498667022E-05	-2.64930606645307E-05	6.23477130729799E-05	25.1458743098764
1.892567	-7.76832413861788E-06	6.6127670944556E-05	6.65823980078377E-05	-96.700092436512
1.607507	4.94628702487938E-05	-8.93745812430621E-05	0.000102148868352135	61.0383971266564
1.376413	-3.52196320451743E-05	5.60580713730706E-05	6.62036996508937E-05	-122.139934202336
1.17375	-6.77867687661949E-05	8.19656193585845E-06	6.82805217271364E-05	-173.105446811695
1.001604	9.76069308091164E-05	-0.000224284918274124	0.000244603429058561	66.4817253635173
