EC-Lab ASCII FILE
freq/Hz	Re(Z)/Ohm	-Im(Z)/Ohm	|Z|/Ohm	Phase(Z)/deg
6999984	58.4050350976732	60.3010556288742	83.9485880448089	-45.9150729917752
5969734	103.399338649042	9.96780684157984	103.878681192487	-5.50635932390322
5091109	89.5803600892797	11.4390417469173	90.3077659440911	-7.27705101228732
4341796	53.5928026248655	-158.626215094352	167.434956351257	71.3321568739767
3702781	102.551764857188	-160.581354904142	190.534080988609	57.436555243346
3157797	138.065685992362	-93.3682870092997	166.672645228881	34.0689127464376
2693047	206.2447757647	-174.141261146231	269.929780431562	40.1758292424631
2296687	171.266214001463	-173.932177778171	244.099402959229	45.4424859431954
1958656	284.609240898096	-58.1460428107347	290.488179276091	11.5467038537125
1670375	208.52790667797	-69.2124493817844	219.714020974817	18.3615097056221
1424531	268.460931015493	-12.2913982678391	268.742162589133	2.62143833020159
1214875	81.1382698494227	-1.42600259199211	81.1507998577346	1.00686790070812
1036062	190.906957379323	263.173358907146	325.124104326794	-54.0427256875578
883578.1	99.9623359778556	311.740620647356	327.375446812598	-72.2211008931222
753531.2	130.242880321006	410.376269619626	430.548360281666	-72.3918996118507
642624.9	104.71558473238	501.23402670765	512.055566531025	-78.1997435979738
548046.8	452.385421422231	254.984168637795	519.297117045027	-29.4075057421697
467390.6	641.552961582855	1206.09637575604	1366.11078252372	-61.9903665032662
398593.7	679.675121435515	1244.63589412529	1418.12438793057	-61.3617745062282
339937.5	610.496552138051	1428.15668669202	1553.17016515113	-66.8546635923679
289906.2	950.495613019028	1580.01703581489	1843.88062081949	-58.9700194862341
247234.4	961.487189818469	1774.53809927455	2018.27725596905	-61.5501057334877
210843.7	1079.7236489723	1975.92150533925	2251.68136143021	-61.3460181668621
179812.5	1112.53187635158	2097.14096219273	2373.96870055294	-62.0540794100848
153343.8	1201.65576183317	2304.87594010518	2599.31330724532	-62.4645463745165
130781.2	1246.27911149708	2592.62999804132	2876.61987938929	-64.3263727297941
111531.3	1285.51968547499	2929.79864851441	3199.41885075721	-66.3093796587419
95109.37	1324.17661318908	3333.72870366369	3587.08666922728	-68.3367335210328
81109.37	1367.23547843245	3816.87524374822	4054.36425100439	-70.2920665884758
69171.88	1417.02181845344	4396.13463831309	4618.86897326058	-72.1341258998214
59000	4.80061823301257	11.4522235935534	12.4177035177956	-67.2572237392268
50312.5	7.83224460046874	-7.90855718153219	11.1305584844219	45.2777720362512
42906.25	5.03034748102434	3.8658639956238	6.34423361900461	-37.5425782413993
36593.75	9.38470673985348	-1.88396221131848	9.57193993956959	11.3511418990784
31203.13	6.21579978700191	-0.169982507446481	6.21812359517972	1.56646833076106
26609.38	4.11122112532006	-2.36172683413658	4.74129652946942	29.8755893424798
22703.13	84.323925882717	145.410022677246	168.091044292286	-59.8903615925528
19359.37	0.000584987676289235	0.000238818658179681	0.000631858317113118	-22.2075232829054
16500	0.00120446004256386	0.000325502440348272	0.00124766815812764	-15.1227970137097
14112.02	8.60710142044367E-05	0.000472915425246272	0.000480684115529152	-79.6850220902914
12011.13	-2.01940041780142E-06	0.000467269909113431	0.00046727427271456	-90.2476136350872
10236.38	0.000238603154929518	1.80701212917256E-05	0.000239286428419619	-4.33091119704935
8750.684	0.000163962173011641	0.000293866756891863	0.000336513394956041	-60.8407839831157
7449.463	7.10257996160554E-05	6.54848024576802E-05	9.66070575269812E-05	-42.675626913885
6363.206	0.000477876226493513	0.000253774540781239	0.000541079666404503	-27.9703843525328
5414.761	0.000517213235738569	-0.000310217094317519	0.000603112076508144	30.9547267017189
4620.567	5.46654087734977E-05	0.000344282107095789	0.000348595003094838	-80.9778440592246
3941.215	0.000276172667002308	-0.00014437948500905	0.000311635648940627	27.5999843267146
3361.769	0.000260023111194729	0.000432189732249391	0.00050438079168143	-58.9671546972585
2867.244	0.00022462072569365	1.72215449252235E-05	0.000225279941452304	-4.38425815143839
2442.658	0.000325110502205356	-0.000208177015417671	0.000386049878114769	32.6325304723564
2083.003	4.88694349483551E-06	0.000574763338768406	0.00057478411408887	-89.5128525586114
1777.843	0.000439356837008774	0.000100122867722523	0.00045062070399321	-12.8376236027658
1513.548	0.000463700255407747	0.000425535598665899	0.00062936354565319	-42.5424600631407
1292.065	0.00024611704143988	-0.000153627650077075	0.000290129372789664	31.9726435205484
1101.762	0.000288906574488672	-0.000457346196103937	0.000540955221689854	57.719309915243
939.101	0.000170615256345737	0.00040709958219783	0.000441406428955866	-67.2614636269108
801.2801	0.0018873925369801	0.00192338694007024	0.00269474820899484	-45.5411664642508
684.3433	0.000716542660145962	0.00013642030641037	0.000729413383350039	-10.7793586674276
582.9476	0.000377967717121779	-0.000723245450892003	0.000816053660871774	62.4084538063732
497.0677	0.00088758240854177	-0.000299528161669325	0.000936760188941553	18.6477479609135
423.5089	0.00124215353522229	-0.000418714581210819	0.00131082695485857	18.6283246916586
361.5036	0.00137993179430668	0.00059698525504775	0.00150353022972033	-23.3942449273363
308.1262	0.000296252628505862	0.000689090107750887	0.00075007386069424	-66.7362332161144
262.7298	0.00121990018087688	-0.00112694480240313	0.00166077121812936	42.7317767778078
224.2111	0.00158438811515719	0.000838069418993569	0.00179238557528886	-27.876808885432
191.2854	0.00101474631464046	-0.000304404323103264	0.00105942063176075	16.6982304150912
163.1722	-0.000276693690834257	0.00212925129428082	0.00214715404029242	-97.4040283836097
139.1537	0.00164901940667639	-0.000148686817167917	0.00165570914510819	5.15224505045379
118.6706	0.000583682226437207	0.00232049605731808	0.00239277807025379	-75.8810979926384
101.1982	0.00103468503823675	-0.00297534765284909	0.00315012170934166	70.8247454506089
86.24196	0.00159573573010887	0.00277177884294435	0.00319830118571407	-60.0706141149009
73.61024	0.000918362387819482	-0.0022673330389024	0.00244626012203525	67.950044305099
62.69291	0.00200838546244374	0.00145529064008931	0.00248021833976102	-35.9273586507239
53.57697	0.00306872380966754	0.0025260186466876	0.00397464916985561	-39.4594887591008
45.65746	0.00380633750823283	-0.00324070869612255	0.00499903971575586	40.4110112286304
38.96512	0.00275712181844552	-0.00581064303328974	0.00643158558848958	64.6158883036737
33.18414	0.00451662002455656	0.00438970201516636	0.00629836012214139	-44.183571616578
28.30617	0.00648120481640643	-0.0103586304846754	0.0122191342324346	57.966541203842
24.17237	0.0144014365262519	-0.00773643737000889	0.0163479000853238	28.244647789906
20.61345	0.00899324036336828	-0.00473227578085316	0.0101623228791141	27.7535083679199
17.55618	0.00849773003371576	-0.00808068398439872	0.0117264175851635	43.5589731353721
14.98558	0.0239780368156539	0.0332039971540099	0.0409567049033043	-54.1653271965599
12.76553	0.00543743069725219	-0.0156458488375138	0.0165637628102359	70.836032719173
10.8809	0.00476677600796069	-0.0252013271463225	0.0256481781701165	79.2891655496356
9.278505	0.00890330929076513	-0.0232322236884769	0.0248798137822302	69.0316167349675
7.923394	0.0221803338239912	0.00950335053275062	0.0241304968844825	-23.1931195525115
6.75822	0.0453601194040744	0.0540511775083434	0.0705625270408475	-49.9963946059408
5.761429	0.0273074654656141	-0.0331595829108738	0.0429564385043595	50.5279791186852
4.919708	0.0373874912577562	-0.0346198201031611	0.0509544546288549	42.7988644060397
4.191257	0.0658022957323698	-0.0393103233924227	0.0766501379572608	30.854115312894
3.564097	0.0837479250513075	-0.0206424294955981	0.086254419283189	13.8464246630747
3.051758	0.0281541406675446	0.0844610783941526	0.089029935416303	-71.5647777387999
2.604164	0.0898225730315972	0.0667766237018002	0.111925028921276	-36.6281490595264
2.214424	0.0687616938676116	0.0695505714898278	0.0978031315352672	-45.3267885756246
1.892567	0.115259778514443	-0.0471236874824044	0.124520915773768	22.2370821755562
1.607507	0.0677029802633484	-0.0612852658084486	0.0913212863562025	42.151639821504
1.376413	0.189163170288232	-0.0849998671316394	0.207382936631467	24.1966150236375
1.17375	0.105211141838483	0.0472248459874466	0.115323763576704	-24.1733013709536
1.001604	0.0784147928609946	0.00863452979696935	0.0788887497951859	-6.28372554202491
