EC-Lab ASCII FILE
freq/Hz	Re(Z)/Ohm	-Im(Z)/Ohm	|Z|/Ohm	Phase(Z)/deg
6999984	5.19122562391177	0.479176765480835	5.21329395401169	-5.2737504911938
5969734	6.77013245248924	1.11395914194865	6.86116596462868	-9.34373842721395
5091109	6.90211570506241	1.75592077349437	7.12197016062678	-14.2734443782077
4341796	5.47853138755747	-7.92953069703109	9.63803731262806	55.359313945833
3702781	3.84932540038647	-14.1128433847124	14.6283852300752	74.7434902904061
3157797	1.61718888678319	-8.5844144983518	8.73541482558485	79.3312779475777
2693047	0.523742194264372	-0.222195574609423	0.568925970077716	22.9888944760151
2296687	-0.0678886155282497	-7.36643890367249	7.36675172553399	90.5280191800242
1958656	-7.31958037508936	-8.86830436784757	11.4988294720888	129.53504316831
1670375	12.0906523933808	0.421262374245927	12.0979889769135	-1.99549167930368
1424531	8.3223794829742	3.88525322783353	9.18461718870312	-25.0252380461116
1214875	25.8784729876901	3.83309001993571	26.1608093008519	-8.4253271886649
1036062	9.18868527824199	-6.71333294636188	11.3798407893647	36.1521872895333
883578.1	-3.76839109699531	-8.7295785857071	9.50822347991198	113.348928160085
753531.2	7.85417320815962	6.46496947087634	10.1727020522148	-39.4586636998758
642624.9	17.8990033007116	2.54308907640622	18.0787616060786	-8.08645703031273
548046.8	7.93314408536378	2.34145941132161	8.27146947367932	-16.4439116385664
467390.6	2.80859752217999	2.73789387924974	3.92228032343799	-44.2696642548744
398593.7	2.02063643509985	-3.25294577836481	3.82944223612714	58.1526378957005
339937.5	4.66168713846026	0.810265157332091	4.73158077201185	-9.8602827978362
289906.2	7.49173799231971	8.55866765031247	11.3743980101837	-48.8030667581321
247234.4	-5.39145449108928	-9.93878503907889	11.3069549208664	118.478332820994
210843.7	6.48172453481728	4.27812609471228	7.76628069461248	-33.4259681566315
179812.5	1.92012778604934	-4.44755481736155	4.84434046782373	66.6488571523569
153343.8	3.42843841633824	0.634603045723492	3.48667621098739	-10.4867433918763
130781.2	5.29480872888539	5.59389463777834	7.70237993700948	-46.5733785800687
111531.3	105.159168020735	207.046116927479	232.220897323132	-63.0738869896381
95109.37	288.118109690271	-610.874544237336	675.410803828801	64.7491582868211
81109.37	636.033072817642	-117.591744909829	646.81209650778	10.4747399260683
69171.88	118.317128922153	-596.77009447491	608.385970134071	78.7858221266131
59000	489.194135996179	-277.247555670123	562.296282948862	29.5421107169798
50312.5	65.246120539443	-83.3227762023522	105.828830096126	51.9371860045433
42906.25	5.11319182866382	-2.92916191118599	5.89276846470801	29.8068286774861
36593.75	-0.0936076715129494	3.84765940904698	3.84879790638504	-91.3936438169079
31203.13	67.8068410481711	53.8057182851381	86.5610941076393	-38.4325134775303
26609.38	3.32589105260185	-3.20102593032018	4.61607173908283	43.9040197787557
22703.13	6.63905527797427	11.9168780446418	13.6414455727707	-60.8772240988861
19359.37	3.22983131284298	10.7507698135709	11.2254559770999	-73.2782653209181
16500	4.88310192552711	-5.97647802653018	7.7177052299686	50.749341362834
14112.02	12.2059621719197	-9.80593707029546	15.6570084744478	38.777445529355
12011.13	12.0831860860404	-9.65579634500709	15.4673135691409	38.628705685739
10236.38	29.426357947726	15.1551263813159	33.0996736796808	-27.2493169673607
8750.684	105.521789843023	70.7813412807679	127.062372105905	-33.852707122445
7449.463	298.932588697437	154.96622865189	336.712376677693	-27.4021591887898
6363.206	-28.7537984113495	465.66385092439	466.550750702228	-93.5334119986034
5414.761	350.574874251419	331.007167019248	482.149859560808	-43.355533011055
4620.567	113.45995405222	545.307068936751	556.985601794088	-78.2463823624975
3941.215	-344.236322786635	337.324709545211	481.961207562834	-135.58100841409
3361.769	-353.056821833615	649.940009699179	739.642572903306	-118.511449781552
2867.244	157.294653445508	327.670021226361	363.468362877743	-64.3571405633926
2442.658	433.527619852326	26.4794748791704	434.335538224423	-3.49523219932821
2083.003	480.16287430324	201.587980228149	520.76299756378	-22.7742472972252
1777.843	-285.805631468091	303.824125681514	417.125830325827	-133.249643145702
1513.548	571.723379614012	58.8170425636274	574.740869691028	-5.8737398621411
1292.065	219.290243513259	60.6487861515745	227.522495946586	-15.45977068176
1101.762	760.013304938418	-397.489327559979	857.681752870784	27.609707420498
939.101	465.715424559812	532.009735729888	707.053898641618	-48.8014567467278
801.2801	267.708352060688	484.045013377844	553.143143082336	-61.0545545364791
684.3433	535.832262428497	-128.256555864333	550.96820015444	13.4610303317579
582.9476	357.336533043409	859.366384609144	930.698652004866	-67.4217772179884
497.0677	842.844764414174	129.049155722139	852.666981589519	-8.70503372509187
423.5089	1083.14454885852	-732.033021505725	1307.31574544818	34.0524230210937
361.5036	-40.2003650893283	1133.66524569979	1134.37778480579	-92.0308874766524
308.1262	691.272016614493	680.177211963067	969.792782313891	-44.5364964296448
262.7298	1330.21909714196	-854.397929594652	1580.97396199204	32.7125784059142
224.2111	1232.12580533079	-1321.86800740333	1807.06088142001	47.0124304088995
191.2854	1891.4532314236	-1283.66059778461	2285.90897827703	34.1633132727633
163.1722	462.343447863241	-608.588304880367	764.291298275225	52.7761279969078
139.1537	-189.303422037462	-1954.11963411484	1963.2675136181	95.5332065909486
118.6706	3331.91243306566	1920.39500874584	3845.71936719692	-29.9576082508528
101.1982	3892.99673083387	1250.21754295161	4088.82225720159	-17.8041764695645
86.24196	2120.58444709212	3046.5771326272	3711.94162431146	-55.1599704697511
73.61024	1323.60752889456	4282.31646879245	4482.20606726614	-72.8243108598359
62.69291	7695.26118920874	-1961.19112113016	7941.24142585667	14.2978581098583
53.57697	5621.10877615314	-3032.67842274861	6387.01826278513	28.3475739282233
45.65746	7515.98275179621	-7091.7604018177	10333.5890339266	43.3365451897243
38.96512	8916.08328702197	1133.59976675025	8987.85789898175	-7.24576751667317
33.18414	1082.04074822134	-2977.21266363472	3167.74484851895	70.0267871293302
28.30617	5993.35847322421	-7846.52893691777	9873.61950585784	52.6265802828007
24.17237	5174.30621605299	-2166.39740527299	5609.52070457523	22.718263591063
20.61345	8449.57756844124	1210.3266788502	8535.82168011036	-8.15165962739862
17.55618	3682.72181371232	-4314.56955605441	5672.56118620364	49.5174248075232
14.98558	3470.26106583538	-1320.44884555584	3712.99030685277	20.8320292337128
12.76553	3441.46417732442	-1669.15322762584	3824.88538143315	25.8739661576168
10.8809	0.187757604109202	0.735833040458135	0.759409758516896	-75.6856620887193
9.278505	0.473794217575422	-0.458238761641178	0.659138622201997	44.0438329399236
7.923394	0.59349561514214	-0.0622226204477903	0.596748439200587	5.98507702089092
6.75822	3.29212883386271	-3.05444361605927	4.49085048319753	42.8552205347688
5.761429	-1.67057211845575	-1.90863334796815	2.5364724441511	131.194730013466
4.919708	3.36938391545651	-0.849450872875735	3.47481147044936	14.1498974888437
4.191257	3.05323877568428	-0.525721872235673	3.09816889602375	9.76967525211421
3.564097	2.57104592174989	-2.20244197680517	3.38541397659727	40.5844398236386
3.051758	3.13167786254889	-4.31662433049459	5.33297776531992	54.039402532346
2.604164	3.17812070390149	1.12774975815282	3.37227975197507	-19.5371274279833
2.214424	4.68467139873788	-2.07939778609589	5.12543083720512	23.9351285450957
1.892567	3.55174554412134	2.18244293820532	4.16868727403581	-31.5694989567384
1.607507	0.252403507898565	5.64647640774904	5.65211494522767	-87.4405215094028
1.376413	8.83965064520043	9.55813134215667	13.019112807066	-47.236411070172
1.17375	10594.7765319153	2212.28661600657	10823.2851682188	-11.7944164268593
1.001604	672.036051215635	1716.65342955159	1843.51063227873	-68.6206341085201
