EC-Lab ASCII FILE
freq/Hz	Re(Z)/Ohm	-Im(Z)/Ohm	|Z|/Ohm	Phase(Z)/deg
6999984	2.9255038912161	-0.111549091077146	2.92762979511424	2.18362294429268
5969734	4.29951700119254	4.54641930224623	6.25745754403342	-46.5987892582827
5091109	16.5031142643375	-5.11540882600147	17.2777367695805	17.2216731975668
4341796	3.48120237862743	-7.97916847787413	8.70550972656176	66.4290132463652
3702781	3.53203653904751	-9.66104794298458	10.28645368773	69.9178105566963
3157797	0.226666587432569	-8.78857776034809	8.79150025829172	88.5226096012868
2693047	-1.19782457844832	-9.09177828870946	9.17034438676016	97.5053846175684
2296687	1.83472824831318	-16.8021161543204	16.9019920426094	83.7682058172913
1958656	-2.17656220938361	-14.7420970300186	14.9019075253405	98.3986258201773
1670375	12.3330303278542	-13.1369445395069	18.0189608163692	46.8078386394142
1424531	9.67245808465773	-8.63744404909996	12.9677247464925	41.7646526675168
1214875	6.72461482241658	-13.9404278377591	15.47759583429	64.2481639907588
1036062	2.901834612791	-15.5348175719116	15.8035186307533	79.4193415606893
883578.1	6.5702669417171	3.06480081033985	7.24992494392048	-25.0074133291051
753531.2	5.95226163323969	-0.61522897152388	5.98397236273193	5.90116735179401
642624.9	6.53966454944318	-1.41257999544873	6.69048538319798	12.1887374406242
548046.8	2.37379094806906	0.83708463543096	2.51706061746816	-19.4244953846165
467390.6	3.29731956159077	-3.5795680695566	4.86678783756168	47.3502749727984
398593.7	7.40927902200241	-2.65908700579325	7.87198572980564	19.7423551806212
339937.5	6.27531966823486	-9.40489526411287	11.3062678133621	56.2872076358915
289906.2	1.60755381078533	8.96414715822933	9.10714903408094	-79.8331316803328
247234.4	16.5493868014158	-0.0730460750689098	16.549548006878	0.252891825135945
210843.7	14.517996872595	12.8833793819323	19.4101441903834	-41.5860903706642
179812.5	-11.541316925489	-122.431655988594	122.974437931157	95.3852115924663
153343.8	4.17190672017149	-1.01397589226107	4.29336147929553	13.6607748782964
130781.2	4.32895042033684	1.87559557265419	4.71780356669229	-23.4255398821063
111531.3	4.88800857314535	2.33530074721121	5.41721860285033	-25.5366601740454
95109.37	19.0564010440965	-3.98684253900677	19.4689839022039	11.816572704797
81109.37	-25.8002850335776	-263.929987662621	265.188033469471	95.583168510684
69171.88	-3.31881622590802	-280.964586863086	280.984187477314	90.6767590236402
59000	-28.8265261997217	-339.479548808149	340.701236674785	94.8535640543644
50312.5	2.07371414174658	-4.23961354805715	4.71959885780025	63.9354436261764
42906.25	42.1984124196679	36.1360959687037	55.5564887533378	-40.5746938115434
36593.75	-46.0825217574029	-570.137717315214	571.997041528122	94.6210004853208
31203.13	-145.550489024174	-676.578945143718	692.057811072863	102.140842363295
26609.38	-46.5574567287391	-745.975377100086	747.426825861009	93.5712845088616
22703.13	-125.318057276677	-877.07216975327	885.979800241129	98.1315128960873
19359.37	-105.305129663465	-978.837225720839	984.485390846562	96.1403699664487
16500	-104.549990379875	-1112.19722455812	1117.10042825308	95.3702000982338
14112.02	344.905023755946	-1347.74171992501	1391.17476222023	75.6453258599421
12011.13	-56.9289160622939	-1427.3693739669	1428.50419363146	92.2839629347617
10236.38	10.5162735073184	-35.54985748263	37.0726904272678	73.5208556513765
8750.684	7.3488159506626	-1.25215357076182	7.45472899852735	9.66967692813002
7449.463	549.58654398815	93.7740302798255	557.529315899855	-9.6829294419314
6363.206	36.8450818790608	0.394648025028845	36.8471953578336	-0.61367217605282
5414.761	121.973968339678	-305.756626534908	329.188036876396	68.2517065842354
4620.567	10.3042359960221	-16.7835639321192	19.6942960708234	58.4522375267744
3941.215	261.433770404818	211.18664189367	336.076500253148	-38.9313362635492
3361.769	89.9901568056645	77.0721909139252	118.483547103303	-40.5784466851015
2867.244	181.093104505404	596.273354985126	623.166612042577	-73.1060342077018
2442.658	76.0039062704737	-176.478313272436	192.148871513353	66.6999076919031
2083.003	548.749663825285	-1129.43249839134	1255.68465865076	64.0865898925319
1777.843	270.2258099026	-21.7198101886672	271.097286028739	4.59535642964521
1513.548	27.0799891307359	-3.42892181725813	27.2962143190158	7.21650083249789
1292.065	743.327191510895	431.30651846112	859.395500632001	-30.1239264396233
1101.762	10.3561944783006	0.19520030219249	10.3580339461869	-1.07982032493094
939.101	29.0100185492214	17.2903943672813	33.7718657110069	-30.7955590262316
801.2801	42.9123861399189	-23.5377033706366	48.9438082313338	28.7450347507056
684.3433	89.6489484989816	-80.8083525678536	120.693511887357	42.0310723126746
582.9476	40.635609978607	-26.2962571246466	48.4019207996851	32.9078538816506
497.0677	10.2372180064292	-11.8105010334112	15.6297334325114	49.081598731079
423.5089	11474.5575512189	-20863.4684923089	23810.7074343834	61.1899444634685
361.5036	-4159.89454427465	-32855.7701945396	33118.0669377891	97.2158690436888
308.1262	6803.15639154278	-43601.2058078686	44128.7670889173	81.1315686356582
262.7298	-13910.9015500193	-49569.7118834784	51484.65322934	105.675877367693
224.2111	-6274.9763050906	-60316.8395623052	60642.3652442277	95.9393190761373
191.2854	2086.72687224695	-102.409279494704	2089.23830614992	2.80962288026554
163.1722	-27276.7124259901	-114009.264529328	117226.837538545	103.455092953766
139.1537	-26723.4732516932	-122673.8431092	125550.849482649	102.289410319572
118.6706	-185723.689022256	-218772.025246111	286974.716123774	130.329162672361
101.1982	61874.9325098242	-447465.410824254	451723.146581193	82.1271401004776
86.24196	-208130.935250116	-236199.900854447	314815.627585002	131.385353071906
73.61024	-562834.03204728	-2996723.20421085	3049119.89109749	100.637171925753
62.69291	-915463.229117333	-2882777.52389598	3024645.29757553	107.617917814289
53.57697	-215588.462937357	-390628.745307307	446171.718077304	118.894357476038
45.65746	-219458.533652922	-427623.575298378	480649.52943289	117.167118906837
38.96512	-1588412.52984265	-2957660.75851404	3357202.932117	118.238034321716
33.18414	-245678.140088135	-611114.315167871	658648.961678572	111.90094922023
28.30617	-565560.436999463	-458558.231139009	728103.192716774	140.964749040257
24.17237	-373786.541367186	-4726754.63422027	4741510.91432151	94.5214777163065
20.61345	-288172.098930349	-916380.04483282	960622.477964015	107.456687490739
17.55618	2810504.05044899	-1858842.40637536	3369603.55373292	33.4802960147658
14.98558	1488766.35435683	-3904403.821029	4178611.54637887	69.127930940329
12.76553	8729807.5395505	-3345174.54926525	9348782.40428371	20.9663305408915
10.8809	7552318.42218855	-7272598.88771019	10484665.3800516	43.9190599208779
9.278505	16542482.4007236	2616813.83329913	16748177.1729462	-8.9889916083587
7.923394	723968.158155095	-36044.9250852296	724864.905100862	2.85028855977495
6.75822	24556242.8828713	-16389754.9613163	29523433.6115324	33.7206288915114
5.761429	6236343.84333717	14853624.0386223	16109690.6119599	-67.2247370322429
4.919708	5122549.55132464	12292138.2029505	13316800.4981005	-67.3768573268501
4.191257	1472828.6550073	-1726079.1943244	2269046.85541973	49.5265405660438
3.564097	22116805.1863708	36906180.6177829	43025797.3713945	-59.0669639451702
3.051758	51220388.4737819	-96258812.1190474	109038007.621082	61.9820586152368
2.604164	-140839.262564338	-4752729.52385306	4754815.83500183	91.6973687441067
2.214424	181406941.292417	-13489511.8554462	181907793.343684	4.25271620900107
1.892567	18559906.2667652	-20432365.8114826	27603472.4859999	47.7493056996393
1.607507	5793216.6496455	-20360195.6035279	21168347.2232399	74.1170182372101
1.376413	-13447100.7716003	-20722684.1815622	24703322.8301446	122.979833034218
1.17375	9768748.40922466	7077349.7795633	12063056.2207516	-35.9229124982337
1.001604	28885138.4431908	-9129136.71243222	30293437.573121	17.539120463959
