EC-Lab ASCII FILE
freq/Hz	Re(Z)/Ohm	-Im(Z)/Ohm	|Z|/Ohm	Phase(Z)/deg
6999984	-12.7877943636125	115.125338268351	115.833376865601	-96.3382695888869
5969734	5.53921616239128	105.34894761594	105.494472269782	-86.9901766824299
5091109	12.0565812106777	95.9177233672244	96.6724925014404	-82.8356597099363
4341796	13.2664358294317	95.9412547262707	96.8541309292876	-82.1272546920366
3702781	12.36802499145	102.908197862924	103.648758938947	-83.1467757926924
3157797	15.0481045357497	110.429798572678	111.45037399184	-82.2401846734569
2693047	17.0499856644719	120.783194963644	121.980663208495	-81.9651076360146
2296687	11.6802732201293	139.3966982277	139.885196712451	-85.210283291856
1958656	13.9205826200181	158.952129903002	159.560528393402	-84.9949657524459
1670375	15.4835585105116	183.450372646196	184.102633897988	-85.1755620494711
1424531	16.7513515690791	210.7216783024	211.386455303955	-85.4548216788179
1214875	22.4633466153758	240.393965565789	241.441215664618	-84.6615616114592
1036062	25.043142304645	279.98774027701	281.10548497302	-84.8888539687876
883578.1	26.5608630307617	322.896597487559	323.98717893457	-85.2975447640545
753531.2	28.6905977165677	366.693306378068	367.813990136066	-85.5262122200912
642624.9	19.323903403608	426.05529141774	426.49328785786	-87.4031073653807
548046.8	62.3479864712136	505.151255544223	508.984343958554	-82.9638876644866
467390.6	148.610796073419	709.698663713365	725.091278382323	-78.1731583562797
398593.7	170.461727365723	799.761524817193	817.725930293535	-77.9679821698434
339937.5	196.941693093767	907.366979833664	928.493869969589	-77.7540397291416
289906.2	224.592498664366	1078.1739263668	1101.31775884778	-78.2330897416504
247234.4	185.856338921791	1055.70792679783	1071.94300474475	-80.0154468507434
210843.7	299.058910162405	1208.16866870885	1244.63157753499	-76.0969884898437
179812.5	354.24614621736	1602.13760478051	1640.83370173875	-77.5320185835284
153343.8	307.548309081897	1770.42148687682	1796.93578171682	-80.1452217913405
130781.2	329.539586993891	2038.72016293556	2065.18189081642	-80.8181034259422
111531.3	355.888808983077	2358.22882874497	2384.93187598373	-81.4180475332237
95109.37	380.091701237639	2732.18261752446	2758.49443661801	-82.0800429697178
81109.37	407.739981636093	3166.34384607324	3192.4888792587	-82.6622253853502
69171.88	433.387579263865	3670.5533731541	3696.05016998324	-83.2661801971976
59000	662.63159832882	4328.93638372436	4379.35735575853	-81.2972680300101
50312.5	329.373248032257	4871.51535468547	4882.6374622181	-86.132000496883
42906.25	1860.48201734405	6774.42079002715	7025.25233548323	-74.6432799720378
36593.75	1964.0026631219	7471.691347637	7725.50827163518	-75.2724449268709
31203.13	2157.18705427336	8537.87954990778	8806.18210099349	-75.8203644663545
26609.38	2189.27385943858	9685.86890185395	9930.20525545784	-77.2635878565096
22703.13	2286.69453963978	11139.8996108136	11372.1737261011	-78.399992347372
19359.37	2460.57467500191	12827.5618186683	13061.4229677711	-79.1414570300508
16500	2586.7837105551	14838.3588257509	15062.1493355674	-80.1109589151917
14112.02	2742.23506006699	17130.9458534988	17349.0391365103	-80.9055367854791
12011.13	2957.54607051584	19895.6368661257	20114.2597444689	-81.5447285017271
10236.38	3290.68325910561	23167.2725393622	23399.8101108715	-81.9157759698538
8750.684	3462.60736116518	26872.2374941758	27094.4052837662	-82.6576417229892
7449.463	3768.15082172597	31294.7984418598	31520.8402510451	-83.1341707211995
6363.206	4066.07815778895	36345.2945758542	36572.0306982107	-83.6166584804792
5414.761	14495.1624167348	49513.5877828262	51591.7155037043	-73.6825443411624
4620.567	15953.9958532814	55793.4297628693	58029.6199228528	-74.0422472449455
3941.215	17560.7790633625	63168.2248355391	65563.7521057592	-74.4640587737209
3361.769	18989.3978858076	73231.486921494	75653.4725495034	-75.4630106895314
2867.244	19853.348430051	82156.087025825	84520.8736306005	-76.4146935872437
2442.658	21318.8691368116	94223.7908455821	96605.4705624091	-77.2510400807962
2083.003	22074.3592992886	108817.247536968	111033.646702231	-78.5327466685038
1777.843	23617.7455014378	125760.383509149	127958.868246554	-79.3637646545616
1513.548	24729.5862563833	146100.166330047	148178.308257583	-80.3929114461756
1292.065	24016.9497018832	171243.599712844	172919.589160961	-82.0163300628993
1101.762	28988.7817177646	196170.91859929	198301.232395489	-81.5940601678878
939.101	31577.9641944003	227327.469749828	229510.231417951	-82.091674012959
801.2801	33487.0624736122	259469.33344566	261621.326255806	-82.6460679755275
684.3433	114937.771829367	381279.190565315	398226.709992238	-73.2244072881758
582.9476	133453.213645032	435682.350424681	455663.110975379	-72.9697275482402
497.0677	147151.382834194	489032.093123471	510691.607112099	-73.2532843610504
423.5089	169262.696674446	562994.674113675	587888.478851107	-73.266748869236
361.5036	180287.122984967	610021.011457766	636104.614929142	-73.5353514835933
308.1262	175889.659949686	713295.123580029	734661.218385907	-76.1479244378308
262.7298	152368.366776786	790261.189203115	804816.045040696	-79.0868541521749
224.2111	201030.704577595	942147.933639569	963356.669694187	-77.9551479152325
191.2854	277072.008652031	1112093.60913794	1146089.47882088	-76.0098989049838
163.1722	181300.868775017	1174921.79109418	1188827.66631944	-81.2279401367992
139.1537	181432.13295881	1265763.79155248	1278700.74484818	-81.8428957383132
118.6706	273615.820755679	1627454.03015814	1650294.59117025	-80.4563951698761
101.1982	369279.957349548	1996749.04635089	2030609.37676435	-79.5220728933563
86.24196	497317.654834346	1900741.80576366	1964724.98380501	-75.3375902281773
73.61024	630480.417067666	2228578.33005045	2316045.53700403	-74.2034202727158
62.69291	1149738.54459632	888571.680285436	1453085.80336322	-37.698525894078
53.57697	1121535.31922747	2577698.26835122	2811115.4076159	-66.4865382089964
45.65746	581653.199678773	2571243.84286883	2636212.31015019	-77.2533892077562
38.96512	3046392.55169774	3336398.24849525	4517970.8776841	-47.6014768589176
33.18414	144737.234993362	4702766.74613741	4704993.51070428	-88.2371620277527
28.30617	7551004.36692093	-1107228.56223564	7631750.91563459	8.34201912525288
24.17237	1831966.90134658	3088350.24180803	3590823.01759709	-59.3241646994045
20.61345	3109603.03717368	-31347.9439143279	3109761.04265061	0.577579845664144
17.55618	363560.547118069	4084801.66063998	4100948.77780593	-84.9138922244349
14.98558	2314388.76857727	2447235.57371201	3368287.00163127	-46.5981074385065
12.76553	3187593.52447001	3267159.72438621	4564546.54285555	-45.7062356050279
10.8809	3122278.6112859	-1342595.49535849	3398703.63383604	23.2679478405556
9.278505	3005671.79617426	-1733276.25518426	3469626.71235725	29.9706946068935
7.923394	4992794.68151826	2058576.27319651	5400530.99281586	-22.4068151927858
6.75822	3069293.71842366	3794653.76919753	4880569.75752216	-51.0324455389861
5.761429	3617580.40581546	3720871.80665392	5189583.31603723	-45.8064058163507
4.919708	4534152.18731643	2331630.93590961	5098533.01244947	-27.2139253643554
4.191257	9613844.98318492	-1141943.5083018	9681428.11453261	6.77391958364909
3.564097	5680918.64960836	1702739.45822776	5930611.97230723	-16.6850294674913
3.051758	10914737.7933416	-3895628.17122887	11589107.8149214	19.6422193467662
2.604164	7190431.13215779	70889.2553890224	7190780.56631083	-0.564851187174856
2.214424	16211985.2803009	-5968939.28314502	17275899.4814905	20.2127306121118
1.892567	537295.116090721	10113748.428005	10128010.3330688	-86.9590077783748
1.607507	8715948.21450256	-6902564.06435499	11118144.806595	38.3773376418592
1.376413	-612196.468399711	-17187006.6231695	17197906.3022449	92.039997505595
1.17375	-14183977.57622	20864353.3646675	25229079.6742256	-124.208598321656
1.001604	2018192.56207377	22724649.9780625	22814092.527275	-84.9248357183219
