EC-Lab ASCII FILE
freq/Hz	Re(Z)/Ohm	-Im(Z)/Ohm	|Z|/Ohm	Phase(Z)/deg
6999984	2.56481354213551	2.26874641909607	3.42424865044625	-41.4948754896794
5969734	5.10187590398239	2.26296529886991	5.58123191450826	-23.9199451635247
5091109	6.38139510419652	4.67898485129453	7.91297053668893	-36.2497218949984
4341796	10.6878493574576	6.01871748622165	12.2660133730017	-29.3854468670572
3702781	17.1876462548418	6.32052655930292	18.3129527867144	-20.1903222327443
3157797	19.8935636946519	-6.74833315653901	21.0069959029085	18.73806329816
2693047	4.23364858667599	-14.7525909579517	15.3480526558943	73.9877589586286
2296687	4.63754806640805	-17.0966947639937	17.7145088535193	74.8234751986064
1958656	-4.0147489759	-15.0770303642826	15.6024053897144	104.910864119634
1670375	-3.18206496383078	-24.1014603304366	24.3106134742348	97.5211409569345
1424531	8.15074242927575	-22.6247818125914	24.0481881690859	70.1880747486595
1214875	-4.57310397853182	-13.4207876585212	14.1785338231277	108.816430930144
1036062	-5.21118704981379	-19.6302918680638	20.3102149002298	104.867204735645
883578.1	20.4241717566771	-19.8303954326921	28.4673738683986	44.1549179972435
753531.2	0.781917163248834	0.35055252203429	0.856902281994689	-24.1478563152719
642624.9	0.0850001969869054	0.580254238810889	0.586446941458318	-81.6661382585153
548046.8	2.52789635385953	-4.42303605284353	5.09445854832581	60.25075204569
467390.6	0.704325864263277	-2.13083487121043	2.244221952356	71.7092203989523
398593.7	-0.0343116525962228	-0.0160414253418145	0.0378763360276689	154.942913889166
339937.5	-0.000664165604729554	-0.0185184687238588	0.0185303750589955	92.0540349715757
289906.2	-0.0143679573965501	0.00471134940319591	0.0151206816297438	-161.845336447107
247234.4	-0.01525928243487	0.00902435365950368	0.0177280754567136	-149.399890995952
210843.7	-0.0145897204145139	0.0098428162965949	0.017599459492331	-145.99480281949
179812.5	-0.0124690770789063	0.0101694602476068	0.0160902394303926	-140.800195561495
153343.8	-0.0113036414124719	0.0102177317854976	0.0152372685223474	-137.8885386382
130781.2	-0.0099442377007683	0.0108704676684474	0.0147327842168458	-132.45208589488
111531.3	-0.0072912874960861	0.0106959155086413	0.0129447086455654	-124.281822327874
95109.37	-0.00605653410340188	0.00982225695126391	0.0115394253306793	-121.658535062867
81109.37	-0.00458592347967506	0.00872574728503547	0.00985745199550771	-117.724721433058
69171.88	-0.00368812242265646	0.00792995265457843	0.00874565012496823	-114.942552971462
59000	-0.00287837987550551	0.00686796454828067	0.00744674477501111	-112.738670812491
50312.5	-0.00224884993226887	0.00598211734946135	0.00639085706307004	-110.602684152243
42906.25	-0.00183058255381489	0.00505091253602656	0.00537240634473247	-109.921838404289
36593.75	-0.0014676385348879	0.00446555235101017	0.00470054472042341	-108.193511215277
31203.13	-0.00120665671187219	0.00393066986898039	0.00411171327298202	-107.065701091342
26609.38	-0.00102758457979596	0.00341747178784657	0.00356861926931995	-106.73527633089
22703.13	-0.00071800868518086	0.00286141573012554	0.00295012481983475	-104.086263260882
19359.37	-0.000640327205395784	0.0025315180103315	0.0026112453669854	-104.19478146728
16500	-0.00048341210172171	0.00220418194966508	0.00225656937126257	-102.370025481347
14112.02	-0.000377571858466658	0.00189261120047286	0.00192990612840658	-101.282265107291
12011.13	-0.000276272568810966	0.00165114877859659	0.00167410239272824	-99.4988193783875
10236.38	-0.000201017288772643	0.0014701297952454	0.00148380914044017	-97.7860193456234
8750.684	-0.000122548739661906	0.0013236656895727	0.0013293265405252	-95.2895276406794
7449.463	-0.000118252710660568	0.00118856482062796	0.00119443293508382	-95.681774547226
6363.206	-4.98426417032872E-05	0.00102952065898537	0.00103072647982364	-92.7717219057565
5414.761	-6.28257628880299E-05	0.000962935280336719	0.000964982606371544	-93.732915902868
4620.567	-6.3885044947436E-06	0.000792240194443379	0.000792265951989206	-90.4620144420252
3941.215	2.80707100391078E-06	0.000596315147066259	0.000596321753978736	-89.7302900418636
3361.769	-5.43680005667871E-06	0.000536437022148258	0.000536464572479998	-90.5806740013968
2867.244	6.45763301317652E-05	0.000442546222024065	0.000447232893514173	-81.6979947119246
2442.658	2.96770691977331E-05	0.000431235783339566	0.000432255745211855	-86.0631882656878
2083.003	0.000139694157428396	0.000360071308790654	0.000386219892074248	-68.7956154191531
1777.843	5.70657617274595E-05	0.000318047266188804	0.000323126236464493	-79.8279177643971
1513.548	0.000159721086131541	0.000349644780206318	0.000384398618208447	-65.4486251631169
1292.065	0.000144668145097417	0.000225349910852301	0.000267789944783345	-57.3007069501205
1101.762	0.00016354257855647	0.000217207328177162	0.00027189188736474	-53.0227003840423
939.101	0.000144643415697172	0.000185006541600661	0.000234838536317152	-51.9806849603497
801.2801	0.000147549423735929	0.000104688071096186	0.000180915518059244	-35.3561541064462
684.3433	0.000166386972315892	4.92131873346534E-05	0.000173512427117153	-16.4769254667219
582.9476	9.03857019646711E-05	2.6146762490301E-06	9.04235127139705E-05	-1.65698935985598
497.0677	9.86109388591533E-05	2.13840352281654E-05	0.000100902895029444	-12.2352959910566
423.5089	0.000120646086372629	-4.16832634381879E-05	0.000127643928989549	19.0600483902897
361.5036	5.83347921986514E-05	-4.59805716936832E-05	7.42775938903367E-05	38.2458380982988
308.1262	6.95339117187499E-05	-5.31431420796724E-05	8.75166180163011E-05	37.3898334227954
262.7298	6.49444276822348E-06	-9.45194084918847E-05	9.47422628425429E-05	86.0693762098752
224.2111	4.72593073040122E-05	-3.52791948478305E-05	5.89751109873161E-05	36.7414342747797
191.2854	6.36526352193969E-07	-0.000102312281756974	0.000102314261782586	89.6435442316808
163.1722	2.32702959914503E-05	-8.0723524596827E-05	8.40106784811565E-05	73.9192332063309
139.1537	-3.19032858548032E-05	-7.25175399761272E-05	7.92250796940116E-05	113.746560869906
118.6706	4.20395210935566E-05	-6.54340251275686E-05	7.7774886551964E-05	57.2803955962831
101.1982	-7.62162794856068E-05	-7.03840099960605E-05	0.000103744060657725	137.278223994826
86.24196	1.17781573077663E-06	-4.05116395269213E-05	4.05287575315957E-05	88.3346794444839
73.61024	1.46900742146173E-05	-5.68127117490602E-05	5.86811937226295E-05	75.5025447773955
62.69291	-6.0532332706442E-05	-5.11424051055212E-05	7.92446143460906E-05	139.806285674282
53.57697	8.47108393041921E-05	7.07859611061783E-05	0.000110392837563612	-39.8827613302537
45.65746	-5.67169292360532E-05	-5.9783879331954E-05	8.24070524284487E-05	133.492004293043
38.96512	-1.31998272672414E-05	-0.000129651238742019	0.000130321445461693	95.8132683612085
33.18414	-2.6558245339829E-06	-0.000102933364445338	0.000102967620735803	91.4779832043511
28.30617	4.62912906591382E-05	-1.14905190815365E-05	4.76960755162516E-05	13.9403267161187
24.17237	-1.43876744726923E-05	-9.8823614602569E-05	9.98654694068438E-05	98.283461303356
20.61345	8.28219391332035E-05	-1.87751034570315E-05	8.4923366110902E-05	12.77264445922
17.55618	9.85364500552348E-05	-5.4810860562065E-05	0.000112754877610868	29.0849820697126
14.98558	9.20576795919937E-05	-1.90083294186691E-05	9.39996433990619E-05	11.6666353793892
12.76553	-9.66313175506283E-07	-8.0814044993377E-05	8.08198220076283E-05	90.6850669116696
10.8809	-7.08600488228035E-07	2.83509646514806E-05	2.83598186052277E-05	-91.4317455102841
9.278505	3.81611496059188E-05	-0.000102714667823675	0.000109574524070941	69.6186692918585
7.923394	0.000108502383139495	-4.00605879574665E-05	0.000115661652480188	20.2648468531569
6.75822	-1.55724699811237E-05	9.21259600508114E-05	9.34328332899988E-05	-99.5942741470563
5.761429	7.01631746923358E-05	3.13387460776411E-05	7.68439203101071E-05	-24.068175074703
4.919708	6.81288809151102E-05	-3.12697894095283E-05	7.49622848135082E-05	24.654173389251
4.191257	7.84477078646227E-05	4.77231906749069E-05	9.18234490607203E-05	-31.3139884279998
3.564097	-1.32231797564736E-05	7.20744625105594E-05	7.32774223690902E-05	-100.396185877121
3.051758	4.94234416415928E-05	-3.27853650191938E-05	5.93089937795416E-05	33.5585677791587
2.604164	-1.25826760579513E-05	7.55342529404233E-05	7.65751076006243E-05	-99.4576237129176
2.214424	5.65037962911135E-05	3.54104685042445E-05	6.66826834717811E-05	-32.0750368081162
1.892567	4.6485189035292E-05	4.08941954778847E-05	6.19129067596594E-05	-41.3389049186889
1.607507	5.67857930527673E-05	-4.14154834775119E-05	7.02841985392718E-05	36.104328124906
1.376413	5.23084149014989E-05	3.04575917904512E-05	6.05296222289642E-05	-30.2109358103919
1.17375	-1.47719221568977E-05	6.81906129480841E-05	6.97722679754992E-05	-102.222947215337
1.001604	6.66690815470099E-05	-4.06703979961737E-05	7.80951196137699E-05	31.3846054762497
