EC-Lab ASCII FILE
freq/Hz	Re(Z)/Ohm	-Im(Z)/Ohm	|Z|/Ohm	Phase(Z)/deg
6999984	4.41776697414439	0.852195455285192	4.49921127886318	-10.9183524989484
5969734	5.71255257473526	2.53310011698039	6.2489881678365	-23.913791596805
5091109	10.258876359819	3.87391614983676	10.9659368273768	-20.6873402017084
4341796	5.54721613846702	-8.63447352692503	10.2628329409592	57.2812894104435
3702781	3.19232059690115	-6.36653850317172	7.12205892321647	63.3698196908232
3157797	0.357788245795709	-1.63112089117854	1.66990053310628	77.6280463099923
2693047	4.85549738026824	0.180342715248604	4.8588453674443	-2.12710008484523
2296687	6.0817796706208	-13.3657975365345	14.6844335181719	65.5332510294577
1958656	-0.15587709201376	-14.7876056859725	14.7884272183225	90.6039360878791
1670375	9.72123803718943	-3.03704960426	10.1846030494288	17.3495287295502
1424531	8.27991237770756	-6.2433072195196	10.3699486025641	37.0174108559603
1214875	10.069156396292	13.0889417904759	16.5138822730288	-52.4293739392946
1036062	8.73660664938418	-1.17175743467116	8.81483472515344	7.6389483444258
883578.1	9.76161477703253	-2.55957104187836	10.0916067587675	14.6926374898593
753531.2	5.89413390280052	-0.98956849810797	5.97662616168939	9.53052839800455
642624.9	8.63948717086343	4.80890079053274	9.88768250849005	-29.1011337499573
548046.8	9.42371418843118	1.12700370982949	9.49086542245799	-6.81974474810365
467390.6	-7.74796492607921	-3.60186122602172	8.54425917135432	155.067303026489
398593.7	3.01951442366553	-1.94815531733742	3.59343519423883	32.8296336834594
339937.5	1.37114596825363	2.86219140310509	3.17366994097793	-64.4030344827826
289906.2	-1.15931219398685	3.60602626082458	3.78780017383218	-107.822234564033
247234.4	1.0033794032177	1.68660367988678	1.96249896810397	-59.2511125805253
210843.7	2.02374999069287	-1.19687614012769	2.35118619416591	30.6007075392635
179812.5	2.59851918314872	1.23606644371048	2.87752709778014	-25.4395495573487
153343.8	0.601680249241265	1.31874749503102	1.4495220170724	-65.4750958132519
130781.2	2.20504885144604	-1.80424127569492	2.84912741346974	39.2911251110016
111531.3	-0.156445538480544	-1.75173339510047	1.75870551657197	95.1034882446004
95109.37	4.05916526091477	-0.0904178777895942	4.06017216482765	1.27605206722751
81109.37	3.61217219138852	0.303400659114072	3.62489170875371	-4.80122990571823
69171.88	2.11352501849922	-1.84577211037111	2.80604039301753	41.1311847996422
59000	3.21281184179028	-2.13300442537281	3.85640607423645	33.580414659887
50312.5	1.39428677668283	0.882209872858387	1.64994844628595	-32.3228467840882
42906.25	2.0667988178217	-1.33400219920877	2.45992260464491	32.8399641125056
36593.75	-1.18227221338268	1.25396829029861	1.72342799664251	-133.314330080773
31203.13	2.2907913409321	4.21202376932903	4.79467091687034	-61.459578401857
26609.38	-0.0444729736247802	0.645222996874084	0.646753864370523	-93.942962230563
22703.13	1.55459514424098	-1.20196197709064	1.96506454267265	37.7100194274483
19359.37	0.693376644948255	0.226466278881295	0.729423160607091	-18.0877447415306
16500	0.296422582315957	-0.441258190722327	0.531577969997255	56.1081067587115
14112.02	0.494119407787637	0.0349426621679247	0.495353387786726	-4.04505395869165
12011.13	0.740524948015491	0.0632093214086718	0.743217745311756	-4.87879578610745
10236.38	0.270637312193304	-0.510001803606196	0.577361580322755	62.0469174376457
8750.684	1.3100358482312	2.43752926006318	2.76726269394775	-61.7444530175961
7449.463	16.8909510520763	-3.93882053023609	17.3441210389297	13.1262969286866
6363.206	5.34690311971289	-18.6123962869519	19.3651921889285	73.9718880277035
5414.761	39.2720926885784	6.38587888113395	39.7878965669814	-9.23580463776721
4620.567	18.5799003879322	-14.5050303523124	23.5713513390087	37.9785876643379
3941.215	8.15152989481443	21.7092354492025	23.1891859153133	-69.419509162271
3361.769	44.3358772085157	-29.1662491702898	53.0692010351768	33.3388212759921
2867.244	7.09896768700389	-30.4492731248738	31.2658531956876	76.8764402743397
2442.658	19.8219395211939	30.7877070590393	36.6168293593955	-57.2254947803536
2083.003	13.591488223291	15.7001399964616	20.7659083122398	-49.1175174552558
1777.843	25.8274149757224	-15.7665364687084	30.2595280291561	31.4022869538074
1513.548	32.5879157914208	-1.73166711892034	32.6338922998695	3.04174068814452
1292.065	26.4011684162792	-7.57929473808925	27.4675700139559	16.0178086559056
1101.762	17.9033680925478	-28.155671301372	33.3657371488802	57.5489122669711
939.101	66.7226598305614	41.0019018900838	78.3139150692191	-31.5712407484356
801.2801	66.5104240621494	7.73618906354173	66.9588316068449	-6.63457051829532
684.3433	13.5346136555645	32.7445876887532	35.4315366546787	-67.54278590432
582.9476	8.86933468604508	37.6872921828188	38.7168837827405	-76.7569785740549
497.0677	77.4993671833795	15.670416676268	79.0677802434856	-11.4311153481228
423.5089	26.4321943778243	74.8834121783879	79.4114999172376	-70.558090892755
361.5036	39.0312009066515	99.2009214378966	106.603271330401	-68.5225437339937
308.1262	98.8391261374328	29.052898298145	103.020598693338	-16.3802388387935
262.7298	153.20900171778	-14.468581167714	153.890669140028	5.39483538091218
224.2111	242.964419295338	65.1534262964882	251.548559927686	-15.0112879676213
191.2854	328.639542774256	-297.021739744283	442.97388518466	42.1070178684192
163.1722	172.175758406429	158.70853113441	234.164236461657	-42.6693071894047
139.1537	266.214070053203	-280.48295020048	386.704818236671	46.495089626942
118.6706	-77.6574291880916	674.648069195002	679.102859349486	-96.566306791349
101.1982	341.077354703364	-74.4575762956396	349.109857436403	12.3145417837011
86.24196	2041.7091604558	-542.734410907344	2112.61376892987	14.8863086837694
73.61024	1086.22712895647	-582.060510037792	1232.34890068782	28.1848653735621
62.69291	944.976084021312	1000.94177651642	1376.54067842113	-46.6474047271996
53.57697	2103.18536620426	207.769860241823	2113.42305264247	-5.64184035118205
45.65746	65.4976259161165	3055.55237071296	3056.25428084284	-88.7720181295073
38.96512	2265.60422704998	-702.532330838382	2372.02744282184	17.2279356262675
33.18414	1111.13272470824	251.685340955557	1139.28110787876	-12.7628354217674
28.30617	2383.0663142503	1748.66716704178	2955.81493317907	-36.2708010122812
24.17237	2115.71281123436	-2705.58386860428	3434.59237314603	51.9752991570754
20.61345	4435.90146479814	-3676.27688016144	5761.27012949469	39.6504212147502
17.55618	7698.69535922804	-409.601664455374	7709.58389005036	3.04549528057602
14.98558	192.904794505319	2891.64783983987	2898.0751352223	-86.1833948111062
12.76553	1353.38797114574	1505.01361748537	2024.03680531219	-48.0364434986691
10.8809	-0.0565635737537816	-0.722181182737145	0.724392917259287	94.4784485858922
9.278505	0.57661594666381	-0.271830736697039	0.63747776381632	25.2403264024037
7.923394	-0.791119537935364	-0.144947719212732	0.804288483448593	169.617508938057
6.75822	1.34165139355001	0.66514351393812	1.49747933406396	-26.3705945152803
5.761429	1.40000867237028	0.237462258756701	1.4200044390937	-9.62659623151414
4.919708	1.51738201459632	-0.0772041345415235	1.51934481162463	2.91268767436926
4.191257	1.25741133850029	-0.833042541737777	1.50832461709475	33.5247117030444
3.564097	1.53772252798211	0.734402182941916	1.7040942284315	-25.5287132494269
3.051758	1.80508720889247	-1.24325978390881	2.19181083170793	34.5572561343835
2.604164	1.27328135486719	-0.718797799943475	1.46216130637355	29.4457678637285
2.214424	1.58315690148751	-0.87976034199413	1.81117752693466	29.060929301473
1.892567	1.39500219745121	-0.954377470811305	1.69022705211042	34.3776109472982
1.607507	1.25164817659155	-0.444214604523837	1.32813770853674	19.5399635690692
1.376413	-0.662386660682766	0.493647246718243	0.826101502506179	-143.304479492453
1.17375	-1.27905923677318	-0.289623479840204	1.31143977797287	167.24139566587
1.001604	-0.757596311735611	-0.511544032120373	0.914127708995505	145.971999099244
