EC-Lab ASCII FILE
freq/Hz	Re(Z)/Ohm	-Im(Z)/Ohm	|Z|/Ohm	Phase(Z)/deg
6999984	15.4550150283981	93.263927747264	94.5358011992012	-80.5908683643933
5969734	15.8366873896988	89.6782799465264	91.065880337515	-79.985137383381
5091109	15.6491987582181	87.7072414631865	89.0924106018908	-79.8834373747453
4341796	16.3325611724918	92.2793296692606	93.7135381823847	-79.963135804048
3702781	18.1891499970919	100.930772827043	102.556648156425	-79.7841437888491
3157797	18.8670228411702	108.576383588072	110.203428367512	-80.1422997065854
2693047	18.5604475140818	121.185527484938	122.598622682825	-81.2923978887515
2296687	18.204632403028	138.712396047004	139.901885112497	-82.5232258242515
1958656	20.3593753077788	158.969781791054	160.268199233716	-82.7018167689938
1670375	21.5059260204481	179.669548400259	180.95206955531	-83.1743350626382
1424531	24.0634649505716	207.115295639574	208.508503503564	-83.372864938651
1214875	25.7348731863206	240.913878142803	242.284502970622	-83.9026790118085
1036062	28.0990648062473	278.156610047021	279.572275370496	-84.2316140819931
883578.1	31.418720605462	323.952054091643	325.472071543287	-84.4604534253683
753531.2	37.4558781035743	383.212437209104	385.038588762544	-84.417538886513
642624.9	24.6291707076051	432.410840993369	433.111684740018	-86.7400806048553
548046.8	12.882616782392	484.589691445601	484.760900723754	-88.477174048133
467390.6	149.612986006332	734.01315860957	749.105708557696	-78.4792897062182
398593.7	174.670915182601	822.798471134165	841.134503341438	-78.0146782301466
339937.5	194.169440405295	930.950501995764	950.984021292404	-78.2186512052131
289906.2	245.623882353367	1037.06758534364	1065.75807205615	-76.6753320882487
247234.4	253.097749743944	1184.87572388313	1211.60593922819	-77.9424282521806
210843.7	270.356842202142	1354.68083854296	1381.39530781054	-78.7136294444267
179812.5	293.463735182045	1552.55044165925	1580.04235315491	-79.2962129305157
153343.8	315.831602427842	1787.72628553335	1815.4103869591	-79.9811266788151
130781.2	337.711979193925	2062.84413206924	2090.30507201786	-80.7024805428848
111531.3	362.246724231045	2383.61983470683	2410.98863656051	-81.3586891056481
95109.37	385.665772727321	2759.51063622682	2786.33038954505	-82.0439466286246
81109.37	418.433422203503	3204.87118787959	3232.07145028041	-82.5614421091867
69171.88	450.849180824891	3716.68504735716	3743.93011755011	-83.0835785478894
59000	477.482749955553	4305.22473234803	4331.62207175629	-83.6713186541346
50312.5	1331.50113035104	5707.06802592281	5860.33452224671	-76.8673875411766
42906.25	1848.78989300863	6712.34011765233	6962.29372574411	-74.6007665036391
36593.75	1967.25824821486	7484.50279936083	7738.72645651787	-75.2732470677841
31203.13	2086.8750584975	8515.01855356395	8767.0170797893	-76.2292844447394
26609.38	2212.28793120554	9757.50971145382	10005.159352038	-77.2254861631334
22703.13	2270.65685100436	11171.5299943609	11399.9546029762	-78.5109169765094
19359.37	2515.33669104866	12924.6823519238	13167.1687377152	-78.9870449042631
16500	2652.65639275794	14928.8412914158	15162.6807736073	-79.9244611528766
14112.02	2787.1166485082	17266.0417722369	17489.5459544558	-80.8303074269785
12011.13	3044.43013116979	20074.9548010331	20304.4912540821	-81.3766226846357
10236.38	3296.81318577398	23342.0189907882	23573.6893113532	-81.9607531567716
8750.684	3456.12836537667	27095.5386305405	27315.0697776351	-82.7309803207659
7449.463	3877.46682199137	31410.5581847634	31648.9796744548	-82.9627417488963
6363.206	4308.09825420048	36506.0218578361	36759.3436074783	-83.2696179439684
5414.761	15055.8443515811	49724.816443661	51954.1703763501	-73.1545637329494
4620.567	16523.0431329182	56176.0877616661	58555.6469572209	-73.6098359969603
3941.215	18091.4182918931	63333.4701514581	65866.7431807424	-74.0578316969731
3361.769	19500.1788648706	72299.7334785461	74883.2987843802	-74.9057519379872
2867.244	20817.3084152563	82977.2946961552	85548.768341505	-75.9163348970389
2442.658	22080.3078515474	95044.5358950985	97575.6311705631	-76.9213028696984
2083.003	23640.8871535126	109476.907775499	112000.378934583	-77.8144294807483
1777.843	25527.0973846753	125676.520006498	128242.818051657	-78.5184227236256
1513.548	27507.9041113765	146357.003235949	148919.633308736	-79.3553994707527
1292.065	29623.4995886569	169428.144846081	171998.395323514	-80.0824256169942
1101.762	32125.8637491874	196717.852686162	199323.818664719	-80.7249404884539
939.101	36950.2612724182	228560.604279511	231528.122777159	-80.8167283272338
801.2801	41104.5215442461	269165.2563825	272285.726645446	-81.3173788486192
684.3433	123426.192007186	382552.840823346	401971.019969608	-72.1183122646758
582.9476	156674.38189877	430689.165213245	458301.231697498	-70.0098275785943
497.0677	168816.388534825	492908.098804983	521015.706966194	-71.0941502058794
423.5089	184878.24906338	541293.512134283	571995.308770456	-71.1424505480089
361.5036	205870.754725458	610147.569056952	643943.183578596	-71.3550178900025
308.1262	238473.917778799	703348.444043549	742676.809385651	-71.2705066152207
262.7298	255702.605396182	814372.289456521	853572.52078605	-72.568370612751
224.2111	276501.596219874	895918.924655383	937616.04736043	-72.84854697457
191.2854	379397.247686738	995563.522328022	1065405.55589994	-69.1387598426569
163.1722	388088.801763446	1119584.06135575	1184939.40287933	-70.8818120470039
139.1537	485856.843528831	1231618.48487562	1323986.76907706	-68.4714358986681
118.6706	464453.004625783	1629664.79889881	1694557.15462059	-74.0924956435785
101.1982	328786.334087011	1811475.94067792	1841071.84464304	-79.7126959517963
86.24196	594514.216845313	2108545.53983101	2190755.9078027	-74.2539551502464
73.61024	1089231.84670026	2040009.84059626	2312588.62870067	-61.9006986083283
62.69291	1213033.47195541	482135.225223797	1305336.96013168	-21.6759616884728
53.57697	1069084.77616279	2258795.00406572	2499019.23342245	-64.671866280258
45.65746	2002559.2083548	2402426.40921439	3127602.28204568	-50.1868686953541
38.96512	1853636.3265287	3662810.57258741	4105136.89439036	-63.1574242361682
33.18414	2644353.3341431	4383952.13852891	5119730.55040067	-58.9020666917316
28.30617	2153836.06517562	4101285.95291198	4632446.03457011	-62.2932892895519
24.17237	2107293.79815705	3869282.62570044	4405909.12177027	-61.4263468497395
20.61345	2051801.67348826	4955418.09538192	5363399.91119139	-67.5078927745965
17.55618	2004592.33852076	4478030.36869024	4906235.46383254	-65.8843022705343
14.98558	3281828.62430647	5104489.40363707	6068460.36414183	-57.2618260341429
12.76553	4143605.42304952	3508359.25535781	5429369.26047401	-40.2543359195519
10.8809	1837387.09662152	2403630.01474751	3025463.36792009	-52.6049167485668
9.278505	-456296.456716022	3106173.15078202	3139509.21308581	-98.3569717884713
7.923394	1800699.59271781	3265865.05334636	3729395.87197218	-61.1289817540666
6.75822	2667838.04338189	-166105.327134256	2673004.07882556	3.56275928618894
5.761429	3091914.31943347	1399041.75423569	3393707.70527053	-24.3459908504061
4.919708	2724046.24611299	2350010.85283594	3597635.18987251	-40.7840525898842
4.191257	2762112.84387487	-336925.722580622	2782586.26188569	6.9546476609672
3.564097	3246935.51487694	2442142.94802078	4062837.97564422	-36.9482090134644
3.051758	2907086.27595169	721818.954046217	2995358.61262838	-13.9443374206846
2.604164	6134939.06948371	-1266258.69041537	6264254.82059359	11.6621491198534
2.214424	3582582.39098223	-689895.927299348	3648404.16876752	10.8999892016144
1.892567	-1833943.89329641	3987843.56398217	4389333.26309968	-114.696925964689
1.607507	3435169.6619249	2133112.61353755	4043582.5734418	-31.8387432838263
1.376413	-1845425.89037866	-4476742.60147032	4842191.75959597	112.402688361426
1.17375	2489227.17648992	6709648.98871114	7156510.42672952	-69.6455410124501
1.001604	2520839.8136961	6221469.5038054	6712772.61294437	-67.9429969242189
