EC-Lab ASCII FILE
freq/Hz	Re(Z)/Ohm	-Im(Z)/Ohm	|Z|/Ohm	Phase(Z)/deg
6999984	6.90658263657708	91.8421163489397	92.1014398322201	-85.6994173615592
5969734	14.6267259583649	89.7971054215844	90.980554264943	-80.7485463496133
5091109	14.6852811758517	88.457681830469	89.668383268766	-80.5740234052164
4341796	15.7799612857055	92.2846864037316	93.6240915727007	-80.2967118323731
3702781	16.9911175257232	100.386871202741	101.814645236571	-80.3933698124117
3157797	17.8312265307363	108.577170687556	110.031607432161	-80.6737753573487
2693047	17.8734267168378	121.194866093871	122.505734356043	-81.6106759439466
2296687	17.442601083582	137.949679326101	139.048043347381	-82.7936619035532
1958656	19.2406159827761	157.705689122652	158.875063131528	-83.0441017558049
1670375	20.0879419765175	181.132912308485	182.243401346126	-83.6716624288117
1424531	22.2392062822564	208.973110739154	210.153142512939	-83.9253681404957
1214875	25.183834490061	240.834638832415	242.147782936707	-84.0303340085636
1036062	27.239089507884	278.313272588215	279.643068385363	-84.4101477309558
883578.1	29.4706669636336	322.459034627491	323.80294814003	-84.7780439312093
753531.2	32.5102356407035	374.205959928171	375.615516009627	-85.0347290234279
642624.9	35.943918226458	435.005729358024	436.488201251508	-85.2764599171936
548046.8	39.6797930121314	506.188882018319	507.741735779561	-85.5177897405027
467390.6	151.231160584198	713.838733240568	729.682534398448	-78.038398682865
398593.7	176.300369051762	808.404622263295	827.405495162105	-77.6973169074236
339937.5	201.334099404969	916.762486616355	938.610076895732	-77.6136650693345
289906.2	224.868945660275	1039.99884894113	1064.03178924375	-77.7993033949569
247234.4	248.893130190135	1185.32246627152	1211.17180420609	-78.14135919865
210843.7	270.993850524029	1354.4778572953	1381.32108248775	-78.6860701744809
179812.5	293.511929898848	1554.0486176827	1581.52342983418	-79.3045781143246
153343.8	314.150141254933	1787.04235591307	1814.44500965938	-80.0296562040626
130781.2	571.235237635961	2168.52965805227	2242.50542353175	-75.2423646426266
111531.3	1043.45892289818	2185.7028774554	2422.00404464829	-64.4800973062277
95109.37	678.604173372665	2097.26678512326	2204.32111819038	-72.0701838098848
81109.37	594.464789168393	2481.85382243823	2552.05540329992	-76.5300299914036
69171.88	1019.33032137825	3743.68957999646	3879.98015142542	-74.7687577291714
59000	472.777572485559	4303.01391701216	4328.9083384897	-83.729989532356
50312.5	1334.83507527874	5710.33689642881	5864.27592707835	-76.8429222433245
42906.25	1842.67879423951	6697.084508036	6945.96329147483	-74.61594988521
36593.75	1968.67851695256	7477.28351069407	7732.10603926304	-75.2494693192862
31203.13	2132.78422129594	8616.31297814209	8876.35160817262	-76.0971030814027
26609.38	2199.85310656007	9745.81613351257	9991.01024915278	-77.2802036325684
22703.13	2561.42724146007	10728.7474508905	11030.273404512	-76.5723142766842
19359.37	2469.50360404936	12914.172304422	13148.1669581243	-79.1743448074914
16500	2603.72264278598	14943.1198402405	15168.262990875	-80.1158863522298
14112.02	2758.72238310156	17272.453420216	17491.3749128122	-80.9254757167497
12011.13	2987.56466077566	20039.5624091253	20261.0366011106	-81.5206069785521
10236.38	3152.54908127249	23338.5556352215	23550.5147469893	-82.3071061439282
8750.684	3314.19382341258	27126.6501057595	27328.3557254997	-83.0344187690672
7449.463	4058.08014523278	31391.2296645941	31652.4456293732	-82.6339785660503
6363.206	3712.51722940668	36457.9464446121	36646.4820021901	-84.1856055710441
5414.761	14391.6403713256	48016.0018469014	50126.3976956175	-73.3151638029245
4620.567	18260.4950067095	57016.6303772964	59869.3729503767	-72.2414981906289
3941.215	18995.5450820072	61910.7180077752	64759.306182207	-72.9428558276485
3361.769	22871.2911313655	71427.6575813343	75000.041503802	-72.2448213458406
2867.244	22323.7550690909	82124.403624551	85104.451770004	-74.7928219565669
2442.658	20204.254106451	97028.072053215	99109.3267576867	-78.2373296293344
2083.003	20602.8598357702	110815.632469508	112714.605233881	-79.4678137901574
1777.843	23440.3077843932	125310.789425537	127484.281287845	-79.4048457284725
1513.548	27953.0230646186	148501.946528831	151109.892532895	-79.3397577229456
1292.065	22895.9290986966	168104.872639743	169656.923744706	-82.2440234906843
1101.762	32386.8617414462	196257.487183429	198911.81485526	-80.6293711282261
939.101	34335.1451304881	231262.927580753	233797.869674538	-81.5550990378189
801.2801	34915.9606015702	255936.410990646	258307.124902708	-82.2314184191914
684.3433	119164.883185806	374214.404825377	392729.792813708	-72.3364372972821
582.9476	140852.300160586	434207.773758649	456481.939678855	-72.0274984541475
497.0677	150257.043340916	490355.898546243	512860.688991316	-72.9636541956118
423.5089	179571.480122276	544332.017681667	573186.934556868	-71.7426238384085
361.5036	162575.472511359	623221.450364051	644077.449113197	-75.3794734430014
308.1262	177182.637299108	716811.505777983	738385.009176084	-76.1158388013035
262.7298	253008.423086029	796905.092316937	836104.651531819	-72.3859408507814
224.2111	204060.888191602	924157.716112345	946418.686596757	-77.5484624722486
191.2854	174190.294272175	1102307.54450301	1115985.7442131	-81.0201856402848
163.1722	175516.096748713	1307776.68786863	1319502.0900137	-82.3560367396323
139.1537	177530.834365828	1573810.77787182	1583792.1459889	-83.5640609548862
118.6706	201518.023655911	1744211.42173622	1755814.05552332	-83.4095342375394
101.1982	211891.047991314	1975250.69479642	1986583.27877605	-83.8771250941456
86.24196	730494.832069612	2004538.63026522	2133494.27463632	-69.9772262800514
73.61024	27143.4131722822	2389844.59867446	2389998.73863819	-89.3492731081016
62.69291	1352621.01453882	319602.540901302	1389866.68178016	-13.2942423175953
53.57697	11407.8023232049	3526000.07457004	3526018.5285704	-89.8146294293068
45.65746	-312886.792982253	2833159.8143838	2850384.65457945	-96.3020586562346
38.96512	1714996.93438182	4571967.05794149	4883041.80443309	-69.4383594737308
33.18414	54185.4845619586	4442186.25128948	4442516.71441791	-89.3011446533106
28.30617	2235900.34871369	4238432.09185529	4792030.56820872	-62.1870056185551
24.17237	4559804.28330605	3862226.82814862	5975668.26171995	-40.2651304444122
20.61345	2523288.51960498	2797411.78625881	3767293.14695181	-47.9492794292958
17.55618	3006373.72084122	5653046.43044811	6402750.7287233	-61.9952939403044
14.98558	773641.220041255	4538738.3199271	4604200.93763528	-80.326734820838
12.76553	3750531.09588772	1126428.40924973	3916034.27747838	-16.7170291603494
10.8809	326133.006867275	3108013.67093951	3125077.87373613	-84.0097075279389
9.278505	2824685.26995847	-2687916.23654162	3899197.42626408	43.5787688271938
7.923394	3221596.55559224	3003675.60148448	4404628.41633173	-42.9951310987618
6.75822	4633371.0988245	1642017.42845724	4915724.66425648	-19.5137851274097
5.761429	3121534.81467449	3473831.95517349	4670277.08514275	-48.0575971004653
4.919708	5760742.80249173	1592610.27972003	5976835.71294461	-15.4539494305614
4.191257	6015237.94568414	-2505827.32028318	6516307.09085107	22.6156296612212
3.564097	-2218051.34947692	7085000.57770509	7424081.42297738	-107.383406188742
3.051758	2405285.8735178	-8875464.47334138	9195611.43975154	74.836825115233
2.604164	-2242022.16703979	9126175.79425463	9397539.46653788	-103.802477264954
2.214424	11050205.8597951	-4917957.84991737	12095179.1618567	23.9917310456767
1.892567	-2254104.30560679	-16485032.4317572	16638427.8252676	97.7861339371825
1.607507	-2554376.40173249	-15992179.3475845	16194895.463912	99.0750024973293
1.376413	-13161206.3344265	10931445.816904	17108882.4832382	-140.287627517971
1.17375	-1992966.13586369	17148857.4936288	17264276.0449284	-96.6289310783567
1.001604	9108346.44910328	19996845.7117445	21973525.2851291	-65.5112494501247
