EC-Lab ASCII FILE
freq/Hz	Re(Z)/Ohm	-Im(Z)/Ohm	|Z|/Ohm	Phase(Z)/deg
6999984	29.3138436679432	10.1882324919743	31.0338768428815	-19.1652549006316
5969734	14.2992698338025	-5.62739514889539	15.3667398605464	21.4818321283266
5091109	8.96769785741891	-5.48896161410118	10.514195378774	31.4700277539257
4341796	8.98825282600203	-6.87778331319474	11.3177997935727	37.4231050819586
3702781	3.64845217575406	-7.91897083496625	8.71901957583596	65.2633879079511
3157797	3.10530190362018	-4.59864752297454	5.54891511497401	55.9702531132031
2693047	2.83907761342441	-3.81252281560801	4.7534926017171	53.3259898633168
2296687	0.02519243734458	-4.09806096970364	4.09813840302004	89.6477841193647
1958656	1.55358420587005	-2.80130074814032	3.20326548482333	60.9875184744488
1670375	0.999594492059864	-2.73827947099899	2.91502377517765	69.9456563055397
1424531	1.74171505320198	-2.10838087213166	2.7347470136232	50.4401847957373
1214875	1.29956385320181	-1.44609737671925	1.94423862514431	48.05492711714
1036062	0.745244977242827	-1.60438640652892	1.76902397314464	65.0849115547678
883578.1	2.7709772206547	-1.40360867584336	3.1061925362556	26.8640028501352
753531.2	11.6736765281433	-10.8598260019486	15.9439814499491	42.9315270539243
642624.9	1.04215844175601	-0.557463476928049	1.18188821207085	28.1428790263349
548046.8	33.8671843400622	-1.75148860787715	33.9124444336777	2.96049355392159
467390.6	17.4946609695512	-236.736131215718	237.381673651159	85.7735581002491
398593.7	0.440225262686648	-0.564419488984397	0.715798603975263	52.0471537941628
339937.5	52.2666326208706	78.1873490722047	94.0481921169347	-56.2380879641149
289906.2	9.53053925465175	-23.0080253301419	24.9038231618542	67.4993557034491
247234.4	0.5932889562114	0.015037386414663	0.593479492950343	-1.45189682525772
210843.7	6.21294689413807	0.120715970451888	6.21411952370584	-1.1131022973345
179812.5	0.211004972235659	-0.175131156521536	0.274215280924936	39.6921955675932
153343.8	0.316194605711478	-0.38830394554298	0.50075840762316	50.84418879624
130781.2	2.03571457928648	0.473483281520734	2.09005269459868	-13.093529472383
111531.3	0.969505426797369	0.0018780574880088	0.969507245815871	-0.110989201480839
95109.37	0.344561413390288	-0.212030247994328	0.404573100517137	31.6065922443952
81109.37	0.303438888862334	-0.165358988757206	0.345570187424803	28.5881703655547
69171.88	0.307206455431034	-0.143848241699418	0.339216926020082	25.0911625700194
59000	0.288454627870956	-0.120488389077008	0.312607620256679	22.6704445334814
50312.5	0.277929671752227	-0.0703380630042056	0.28669207444135	14.2021397806037
42906.25	0.31037340788126	-0.0998351817476946	0.326034838375322	17.8309851647986
36593.75	0.367364586217803	-0.129064845188852	0.389377032541212	19.357717153594
31203.13	0.418223870098319	-0.137054780300857	0.44010818933909	18.1443185942218
26609.38	0.110375162230198	-0.025651780041416	0.11331676952965	13.0835886546375
22703.13	0.358989493714508	-0.173863483934023	0.398875879996616	25.8415367464124
19359.37	0.240841893307207	-0.0134396627407064	0.241216587544025	3.19395494783016
16500	0.251460644328801	-0.040286841592765	0.254667401234976	9.10208201796163
14112.02	0.266242321319353	-0.0449899176259247	0.270016789014137	9.59129630175613
12011.13	0.263855415295316	-0.0405640167927168	0.266955276477209	8.73998415059485
10236.38	0.261256723570262	-0.0368539090861997	0.263843298617952	8.0293904339177
8750.684	0.259556581416317	-0.03370527118895	0.261735867359531	7.39886183953213
7449.463	0.257100364559558	-0.0317563324457749	0.259054168287376	7.04135336410435
6363.206	0.257770531887661	-0.0306998670251736	0.259592235910497	6.79180159643512
5414.761	0.256301656232482	-0.0286031293658203	0.257892764530204	6.36783001677216
4620.567	0.254266111871111	-0.0268246430029288	0.255677173635596	6.02233073673033
3941.215	0.25201372646244	-0.0250725385713695	0.253257873551639	5.68159101709264
3361.769	0.249536106880826	-0.0230671310243841	0.250600002336263	5.28141552057706
2867.244	0.247509561840736	-0.0213811064898158	0.248431348499585	4.93723748121079
2442.658	0.24546378878442	-0.0203177056866431	0.246303229310481	4.73174101136697
2083.003	0.243515855476097	-0.018887382057398	0.244247221210882	4.43505028701894
1777.843	0.241547835191385	-0.0181235527306608	0.242226794242969	4.29091415928685
1513.548	0.239958295080331	-0.0171308713326745	0.240569013238355	4.08347708139092
1292.065	0.238592714771727	-0.0165327080086824	0.239164825959511	3.96383719123186
1101.762	0.237339279833396	-0.0157855979153386	0.237863656016172	3.805177156351
939.101	0.235348290159111	-0.0154324183317483	0.235853719954516	3.75166690899035
801.2801	0.233738429231533	-0.0154924981061991	0.234251298389561	3.79209481101478
684.3433	0.231765897255628	-0.0149402783873561	0.232246944111216	3.68834304051469
582.9476	0.231705633072367	-0.014249624462431	0.23214338714421	3.5191910024894
497.0677	0.229782240682922	-0.0149312283521922	0.230266844581172	3.71784750217495
423.5089	0.226789275150921	-0.0141914145228265	0.227232857592468	3.58063385052364
361.5036	0.227524330618019	-0.0130184026036653	0.227896467347629	3.27475803976187
308.1262	0.225502681223459	-0.0143935815462523	0.22596157732831	3.6521704960347
262.7298	0.222932612125313	-0.014554870800551	0.223407237602178	3.73543730648547
224.2111	0.2240814955661	-0.0145324794731435	0.224552242506677	3.71063797423882
191.2854	0.22390328418035	-0.0163455135815969	0.224499123563974	4.17533195623291
163.1722	0.221743239645659	-0.0164645957931472	0.222353653541344	4.24646065579383
139.1537	0.222220189802747	-0.0179523924578706	0.222944165994381	4.61869529247207
118.6706	0.213424461315184	-0.0170249714776071	0.214102429555318	4.56085405713802
101.1982	0.223120148220283	-0.0160531790551245	0.223696904537405	4.11525905028683
86.24196	0.222746093607412	-0.0221561057124537	0.223845293088113	5.68041129699247
73.61024	0.198197721036818	-0.0179899985543489	0.199012503808615	5.18640765898847
62.69291	0.285414914370075	-0.074004958835954	0.294853196145452	14.536053854028
53.57697	0.218557475768006	-0.038652942599541	0.221949138736076	10.0293282657116
45.65746	0.240201122459456	-0.0407971803391075	0.243641107275443	9.63946486359278
38.96512	0.202196867730814	-0.0290143429821375	0.204267974530608	8.16594346523123
33.18414	0.216961236294147	-0.0500076879362527	0.2226498302425	12.9794994119961
28.30617	0.206150263567119	-0.0245001649789019	0.20760103384325	6.77759224311588
24.17237	0.22841971342101	-0.019569308014342	0.229256457478293	4.89672077072812
20.61345	0.185431881440606	-0.00516365566528552	0.185503762750066	1.59508298896548
17.55618	0.19293853874818	-0.0308387317040027	0.195387581763516	9.0811747880173
14.98558	0.185435873363804	-0.0650676410258133	0.196520383265606	19.335474931987
12.76553	0.189518574880738	-0.0297600315025527	0.191840948965175	8.92425883666482
10.8809	0.152347827093447	-0.152160200368951	0.215319732018257	44.9646964378358
9.278505	0.216575476147421	-0.147286476760976	0.261912663124836	34.2184432718108
7.923394	0.113318009356101	-0.111178767935603	0.158750400579362	44.4540420733475
6.75822	0.148113986185508	-0.024294835953595	0.150093277523588	9.31515929239283
5.761429	0.216577557408094	-0.151681569145292	0.264410924114785	35.0057388485221
4.919708	0.124066389801457	-0.0372718393746306	0.129544043046121	16.7212404001436
4.191257	0.178655788687637	-0.0237068759537316	0.18022182664452	7.55875144184134
3.564097	0.132891239351968	-0.206323890805274	0.245417255737099	57.2148033878965
3.051758	0.158077578568605	-0.0914792030783154	0.182638893563111	30.0578873241566
2.604164	0.13023741105504	-0.239075824741883	0.27224810966163	61.4205026802291
2.214424	0.129386054231014	-0.15279325602454	0.200216208424922	49.7419154012335
1.892567	0.191913027134377	-0.151814812642082	0.244700525789036	38.3461286307585
1.607507	-0.0242947396893655	-0.122500141411857	0.124886024127999	101.217578172221
1.376413	0.193956101302447	0.087913025297912	0.212949921928786	-24.3830039239715
1.17375	0.0593799897203466	-0.0847685906945243	0.103497329180633	54.9889425679046
1.001604	0.0429522845285402	-0.0907436250632827	0.100395738135871	64.6700901110931
