EC-Lab ASCII FILE
freq/Hz	Re(Z)/Ohm	-Im(Z)/Ohm	|Z|/Ohm	Phase(Z)/deg
6999984	2.74592807726248	1.18906264244654	2.99232200358858	-23.4139432163329
5969734	4.34412107182284	1.19083850094049	4.5043849993065	-15.3297092622653
5091109	7.09894142698092	0.351846783662624	7.10765541813049	-2.8374445648815
4341796	4.51311991385735	-17.1712304754618	17.7544193765464	75.2739919129178
3702781	-2.42194114577862	-10.1896300664248	10.4735075215614	103.370352495866
3157797	-3.32885867743254	-4.36413715994553	5.48880617667771	127.335515488582
2693047	0.553726496342348	0.488392701249117	0.738336280691245	-41.4126388573443
2296687	0.685153967841884	0.61551023207343	0.92102595264008	-41.9350388566328
1958656	0.827792624659603	0.688280959221792	1.07655529735732	-39.7423522929789
1670375	1.02579610160192	0.757602907939976	1.27523323677702	-36.4477647568854
1424531	1.41224465651101	0.696785915753976	1.57478429705056	-26.2612226017678
1214875	2.01455191478573	0.605627765971169	2.10361698231453	-16.7321724348747
1036062	2.78744901163455	0.568581708231835	2.84484747418878	-11.528987998687
883578.1	3.84508189711362	-0.273297236674379	3.85478224742783	4.06558017170221
753531.2	5.04926039303035	-1.1505390343713	5.17868425241751	12.8364146618181
642624.9	4.05951748604829	-1.33840717183249	4.27446089900756	18.2471874367596
548046.8	3.6935390057535	-2.12450017844955	4.26095428223006	29.9072395310828
467390.6	3.03150718647349	-2.71047846385957	4.06653775645658	41.7999812451645
398593.7	2.39469567798036	-3.36618710855801	4.13107528858528	54.5720642057453
339937.5	1.66387945093521	-4.29567964967606	4.6066645721048	68.8267270274287
289906.2	-9.91364042119206	-3.06209388618311	10.3757739647938	162.835292925534
247234.4	-15.8265009555116	13.7398738179768	20.9585845187296	-139.03691794698
210843.7	-25.4068230787555	53.7582372727026	59.4596899892976	-115.296010635278
179812.5	-15.6693804702485	63.3279166091084	65.2376770461027	-103.897702850504
153343.8	-6.2380742101403	56.6851759551762	57.0273859029195	-96.2799997811221
130781.2	1.29715757346198	44.6118625946137	44.6307170223725	-88.3345075571454
111531.3	-4.70897974413755	93.4706566529692	93.5891988712798	-92.8840789293817
95109.37	3.65933843124466	77.3930579398713	77.4795210041897	-87.2929275813771
81109.37	8.84796451906594	57.1451688034567	57.8260909426377	-81.1986046976886
69171.88	11.5503312051614	37.558565961433	39.2944783401973	-72.9058427540831
59000	9.88790012880469	2.93609158691104	10.31461113004	-16.5381460071316
50312.5	9.96028991699577	0.750132306192193	9.98849706949954	-4.30694609135241
42906.25	10.1537795454414	-1.04478689717955	10.2073903970576	5.87485140026365
36593.75	9.70652420297059	-2.42350367994001	10.0044980978326	14.0188677706752
31203.13	9.09068114318345	-3.42805023600474	9.71555516003092	20.6612075966725
26609.38	8.36491765398594	-4.16463677570751	9.34430558316352	26.4673097910984
22703.13	7.48395590282173	-4.66816704133646	8.82050902619572	31.9541255246097
19359.37	6.60502382451079	-4.95929654585857	8.25959817134707	36.9005790319552
16500	5.61436334136848	-5.02365008723992	7.53379956780958	41.8217135343338
14112.02	4.28004542042417	-5.25223261124282	6.77530340305853	50.8234018874326
12011.13	3.16471616069611	-5.05466775279701	5.96364774856271	57.9494097657676
10236.38	2.92586653290232	-4.47167468557651	5.34383471506967	56.8028295444636
8750.684	4.21875548140844	3.90224297892629	5.74677284034207	-42.7680507358176
7449.463	5.84939826205662	8.88887422312654	10.6408432458483	-56.652748979607
6363.206	6.85823222525703	13.1193726481311	14.8038268003947	-62.4014064254931
5414.761	7.54681158000406	17.5604854147298	19.1134772614776	-66.7438535547896
4620.567	8.07258440486315	22.5272928270265	23.9300133950702	-70.2850192075957
3941.215	8.73368871896677	28.2705546187388	29.5888759011035	-72.8323895647473
3361.769	9.08641626400934	35.2769164453475	36.4283377937408	-75.5560590354607
2867.244	11.1552114251031	39.2328860033378	40.7879649662698	-74.1277898437586
2442.658	11.8758057569214	49.2048220245569	50.6176774738277	-76.4309082928459
2083.003	12.7751826541109	60.9059273797308	62.2313207463166	-78.1537923828043
1777.843	14.0210203288889	74.6035595354807	75.9096838777974	-79.3559724285478
1513.548	15.2269107595061	91.2232704339757	92.4853711672729	-80.5236031192449
1292.065	16.9691869659924	110.455521633892	111.751400732617	-81.2659845343959
1101.762	18.5467731395395	132.566365789827	133.857476939511	-82.0356960363747
939.101	19.8348809937801	159.225828531232	160.456495585236	-82.8992007294163
801.2801	21.9846789371864	187.631985939382	188.915558532185	-83.3171734409643
684.3433	28.9051078478608	226.465645596437	228.302855643786	-82.7263393626254
582.9476	34.736709764169	267.104494821377	269.353763959265	-82.5903191820613
497.0677	31.6500479782185	320.85966961926	322.416893362001	-84.3664883469669
423.5089	35.9245536064203	373.869723422174	375.591724674005	-84.5113893733554
361.5036	40.8254296589962	437.719982849169	439.619721000228	-84.6715310770945
308.1262	45.153791779149	512.392849268311	514.378554076016	-84.9639114399498
262.7298	52.3478437368875	602.03516461492	604.306740138495	-85.0305464315235
224.2111	59.5597311681641	701.224938048045	703.749795962534	-85.1451379905497
191.2854	67.7206444970606	820.939069726041	823.727528915815	-85.2842521432074
163.1722	79.1102533426467	964.553395320033	967.792170151909	-85.3112384553581
139.1537	87.045002417623	1122.33190122186	1125.70232697021	-85.5651733501601
118.6706	96.9888981829661	1320.40308447662	1323.9604041912	-85.7989401305734
101.1982	113.663946250123	1536.98165501975	1541.17880226287	-85.770521423935
86.24196	141.478567102048	1816.05458767387	1821.5571499024	-85.5454063062281
73.61024	158.554626575574	2106.56294919558	2112.52148593384	-85.6956358401114
62.69291	180.966862168344	2456.78217887225	2463.43818262755	-85.7871944957733
53.57697	220.704558086676	2874.02868685309	2882.49048477436	-85.60871814259
45.65746	255.776712631539	3354.7767138707	3364.51311881135	-85.6400589339837
38.96512	285.473660457103	3900.62863716498	3911.06110613045	-85.8141808079239
33.18414	371.03741450462	4569.19481775616	4584.23494659381	-85.3575334452047
28.30617	413.439782800302	5319.93325028549	5335.97434790452	-85.5561779127765
24.17237	496.110669816923	6234.2162033628	6253.92496493022	-85.4500661291183
20.61345	569.760219259235	7259.58271712021	7281.90688859455	-85.5124039372285
17.55618	704.391551736988	8464.34844349482	8493.60712718993	-85.242884590399
14.98558	821.279799762784	9845.11551752627	9879.3117201015	-85.2314254344964
12.76553	998.806347652527	11518.7063190905	11561.9293106975	-85.0441828270476
10.8809	1192.60094371453	13431.0082539021	13483.8525550873	-84.9257524507941
9.278505	1421.0031182226	15678.6025253948	15742.8659084461	-84.8212449489622
7.923394	1729.41043263865	18243.3482647121	18325.1361891827	-84.5847279711322
6.75822	2004.70012370717	21238.670781082	21333.0719572494	-84.6078754660555
5.761429	2404.88725027871	24823.6903801545	24939.9095182065	-84.4665267779967
4.919708	2881.10983674562	28791.1284022451	28934.9247202401	-84.2854721147354
4.191257	3410.06614073593	33712.8981765021	33884.9237057337	-84.2241656306564
3.564097	4187.37216722584	39342.9834796565	39565.1922116825	-83.924737886921
3.051758	5043.22033954674	45724.6908737307	46001.9719891599	-83.7059826007401
2.604164	6228.24054254929	53107.7335049703	53471.6966094288	-83.3111573841154
2.214424	39507.3172504166	72749.9824870499	82785.1923244196	-61.4955601513913
1.892567	45982.6679352818	83766.0331885527	95557.0723002338	-61.2357810870789
1.607507	54558.6004767929	96465.9397350207	110825.621653781	-60.5086403492784
1.376413	64151.2797569437	110849.557980102	128074.2409653	-59.9410110616423
1.17375	75457.9438279488	127547.995575606	148197.140532794	-59.3912580572143
1.001604	89716.583507051	146617.790516631	171889.039360153	-58.5372071677923
