EC-Lab ASCII FILE
freq/Hz	Re(Z)/Ohm	-Im(Z)/Ohm	|Z|/Ohm	Phase(Z)/deg
6999984	23.3114367592149	-0.451678299590422	23.3158121682518	1.11001405481875
5969734	17.0783906111483	-5.6140667710202	17.977462879295	18.1969046606589
5091109	12.6278261315528	-5.87156022290907	13.9261341462725	24.9370140048174
4341796	7.99923595932765	-9.24736716651457	12.2270836852183	49.139261203581
3702781	5.19432437017792	-5.38867157183933	7.48456992563859	46.052067200591
3157797	4.10162654459385	-5.03790336029228	6.49644599600128	50.8491219628561
2693047	2.44767291114776	-4.65675267906213	5.26084101583757	62.2727774004862
2296687	2.31828358479038	-3.57926399212121	4.26445418603647	57.0689340628341
1958656	1.71297113313729	-3.23836751719224	3.66350846585176	62.12289164128
1670375	1.35817678485413	-2.60470235110128	2.93753613028831	62.4609940361867
1424531	1.15197101079457	-2.45212671063574	2.7092365372415	64.8365916463581
1214875	0.793654755419455	-2.37838128243091	2.50730640238037	71.5463857935762
1036062	0.79759473356797	-1.83668766994347	2.00239330700483	66.5267598462145
883578.1	0.719893239999714	-1.60265094497754	1.75691101892915	65.8109063769781
753531.2	0.65819124151394	-1.37819762837322	1.52729971297687	64.4720758970959
642624.9	0.577910240715708	-1.20371321756196	1.33525494062275	64.3540465912989
548046.8	0.526006638216042	-1.01552985709874	1.14367122640483	62.6175261058164
467390.6	0.486365202194547	-0.876425714438145	1.00233384799385	60.9722777970983
398593.7	0.454386296001612	-0.758882131533055	0.884516249457419	59.0886217498262
339937.5	0.429689734150399	-0.656505325204724	0.784622526860146	56.7948253240656
289906.2	0.409233932357415	-0.567118363192333	0.699353736861872	54.1856958461768
247234.4	0.394145439197562	-0.49095397554323	0.629592275478298	51.2419647455096
210843.7	0.381316814169055	-0.424548772770899	0.570652410166919	48.0707808593313
179812.5	0.372640659452417	-0.365208011620757	0.521764269406328	44.4228559805585
153343.8	0.365734360122408	-0.316845554894717	0.483893302113894	40.9032679183171
130781.2	0.361840667195201	-0.275589305755704	0.45483858002942	37.2940463386054
111531.3	0.356688043980273	-0.240212773040075	0.430033181336133	33.9584292948025
95109.37	0.352341509282744	-0.20938073838851	0.409859528096834	30.7211146199102
81109.37	0.347523231796129	-0.182120932804471	0.392352431881844	27.6569649794404
69171.88	0.3424732744471	-0.158565590459188	0.377400304965682	24.8442005715841
59000	0.331846569277783	-0.134215195240812	0.357960701998087	22.0208479036739
50312.5	0.33117322062186	-0.104299679626977	0.347209051188682	17.4812975632744
42906.25	0.364462433137537	-0.104264490413812	0.379083037248813	15.9646324429395
36593.75	0.348579660519618	-0.0961668485626419	0.361601773350798	15.4232217040086
31203.13	0.343151136604259	-0.0846269266330764	0.353432340433292	13.8536725791831
26609.38	0.338091278181571	-0.0726428078146699	0.345807301700886	12.1262965001109
22703.13	0.338657829942545	-0.0650335568127699	0.344845602107832	10.8703615540282
19359.37	0.334789887912336	-0.0584592733797976	0.339855492367636	9.90483026640762
16500	0.332548495884494	-0.0521618708563303	0.336614561310517	8.91448990625784
14112.02	0.329534842444756	-0.0471867197962072	0.332896078243971	8.14889797082608
12011.13	0.32695383370758	-0.042258052419211	0.329673402582539	7.36452447886994
10236.38	0.324654672430448	-0.0383310254128041	0.326909657000399	6.73357189571597
8750.684	0.321554929331656	-0.0351467532752069	0.323470040101513	6.23780870432313
7449.463	0.318979208659594	-0.0320115047536747	0.320581459216991	5.73079262183391
6363.206	0.316211523370039	-0.0297656711205976	0.317609386966539	5.37752919071025
5414.761	0.313963128947623	-0.0274501398099704	0.315160842291946	4.99672654316364
4620.567	0.3117371007191	-0.0252452745006687	0.312757643950335	4.62985651032121
3941.215	0.310337017425811	-0.0237071758687751	0.311241216056649	4.36843821375703
3361.769	0.308266674716407	-0.022270902003457	0.309070114726025	4.13218708834397
2867.244	0.306315710790716	-0.0210965281917587	0.307041329757034	3.93984458356075
2442.658	0.304476529882754	-0.0204573977686748	0.305163009509523	3.84385467231131
2083.003	0.302688416472367	-0.0199007912367109	0.303341917575524	3.76159970532673
1777.843	0.299958967780464	-0.019316474730904	0.300580286359487	3.68459188582997
1513.548	0.298071252703157	-0.0183269780335523	0.298634140399037	3.518414644677
1292.065	0.29792263578916	-0.0189450306350005	0.298524389458084	3.63856446727373
1101.762	0.294865292170492	-0.0157015607742655	0.295283049864935	3.04811828136213
939.101	0.29992201123719	-0.0172455259909346	0.300417411265168	3.29088565577921
801.2801	0.295827635139123	-0.0169576601222838	0.296313266575813	3.28076263745484
684.3433	0.296184802040079	-0.00915985973009297	0.296326407850863	1.7713740811181
582.9476	0.290709157862037	-0.0222498945072173	0.29155938035062	4.37669224375368
497.0677	0.280489216139786	-0.0172220250472554	0.281017434543553	3.51354736820736
423.5089	0.295974252024676	-0.00642539961003641	0.296043989335563	1.24365703349081
361.5036	0.274856191566645	-0.00231854942455934	0.27486597045461	0.483307088926703
308.1262	0.273264712867839	-0.0108083753511474	0.273478379906848	2.26502592303589
262.7298	0.279687933249985	-0.0109851064903537	0.279903577273054	2.2492099960591
224.2111	0.268154049068869	-0.00624908536690748	0.268226853800943	1.33498421420348
191.2854	0.263647065004667	-0.0260777123006054	0.264933618033666	5.64883444698722
163.1722	0.272366498717223	-0.00885071574583702	0.272510265481308	1.86120641494328
139.1537	0.262897868227966	-0.0264650056384598	0.264226580120647	5.74839961487828
118.6706	0.239843821797147	-0.0244065505900947	0.24108243106035	5.81042802577914
101.1982	0.269632314665416	-0.0261225123943555	0.270894759575787	5.53365847101002
86.24196	0.241194373617848	-0.0327149123249024	0.243402940313654	7.72429613758849
73.61024	0.222080575737371	-0.0525973176773546	0.228224144092369	13.3243569793074
62.69291	0.184683877989665	-0.0738361321560366	0.19889672999088	21.7914012250358
53.57697	0.203869830391762	0.00931595538360536	0.204082568507638	-2.61634530836067
45.65746	0.195249795029742	0.0631354645704837	0.20520372644201	-17.9189972117087
38.96512	0.198503446449618	0.0394588848223348	0.202387306528346	-11.2428070391751
33.18414	0.253802339591271	-0.150518220648841	0.295078569756084	30.6701844015011
28.30617	0.211194917974949	0.0392649495561814	0.214813941917406	-10.5320700830491
24.17237	0.336545672742576	-0.0877329199605573	0.34779312110299	14.6110540294106
20.61345	0.338700779616801	-0.0767736608327155	0.347292978781152	12.7714813548959
17.55618	0.171536684248508	-0.155746155190377	0.231693113621353	42.237772566846
14.98558	0.704866663952516	-0.0988076505549175	0.711758361917675	7.97968061561215
12.76553	0.208034493405453	0.240186017316956	0.31775410833071	-49.1028841131681
10.8809	0.135155218987355	0.122472398157129	0.182390848262401	-42.181645621235
9.278505	0.317355183383566	-0.151701111174914	0.351749256647573	25.548583425762
7.923394	0.203527387219807	-0.0630505328504504	0.213069864225908	17.2124027404416
6.75822	0.115978646837006	0.080351656575775	0.141093710832958	-34.7147679618429
5.761429	0.12141719060783	-0.00485393955768421	0.121514175734059	2.28931532284487
4.919708	0.226852545143381	-0.0108406584314328	0.227111420041478	2.73592618386683
4.191257	0.0990911390128857	0.0881294609453245	0.132611672628711	-41.649184483064
3.564097	0.0785735500916114	0.110132188224443	0.135288216992845	-54.4941304864516
3.051758	0.117112079016307	-0.0308562979945616	0.121108836083297	14.7606418505634
2.604164	0.104046335311023	0.0316693071262444	0.108759298018653	-16.9290407332816
2.214424	0.121890260562359	-0.00541924585454678	0.122010671031643	2.54569617447427
1.892567	0.0926535730438043	0.0241892914741871	0.0957591061978272	-14.6317549945487
1.607507	0.105467535598619	0.0227536150055683	0.107894059433629	-12.1744249549019
1.376413	0.0869092145560428	0.065138112642742	0.108610244882363	-36.851413523555
1.17375	0.064575741839822	0.0849460772638818	0.106704556963068	-52.7580168010037
1.001604	0.246374173506944	-0.00108747876585673	0.246376573523734	0.252898013080133
