EC-Lab ASCII FILE
freq/Hz	Re(Z)/Ohm	-Im(Z)/Ohm	|Z|/Ohm	Phase(Z)/deg
6999984	-12.7833645931431	-14.7168495669615	19.4935905234977	130.978266558465
5969734	6.68862392104067	-0.212937618781275	6.69201258117539	1.82344047483503
5091109	4.51769598804184	17.9597867057829	18.5192741638971	-75.8804677390638
4341796	11.9582539271983	11.6603726893859	16.7022192610063	-44.2774163738425
3702781	20.9643251870535	6.79840761659856	22.0390852049252	-17.9670798298761
3157797	23.886538257618	-0.853834168511845	23.9017937134427	2.04718966115833
2693047	0.652858875764093	-0.213610556233784	0.686916429704853	18.117710434216
2296687	10.039833975798	-13.4888766380231	16.8151140114302	53.3395173968599
1958656	-3.64575869653928	-20.6742211577817	20.993212640143	100.000902294261
1670375	7.31921229787099	-17.0897465598328	18.5911351493292	66.8154732791809
1424531	4.06765521027315	-21.2101264119855	21.5966497707878	79.1436915654518
1214875	0.367997364287787	-23.1406065794084	23.1435324642346	89.0889210859941
1036062	-2.99445981633707	-21.0317275752732	21.2438309725945	98.1032087810079
883578.1	9.41367532339392	11.3333831221917	14.7330531828489	-50.2864774080376
753531.2	-9.15524981260243	-13.3063685566542	16.1517195151684	124.52934009537
642624.9	16.5057987045052	-15.737755092799	22.8061028287291	43.6354687306
548046.8	7.33505318193067	7.97651318727334	10.8364093595848	-47.3989362783388
467390.6	7.69861839785319	0.032796805487069	7.69868825620402	-0.24408368765562
398593.7	7.2927776162427	1.78071752159171	7.50703405158617	-13.7217261285424
339937.5	5.33629769212516	-0.944095011879625	5.4191686124752	10.0329207110871
289906.2	3.58565073434952	9.26596767116312	9.9355446791699	-68.8450616768729
247234.4	4.56050530926489	-2.72281901574589	5.31149245206474	30.8390293341482
210843.7	2.37012535271994	-2.55013272884884	3.4814754232009	47.0952285398738
179812.5	4.92495091639848	-0.29460345210429	4.93375442466749	3.42327156504875
153343.8	4.0127629623988	0.27054670224127	4.02187296051146	-3.85713296921346
130781.2	8.82866977996472	-13.0036205008827	15.7174920459544	55.825873478408
111531.3	4.2717309540032	3.07183756209297	5.26154647905674	-35.7202286782062
95109.37	1.13805576494834	-2.35021932823492	2.61126440923571	64.1621630257096
81109.37	2.90792008649719	2.03321664286926	3.5482346520903	-34.9612314869964
69171.88	2.31328468311115	-7.52113466946642	7.86884697661395	72.9036082186821
59000	9.13755334549798	-8.24903967118547	12.310220820059	42.0745368910133
50312.5	4.92025466506015	-0.734510621286206	4.97477756506041	8.4905870815303
42906.25	2.24769643280188	-4.66319749119075	5.17663501667619	64.2655819077307
36593.75	1.48461529760724	6.19549693964944	6.37089200278069	-76.5244150050113
31203.13	-20.1486594783455	-93.4783522140062	95.6251578373606	102.163646083541
26609.38	3.33406605334658	4.32391131759115	5.46005545122674	-52.3650307789014
22703.13	0.274793909232085	13.4339528065179	13.4367629918928	-88.8281679934301
19359.37	9.10608429487351	2.33711703317093	9.40121732607431	-14.3945218194748
16500	3.95249133875697	-2.20794664544341	4.52738513626504	29.1886645123195
14112.02	18.7315549202533	-3.26965458488636	19.0147782220812	9.90140970837069
12011.13	11.9394886070621	-4.83264994451453	12.8804461756719	22.0362260908952
10236.38	6.6585461738985	-22.7660863037407	23.719842384369	73.6970401733792
8750.684	54.3327530941208	-70.1398067490519	88.7222663686013	52.2373815117242
7449.463	252.741969844923	-279.638498907546	376.929958204913	47.892195644167
6363.206	182.354138366485	246.035709248339	306.245982838495	-53.455289248944
5414.761	353.880436074965	-94.7044501233194	366.333585560713	14.9822447369861
4620.567	373.105988124403	32.8168011494781	374.546420102998	-5.02655529893594
3941.215	144.889919588992	86.5939977705374	168.794577070439	-30.8648067053511
3361.769	295.17455492593	357.029787081856	463.247543694984	-50.4177420389021
2867.244	289.163136373445	94.4832550062392	304.207831776077	-18.0946603421178
2442.658	241.993915298828	48.9200245637634	246.889092195211	-11.4285484972006
2083.003	73.7619386969605	57.205127410015	93.3447920471742	-37.7949088543749
1777.843	23.4244446873119	-25.0072337829154	34.2646516162403	46.8718093772405
1513.548	11.3440960171754	-4.55001033312924	12.2225655440451	21.8552573713031
1292.065	3.72419413069735	-0.788561967598088	3.80676396692293	11.9552456799525
1101.762	3.30866261106658	-2.31726118835143	4.03942417788846	35.0059336541725
939.101	2.59754440387728	1.59237967436037	3.04678682507166	-31.5096592446149
801.2801	0.525879351185631	-1.98932952463411	2.0576639787838	75.1925746102297
684.3433	1.27497583815756	-0.243889592852239	1.29809303263949	10.8292632913835
582.9476	1.27624802393253	0.779839248897637	1.495646439742	-31.4266204713666
497.0677	0.627859208710163	0.000302739795427481	0.627859281697369	-0.0276267529149031
423.5089	0.747932515931356	-0.00701335633490762	0.747965397297555	0.537246252492791
361.5036	-0.288725645432734	0.287720604723617	0.407609672006287	-135.099895753518
308.1262	0.393068302828635	-0.295186302616053	0.491566520361913	36.9058044070468
262.7298	0.685050418030863	-0.509685666743908	0.8538580409696	36.6496865430454
224.2111	-0.0264279457278269	-0.781717398454669	0.782164002854982	91.9362921446763
191.2854	0.655317579787043	0.197926042241469	0.684555219522369	-16.8059292918419
163.1722	-0.597231577442815	-0.176861492624436	0.622868802131056	163.50410655979
139.1537	0.506818459932844	0.343160539534842	0.612065443578172	-34.1014452900451
118.6706	-0.101795879035712	0.642709557170513	0.650721119886984	-99.0000596177262
101.1982	-0.590241310428247	0.188430760131429	0.61958934456603	-162.294649950049
86.24196	0.859779925737942	-0.203391442542764	0.88350981862205	13.309345485075
73.61024	0.705724442656451	0.334651500173325	0.781049688259982	-25.3701070725788
62.69291	0.724798916392303	0.377263281661832	0.817105288744181	-27.4973160194051
53.57697	0.565033751704778	-0.871391842543448	1.03855037615748	57.0395470575219
45.65746	0.99992448015293	0.701276701193652	1.22132631906717	-35.0431186150765
38.96512	0.774004347645859	-0.314525774572152	0.835469444710519	22.1149447623682
33.18414	-0.373345918662006	-0.528130930839133	0.646768471008433	125.257225678304
28.30617	0.707908042724551	-0.503538971822617	0.868726247501641	35.4244564052037
24.17237	3716.06215334905	-6763.36041235513	7717.00472948966	61.2138368035254
20.61345	2381.57523680357	-4188.64450582322	4818.36522118436	60.3783497466657
17.55618	3753.84254444456	1655.5406650879	4102.70017698609	-23.7987072940751
14.98558	1059.51635558109	4353.07874309403	4480.16399826177	-76.3204993257242
12.76553	5347.00662097722	4807.52806034052	7190.46631698777	-41.9589140079559
10.8809	2218.1638193887	1076.60863677206	2465.63113348636	-25.8900949195498
9.278505	1858.09811425763	-506.711811275194	1925.9505346435	15.2539069459695
7.923394	1782.70964258142	-964.247802628329	2026.77761351026	28.4084621531119
6.75822	2880.87232026175	2686.36599390515	3939.03383824769	-42.9990329413466
5.761429	7963.24554299966	3169.42844854825	8570.79671142484	-21.7029078935778
4.919708	8978.19336842494	-3117.62298518952	9504.07961028377	19.1492464598356
4.191257	8419.88484047297	621.320675091269	8442.7779852441	-4.22032461301114
3.564097	5241.78533792209	263.426833529654	5248.40044446672	-2.87698896598584
3.051758	6043.38997149985	2501.17570337598	6540.52308663331	-22.4831790077208
2.604164	3636.51955145281	-4221.05993597281	5571.50082394083	49.2545059344936
2.214424	10158.6477166319	3215.97496370085	10655.5440216716	-17.5664906578324
1.892567	2956.52412815954	-4700.94274560954	5553.36813275407	57.8333285164741
1.607507	6282.14072928849	-2227.41073749041	6665.33200493965	19.5225914887208
1.376413	3541.65270415213	-3918.29085608635	5281.69547680648	47.8902991538651
1.17375	5598.78465260392	-1779.88908606022	5874.8952965061	17.6357899031535
1.001604	1556.16498131034	743.646102495742	1724.71996997011	-25.5417824167338
