EC-Lab ASCII FILE
freq/Hz	Re(Z)/Ohm	-Im(Z)/Ohm	|Z|/Ohm	Phase(Z)/deg
6999984	26.2982425768975	9.41479710108778	27.9327042566235	-19.6974181007491
5969734	17.8328117765225	-4.20994587360698	18.32301340161	13.283104018058
5091109	12.4676399993829	-5.69644314681185	13.7073524678937	24.5555788118649
4341796	8.71051380135842	-5.19961792733865	10.1444111349036	30.8344915084107
3702781	6.23110860410911	-5.19297191967942	8.11132984132574	39.8076408337341
3157797	4.3901115656745	-4.97713920886086	6.63664028431926	48.5859272129334
2693047	3.45955749772981	-3.64593929791774	5.02607316343479	46.5025609965905
2296687	2.44487139688123	-3.8929723352623	4.59702401020548	57.87028429426
1958656	1.86303381051409	-3.27060256251513	3.76400532691562	60.3328568977323
1670375	1.41652230921856	-2.68176523723908	3.03288645355837	62.1567534469722
1424531	1.25280185996556	-2.46578376047826	2.76579139737101	63.0660374678449
1214875	1.22556386799074	-1.87989922126863	2.24410959550794	56.898439011737
1036062	0.835712639135921	-1.87181845264354	2.04990729909144	65.9406240217957
883578.1	0.736282732572909	-1.58844605243747	1.75079214180016	65.1311492488349
753531.2	0.677218155566484	-1.37180842601788	1.52986365010825	63.725912960497
642624.9	0.635492651798083	-1.17852883789988	1.33894777054633	61.6653275460885
548046.8	0.554564017767047	-1.00659999848818	1.14925402185867	61.1484050233215
467390.6	0.521764806433681	-0.868529168488398	1.01320354803362	59.0048553201781
398593.7	0.492044881579738	-0.751392078632668	0.898163805394506	56.7814410299713
339937.5	0.469666654715957	-0.651830426384913	0.803411271587108	54.2259289425509
289906.2	0.449092229391331	-0.563014818817182	0.720187140059735	51.4221714312341
247234.4	0.433047902744087	-0.486994099582445	0.651685306800122	48.3556669342262
210843.7	0.422102612436329	-0.419779127936882	0.595302554737524	44.8418714752936
179812.5	0.412778679596437	-0.35940552156061	0.547319438041106	41.0460203529739
153343.8	0.406473045508754	-0.311308812003591	0.511989758839226	37.4477136192595
130781.2	0.402572660977295	-0.269405180365506	0.484400555918458	33.7907875735252
111531.3	0.397164984254959	-0.234109044265575	0.461028273889121	30.5172390476688
95109.37	0.392662912540611	-0.203202163846173	0.442125867006945	27.3614619966016
81109.37	0.387977724493882	-0.175634019894701	0.425880292626722	24.3558342653264
69171.88	0.383790726429414	-0.151209872470535	0.412504239039762	21.5039654879525
59000	0.376693674089044	-0.125238445048307	0.396966991344142	18.3902951052495
50312.5	0.368618084786684	-0.094199474768122	0.380463971327632	14.3350086932946
42906.25	0.416340995409659	-0.0924837206001282	0.426489229682003	12.5240208831789
36593.75	0.397259314261522	-0.0924303004612451	0.407870473570828	13.0979698952953
31203.13	0.387204926723742	-0.080100510776503	0.395403271491012	11.6878290882311
26609.38	0.381315047817643	-0.0682227493953411	0.38736999009633	10.1437135599315
22703.13	0.38107839785399	-0.0602674231421578	0.385814602630797	8.98687739409467
19359.37	0.377326688980755	-0.0541850449712942	0.38119738891514	8.1719480629242
16500	0.373732245900353	-0.0483354819720894	0.376844942175421	7.36926283983567
14112.02	0.369836732889304	-0.0432652849613598	0.372358824089106	6.67240865108576
12011.13	0.366878594321609	-0.0386393725327408	0.368907717567854	6.01218365417856
10236.38	0.363462894638344	-0.0348670626620434	0.365131466512492	5.4796268320558
8750.684	0.360112338819177	-0.0312223070719184	0.361463316297395	4.95524267992278
7449.463	0.357802421744082	-0.0288671735523382	0.358965021575683	4.61258068688243
6363.206	0.355976313794836	-0.0255529885761114	0.35689226835017	4.10581097624512
5414.761	0.354400404306339	-0.0234219038334781	0.355173524001553	3.78111178303992
4620.567	0.352670569702578	-0.0219319666135358	0.353351866973812	3.55854174385899
3941.215	0.351753619862735	-0.0202557762781034	0.35233635287771	3.29574491083972
3361.769	0.350652068505145	-0.0192248484734599	0.351178683786139	3.13815630703575
2867.244	0.348805905382058	-0.0175171533209995	0.349245487143168	2.87499851060555
2442.658	0.348168798682868	-0.0171362258281132	0.348590250311025	2.81771877391073
2083.003	0.346571409829582	-0.0162608963898257	0.346952675249327	2.68630918472409
1777.843	0.344721922267123	-0.0159035870071372	0.345088579601288	2.64144143274519
1513.548	0.343197563293215	-0.0144471378130437	0.343501509809475	2.41048214552796
1292.065	0.341914381444429	-0.0135049482670051	0.342180987002815	2.2618952816433
1101.762	0.34112030485704	-0.0116085551542996	0.341317771202336	1.94906204437525
939.101	0.341584194886619	-0.0122895337643845	0.341805200130843	2.0605017625704
801.2801	0.338815814940667	-0.00951585262576134	0.338949417915274	1.60876464815541
684.3433	0.34172816761257	-0.0114170603325732	0.341918835115122	1.91352720192124
582.9476	0.337699746554271	-0.0109610148332829	0.337877585330833	1.85904636405564
497.0677	0.338140103529335	-0.0101233330171483	0.338291607176716	1.71482486561208
423.5089	0.337159038760964	-0.0119885980738534	0.337372114885024	2.03644784841522
361.5036	0.335622938223645	-0.0111589335712961	0.335808395458364	1.90429284113712
308.1262	0.33283224874842	-0.00748723565912042	0.33291645273964	1.28868120294778
262.7298	0.330205694442167	-0.0148466096406792	0.330539290342096	2.57438187944529
224.2111	0.327929319615985	-0.0106877649754984	0.328103439457702	1.86670451794535
191.2854	0.339357626251209	-0.0117473281059708	0.339560890286977	1.98258007539041
163.1722	0.330002651036387	-0.0109150930377967	0.330183114267019	1.89441161100229
139.1537	0.320310558219501	-0.0221622308872943	0.321076343234425	3.95797697890326
118.6706	0.326188768800611	-0.0192627203026483	0.326757043206595	3.37961447289097
101.1982	0.323329924702578	-0.0156964596028105	0.323710702714997	2.77931398586091
86.24196	0.327645860884851	-0.0135208211111552	0.32792472117621	2.36305957474057
73.61024	0.347533956498772	-0.0307371309756027	0.348890558972727	5.05428989396704
62.69291	0.240654433520247	0.0607395898726388	0.24820123720652	-14.1652355690193
53.57697	0.28546416626057	-0.0206148155857279	0.286207548538601	4.13044873439354
45.65746	0.357981133666178	-0.0441416542122283	0.360692358801117	7.02949886732309
38.96512	0.308430551099082	-0.00420062423559077	0.30845915466274	0.780283146256707
33.18414	0.310180454545326	0.0266366704061183	0.311322062488782	-4.9082194607186
28.30617	0.305456129333485	-0.00900312108259026	0.305588781103991	1.68826712589217
24.17237	0.290869183820605	-0.00522422023704343	0.290916095418508	1.02896287216175
20.61345	0.317248912039911	0.0147283760904029	0.317590612664745	-2.65806523021312
17.55618	0.328125312680149	0.0591883320578535	0.333420874381368	-10.2252454541786
14.98558	0.29943665445288	-0.0658086021803924	0.306582912359562	12.3951053792745
12.76553	0.289814189571896	-0.00701387239316078	0.289899049469229	1.38636019377727
10.8809	0.285862782696858	-0.0139591278776279	0.286203402813969	2.79562208358372
9.278505	0.288916002234903	0.00282530343143121	0.288929816195695	-0.560276348363854
7.923394	0.254251773610334	-0.0198159167926884	0.255022812592002	4.45651901560249
6.75822	0.340061808551253	0.0239397395672208	0.340903424397138	-4.02687629968333
5.761429	0.176362713324691	0.00728016334805293	0.176512910093346	-2.36379869029629
4.919708	0.108777692061048	-0.0506922614516914	0.120009548208527	24.9863227526663
4.191257	0.153414529389607	0.0203600111075891	0.15475964551567	-7.5596853630474
3.564097	0.132718354038256	0.0240246282838506	0.134875291520727	-10.2605511135146
3.051758	0.108812567350939	0.0814081465296301	0.135895037197435	-36.8020073728809
2.604164	0.141121831865683	-0.028771988141828	0.144024993423918	11.5235563587892
2.214424	0.109042489281442	-0.00257406608982398	0.109072866859399	1.35227779933392
1.892567	0.138363436710279	-0.00972577290649596	0.138704835088429	4.02079263381463
1.607507	0.0848626754228359	-0.0932977456396387	0.12611955844103	47.7106654259357
1.376413	0.11056422852091	0.00919645708935554	0.110946038466547	-4.75477506064682
1.17375	0.125884426397131	0.0615409745446842	0.14012201953028	-26.052568561515
1.001604	0.214438176288436	-0.00865536983183391	0.214612783582051	2.311375343873
