EC-Lab ASCII FILE
freq/Hz	Re(Z)/Ohm	-Im(Z)/Ohm	|Z|/Ohm	Phase(Z)/deg
6999984	27.2260378617178	87.0235223874825	91.18306085218	-72.6272706740905
5969734	22.9144124352431	86.5626064991492	89.5441519094294	-75.1730367494157
5091109	24.1491648375658	87.113141384282	90.3984599658082	-74.5057701012064
4341796	23.3223592040402	90.0365248330004	93.0081084790233	-75.4777357048663
3702781	22.9556226017901	97.7816863017068	100.440125373484	-76.788262069669
3157797	22.9104179563278	107.1312267563	109.55358048573	-77.9289064482155
2693047	22.8690686785741	120.15816737432	122.315082835195	-79.2240775441087
2296687	22.2378266866861	136.997495633789	138.790614760787	-80.780001732566
1958656	23.2931083563135	157.24912219018	158.964949993642	-81.5741212366173
1670375	23.8061139689206	180.845465596176	182.405628994828	-82.5008231744619
1424531	25.5276888704626	209.946695982215	211.492974003667	-83.0673638422872
1214875	28.4326000127869	242.457289199306	244.118720767914	-83.311558454572
1036062	30.3753824711679	279.438598361923	281.084674279381	-83.7962234534732
883578.1	34.4563623459388	327.885359407282	329.690839757123	-84.0009985694529
753531.2	41.0235089466327	379.118149156613	381.331219946952	-83.8241837938755
642624.9	41.8802665274709	445.856641958917	447.819273706808	-84.6338304541749
548046.8	43.7703457336092	520.027745471354	521.866553081972	-85.1887973745386
467390.6	142.501397757118	696.684207874232	711.10866529953	-78.4400420972517
398593.7	153.309691227001	803.102601930207	817.604825481838	-79.1924502738175
339937.5	213.523280230528	941.097320328631	965.016247288166	-77.2167199088679
289906.2	230.28294174247	1016.62801243595	1042.38320637232	-77.236945319036
247234.4	261.17943730535	1220.98865715742	1248.61042738647	-77.9259270676808
210843.7	313.880980757871	1412.06845020564	1446.53329659143	-77.4677900146942
179812.5	332.679845565474	1511.4678632006	1547.6469174633	-77.5869079403019
153343.8	255.592462662047	2027.23935665149	2043.28826065399	-82.8141164968394
130781.2	176.707291252669	2323.00092451805	2329.71216292776	-85.6499711038394
111531.3	218.605511157432	2403.84907437598	2413.76857670463	-84.8038270319902
95109.37	127.913461086656	2826.80599152496	2829.6985647324	-87.4091234222296
81109.37	663.874047197851	3353.32899225182	3418.41250887301	-78.8016930575383
69171.88	546.800366347693	3596.52438923225	3637.85353237048	-81.3551940630978
59000	469.268351135954	4380.01764254432	4405.08425962289	-83.8847454328209
50312.5	1449.55898111623	5731.02143952773	5911.49963884472	-75.8057540425787
42906.25	1822.95406422484	6749.36194387656	6991.21221031969	-74.8854692320396
36593.75	1911.69805701294	7570.79084716114	7808.42260079755	-75.8285004670454
31203.13	2017.7493863171	8642.0143075724	8874.44217279425	-76.8579337375569
26609.38	2145.3477763919	9886.28461971417	10116.3798200575	-77.7565034476606
22703.13	2287.54338520488	11386.7412194378	11614.2468691533	-78.640749212886
19359.37	2416.0285751391	13129.2887026829	13349.7346758011	-79.5731807286819
16500	2554.50399264917	15213.3294101673	15426.304884538	-80.4682553962353
14112.02	2713.51991972345	17581.955463035	17790.1193997928	-81.2264504465319
12011.13	2920.06038040966	20428.5634244161	20636.2049856709	-81.8652410923233
10236.38	3133.62104919079	23780.9653476842	23986.5356762432	-82.4933747231252
8750.684	3412.52816912656	27565.7420936905	27776.1675844769	-82.9429174091848
7449.463	3531.8621827616	32143.6825746723	32337.1362359024	-83.729645757679
6363.206	4103.65756309298	37603.5677787166	37826.820049849	-83.7719873387391
5414.761	14331.5377815379	51613.4546530683	53566.2363472364	-74.4815912822519
4620.567	14896.7828028236	56750.57397126	58673.1777215275	-75.2919254919054
3941.215	16402.9017430328	65181.8706096308	67214.0717540772	-75.874910048451
3361.769	48468.1519041044	35106.0949233211	59846.4673123198	-35.916289106122
2867.244	19473.1786492159	84285.1045589148	86505.3960005471	-76.9906880586888
2442.658	20830.92530537	97052.284366393	99262.648311503	-77.8860492051397
2083.003	21835.0705088831	111855.600473204	113966.862119429	-78.9543290141611
1777.843	22679.3719821981	128968.445336689	130947.370367142	-80.0263903446304
1513.548	24901.4613886689	151089.410754762	153127.701026014	-80.6410594672467
1292.065	26391.7034695524	173736.083509771	175729.191443366	-81.3624133313164
1101.762	28461.5923075574	201619.380086325	203618.360329012	-81.964935748676
939.101	29301.7061877928	234388.259465242	236212.71379979	-82.8742197695486
801.2801	30628.9818973278	268755.618183102	270495.317588028	-83.4982854000051
684.3433	116099.556274286	380121.975938348	397456.693940812	-73.0159079465277
582.9476	135422.500590366	419030.568790385	440370.152538681	-72.0901800369348
497.0677	153170.88801472	500331.215792394	523251.991330671	-72.9786083940647
423.5089	141204.367558985	547223.351277904	565147.829865384	-75.5311353713725
361.5036	150701.273717713	609958.451689208	628299.44030473	-76.1219694497114
308.1262	166402.040655811	707308.099001588	726618.459748758	-76.7612757575184
262.7298	196441.526695294	771253.242575233	795877.401107224	-75.7103565696894
224.2111	142051.978044249	940139.60974986	950810.838330581	-81.4077915886908
191.2854	221845.83957387	1029790.54653017	1053415.4670685	-77.8426763000483
163.1722	243448.360420014	1325877.63106987	1348042.50554745	-79.595640674251
139.1537	246758.221103035	1561824.22871938	1581197.18602609	-81.0218472178907
118.6706	357283.381462225	1679285.67479475	1716872.67793507	-77.9888951293657
101.1982	249577.081109395	1958926.31116859	1974761.00123627	-82.7393455045748
86.24196	251811.654940234	2177515.60645539	2192027.21833478	-83.4035181806905
73.61024	-347575.812619168	2900246.81332022	2920999.91846833	-96.8339353774546
62.69291	910208.124093854	2476250.81301674	2638237.46431827	-69.817829421446
53.57697	1564443.64817422	3305994.28726081	3657469.3649727	-64.6758196890444
45.65746	670652.176036057	3972242.41035684	4028459.27221058	-80.4168610820121
38.96512	662314.099905139	3968460.15742511	4023348.85238698	-80.5249782179532
33.18414	-69450.4369411568	4790779.39166156	4791282.76589479	-90.8305408958533
28.30617	322748.935612844	6084667.1466855	6093220.91847925	-86.9637060322949
24.17237	-703342.987901087	5170827.39542695	5218442.99690314	-97.7459122999643
20.61345	4009726.38361237	3594689.09985663	5385136.52529489	-41.8759840966886
17.55618	5394136.56772378	1689940.76381153	5652663.89381562	-17.3953653531607
14.98558	3242475.9627808	3997779.49338446	5147415.9776471	-50.9555546028796
12.76553	1229895.0018445	5142044.39255785	5287084.47545504	-76.5484792324068
10.8809	1699079.8987639	4111203.53739384	4448467.94169219	-67.5456506932957
9.278505	601475.906634211	-7169360.98775317	7194547.25740116	85.2043818265662
7.923394	4373936.25441327	3678125.39750073	5714886.2453605	-40.061111632722
6.75822	2684755.64891344	-8860180.09951842	9258007.57670217	73.1424743234721
5.761429	193250.299822817	7073293.04903747	7075932.46406036	-88.4350043544113
4.919708	10430190.9795502	-3759973.7159316	11087212.7342442	19.8236979987959
4.191257	5575968.17656813	-14032621.799544	15099864.0945916	68.3292277739166
3.564097	-8002124.31702571	8895030.74535751	11964763.4972861	-131.975098530434
3.051758	3299238.66611799	12180503.6151596	12619415.3626435	-74.8443881581287
2.604164	15833306.3007763	7285464.95772792	17429044.3818496	-24.7088335629065
2.214424	19970454.2182652	-15325503.5532359	25173202.0379624	37.502952480288
1.892567	24857408.3841794	-11431175.2105678	27359870.5821606	24.6962800576152
1.607507	29008877.4740221	-7332431.43785011	29921221.9518789	14.1852547143812
1.376413	32832941.4315438	-2627142.33755521	32937879.7117993	4.5748004228293
1.17375	35267569.4852455	749912.450612213	35275541.4711128	-1.21812603413978
1.001604	39388014.0496441	5073413.79554331	39713413.0781499	-7.33962946267151
