EC-Lab ASCII FILE
freq/Hz	Re(Z)/Ohm	-Im(Z)/Ohm	|Z|/Ohm	Phase(Z)/deg
6999984	20.6550008806809	4.48643263358127	21.1366302696667	-12.2547479082013
5969734	17.7312058613228	-2.09554622791301	17.8546065565704	6.74018382867178
5091109	13.7868843709706	-6.53108651411348	15.2555980450898	25.347727341101
4341796	7.41867187277943	-6.24273468687747	9.69579438347946	40.0802598822353
3702781	6.01939087842456	-5.14006234853145	7.91538422908524	40.4945885822062
3157797	4.28251794241995	-4.91427191549355	6.51843757249829	48.9296388646544
2693047	2.97850618178551	-3.90057504733871	4.90774742370223	52.6343954271262
2296687	2.48197279323796	-3.49250553476864	4.28459844755177	54.6002365405319
1958656	1.77453210265399	-3.17240058466616	3.63498138275009	60.7788472454621
1670375	1.37053993784834	-2.91003478603767	3.21662589947707	64.7809574444509
1424531	1.19740515956134	-2.43282178058194	2.71153110478527	63.7941522338971
1214875	0.882789970817874	-2.06368066821056	2.2445703448372	66.8399958728125
1036062	0.780280099189224	-1.82127958760901	1.98138748593807	66.8085404898599
883578.1	0.689008982630296	-1.57062482988182	1.7151080824212	66.3136768422054
753531.2	0.604045512500154	-1.34603940444868	1.47536200964378	65.8314755618233
642624.9	0.528440737358371	-1.16552046429374	1.27972167504788	65.6107149233594
548046.8	0.54805204484918	-1.00164184838245	1.14177381135423	61.3145627839094
467390.6	0.518055700483313	-0.86431766353923	1.00768384541441	59.0623229870297
398593.7	0.489951402569001	-0.749463168210371	0.895403494176373	56.8258910957176
339937.5	0.711159954228898	-0.426722666817738	0.829361630939659	30.9653378800848
289906.2	-0.816179275905906	-5.78406692046037	5.84136788353397	98.0318755355141
247234.4	2.45940102232601	-3.77572740408259	4.50608153705173	56.9209276051959
210843.7	-0.69587911169758	-1.21358276968758	1.39893919702737	119.830341330164
179812.5	1.69704688698029	-0.0921295676591776	1.69954581987264	3.10743259118745
153343.8	0.937140857049944	-1.2783045292473	1.58502222553706	53.7543961363141
130781.2	7.56759028628648	-0.269950014058391	7.57240356499755	2.0429807131953
111531.3	0.427141785037744	-0.250549665504324	0.495202220723574	30.3947177527581
95109.37	0.285833221077358	-0.206109547130918	0.352394346847349	35.794741839463
81109.37	0.279329772358465	-0.187149714324241	0.336229292741542	33.8219106409567
69171.88	0.294427670058889	-0.164816489269788	0.337419809779337	29.2394915983255
59000	0.269822800240173	-0.129607822431419	0.299336818926209	25.6570328772244
50312.5	0.254407313497005	-0.0945309763523741	0.271402259848544	20.3837241364907
42906.25	0.301682576459236	-0.11422444177416	0.322582702632521	20.7378979975508
36593.75	0.2790656152706	-0.108278762592381	0.299335778106954	21.2064858007206
31203.13	0.266115629767712	-0.0909515750737516	0.281228941282832	18.8691273937962
26609.38	0.26105399187488	-0.0800335598350288	0.273046804364521	17.0444172444871
22703.13	0.260258294216975	-0.0798283680041225	0.272225913621262	17.0522152000789
19359.37	0.254095210104813	-0.0633108162633323	0.261863772320912	13.9910334809878
16500	0.250861854091329	-0.0560686087056579	0.25705127644174	12.5987689571317
14112.02	0.247072043608277	-0.0506890071479565	0.252218100417904	11.5938582802517
12011.13	0.24424920638841	-0.0459070349742017	0.248525915512831	10.6446505602144
10236.38	0.240584887153969	-0.0410691731445171	0.244065083347992	9.687329757798
8750.684	0.236831745992908	-0.0371750167827603	0.239731637008652	8.92081536031609
7449.463	0.234726797073855	-0.0959068452007248	0.253564177716227	22.224396889972
6363.206	0.227764294149589	-0.033755182048337	0.230252005430088	8.43000252427317
5414.761	0.217867929318888	-0.0327531395387856	0.220316142793366	8.54952724991541
4620.567	0.207978998796941	-0.0256258004949224	0.209551773057599	7.02420473729608
3941.215	0.204157597226864	-0.0332666639145685	0.206850176295432	9.25478099994194
3361.769	0.1996676815019	-0.0233692610655013	0.201030608115013	6.67557137811488
2867.244	0.19862378159299	-0.0267145053459217	0.200412253642778	7.6601993490472
2442.658	0.196421805102821	-0.0250927530284609	0.198018109713223	7.28006477028971
2083.003	0.19801881377552	-0.025144357428701	0.199608840785088	7.2366689468865
1777.843	0.198965648555225	-0.022726392608006	0.200259377373382	6.51623754486695
1513.548	0.196986019905748	-0.0186935202188355	0.197871017929559	5.4210035093314
1292.065	0.197524473579961	-0.0196020992163182	0.198494735337558	5.66741031166315
1101.762	0.190851888745729	-0.0140605908090296	0.191369129306979	4.21352761468751
939.101	0.19466674770062	-0.0170601234646969	0.195412871820071	5.00846759430146
801.2801	0.18761913997847	-0.0196938149697059	0.188649908651771	5.9922218045962
684.3433	0.187351266595063	-0.0263046660078745	0.189188880615537	7.99225130963732
582.9476	0.186469347299501	-0.00822528338030274	0.186650670422017	2.52571656320026
497.0677	0.183910475525038	-0.0126838951187572	0.184347346612934	3.94531461163087
423.5089	0.18257037072751	-0.00768033557474019	0.182731846764928	2.40888760398411
361.5036	0.181849080793621	0.00363010789188501	0.181885309656364	-1.14359797598034
308.1262	0.181817722201678	-0.0134705246428123	0.182316041918311	4.2371924904998
262.7298	0.199870124192021	-0.0115914557426481	0.200205964923045	3.31914737198183
224.2111	0.189329356686073	-0.00877716862923041	0.189532699005497	2.65428943834321
191.2854	0.182259369942703	-0.00920474569085633	0.182491658097417	2.8911839953602
163.1722	0.175934641270876	0.00236468988474442	0.175950532131513	-0.770050692993465
139.1537	0.176267790442129	-0.0087963220903023	0.176487136159174	2.8568712718832
118.6706	0.188789458969888	-0.00876773479143	0.188992944290298	2.65901232944847
101.1982	0.189042288738135	-0.0216576138395689	0.190278845825216	6.53559205918647
86.24196	0.180964845404038	-0.00886848009103363	0.181182022317979	2.80562936443347
73.61024	0.178744135255354	-0.0118869279533653	0.179138954290665	3.80470904983238
62.69291	0.291301005414059	0.114145549330142	0.312866556517506	-21.3976016028644
53.57697	0.179557426850066	-0.0864259641497533	0.199274476078175	25.7028007458995
45.65746	0.185662080279263	0.00664269493474059	0.185780874821979	-2.04907813005109
38.96512	0.195242153359528	-0.00512837064740851	0.195309494479819	1.50462613114361
33.18414	0.154686254164781	-0.0130146546699807	0.155232787978926	4.80930058922044
28.30617	0.211262053910489	0.0409350729565295	0.215191392998035	-10.9659939396135
24.17237	0.175658163551494	-0.0757967479175251	0.191313714660388	23.340266573457
20.61345	0.205038734726323	-0.0329160479780473	0.207664029029258	9.12020467302161
17.55618	0.181266032418092	-0.029017575060555	0.183573947418994	9.09490285678863
14.98558	0.177722896919308	0.100565387083724	0.204202901959522	-29.5035678461013
12.76553	0.238993948382907	-0.0570089496133697	0.245699262716988	13.4164599448747
10.8809	0.193503508332463	0.014548487255715	0.194049648848951	-4.29967181918543
9.278505	0.191392793908884	0.0391119485194363	0.195348268682463	-11.5496202088897
7.923394	0.170610089414277	-0.00199361844365158	0.170621736963514	0.669483994876513
6.75822	0.260684515642531	0.201477546332406	0.32946869103438	-37.6996775392462
5.761429	0.405477735227941	-0.103144844026116	0.418391028363123	14.272115116123
4.919708	0.601573571355364	0.00378458295361462	0.601585475906275	-0.360450957480454
4.191257	0.519775782438263	-0.0360072581592936	0.521021483865548	3.96281102382078
3.564097	0.227916764171065	0.525606595798196	0.572894706675473	-66.557183905136
3.051758	0.630375794288401	0.166414950495969	0.651972068246262	-14.7883157120682
2.604164	0.55530355810914	0.306999661175977	0.634516220132185	-28.9360187725566
2.214424	0.620731874199807	-0.154800917861671	0.6397432170945	14.0030484059517
1.892567	0.590969376337572	0.405207772693263	0.716545980952971	-34.4371183439005
1.607507	0.527163601128038	-0.203044826597101	0.564914740436225	21.0649251182776
1.376413	0.635062818376531	-0.255075207478612	0.684374272423065	21.883034365211
1.17375	0.605871125235261	0.183018139765769	0.632910309504565	-16.8082211230224
1.001604	0.296714665991872	-0.274690684874033	0.404344612145671	42.79271083932
