EC-Lab ASCII FILE
freq/Hz	Re(Z)/Ohm	-Im(Z)/Ohm	|Z|/Ohm	Phase(Z)/deg
6999984	10.1225520446584	56.0152084701885	56.9224879977632	-79.7565845189033
5969734	3.24095326263944	4.11632568510371	5.23907579602144	-51.7851803014951
5091109	6.56403254163257	7.45734922011606	9.93471592942531	-48.6454460686916
4341796	9.48793106293429	8.18102032780712	12.5279658947088	-40.7697343745839
3702781	24.3601193591845	-1.16530647696275	24.3879756105128	2.73875029283903
3157797	24.7755927032018	-2.65440818707207	24.9173810144353	6.11523011363284
2693047	0.887796795887512	-1.07590628523034	1.39490411333048	50.4718521730742
2296687	1.52462498490425	-1.51116401579542	2.14664809114797	44.7459468812328
1958656	8.83460282727623	-17.4503212663867	19.5592412791454	63.1481996156666
1670375	15.8427111183205	-16.0123932882342	22.5252798960555	45.3051937963261
1424531	-8.37487176380546	-17.0968526648907	19.0378792964228	116.097865069564
1214875	12.2535545031134	-18.1791684595983	21.9233155303486	56.0183070834807
1036062	19.667009746859	6.22168261198112	20.6276660557436	-17.5548309667015
883578.1	4.6269515294336	-10.3825134648232	11.3668494448974	65.9799289265417
753531.2	11.5608739342874	-2.65266250076936	11.861299442619	12.9229255593049
642624.9	-2.3216721708372	-24.1787561212299	24.2899651963264	95.48479165726
548046.8	3.8211120003201	12.3596062155023	12.936798781819	-72.8204147468291
467390.6	9.22982781950688	3.44299289995337	9.85108733525759	-20.4569710610202
398593.7	2.85746525170235	7.78067431537387	8.2887876355113	-69.8341587186072
339937.5	6.25153236204491	-1.69121056709345	6.47625277887941	15.1377340234287
289906.2	9.60448033580505	-1.62578223749894	9.74110930051773	9.60757403271579
247234.4	10.8459878152939	-4.28906319307507	11.6632548957696	21.5763988124129
210843.7	2.10286705419692	-2.48982307115395	3.25902880829203	49.8160675990793
179812.5	-0.459142282053918	0.525727578367755	0.697997938267803	-131.132220318017
153343.8	-0.663133205249817	0.529724759888773	0.848736690113084	-141.381403948876
130781.2	-0.662560704606629	0.452938560183431	0.802583345572204	-145.642777550162
111531.3	-0.613525245129645	0.393458726418341	0.728850461896084	-147.327617242523
95109.37	-0.604596051776549	0.339862617667155	0.693572623963318	-150.658278201398
81109.37	-0.588714648014847	0.293599776563016	0.657864549573161	-153.49396092106
69171.88	-0.57830505984951	0.256201701845754	0.632515655360566	-156.105617142825
59000	-0.573273066572694	0.223667367842515	0.615360951227212	-158.686333643653
50312.5	-0.552590680468032	0.183971647730719	0.582410531591659	-161.58607304481
42906.25	-0.597874975424455	0.170536267595936	0.6217210828051	-164.079871848117
36593.75	-0.567873584640622	0.158443151297464	0.589563092743822	-164.410296608569
31203.13	-0.558490189360528	0.140297424858399	0.575842564451306	-165.898611777201
26609.38	-0.552226833478248	0.12468927304537	0.56612886379869	-167.276346091373
22703.13	-0.546858845628739	0.112416123560121	0.558293813219062	-168.383701622022
19359.37	-0.54164715316758	0.0974292262731355	0.550339979164448	-169.802918080561
16500	-0.537430879412874	0.0870389417160581	0.544433400446323	-170.800609489222
14112.02	-0.534233753145217	0.0777340457893204	0.539859504755081	-171.721238074439
12011.13	-0.530816497218302	0.0703402010664599	0.535456718703928	-172.451530080112
10236.38	-0.527880760972223	0.0629514652641819	0.531621091364442	-173.199411890097
8750.684	-0.525048058612569	0.0568781690393582	0.528119863256531	-173.817289576366
7449.463	-0.52451055461943	0.0493680492234306	0.526828744651722	-174.623040123658
6363.206	-0.519296838193332	0.0469448046072924	0.521414442490049	-174.834461550061
5414.761	-0.515362909600217	0.0430908781876347	0.517161244076335	-175.220463216641
4620.567	-0.514978013439539	0.03979125755662	0.516513018716926	-175.581655810691
3941.215	-0.513163911776618	0.038906767893744	0.51463670383856	-175.664276324749
3361.769	-0.511390119419784	0.0353058777392012	0.512607412395799	-176.050621766006
2867.244	-0.509458645254014	0.0345716238178735	0.510630305012795	-176.117887011154
2442.658	-0.509223143444971	0.032751766443031	0.510275306109473	-176.319969225497
2083.003	-0.507541186423812	0.032940209850595	0.508608998486551	-176.28662308182
1777.843	-0.504893799217723	0.0306815326589078	0.505825172302453	-176.522509806076
1513.548	-0.503492688240342	0.0298919880973723	0.504379240318135	-176.602380122717
1292.065	-0.499569190500551	0.0287763021434074	0.500397293820045	-176.70327799044
1101.762	-0.497099341071043	0.0288514932144671	0.497935903057783	-176.678297030572
939.101	-0.494081031984105	0.0310511144206205	0.495055792687289	-176.403907542484
801.2801	-0.491896247302754	0.0250229915800877	0.492532301700254	-177.087847262531
684.3433	-0.490822600428312	0.0254841155522803	0.49148373852722	-177.027801285602
582.9476	-0.490378123141768	0.0226689746103599	0.490901808986204	-177.353241313236
497.0677	-0.486318127177139	0.0233878547071433	0.486880182969981	-177.246671163342
423.5089	-0.487929417154396	0.0213256635898605	0.488395229350346	-177.497397494491
361.5036	-0.483234604600713	0.0218085012848659	0.483726465899789	-177.415980191803
308.1262	-0.482459935984242	0.0350405614602196	0.483730742022219	-175.845961241585
262.7298	-0.483271319469218	0.0190791385925024	0.483647786876929	-177.739185684036
224.2111	-0.134251132387511	0.456465263406383	0.475798174906113	-106.389152526851
191.2854	-0.125512032666764	0.448739465858684	0.465961778006823	-105.626259222635
163.1722	-0.479858553955001	0.0354537031440814	0.481166495997397	-175.774456108753
139.1537	-0.144484235121914	0.452826814517342	0.475318649060488	-107.696413032222
118.6706	-0.476471429727137	0.0253672773258196	0.477146227172706	-176.952457335542
101.1982	0.392450998767701	-0.296984373630728	0.492155975900529	37.1163434784456
86.24196	0.386938761784353	-0.276363509580468	0.475498049206137	35.5355872991473
73.61024	0.373373995649085	0.276467180183276	0.464588250330823	-36.5183359685116
62.69291	0.383095016567388	-0.266279631242704	0.466547568564576	34.802184132646
53.57697	0.355793184453196	-0.233390410847005	0.425511308872842	33.263758075252
45.65746	0.396406776245765	-0.291597233407944	0.492104946921617	36.3382381447681
38.96512	-0.469278253812927	-0.0452368196131705	0.471453549515139	174.493895436636
33.18414	0.409201348702325	0.203468740908252	0.456995921542623	-26.4381175914365
28.30617	0.348708684413492	-0.300104816965435	0.4600659167459	40.7158648826857
24.17237	-0.124508200963814	0.439603866489448	0.456895886980522	-105.813616421642
20.61345	0.386978493666727	-0.369043303710988	0.534738547866609	43.6410206916348
17.55618	0.459785184245654	-0.263125788950834	0.529752391653694	29.7816357232342
14.98558	0.539511108013646	-0.142016403720859	0.557889679592586	14.7475153874769
12.76553	-0.0273742654634124	0.458889515628385	0.459705272933991	-93.4138357067596
10.8809	0.634444771962895	-0.189865354571253	0.662245439046218	16.6604553076582
9.278505	0.466723070963184	-0.230566249393587	0.520568170683467	26.2898704915244
7.923394	0.589689770624125	0.215063468171285	0.627683296671653	-20.0372221803073
6.75822	1.13473997060123	-0.221340518874397	1.15612561003365	11.0374303175104
5.761429	1.63844639731046	-1.11623617782686	1.98254629241012	34.2657122899091
4.919708	0.0558832266120896	1.72294603717964	1.72385207661493	-88.142280216879
4.191257	-0.0890522396451586	-1.01896071706434	1.02284468239616	94.9946835593051
3.564097	1.5249193893271	0.365048319006777	1.56800491681481	-13.4626059656945
3.051758	-0.239555051035801	3.58158822171917	3.5895906190587	-93.8265372065924
2.604164	0.424344904476269	2.30895129499424	2.34762106836059	-79.5862441664109
2.214424	1.47192301355274	-2.49490894669753	2.89674438122136	59.4606432462046
1.892567	6.71867384833778	1.30322104938286	6.84389972047315	-10.9773442335351
1.607507	2.66748447552428	-4.06021827113218	4.85807017615006	56.6958640536906
1.376413	5.04287986455619	3.35728693767199	6.05821862515783	-33.653610018215
1.17375	-1.15949277180096	15.2804479859843	15.3243764682361	-94.3393344332345
1.001604	0.738611588162975	7.19482723533882	7.23264032180101	-84.1386230318433
