EC-Lab ASCII FILE
freq/Hz	Re(Z)/Ohm	-Im(Z)/Ohm	|Z|/Ohm	Phase(Z)/deg
6999984	15.6276262678702	94.7384201032908	96.0187010245184	-80.6330953538944
5969734	19.4208277726426	89.0831600699462	91.1755337764594	-77.7014994993281
5091109	17.9365575301979	86.786376591102	88.6205126245988	-78.3228149323679
4341796	15.106549237694	90.8377789892342	92.0853404270616	-80.5579805869528
3702781	19.213269840156	103.445695895574	105.214836108175	-79.4781843262492
3157797	20.4132829062796	108.932558418491	110.828716507093	-79.3862246001307
2693047	20.0671185287135	120.815680919722	122.470886345047	-80.5694397428554
2296687	19.2383458816368	138.672504630456	140.000633901227	-82.1016434785942
1958656	21.7751690517003	157.856969171184	159.351751490664	-82.1460477077169
1670375	22.5997924050672	181.275037151136	182.678377787021	-82.8935284472445
1424531	25.1745764818335	209.179121747763	210.688548042377	-83.1374938764113
1214875	28.3483787093726	239.025616942593	240.700802097204	-83.2363290960713
1036062	30.6568774937556	277.270668744537	278.960333889444	-83.6906273318306
883578.1	33.074614126834	320.668278665904	322.369469773725	-84.1111783534566
753531.2	36.2285149843098	372.108000432682	373.867448815723	-84.439196691169
642624.9	39.7024141862244	432.099399767621	433.919546657848	-84.7502554781455
548046.8	43.0959478972316	503.330068675646	505.171672561112	-85.1061768604808
467390.6	154.598592623818	707.015393177115	723.7205890609	-77.6656323413529
398593.7	179.555807259083	800.579081231907	820.467643010122	-77.3587561462808
339937.5	204.912458171275	907.754960440511	930.595606973377	-77.2795160832142
289906.2	228.999688325793	1031.04203603397	1056.16690789022	-77.4775875929909
247234.4	252.492693433271	1174.17797142278	1201.01892941439	-77.8640476258067
210843.7	276.333079018182	1343.5148813377	1371.63851175721	-78.3775324018029
179812.5	298.157831858491	1540.54928920388	1569.13677070074	-79.0464033318386
153343.8	321.725981635145	1771.77973931768	1800.75291251069	-79.7081695852147
130781.2	346.418134009871	2043.67592345793	2072.82821374384	-80.3793896422105
111531.3	373.880901503243	2363.02744461767	2392.4225447285	-81.0091275548388
95109.37	402.027108170093	2735.18912005089	2764.57687868295	-81.6383498054515
81109.37	437.313842730843	3171.88092668979	3201.88569598331	-82.1500011165033
69171.88	473.776388882784	3676.19568006617	3706.59935045588	-82.6563812158399
59000	501.274794511679	4255.13057094808	4284.55512223027	-83.2812489872096
50312.5	407.433478003091	4896.35492786168	4913.27727882246	-85.2432856608556
42906.25	1934.06587542535	6714.42744781379	6987.42776438082	-73.9311507284697
36593.75	2066.09047551769	7427.28319699502	7709.2973442065	-74.4547195616602
31203.13	2202.98563141988	8434.24750597128	8717.20578420776	-75.3616544555728
26609.38	2376.90874966205	9643.56621629479	9932.17320490749	-76.1539404946797
22703.13	2552.54489314082	11018.1500021841	11309.9564500544	-76.956539774099
19359.37	2775.927416669	12754.7249430916	13053.3053820302	-77.7216676137166
16500	3017.1873790464	14730.3614176369	15036.1885853591	-78.4243430536651
14112.02	3297.46007024934	16979.7247587042	17296.9446954149	-79.0099632160683
12011.13	3730.59003738904	19706.9583644815	20056.9566486662	-79.2805711827086
10236.38	4219.45394823479	22831.5273933835	23218.148822335	-79.5294067531339
8750.684	4603.22403421936	26283.7568280712	26683.806784385	-80.066210911392
7449.463	5509.19522002293	30644.359281227	31135.638546997	-79.8083226078036
6363.206	6427.96902446191	35583.8993583513	36159.8213397787	-79.7603660403511
5414.761	17733.499870011	48224.6066778622	51381.8032660804	-69.8101517869912
4620.567	20306.4144697133	53989.1744090475	57681.7251994627	-69.3877100046413
3941.215	22885.1205678737	60813.6832994683	64977.1715285772	-69.3779124263445
3361.769	25908.5645982804	68742.8947123411	73463.1832483134	-69.3490353534699
2867.244	29510.2434827996	77940.470606329	83340.0949648496	-69.2620603601691
2442.658	33573.2109758339	88434.3538133662	94592.7874080022	-69.211239003741
2083.003	38619.2325707338	100520.54671873	107683.914476512	-68.9836028717355
1777.843	44888.29260135	114175.313284647	122682.358048383	-68.5376125240057
1513.548	53012.6223751769	129497.121090612	139927.990415962	-67.7371331884284
1292.065	62350.6999004112	146673.025414208	159375.613448947	-66.9696562218507
1101.762	75783.0124962262	164322.378983284	180955.54486594	-65.2415582159566
939.101	89964.4252993619	186023.258763158	206635.550233519	-64.1906963239071
801.2801	105857.0188829	205935.073260503	231549.050625528	-62.7954295012046
684.3433	128237.665663605	227245.263218833	260931.616616782	-60.5633578187134
582.9476	151118.305037555	252784.97622381	294511.436657213	-59.1284423165878
497.0677	285009.985619383	333280.056779382	438527.408664075	-49.4640423297509
423.5089	323569.512814322	353888.950698142	479514.983133093	-47.5625443767384
361.5036	364930.739928405	360909.497854194	513254.430654096	-44.6825777490913
308.1262	395717.17240891	361403.802786964	535914.908551891	-42.4050819726022
262.7298	456623.273660218	382237.934365188	595491.941604536	-39.9325971992741
224.2111	507556.039132857	386505.468293353	637965.210556891	-37.289382462153
191.2854	526968.658357497	399763.466386254	661442.965000198	-37.184302002526
163.1722	607184.454938092	401233.192489357	727778.151000474	-33.4571026832189
139.1537	655676.79985287	413568.081523994	775210.051483298	-32.241675853252
118.6706	675554.570482611	423014.61860497	797066.713176164	-32.0537227781373
101.1982	721776.637452525	379610.642498905	815515.637048551	-27.7416424119827
86.24196	790479.899534113	423981.121400207	897005.274717623	-28.2072909416635
73.61024	813419.312548996	309781.573204061	870411.167853713	-20.8487710604865
62.69291	650185.736364405	59878.4492293154	652937.148930761	-5.26177681919116
53.57697	816743.91377138	381994.250173347	901659.707344234	-25.065671677714
45.65746	870894.319148866	258768.173600738	908525.114014153	-16.548224334748
38.96512	1008621.79533047	377599.090292424	1076986.07187155	-20.5244597597086
33.18414	1028987.16688736	330910.068863205	1080886.7023393	-17.827174995461
28.30617	971870.259601945	326130.392866093	1025130.64272304	-18.5502018962925
24.17237	1132766.99857312	329536.904630903	1179726.93644337	-16.2204122618418
20.61345	926383.411042586	248481.968915701	959129.560138317	-15.0149033313086
17.55618	1073292.9801865	280807.086652086	1109418.9655994	-14.66173214639
14.98558	1121529.68811216	249977.270978625	1149050.68527149	-12.5652394669606
12.76553	1061054.63237882	268740.720158414	1094558.59028368	-14.212819713905
10.8809	1220681.6699083	-90331.895049005	1224019.44041476	4.23224156219207
9.278505	1247239.87567348	-258382.114472078	1273722.34986635	11.7040151459436
7.923394	952956.974500361	215428.722778598	977003.85354762	-12.7383643943373
6.75822	1099511.0587842	239544.333534318	1125302.65089759	-12.2906551732221
5.761429	1178578.88992475	-318115.351994174	1220756.14966734	15.1050009445929
4.919708	575861.071451788	241028.221648328	624268.033175299	-22.7118808412252
4.191257	860168.93446494	-21425.267816727	860435.725617881	1.42684023496106
3.564097	653458.385141853	40191.7054002425	654693.236787412	-3.51960868872205
3.051758	673642.078159406	-123442.160778246	684858.829631718	10.3840120592094
2.604164	472285.24266624	459699.180486938	659072.596138447	-44.226291349783
2.214424	544961.296682976	-418230.036381876	686949.181682587	37.5044020635097
1.892567	637731.682464559	-125237.959834877	649912.490572907	11.1103793039865
1.607507	632363.070946621	123757.559089503	644359.361636683	-11.0732000726604
1.376413	704658.060609816	-204001.450189325	733593.602794991	16.1459506667866
1.17375	631320.565920035	-127038.159764169	643975.427318357	11.3774635801867
1.001604	1655752.39283058	843091.411996021	1858041.74208914	-26.9847078688354
