EC-Lab ASCII FILE
freq/Hz	Re(Z)/Ohm	-Im(Z)/Ohm	|Z|/Ohm	Phase(Z)/deg
6999984	22.0109575041444	-0.424827461706144	22.0150568616452	1.1057128606507
5969734	16.1031037841624	-0.332268666816169	16.1065314065585	1.18206349755645
5091109	12.5496959973173	-4.60016865663317	13.3662418538103	20.1307231628947
4341796	8.84647501504242	-4.8949571916414	10.1104266032533	28.9567598447403
3702781	6.78721959547882	-5.17771516102665	8.53669046680135	37.3386511029563
3157797	4.52103004576149	-4.62412811577035	6.46701426515637	45.6458974196227
2693047	2.45868114345999	-4.70748874262332	5.31089100124744	62.4223193850154
2296687	2.42353051560891	-3.72136527585744	4.4409525640841	56.9259066084356
1958656	1.92681437723147	-3.26389092074617	3.79019756567321	59.444829611059
1670375	1.61300843217632	-2.83138706495771	3.25861150091289	60.3303358834337
1424531	1.28226256803635	-2.47125417088147	2.7841146654702	62.5765023276851
1214875	0.970454948145954	-2.2102158208172	2.41388416892187	66.2948265307456
1036062	0.835229982243164	-1.8895937245961	2.06595584833531	66.1538216173639
883578.1	0.756669891673161	-1.58983764558281	1.76071947347582	64.5482792838483
753531.2	0.674085184244876	-1.37156943159499	1.52826487930079	63.8272691944557
642624.9	0.623178184303932	-1.1721885000199	1.32754545269503	62.0032580536567
548046.8	0.581327772045588	-1.02905780305179	1.18190606249958	60.5373455348145
467390.6	0.542696159012951	-0.895484195768463	1.04709649310773	58.7826049914468
398593.7	0.509645646044647	-0.776407422750916	0.928734176519302	56.7184958865983
339937.5	0.481878012173727	-0.675648026499134	0.829883530580453	54.5032061379265
289906.2	0.45896588996183	-0.586680535397127	0.744878338228676	51.963582170165
247234.4	0.441519314119077	-0.509360729644258	0.674082826990802	49.0809054521469
210843.7	0.424839350618845	-0.441252664560469	0.612529499547537	46.0856826344313
179812.5	0.411546318084991	-0.380572740854031	0.560540795134897	42.7607512535076
153343.8	0.404026906031996	-0.330566044786381	0.522026484733771	39.2892859164792
130781.2	0.396764483879908	-0.287653589643848	0.490067998652719	35.9420492885911
111531.3	0.388743378163224	-0.251041602695614	0.462756199688063	32.853451539003
95109.37	0.381336144058034	-0.21864831181413	0.439572905243509	29.828847445553
81109.37	0.374228542632725	-0.190228637356505	0.419802258916655	26.9452368063288
69171.88	0.366309741175198	-0.165255236754021	0.401860821372858	24.2818138477735
59000	0.355832738302635	-0.138173554470311	0.381718310803807	21.2217092893372
50312.5	0.348645177640018	-0.0981604708819756	0.362200135195186	15.7244771831104
42906.25	0.392979196650685	-0.114135326421194	0.409218183537206	16.195202118856
36593.75	0.370715484944823	-0.103793458374915	0.384971496060812	15.6412607929456
31203.13	0.363317063656392	-0.091036101130567	0.37454887592003	14.0669389296867
26609.38	0.359164747821556	-0.0805078521475491	0.368077207030174	12.6341834784487
22703.13	0.354809702173984	-0.0718836310910355	0.362018205585884	11.452973688007
19359.37	0.352669078722284	-0.0635802601807233	0.358354473352117	10.2196820339879
16500	0.350826869685348	-0.0569782892817352	0.355423716066743	9.22494135797153
14112.02	0.348951936215827	-0.0518541956453163	0.352783660895452	8.45229058250376
12011.13	0.232740991938745	0.437210317545175	0.49529913294552	-61.9722037411606
10236.38	0.629171933709252	0.696926586452188	0.938916390884374	-47.9248828863792
8750.684	0.346828539990149	-0.0373466764551422	0.348833499529422	6.1459578401857
7449.463	0.346742471949891	-0.0332855247878989	0.348336429352898	5.48330350222715
6363.206	0.34703375365133	-0.0306856724759321	0.348387767679395	5.05310730907789
5414.761	0.347073453107382	-0.0273931805145002	0.34815279431678	4.51278175221095
4620.567	0.347448260085088	-0.025263926367937	0.348365554284116	4.15881587483047
3941.215	0.346620884051681	-0.0237025975769738	0.347430353297844	3.91190486963899
3361.769	0.34614693719654	-0.0225719381883167	0.346882104646698	3.73092526384882
2867.244	0.345500197997795	-0.0216911629828917	0.346180434698534	3.59242360307405
2442.658	0.344554500238133	-0.0176162342945123	0.345004543948437	2.92684546148694
2083.003	0.345060386186846	-0.0188115926815504	0.345572779794115	3.12049431004305
1777.843	0.350592159727212	-0.0189976892399356	0.351106500450573	3.10167780309316
1513.548	0.346333501830263	-0.0158731191418257	0.346697058541464	2.62413753437445
1292.065	0.343332421436077	-0.0141498553233721	0.34362387870291	2.36001143927048
1101.762	0.349288438853317	-0.0136387798671549	0.349554616380405	2.23611103494682
939.101	0.342622160284041	-0.0151512459082934	0.342957001634719	2.53205233049882
801.2801	0.349238848436325	-0.0156443066991905	0.349589069607774	2.56487479075068
684.3433	0.339446901498628	-0.00977491183525063	0.339587614377212	1.64946699696371
582.9476	0.329332639455368	-0.013826764789489	0.329622764437142	2.40410512526815
497.0677	0.34200511508249	-0.00869613930721705	0.3421156552709	1.45654179410285
423.5089	0.332629280719373	-0.0176609078886188	0.333097802543544	3.03925806201822
361.5036	0.335051590844277	-0.0162333359690585	0.335444614987281	2.77382619609915
308.1262	0.337078296309725	-0.0103547983587286	0.337237304716007	1.75953104349275
262.7298	0.368395310032383	0.00360173297409316	0.368412916351032	-0.560152417592767
224.2111	0.333532006898521	0.0365158217671422	0.335524969063533	-6.24798443476465
191.2854	0.321206917543221	0.00389274944216864	0.321230505051804	-0.694341195860469
163.1722	0.33321545885698	-0.0722835035049274	0.340965462914082	12.2393811801359
139.1537	0.295718403443982	0.00553262295129465	0.295770154092969	-1.07182699073107
118.6706	0.270252070003783	-0.0414778946672087	0.273416526726812	8.72558572120321
101.1982	0.318086651699937	-0.0129803748808249	0.318351390953021	2.33681065927224
86.24196	0.292428500799381	0.0134323917198402	0.292736839545502	-2.62997196360227
73.61024	0.305647975436453	-0.0249349988827998	0.306663396996915	4.66390567321245
62.69291	0.242489720352933	0.0236692159250805	0.24364214795341	-5.57493205874006
53.57697	0.401457108525576	-0.0491827322086923	0.404458590134056	6.98453313956123
45.65746	0.583473725518751	0.0436878441278658	0.585107012515892	-4.28205565881634
38.96512	0.349576225662	-0.015432659925954	0.349916710861999	2.52778207605171
33.18414	0.353340843840763	-0.031719761054265	0.354761744227647	5.12974900854357
28.30617	0.370210568986427	-0.12891958351917	0.392015464495995	19.1998099852559
24.17237	0.240896249297608	-0.00636282631977775	0.240980265757242	1.51300964960196
20.61345	0.292929633758227	0.00967152859481971	0.293089250568985	-1.89102256564409
17.55618	0.360871215932323	0.0162505475172812	0.361236923338527	-2.5783690927416
14.98558	0.282212483416734	-0.00466402535701181	0.282251021129723	0.946820777862817
12.76553	0.29150000563144	-0.0695629284958243	0.299685258736637	13.4219145030843
10.8809	0.183216717901935	0.0069701809202089	0.183349254541211	-2.17867373485834
9.278505	0.339030801645732	-0.048025630632993	0.3424154576859	8.06262771561324
7.923394	0.19834033489056	-0.0427490628195728	0.202894974842777	12.163114768026
6.75822	0.190223180638061	0.0141579494407031	0.190749327611989	-4.25656763129994
5.761429	0.229577820069382	-0.0565110030688526	0.236430685266649	13.8285426502887
4.919708	0.168493393728116	0.0651144372839201	0.180637520113678	-21.1290734730204
4.191257	0.247206062585314	-0.0107009515358467	0.247437563321956	2.47864808033026
3.564097	0.297364918605643	-0.00569965486335231	0.29741953682114	1.09806559295909
3.051758	0.300154718763511	0.007047162343787	0.300237435529119	-1.34496800378364
2.604164	0.299181989726446	-0.00366289157859057	0.299204411316731	0.701438424068754
2.214424	0.298927638352427	-0.00297548826325484	0.298942446804337	0.570296176989323
1.892567	0.29422844442774	-0.00513677654111418	0.294273281124197	1.00019466126823
1.607507	0.295751082132935	-0.00302583137658336	0.295766560378825	0.586173066675516
1.376413	0.298540836415967	-0.00135882695653106	0.298543928792134	0.26078345932718
1.17375	0.294687474489992	-0.00211008148037751	0.294695028911489	0.410253938723492
1.001604	0.29349175057755	0.0124838933046979	0.293757136507555	-2.43565103555247
