EC-Lab ASCII FILE
freq/Hz	Re(Z)/Ohm	-Im(Z)/Ohm	|Z|/Ohm	Phase(Z)/deg
6999984	2.55739379109009	1.15929491516272	2.80788669697128	-24.3853129438859
5969734	4.48108637198594	1.12744715545432	4.62074368057136	-14.122561672438
5091109	6.26127252779149	0.705505546220876	6.30089451927461	-6.42883856279769
4341796	6.88980683252477	-9.6546544589924	11.8609354990257	54.487381043625
3702781	0.583554504686535	-10.5575793170638	10.5736945717206	86.8362802186578
3157797	-2.94842955733361	-2.92487448756999	4.15308651759102	135.229785285674
2693047	0.701083076497463	0.491513410842589	0.856214291628716	-35.0334241691829
2296687	0.844099491216891	0.622263041026352	1.04867308695321	-36.39732728218
1958656	1.00205509759927	0.67577202429322	1.20862825030778	-33.9951788077822
1670375	1.22002577009312	0.640878056062969	1.37811014161945	-27.7128913898231
1424531	1.60988455836326	0.56903632804976	1.70749249892842	-19.4666708079161
1214875	2.16220710516958	0.322315376460861	2.18609852649621	-8.47852059036485
1036062	3.84721388951995	-0.889203915826692	3.94863752649402	13.0142034656472
883578.1	4.04912068152677	-0.733606426033799	4.11504030136837	10.2692658015785
753531.2	4.03115902335148	-0.65679627028908	4.08431443601171	9.25388145620358
642624.9	3.98009917204298	-1.63337354942618	4.30222019093193	22.3125177988632
548046.8	3.59762208464458	-2.36023002648141	4.3027398761518	33.2669895572166
467390.6	3.00406245253	-2.83758328942306	4.13234438825149	43.3675880430645
398593.7	2.52803005979835	-3.48446320582546	4.30492971092392	54.0385545548093
339937.5	1.84087823959715	-4.55952459742349	4.91712286276559	68.0139290992561
289906.2	-11.5103737039457	-2.92849791002824	11.8770704642822	165.725521227292
247234.4	-16.137340370619	15.3151882316276	22.2478930419803	-136.497339815842
210843.7	-24.8798958690858	56.5630469264376	61.7931023339898	-113.742836644237
179812.5	-13.6805187652324	66.5016139383015	67.8941915784021	-101.624550094102
153343.8	-3.11895907947238	59.6424693747372	59.7239655319026	-92.9935138682517
130781.2	5.32501893088163	47.1652166283817	47.4648658084738	-83.5585032642734
111531.3	10.5293887557314	32.7897174116231	34.4388384749461	-72.1972085530653
95109.37	0.984088272982098	117.090294949468	117.09443027353	-89.5184675450037
81109.37	10.491074899714	98.8246897475832	99.379987705058	-83.940265043169
69171.88	16.3734471738754	75.2784570593627	77.0385349652627	-77.7290014734943
59000	19.5013866148046	50.3285434334904	53.9746826209919	-68.8195650549895
50312.5	20.3815156786523	29.3419753129511	35.7261486396866	-55.2153926772741
42906.25	15.3112353907241	-1.13901338937009	15.3535429361215	4.25443622830205
36593.75	14.6866372747219	-2.63923362495325	14.9218922582337	10.1874932650575
31203.13	13.9711137478668	-3.77951009098532	14.4733104673289	15.1375105698886
26609.38	13.0998903055667	-4.63873011241324	13.8969400615275	19.4992835656149
22703.13	12.1025161723018	-5.25165119608062	13.1928290364926	23.4574937383408
19359.37	11.0235573750824	-5.52208806878498	12.3293257658783	26.6079021748676
16500	9.62884737405578	-6.08556367045315	11.3907325023459	32.29344831962
14112.02	8.52706849473329	-5.76015296152677	10.2902992791298	34.0395715777489
12011.13	7.14877589313927	-5.82291006236328	9.2201560922091	39.1639342100605
10236.38	6.77676283731118	-5.19073349890458	8.53628893664056	37.4506929997942
8750.684	7.8905336777645	3.35101076649984	8.57261890422837	-23.010323097553
7449.463	9.47712065859199	8.35986557331067	12.6373718937656	-41.415847420997
6363.206	10.4161331471287	12.6489829262686	16.3857437673042	-50.5293656765495
5414.761	11.0943637114811	17.1530548510335	20.4282206000717	-57.1057580603272
4620.567	11.709488738822	22.0683149837277	24.9824468926808	-62.0494957477237
3941.215	12.143039569178	27.941293750012	30.4658711742022	-66.5106597321713
3361.769	12.5501166486627	34.8257256142415	37.018057653711	-70.1824024664877
2867.244	13.599669524802	45.9909113091537	47.9595134903417	-73.5268717082254
2442.658	13.9364221589804	54.7925881245545	56.5371698617855	-75.7294933600468
2083.003	14.2129562363515	66.0964271287945	67.6072910577586	-77.8642768089247
1777.843	14.6514505116335	79.7880945455848	81.1221611725798	-79.5947239417788
1513.548	16.155727779924	95.7707354373445	97.123845199358	-80.4248251953644
1292.065	17.9461275185458	114.908263991184	116.301215068371	-81.1233753391879
1101.762	19.9128487509663	136.890505554036	138.331240348008	-81.7234913338079
939.101	24.5090335443385	162.921109641678	164.754304017083	-81.4448619580358
801.2801	26.2604201321261	191.35045896129	193.144007958342	-82.1856963871399
684.3433	26.7969206537955	226.733144527271	228.311177526967	-83.2596484783331
582.9476	36.8873154308017	267.961290006454	270.488312097981	-82.1619759344215
497.0677	42.2715376322831	319.033753335767	321.822029484161	-82.4523509449938
423.5089	49.7943428060474	371.758203511745	375.078176456278	-82.3710482338647
361.5036	56.7054730258184	434.471660105179	438.156517817129	-82.5640204192648
308.1262	68.1386281382143	506.999561695937	511.557844436413	-82.3455516119814
262.7298	79.9092723353014	594.03697970222	599.38754162803	-82.3386188226603
224.2111	96.6518298067623	700.750862149016	707.384864842035	-82.1469644401891
191.2854	115.645667139423	806.700215669573	814.947334672283	-81.8418644142819
163.1722	141.896181117546	944.157070178193	954.760231358226	-81.4530552545061
139.1537	175.191815135786	1101.97561734363	1115.81469488013	-80.9667286779991
118.6706	207.019032695145	1284.28427975301	1300.8624028385	-80.8430270900303
101.1982	265.800849043966	1490.30634248834	1513.8239943314	-79.8874480793112
86.24196	342.004628572604	1730.64231084732	1764.11166711748	-78.8214028056908
73.61024	426.803587273118	2003.23604726855	2048.19822360662	-77.9725658322045
62.69291	547.491254190278	2323.19400448076	2386.83410732087	-76.7394460655239
53.57697	700.075507548957	2674.13995685532	2764.25943520504	-75.329511523266
45.65746	889.56632534248	3071.9263579278	3198.13379890756	-73.8500772004587
38.96512	1140.75034520228	3511.69227870471	3692.32907666603	-72.0039498887676
33.18414	1468.69207745108	3987.65532287895	4249.52366653633	-69.780759052101
28.30617	1871.8827045848	4507.36264690669	4880.60066902153	-67.4471592483127
24.17237	2365.09683618116	5058.25171600802	5583.86904099767	-64.9405261903948
20.61345	2944.88777672722	5573.34237294128	6303.53148826434	-62.1485601505019
17.55618	3687.2209628392	6118.96044945865	7144.03775261862	-58.9272768347173
14.98558	4572.8033047488	6613.73107636213	8040.64480090743	-55.3396099272585
12.76553	5506.26323743901	7025.12342355519	8925.8777695057	-51.9107955684996
10.8809	6532.48911273044	7332.07291130911	9820.01564075611	-48.3006515267378
9.278505	7858.14365945055	7330.26964193356	10746.3144750196	-43.0094836915298
7.923394	11706.9085697701	3550.02961468974	12233.3322740017	-16.8695218775235
6.75822	12683.4332586879	2917.07629776535	13014.5615890269	-12.9522781871494
5.761429	13529.4242199921	2243.9679191382	13714.2521395309	-9.41725464190719
4.919708	14261.0777798718	1470.32709242563	14336.6732962105	-5.8864366068812
4.191257	14828.1788099954	733.946538347417	14846.3316796557	-2.83364184399521
3.564097	15243.5036945743	-37.5511058816498	15243.5499465201	0.141143110801881
3.051758	15546.8912303502	-717.563689119193	15563.4419257529	2.64259995340695
2.604164	15791.5898472033	-1355.4274262546	15849.6527851602	4.90580100586535
2.214424	15995.2395166234	-1904.14879950468	16108.1802151828	6.78881075674454
1.892567	16109.4444335623	-2421.98366777782	16290.4943094129	8.5501288556003
1.607507	16217.687109362	-2854.22454175977	16466.9357474896	9.98152639686383
1.376413	16317.615112027	-3233.16106124207	16634.8397465134	11.2073867882801
1.17375	16390.1607963928	-3565.23123360769	16773.4386659594	12.271959560367
1.001604	16923.5132691932	-4394.97797583276	17484.8829787509	14.5579293826461
