EC-Lab ASCII FILE
freq/Hz	Re(Z)/Ohm	-Im(Z)/Ohm	|Z|/Ohm	Phase(Z)/deg
6999984	4.83122806109817	3.48244665401315	5.95551838855273	-35.7848239400292
5969734	6.31586462795703	-0.78424616671426	6.36436862922669	7.07823465737692
5091109	7.56204522580451	-0.170937680085588	7.56397697561183	1.29493274545045
4341796	6.8559477170269	-8.54531387799853	10.9556564555539	51.2597550850484
3702781	3.52766787074546	-8.44776076067383	9.15473115257189	67.3352605909236
3157797	0.176279595536905	-8.38451496100351	8.3863678447284	88.7955666948872
2693047	0.551503901916118	-0.160534656008586	0.574393532004407	16.2294993724726
2296687	5.30004751706683	9.36733896443231	10.762785092983	-60.4987854752022
1958656	-9.41431192385189	-11.3457107170819	14.7429447762408	129.684814335957
1670375	-5.89454448841546	-13.3061787778292	14.5533517924038	113.893008882341
1424531	13.7177214318846	-5.73397571068018	14.8678969169636	22.6848143149833
1214875	4.03773107879807	-12.9581226615463	13.5726274234716	72.6930462289715
1036062	3.5201932353044	-8.74891218098032	9.43054742654894	68.0822256684357
883578.1	11.1760486555072	-2.28336412377901	11.4069196224057	11.547110653747
753531.2	12.9842510512884	3.57906255537177	13.4684989563852	-15.4106796578732
642624.9	15.117768136937	-1.70879643147076	15.2140362391574	6.44890354478318
548046.8	4.67157222781605	5.92802155450908	7.54751791189835	-51.7601535050038
467390.6	5.54943943065277	-1.89242939134566	5.86323860982244	18.8300287538565
398593.7	0.808458204632493	-4.10263639511358	4.18153441444025	78.8522279350688
339937.5	5.74033045867113	3.20555893320848	6.5747244694375	-29.1801961961075
289906.2	2.14493696336886	8.68059259016981	8.94166887629692	-76.1204797594441
247234.4	-1.36603850263189	-20.508341617793	20.5537864419862	93.8107808672263
210843.7	4.24662715343083	-2.51453102423825	4.93525160980802	30.6308050122417
179812.5	1.31436368784707	-2.90644033870649	3.18981932817381	65.6663491252666
153343.8	2.54140152143744	-3.34627659490978	4.20193868860619	52.7843671300017
130781.2	97.4663790852607	-34.5266220725339	103.401076801605	19.5062507324037
111531.3	267.534205985023	-249.173160183641	365.597887203877	42.9648674680229
95109.37	34.6798087552826	-545.427490290232	546.528897954723	86.3618711642895
81109.37	-399.685479660915	-397.559612764356	563.739415291427	135.152779758009
69171.88	84.2530745275433	-238.185883619162	252.648165880508	70.5198746078198
59000	195.093705219426	-462.181620156271	501.670612879128	67.1146718397983
50312.5	4.09089996521576	-3.16480772765384	5.1721823709552	37.7263028879859
42906.25	1.99394405843866	-6.52746817687257	6.82522187978288	73.0136734111267
36593.75	10.7417583425685	-3.05903361603564	11.1688432236368	15.8958717779458
31203.13	16.9914674912402	10.7214760142009	20.0912920298561	-32.2515880231078
26609.38	-1.4680515488822	-4.71120183294833	4.93463251528937	107.307489280887
22703.13	-5.45003614676632	13.4599200983445	14.5214442482446	-112.043443823879
19359.37	10.3776754925846	-1.44691110445852	10.4780580440078	7.93731611624017
16500	5.59269052855181	3.60008813182713	6.65122709769225	-32.7699142924729
14112.02	22.7723908779386	0.44383155773573	22.7767155830086	-1.11654749255663
12011.13	6.98323887843701	4.47994095841507	8.29671599033009	-32.6812949103
10236.38	25.9088464766337	-17.2492961713921	31.1256573289333	33.654429347862
8750.684	76.3446439642675	7.66490382619493	76.7284524325597	-5.73321050372936
7449.463	81.4678925240927	171.891747271738	190.220372968954	-64.6414422213366
6363.206	226.604279751432	32.8114819689739	228.967449543959	-8.2389612066427
5414.761	-126.442898650132	223.249191634527	256.569694594895	-119.526158036729
4620.567	303.974083975921	-2.44865692151746	303.983946368422	0.46153497919063
3941.215	254.150288960653	-103.40582434669	274.381365780553	22.1398741560343
3361.769	135.524413295305	-37.6647872890698	140.660949806858	15.5316138596914
2867.244	96.5369271333128	265.744338392466	282.735621540675	-70.0354387920367
2442.658	322.080829604809	74.028339171184	330.478828065227	-12.9442739667515
2083.003	742.383637241308	-99.6845179931706	749.046372377014	7.64772032826925
1777.843	327.981014886702	-220.249151142763	395.071176758339	33.8825524939933
1513.548	210.205476527982	309.74203468808	374.334703727917	-55.8373440934666
1292.065	378.84222657086	13.9638095301961	379.099486427722	-2.11091918375294
1101.762	33.0158388296293	348.354375348521	349.91544184	-84.5858738867225
939.101	-52.0837995796898	-247.331246868244	252.755747424381	101.891777609751
801.2801	430.420494459201	188.893527410465	470.045281593243	-23.6946581584793
684.3433	554.658674464982	-478.127996883532	732.292719179366	40.7620624697071
582.9476	576.806448560884	499.049886372917	762.729616699286	-40.8661860898162
497.0677	788.355623796092	-861.555950208943	1167.81130535346	47.5403308030212
423.5089	331.770128845706	-628.924460652332	711.067785517754	62.1874639847912
361.5036	198.078279218786	-1570.78541937885	1583.22513826412	82.8128559896901
308.1262	903.307787137304	-69.3775752106204	905.968104430282	4.39191802420149
262.7298	595.602679951236	-1186.693330497	1327.77393143982	63.3478754072697
224.2111	1957.08458362677	-216.167272098437	1968.98663200035	6.30298265351926
191.2854	994.60204097533	-2758.02496302619	2931.88248683127	70.1696255076563
163.1722	-8.76885037610214	1849.30177147585	1849.32256102623	-90.2716778624827
139.1537	-22.129421598955	2811.57203028436	2811.65911745674	-90.4509563565791
118.6706	-2970.5144008523	-3607.34514059399	4672.99633736621	129.470184345901
101.1982	1618.42243728347	1117.48357667721	1966.73860226667	-34.6241890640107
86.24196	2738.04794700386	3864.20546823391	4735.92551259212	-54.6798776740551
73.61024	3901.62678726629	1261.85215416847	4100.60513169623	-17.9220854542244
62.69291	5936.06656118244	-1744.44028619667	6187.07993571234	16.3765547201709
53.57697	5019.88368629789	2947.43357227258	5821.2195360525	-30.4194007745723
45.65746	7266.86337053971	3106.20710003663	7902.89983451705	-23.1441946863853
38.96512	-3200.51682688238	-5527.60576246924	6387.31034352022	120.071098195678
33.18414	1242.99550119864	-3088.93987843043	3329.6527429385	68.0800484288142
28.30617	8951.21271534319	-2325.39211652838	9248.33269140627	14.5626849323457
24.17237	3322.0301424833	676.940054511033	3390.29970724847	-11.5176434343434
20.61345	2981.78817254306	-4718.9791412746	5582.09860551589	57.7123771259219
17.55618	7722.19157746803	-713.848446018708	7755.11588327354	5.28147911889232
14.98558	2279.90400211241	6164.47091339412	6572.56904877616	-69.7032951581993
12.76553	4013.20775002908	-1625.35578839482	4329.85194709496	22.0480290214749
10.8809	2184.29087461347	680.8253076704	2287.9356906356	-17.3118223770527
9.278505	2523.91346499427	569.665538158051	2587.40371881627	-12.7189468546604
7.923394	1936.52998818836	-614.86591755696	2031.79932368479	17.6151175859052
6.75822	-1149.79437400256	9884.48764884755	9951.1367784142	-96.6350044309851
5.761429	8138.54523701678	-4882.21071943902	9490.62169112086	30.9590124260265
4.919708	2308.64503115659	8020.23777628727	8345.9005426658	-73.9414066730025
4.191257	1515.79967728945	-7776.80697243264	7923.15438118858	78.9706010155428
3.564097	5914.00384796927	-1363.48920792313	6069.14691978355	12.9828340263638
3.051758	-2263.6163948513	8245.40934347536	8550.48153173319	-105.351239480972
2.604164	12494.0397369582	-428.228112916692	12501.3762548523	1.96302101513803
2.214424	6942.18460070771	4889.19840534965	8491.0651909626	-35.1560314077629
1.892567	3976.15190243559	4030.52880216732	5661.70878590047	-45.3891149245789
1.607507	6547.91514716393	-3225.20517115146	7299.11920511516	26.2227599449807
1.376413	2685.1329780709	-4289.09962344379	5060.26824286515	57.9519307800661
1.17375	2414.26513149332	-2091.867267299	3194.46158047666	40.9076625046057
1.001604	3211.29081827567	-1420.75600787034	3511.54330080682	23.8658063814628
