EC-Lab ASCII FILE
freq/Hz	Re(Z)/Ohm	-Im(Z)/Ohm	|Z|/Ohm	Phase(Z)/deg
6999984	3.35791804645619	3.00490249803736	4.50611280700199	-41.8244293542828
5969734	2.38418131432031	3.64292262236158	4.35375766115523	-56.7964811720935
5091109	2.03429054548885	6.36216835653506	6.67948532600839	-72.268427207
4341796	9.15048116673052	7.74315243500582	11.9869810717472	-40.2379550561891
3702781	17.7054633946704	11.0996057872521	20.8970017622723	-32.0837171187124
3157797	36.1062107777024	4.28658404867967	36.3597752953765	-6.77055059181372
2693047	3.57116110114564	-15.8177611033277	16.2158798075307	77.2776826182698
2296687	4.05333881332512	-20.7566235924586	21.1486873941296	78.9503756053747
1958656	-0.441980477663738	-15.4077809925938	15.414118912814	91.6431096409078
1670375	-8.06533101299456	-15.7304041216009	17.6775331474177	117.145231919063
1424531	-8.31551955353219	-17.6810290761393	19.538849880084	115.187950795116
1214875	8.3133347448649	-6.19544197354315	10.367981280255	36.6950075046402
1036062	-7.27924939194592	-11.795254214948	13.8605733541364	121.680135571744
883578.1	-0.569293373132356	0.502915681425819	0.759617750790759	-138.542512665562
753531.2	4.41441926862857	-3.15322138108406	5.42493341501671	35.5382343641608
642624.9	2.49573330439057	2.73391770462524	3.70175508945522	-47.6077335580404
548046.8	-5.40883896595403	-8.66865229719622	10.2176842586424	121.962259990066
467390.6	0.0149944558547565	-0.115157909169375	0.116130003662457	82.5813810404573
398593.7	-0.00615422959393967	-0.00799986864044821	0.0100931878095748	127.570771959263
339937.5	-0.0145138858733465	0.00212892970117206	0.014669193052689	-171.655233336439
289906.2	-0.0142294602070554	0.00896636705794079	0.0168188369396311	-147.783863534786
247234.4	-0.0147173474270847	0.0105367069756071	0.0181003455541413	-144.399688317846
210843.7	-0.0140413475654163	0.00951892450271463	0.0169637662428248	-145.865830019806
179812.5	-0.0116934373474596	0.0115727890210451	0.0164519276294477	-135.297107826602
153343.8	-0.0115318796564641	0.0112601964156245	0.016117576484373	-135.682937605843
130781.2	-0.00973828200681862	0.011403302582707	0.0149956475764503	-130.496924714776
111531.3	-0.00696269069556563	0.010888207447119	0.0129240908049121	-122.597727480646
95109.37	-0.00569848921875163	0.0102860419971533	0.0117590577574664	-118.986546385275
81109.37	-0.00440350619770472	0.00900707136584828	0.0100258765912367	-116.053747319339
69171.88	-0.00354356937589338	0.00800505435581599	0.00875430060949119	-113.877367134534
59000	0.000866018712446156	0.0152472682073264	0.0152718425933629	-86.7491906337979
50312.5	-0.00114058424704326	-0.0135601095147824	0.0136079940651624	94.8080139096515
42906.25	-0.0118871697554103	0.0120429688896256	0.0169215219312694	-134.626976389417
36593.75	-0.00195882340169848	-0.00724730275095589	0.00750735547866587	105.124691968777
31203.13	-0.0027008599135684	0.00698535369350638	0.00748931308573115	-111.138800761147
26609.38	-0.00234928486931987	0.00362809659174224	0.00432229386740732	-122.924084240752
22703.13	-0.000711291154398197	0.00288750294127012	0.00297382049595612	-103.838401718708
19359.37	-0.000701915990246581	0.00260847830481515	0.00270126731814072	-105.060979061959
16500	-0.000541807735207102	0.00223792068154257	0.00230257347305275	-103.609619671113
14112.02	-0.000433444519134802	0.001953519191236	0.00200102758144294	-102.510056366477
12011.13	-0.000337913803578168	0.00170830364069556	0.00174140376348002	-101.189044874023
10236.38	-0.000250249866329816	0.00154713432488094	0.00156724267898207	-99.1880470703086
8750.684	-0.000170793897228606	0.00136830025956241	0.00137891847316986	-97.1149711759662
7449.463	-0.000111770905836727	0.00124030822196581	0.00124533418039799	-95.1493248682109
6363.206	-0.000106329932768843	0.00109000052114595	0.00109517450239725	-95.5715947632223
5414.761	-4.10898166003532E-05	0.000993654432569682	0.000994503647250038	-92.3679585475278
4620.567	-2.52405535756573E-05	0.000827474259747484	0.000827859128167017	-91.7471587765036
3941.215	-7.67983985355156E-06	0.000775506639163829	0.000775544664946741	-90.5673813805497
3361.769	2.42004514795374E-05	0.000652896546875274	0.00065334490338065	-87.8772299408515
2867.244	2.37810446480166E-05	0.00053812933754643	0.000538654547936533	-87.4696277653954
2442.658	6.71139376402785E-05	0.000490109011525876	0.000494682851738824	-82.2025986420963
2083.003	9.11073294114715E-05	0.000442391156792346	0.000451675194227622	-78.3630365695861
1777.843	9.8238636246884E-05	0.000387564496270095	0.00039982129560685	-75.776418603468
1513.548	0.000124976044347342	0.000315022630999139	0.00033890746480762	-68.3607404526488
1292.065	0.000120796182829607	0.000257222637950987	0.000284174599956907	-64.8444411681514
1101.762	0.000132007825440554	0.000204968125930516	0.00024379909479941	-57.2168144697574
939.101	0.000123408490276344	0.000188165225774105	0.000225024015747001	-56.7410646941485
801.2801	0.000137070345085291	0.000103138803197688	0.00017153976864521	-36.9596910876788
684.3433	0.000165454154439008	6.63688870961267E-05	0.00017826919642918	-21.8572799123199
582.9476	0.00021729523728658	7.46883917411535E-05	0.000229772879183578	-18.9687934022592
497.0677	0.000122222288086796	-6.16935502647681E-06	0.000122377892801823	2.88963872818674
423.5089	0.000138859732968851	-4.30035126522052E-05	0.000145366184309174	17.2072461202854
361.5036	7.99209261362004E-05	-1.93219487192122E-05	8.2223428150229E-05	13.5912235315455
308.1262	3.56003182018769E-05	-3.83955328862242E-05	5.23602864936014E-05	47.163336032981
262.7298	3.78434150270949E-05	-4.31587946917049E-05	5.74003973867227E-05	48.7543768047019
224.2111	2.38380865540045E-05	-9.25538634589359E-05	9.55744317886932E-05	75.5568611763739
191.2854	4.61551525700955E-05	-2.22971652602626E-05	5.12587718094402E-05	25.7847967359606
163.1722	-4.45828244554427E-05	-7.79055018263227E-05	8.97602108466552E-05	119.781124255562
139.1537	-3.27708815306372E-05	-7.46432728977747E-05	8.15202359245036E-05	113.703073373255
118.6706	-1.72186393671887E-05	-6.0451706260685E-05	6.28561081477802E-05	105.898700654219
101.1982	3.08117069276289E-05	-6.03950011054704E-05	6.78005711061778E-05	62.9706972907351
86.24196	-3.72875479373838E-05	-5.53829406428064E-05	6.67654951709886E-05	123.951111088524
73.61024	-5.63797944203404E-05	-5.93413383538104E-05	8.18539898630559E-05	133.534002099426
62.69291	1.90191419510093E-05	-6.77963365125265E-05	7.04135711711341E-05	74.3294136918651
53.57697	-1.76664125825297E-06	-6.82959438882468E-05	6.83187893110082E-05	91.481764725799
45.65746	7.32733710684161E-05	5.49450558982161E-05	9.15857307411362E-05	-36.8649066796304
38.96512	6.93007655553847E-06	-7.22561913701203E-05	7.25877617259347E-05	84.5215307263293
33.18414	0.000117816371894891	4.7490611120677E-05	0.000127027775037945	-21.953874867001
28.30617	3.04733009733824E-05	-5.87686583163059E-05	6.61995262257447E-05	62.5919148923741
24.17237	6.92806423990332E-05	1.7557698536516E-05	7.14708345349478E-05	-14.2209843624856
20.61345	3.70088823911946E-06	-8.96125266990464E-05	8.96889152300648E-05	87.6350979766292
17.55618	1.31043315521217E-06	8.6483045075157E-05	8.64929726655635E-05	-89.1318929206289
14.98558	6.44020260716777E-05	-4.13865883663403E-05	7.65537109403715E-05	32.7259627000084
12.76553	7.29065508785091E-05	5.36478322799404E-05	9.05177058333741E-05	-36.3472622300415
10.8809	5.72873879124447E-05	-3.08086931603278E-05	6.50462941917382E-05	28.2710038484821
9.278505	0.000179512475504893	-0.000105457489704184	0.000208197048481968	30.4327907982445
7.923394	1.02938516544199E-05	-0.000103477065184781	0.000103987818522837	84.318932849971
6.75822	4.32119997013168E-05	-5.45084300511341E-05	6.95589380656863E-05	51.5940931472411
5.761429	-2.3214814299178E-06	-8.74647687376475E-05	8.74955715814212E-05	91.5203820811908
4.919708	0.000104184387426754	-5.42675984679995E-05	0.00011747067219937	27.5141208715363
4.191257	-1.40347213846196E-05	-8.46682515917212E-05	8.58235762010818E-05	99.4118443850867
3.564097	-5.6058383817364E-06	-6.71747331540615E-05	6.74082353891682E-05	94.7703705825114
3.051758	5.89644019873812E-05	3.69916283218564E-05	6.96073363061097E-05	-32.1023210583203
2.604164	5.56545559536518E-05	4.85057504413233E-05	7.38257233237447E-05	-41.0737916173039
2.214424	6.05696686876101E-05	-3.13937280276921E-05	6.8222070654617E-05	27.3980568109766
1.892567	-1.08345451498141E-05	-6.784401204263E-05	6.8703692321766E-05	99.0733982155029
1.607507	7.39105541816167E-05	-4.92088081423429E-05	8.87934503115157E-05	33.6552257591972
1.376413	7.44130789538766E-05	4.86954884118275E-05	8.89300675309667E-05	-33.2005035346696
1.17375	5.67030548744324E-05	3.49432166883522E-05	6.66052912659499E-05	-31.6434219714662
1.001604	8.01773829693439E-05	-0.000216300483260741	0.000230682274565349	69.6614692391548
