EC-Lab ASCII FILE
freq/Hz	Re(Z)/Ohm	-Im(Z)/Ohm	|Z|/Ohm	Phase(Z)/deg
6999984	2.90062663424993	0.534452188730884	2.94945317192176	-10.4398869033905
5969734	4.78277733948319	0.517856998152917	4.81073122816166	-6.1796477585394
5091109	6.24368336222505	-4.62153529030231	7.76802229446051	36.5086128747283
4341796	3.16626759092248	-5.60977807866832	6.44165045227026	60.5587741563524
3702781	1.2543343910168	-6.14199940070637	6.26877271902283	78.4576319015622
3157797	1.26448173120485	-6.23275189816497	6.35972564444645	78.5316580486931
2693047	-0.164394452651352	-7.15015795669453	7.15204756288328	91.3170966554784
2296687	-1.811706781905	-6.1880416790475	6.44780127525884	106.31873601383
1958656	-2.23135859081752	-10.5294424636457	10.763276441495	101.96488702441
1670375	-6.69997629740746	-7.24197025051717	9.86589152054681	132.773744401067
1424531	-4.52101179462574	-7.66077890178343	8.89534041108912	120.546996940313
1214875	2.9505721296755	-7.35847876131564	7.9279937924516	68.1504076460563
1036062	-4.36275931856544	-7.72781119116414	8.87427375496222	119.447032565221
883578.1	1.1942356661504	-11.1082723564709	11.1722832747761	83.8637751775191
753531.2	8.22153452639972	2.94253105266573	8.73224592900846	-19.6925594186464
642624.9	5.71734722656715	5.44369003230434	7.89441704478201	-43.5954476286101
548046.8	0.940144723692456	0.538762337572538	1.08357600465929	-29.815434503569
467390.6	0.0420322123279729	-0.138854995253204	0.145077277958856	73.1586317332948
398593.7	0.036290912071902	-0.112925197790621	0.118613366005106	72.1840878195568
339937.5	0.0419511515599521	-0.112306550738131	0.11988603111248	69.5172557621204
289906.2	0.0446988982234969	-0.110447621073328	0.119149773407892	67.9664881938193
247234.4	0.0445909339361063	-0.10391101796571	0.113074537558039	66.7745640926086
210843.7	0.0442945785793942	-0.0997756943128046	0.109165923561926	66.0615754123478
179812.5	0.043387361655057	-0.0935787589208867	0.103147696399678	65.1254196708836
153343.8	0.0411066273396946	-0.0857582844177559	0.0951011995587923	64.3901429323922
130781.2	0.0402613027740378	-0.0784967825027389	0.0882197107473439	62.8465373365302
111531.3	0.0382220763595745	-0.0722229112980714	0.0817133773479364	62.1111460064798
95109.37	0.0371481635842784	-0.0658536670430577	0.0756088058410012	60.572582439215
81109.37	0.0387378099139534	-0.063720647360298	0.0745717025214326	58.7032503368212
69171.88	0.0474461101570995	-0.0658459029745378	0.0811592034680717	54.2248804297858
59000	0.0467870147985749	-0.0630223835853318	0.0784910541815994	53.4102776845586
50312.5	0.847874392399167	-0.641112354140248	1.06297508715751	37.0944106540479
42906.25	0.471994569822496	-0.478387349968141	0.672036703277033	45.3853964284885
36593.75	0.271064736248533	-0.276230335277548	0.387013293524955	45.5407653937942
31203.13	0.154257088188499	-0.176603567937017	0.234486821515579	48.863914875975
26609.38	0.0882188993541945	-0.125212237794087	0.153168791523171	54.8332011800321
22703.13	0.050070722989978	-0.0940401771635332	0.106539345885395	61.9673908956815
19359.37	0.0269870636384775	-0.0722795766098375	0.077153345998243	69.5258501290473
16500	0.0219163284559351	-0.0574475671801153	0.0614861645242431	69.1180760662527
14112.02	0.00549031560677679	-0.0438031748331273	0.0441459136378843	82.8557705285454
12011.13	0.000213619787323956	-0.0331172096291552	0.033117898590263	89.6304234981723
10236.38	-0.00238695450429723	-0.0245969788798594	0.0247125256058914	95.5427749861272
8750.684	-0.00328269102832413	-0.0178338993765931	0.0181335056556058	100.429703908137
7449.463	-0.00350495005594848	-0.0130623999551714	0.0135244581216238	105.020012579607
6363.206	-0.00316746897521608	-0.0098546390798008	0.0103511724506016	107.818395746805
5414.761	-0.00249572171351185	-0.00814185513180676	0.00851577547018606	107.041866047064
4620.567	0.0324851709601696	-0.00617919886403084	0.0330676402380437	10.7699105933859
3941.215	0.0297565173430325	-0.00579021366221472	0.0303146317582828	11.0113779265658
3361.769	0.0364289554294663	-0.00646871569130511	0.0369988253377993	10.0690972662716
2867.244	0.044203478741378	-0.00687355345735307	0.0447346987244862	8.83859591671481
2442.658	0.0506348189681527	-0.00746262579781399	0.0511817904702033	8.38397109501236
2083.003	0.0558091970380674	-0.00813844806231876	0.0563994752714677	8.29674972985959
1777.843	0.0602787736088441	-0.00894699707214334	0.06093914427029	8.4426018661881
1513.548	0.0634783914267919	-0.00960352104570829	0.0642007304834483	8.6029269164216
1292.065	0.0661419868498882	-0.0098171480207075	0.0668665747568339	8.44251019294087
1101.762	0.0678433228151229	-0.0103141173595393	0.0686228640287137	8.64439760163317
939.101	0.0698808385561898	-0.0100545969400071	0.0706004710815888	8.18764137693283
801.2801	0.0719518978322972	-0.00730787329338691	0.0723220617359705	5.79942150653468
684.3433	0.0735675816143025	-0.00949985154146913	0.0741784082054004	7.35794119380389
582.9476	0.0766807300049681	-0.00852637510730439	0.0771533111834176	6.34483722045356
497.0677	0.0822625132769865	-0.006265345599737	0.0825007614881859	4.35539998617103
423.5089	0.0903159269254979	-0.00349325931876482	0.0903834582049172	2.21499467540727
361.5036	0.0980173470847265	-0.00223828278120782	0.0980428999945248	1.30815489248869
308.1262	0.105724674500981	0.000530699399009219	0.105726006451537	-0.287601551069191
262.7298	0.114926426290531	0.00256103974006576	0.114954958068206	-1.27657746952564
224.2111	0.119801173599848	0.00289866246609786	0.119836235922167	-1.38603589966523
191.2854	0.128889614270657	0.00300141995268448	0.128924556189157	-1.33399127834452
163.1722	0.142795722729543	0.00323893380921793	0.142832451221958	-1.29937660610949
139.1537	0.15076142761485	0.00212024948085046	0.150776336055525	-0.805732212643033
118.6706	0.162347290375131	-9.18537039555367E-05	0.162347316359865	0.0324171040709652
101.1982	0.180923720135673	-0.00329405309580471	0.180953704835047	1.04306107166874
86.24196	0.190188802450218	-0.00806922214570066	0.190359903665359	2.42945564291372
73.61024	0.191032868976373	-0.0113798018211081	0.19137151543224	3.40907309792762
62.69291	0.203549318736158	-0.0149532595032145	0.20409783224651	4.20154878606471
53.57697	0.212514702732144	-0.0197132268076325	0.213427060581597	5.29968829057937
45.65746	0.229307248213561	-0.0247710727521917	0.230641323549294	6.16550716015557
38.96512	0.245074871084643	-0.0286511352992023	0.246743956341564	6.66804844226481
33.18414	0.249142777666577	-0.0329798390422704	0.251316122536282	7.54058867973569
28.30617	0.245453377621252	-0.0352322048374385	0.247969088483601	8.16840145417234
24.17237	0.256216759657479	-0.0403040112126219	0.25936738663372	8.93961983515228
20.61345	0.261897888264007	-0.0440485593856186	0.265576315700581	9.54721292899876
17.55618	0.263519521813115	-0.0450985607793348	0.267350740715227	9.71147992886277
14.98558	0.256838732066835	-0.0450778799925904	0.260764548116353	9.95462029880449
12.76553	0.265423461531933	-0.0484771317528528	0.2698140956929	10.3504596507265
10.8809	0.251740737565507	-0.0466642435447968	0.256029198677872	10.5015085142569
9.278505	0.246034243593614	-0.0446866319519995	0.250059481115784	10.2942811389139
7.923394	0.271201653848023	-0.0524624340737407	0.276229332328854	10.9483181916337
6.75822	0.278377997555991	-0.0554989428189669	0.28385637596733	11.2749671602158
5.761429	0.273863761846514	-0.0540663078476814	0.279149647495755	11.1677495680129
4.919708	0.246851928347793	-0.046784955239475	0.251246306571427	10.731774522542
4.191257	0.262498524307941	-0.0506991586647406	0.267349733407683	10.9315477169702
3.564097	0.297199748661263	-0.0601367447461389	0.303222886129956	11.4390393544294
3.051758	0.302236840556848	-0.0634958045023088	0.308834623996696	11.8645120835156
2.604164	0.324403015983802	-0.0728141709737427	0.332474390403201	12.6507075812603
2.214424	0.339823701851673	-0.0746216019934997	0.347920295217527	12.3849640263007
1.892567	0.336637334446735	-0.0736902845887427	0.344608405274992	12.3473493470503
1.607507	0.355858893181585	-0.0801586802368388	0.364775226507687	12.6942409145343
1.376413	0.2348393803627	-0.135588344565595	0.271171041505496	30.0006889474687
1.17375	0.319711896195713	-0.208318497018945	0.381591788131363	33.0875391757816
1.001604	0.328589431234208	-0.213127069304474	0.391655667633107	32.9679285064701
