EC-Lab ASCII FILE
freq/Hz	Re(Z)/Ohm	-Im(Z)/Ohm	|Z|/Ohm	Phase(Z)/deg
6999984	9.46115219704413	-17.0205377232396	19.4733691302726	60.9317696809825
5969734	-13.237631005493	32.624974877901	35.2082924951106	-112.084925968247
5091109	2.56325161044904	36.6682429347777	36.7577243411822	-86.0013088238136
4341796	60.8228715832359	76.9185172283675	98.0605935136101	-51.6650195927003
3702781	38.2993463666724	75.3852787874452	84.5563728525247	-63.0672406792146
3157797	31.9841496206667	35.6228900926609	47.8745874709224	-48.0807961615902
2693047	0.0217563984547847	0.625843510977484	0.626221559119731	-88.0090102337316
2296687	-6.19876787598058	-58.8229029514364	59.1486148173767	96.0156370544487
1958656	149.491968303413	76.8908925304805	168.107281048034	-27.2189330154849
1670375	62.785846484946	-71.25201732958	94.967955081522	48.6141453843436
1424531	19.5370337951271	80.8219970468764	83.1498099586357	-76.4106255868983
1214875	42.8837063412236	31.4908284877518	53.2041779224649	-36.2909863154037
1036062	100.748015577404	79.7013613789256	128.461938520478	-38.3473834083298
883578.1	112.324782804214	8.68196261193309	112.65981229706	-4.41979700459697
753531.2	59.7867203440199	199.20616848795	207.984493395887	-73.2941935476227
642624.9	241.534364938338	-56.2923562773775	248.007416867774	13.1192495478065
548046.8	91.998171204246	140.322596211035	167.791818967228	-56.7503867174752
467390.6	84.7785204887243	138.040392351085	161.995516779627	-58.4435285682884
398593.7	91.0805460128625	127.419840738976	156.625290665164	-54.4425642848898
339937.5	-15.3519215069863	-77.7009534013805	79.2030280572667	101.176382506751
289906.2	-3.08243740467523	5.40388858934461	6.22120826204925	-119.700910164244
247234.4	6.69330451825533	0.612673378666186	6.72128663598149	-5.23000974719792
210843.7	1.95352150350257	1.61398058460401	2.53400465511128	-39.5631883904415
179812.5	2.13946944271971	1.14727661358198	2.42766824842348	-28.2021457806632
153343.8	1.93582324274342	5.37476120835251	5.7127462462424	-70.1925438194615
130781.2	5.53290304264446	-5.56379228972218	7.84657891838706	45.1594906290244
111531.3	-0.773744819259764	0.42948482771684	0.884950994445618	-150.966529495179
95109.37	-0.597419664784188	0.376678988954284	0.7062558435797	-147.768164491199
81109.37	-0.603433824694166	0.3127156989	0.679649534042028	-152.605589859709
69171.88	-0.587631558853515	0.246158228150318	0.637106523468969	-157.271242481239
59000	-0.580019728062132	0.232170243232209	0.624760679607618	-158.184766389796
50312.5	-0.557375126436532	0.194547667233929	0.590352290074582	-160.7588365802
42906.25	-0.584743838499131	0.175254809200745	0.610442138790145	-163.31588992409
36593.75	-0.564995801844475	0.161215331746139	0.587546286935675	-164.074486044843
31203.13	-0.554859433739349	0.142405280567679	0.572842260262903	-165.605658456551
26609.38	-0.549583240530956	0.124540664911895	0.563517626600272	-167.231884566471
22703.13	-0.546080310483672	0.104904099312503	0.556065261952688	-169.125739262496
19359.37	-0.5394297002451	0.0984360171172782	0.548337533798692	-169.65836082885
16500	-0.535315456046239	0.0872848038291028	0.54238480294112	-170.739245709364
14112.02	-0.53248772709521	0.0788453319766883	0.538293382721297	-171.577425667861
12011.13	-0.528490250505048	0.0705267518722779	0.533175362904685	-172.39881796296
10236.38	-0.525669670050786	0.063545248566138	0.529496553932728	-173.10728027664
8750.684	-0.522567517327908	0.0577199776020386	0.525745571527363	-173.696968439388
7449.463	-0.520599947606051	0.0501604108847665	0.523010872035708	-174.496473746714
6363.206	-0.516859837172422	0.0489618713354748	0.519173724418497	-174.588548064391
5414.761	-0.514601021560502	0.0444727715409421	0.516519156275588	-175.060665287579
4620.567	-0.51294141410907	0.0419360796134085	0.514652823835209	-175.326116634063
3941.215	-0.509527070441215	0.0375325032110029	0.51090754966989	-175.787118476025
3361.769	-0.506909184499166	0.0343415837771978	0.508071122684547	-176.12430413846
2867.244	-0.504647673934356	0.0318205703705164	0.505649902112183	-176.391990020345
2442.658	-0.502959711637603	0.0302757609085158	0.503870115435685	-176.555225696178
2083.003	-0.501474833249119	0.0290133673836645	0.502313431902006	-176.688782158223
1777.843	-0.502319981828822	0.0254308736959844	0.502963312261887	-177.101770136953
1513.548	-0.497775690196602	0.0254488454380543	0.498425803389866	-177.073294134535
1292.065	-0.495346915510944	0.0251374437240513	0.495984332195268	-177.094894643412
1101.762	-0.49346385846237	0.0247900704868146	0.494086153624357	-177.124058195184
939.101	-0.491473220521042	0.0255553493575681	0.492137178406704	-177.023446806359
801.2801	-0.490290765200585	0.0247260216606094	0.490913852511962	-177.112942813958
684.3433	-0.485836106949598	0.022804213645519	0.486371005484426	-177.312618605561
582.9476	-0.484543312206428	0.0200247977922301	0.484956919664619	-177.633474970834
497.0677	-0.482434929474485	0.0219706166053201	0.482934953354041	-177.392488922202
423.5089	-0.481983644699621	0.0192942950174238	0.482369675226532	-177.707615709524
361.5036	-0.478508175445619	0.0204785962970879	0.478946183693528	-177.549422062289
308.1262	-0.476709393346207	0.0194126271144914	0.477104491485875	-177.66808162166
262.7298	-0.475924000375812	0.0192686176941377	0.476313902549105	-177.681546129846
224.2111	-0.473850367700953	0.0189487781012543	0.474229087216145	-177.710022132264
191.2854	-0.470753990863909	0.0218184107507579	0.471259337267694	-177.346365819694
163.1722	-0.468438200940627	0.0210041444380009	0.468908863409579	-177.432653263641
139.1537	-0.468986345760712	0.017987240990427	0.469331155314064	-177.803586140209
118.6706	-0.46505355669071	0.0159956135784242	0.465328561603981	-178.030076356624
101.1982	-0.464206001818898	0.0177416035573183	0.464544913459907	-177.811263774664
86.24196	-0.465051717843549	0.0161217296217929	0.465331076154639	-178.014549200376
73.61024	0.370294795410408	0.242908465672413	0.442857491980617	-33.2643424922031
62.69291	0.484767875866227	-0.302217605025261	0.571257712647329	31.9405464248651
53.57697	0.374939325942655	-0.265587744738914	0.459473990878521	35.3117957139472
45.65746	-0.11820760686347	0.420932838338015	0.43721561352688	-105.685961424887
38.96512	-0.126145865952137	0.447063335789057	0.464519542865156	-105.757237374602
33.18414	-0.120211677281805	0.433301647166188	0.449667838289372	-105.505708902539
28.30617	-0.460263844863525	0.0228098318989747	0.460828704965104	-177.162847437914
24.17237	-0.132652976863792	0.436899742166563	0.456594127180842	-106.889516569339
20.61345	-0.442716799995529	0.011129434278059	0.442856669031449	-178.559947725561
17.55618	-0.443362027436212	0.0111611821079287	0.443502490814194	-178.557942373278
14.98558	-0.445457023257771	0.0161837322351692	0.44575090887034	-177.919323614825
12.76553	-0.444065914646372	0.014915853144632	0.444316350392095	-178.076199459132
10.8809	-0.441933280437561	0.0146411463832837	0.442175742805642	-178.102498221929
9.278505	-0.440953789574705	0.0150263094251798	0.441209739823629	-178.048296414509
7.923394	-0.439396913325975	0.0132815864627807	0.43959759778616	-178.268655982516
6.75822	-0.12037019286322	0.419771254750529	0.436688549935491	-106.000343367076
5.761429	-0.43464264688662	0.00982705509396652	0.434753725118517	-178.70479145617
4.919708	-0.43565123734236	0.0132080470540465	0.435851411727565	-178.263442066581
4.191257	-0.121715829491572	0.413888508064433	0.431414464589011	-106.387490949245
3.564097	-0.43330943154544	0.0151254547903899	0.433573341949027	-178.000798213293
3.051758	-0.120969721384199	0.414149964588885	0.431455521068795	-106.282639672736
2.604164	0.35063951348173	0.245995767812988	0.428324627118971	-35.0520854045703
2.214424	-0.121019008082006	0.417554709487784	0.434738468199653	-106.163063380893
1.892567	0.353940455502437	0.243838615263939	0.429803578783504	-34.5639482814306
1.607507	0.348969822272704	0.244990575983093	0.426380486393984	-35.0703684878129
1.376413	0.35203249107391	0.242297696768723	0.427358220502578	-34.5389444032511
1.17375	-0.109404000403	0.410256298381225	0.424593294419076	-104.931719783377
1.001604	-0.131246353157641	-0.41759503957188	0.43773419136757	107.447462870237
