EC-Lab ASCII FILE
freq/Hz	Re(Z)/Ohm	-Im(Z)/Ohm	|Z|/Ohm	Phase(Z)/deg
6999984	-0.55296530559638	0.84958783850052	1.01369133592099	-123.058614731049
5969734	-0.902601261717488	0.297908555175093	0.950493842642082	-161.734239930631
5091109	-0.529471425192366	0.179797714062507	0.559166529825721	-161.243558874881
4341796	0.0347176453941657	0.301368674951476	0.303361818862763	-83.4284991405582
3702781	0.833419365517683	0.192922308072256	0.855457103408362	-13.0334319292518
3157797	1.69182493593465	-0.829345556176539	1.88416710124131	26.1144480033892
2693047	1.69950242680242	-3.35107527443665	3.75739457518744	63.1080925700075
2296687	0.497829394587682	-3.35761599072428	3.39432161812679	81.566271714824
1958656	-2.3990021748973	-5.98956087540455	6.45213537639585	111.827610622454
1670375	-6.92754402470444	-7.86362978999791	10.4798635338615	131.378764057262
1424531	-13.7028844383138	-8.68906174699317	16.2255611913069	147.62102892941
1214875	4.81916060209521	3.2978509860077	5.83953166227383	-34.3846411394444
1036062	5.14841775530132	2.56964443521962	5.75406620630637	-26.5243993058053
883578.1	6.79792557756374	2.82626227105659	7.36203440516908	-22.5752762437102
753531.2	2.08521740510326	4.55934741079081	5.01355965745202	-65.4230139496745
642624.9	1.33325343438247	5.89887757267262	6.04767073654582	-77.2641035185252
548046.8	0.825607882331278	7.06009540637426	7.10820480307612	-83.3301222871342
467390.6	0.629999451253334	7.94421239594064	7.96915365019375	-85.4657651727049
398593.7	0.629602443670723	8.64712798094761	8.67001854415337	-85.8356094294618
339937.5	0.739049074492258	9.12567525552634	9.15555254497693	-85.369966629359
289906.2	1.05775388565413	9.47625843124949	9.53510970772982	-83.6309251295779
247234.4	3.32420642306912	33.3997031244249	33.5647213178196	-84.3161826525544
210843.7	4.06380451463326	31.2382080258276	31.5014308849302	-82.5879700551013
179812.5	4.61217441786241	29.1688854973744	29.5312721368335	-81.0147998370106
153343.8	5.32117514727254	29.9349624832768	30.4042247693168	-79.9205077440902
130781.2	5.98977744377446	33.9585157992819	34.4827236325094	-79.9967684266221
111531.3	8.67463446314191	83.0596750716963	83.5114297930822	-84.0377251641208
95109.37	12.9830244514999	41.6159112957549	43.5940706620108	-72.6735083681575
81109.37	11.8835531661291	27.6661817542878	30.1104043266361	-66.7548543444561
69171.88	11.6596604506259	20.8347483972367	23.8753936637712	-60.7675026811185
59000	9.60060863418194	16.5096629938343	19.0981846864227	-59.821377474019
50312.5	11.2248159458215	14.0114260552791	17.9531766860386	-51.3011283674348
42906.25	11.9713798551662	12.0405906282546	16.9790976884489	-45.1651457224623
36593.75	12.4790069400828	9.91814249589031	15.940362755578	-38.4771927263946
31203.13	13.0224157124765	8.1398281057636	15.357086721769	-32.0079720981961
26609.38	13.5965523109898	6.49688687578646	15.0690336061159	-25.5400291658807
22703.13	14.1812332145744	4.98232002136172	15.030997581046	-19.3580036324916
19359.37	14.5992462037708	3.5277234803642	15.0194148578508	-13.5844053337834
16500	15.8912556925542	2.58280036279361	16.0997784208412	-9.23154183177143
14112.02	14.8082894505797	1.00687770743412	14.8424808967328	-3.8897932824093
12011.13	14.4788273429537	-0.0213590512806553	14.4788430972967	0.0845222182756834
10236.38	13.2055880944652	-0.370486699983111	13.2107841294734	1.60702858603616
8750.684	18.9495958605782	13.9568311096125	23.5346620519924	-36.3725353983847
7449.463	18.3396183641027	17.4633637105466	25.324112498324	-43.5980030203764
6363.206	17.8737242832536	21.8005557932625	28.1910314222258	-50.6525401433467
5414.761	17.5442629447008	26.9821615588072	32.1844404123852	-56.9673887528031
4620.567	17.5180604330148	32.5837178248625	36.9943388726575	-61.7360878337872
3941.215	17.4366479655705	39.5410305875154	43.2149255720528	-66.2036689455403
3361.769	17.7227768430144	47.1134148471892	50.3365739556303	-69.3850743987837
2867.244	18.3766512754886	55.3572363020124	58.327737167644	-71.6356526180575
2442.658	19.4916759441154	64.5527767840892	67.4313459872102	-73.1983377084973
2083.003	21.0171716318392	74.494473537382	77.402507007292	-74.2446159381857
1777.843	23.4042265958462	85.5638985300975	88.7070377941826	-74.7021227375977
1513.548	25.5682193063275	98.5370247846567	101.800192003299	-75.4537860690298
1292.065	27.5872123956083	112.888482571625	116.210428899838	-76.2674434338951
1101.762	30.1747232328443	129.819159441358	133.279886255352	-76.9147138550544
939.101	33.5306905382534	149.916953838063	153.620962944697	-77.392617951973
801.2801	33.8805870784355	173.65873316649	176.932896279266	-78.96034507101
684.3433	39.2518155428942	200.54712303856	204.352278143545	-78.9258530117431
582.9476	42.1757008126571	229.456023121177	233.299927744577	-79.5848690677026
497.0677	47.775043359864	267.204441932067	271.441832730816	-79.8628681899001
423.5089	53.8593014220733	312.458377763768	317.066337198447	-80.2198781920461
361.5036	55.931429308888	363.784244639052	368.058828765376	-81.2592809281929
308.1262	67.4719486573925	423.670895338412	429.009896636986	-80.9513161133101
262.7298	78.6998042231431	491.797914237997	498.05506486091	-80.9083442786753
224.2111	92.773337436908	565.54461504764	573.103484327713	-80.6840313018815
191.2854	108.446224655862	665.635693939124	674.411936940568	-80.7465982931098
163.1722	133.409974709478	776.382993328504	787.76187625558	-80.2497865889519
139.1537	161.309631872856	906.547590595108	920.78734317363	-79.9104809826754
118.6706	206.614934627145	1052.70842599932	1072.79297228354	-78.8957154317192
101.1982	245.011380035553	1221.36162114335	1245.69449944553	-78.6567347353702
86.24196	308.333580964386	1417.20354825104	1450.35702305524	-77.7257356140621
73.61024	390.339346113899	1639.24958753662	1685.08279184247	-76.606118786597
62.69291	508.873286274222	1894.04174057528	1961.21037538683	-74.9614434356739
53.57697	769.041765429746	2133.75125789069	2268.10927151348	-70.1799387479687
45.65746	973.715954370303	2441.62991368953	2628.62690300826	-68.2580091199818
38.96512	1227.78241229524	2770.33708316017	3030.21735297551	-66.0976144576616
33.18414	1540.5947771371	3124.95931768783	3484.07850149019	-63.7568526814341
28.30617	1925.09278627736	3520.56678048437	4012.52697082864	-61.3295742781419
24.17237	2383.51034164501	3894.38866888626	4565.89363138022	-58.5318213645181
20.61345	2926.82535890452	4274.1697816388	5180.23493712407	-55.5978076280562
17.55618	3635.80463367693	4573.95875806706	5842.95935761708	-51.5190815127025
14.98558	4300.1871025594	4907.32745858302	6524.8350096214	-48.772602592165
12.76553	5104.86239255535	5103.21212053379	7218.1988053869	-44.9907373696245
10.8809	5902.89092696951	5237.8582204172	7891.72224757632	-41.5838558352632
9.278505	6878.44221066021	5221.57168610795	8635.84264090982	-37.2029059421339
7.923394	7631.16292358916	5140.87880092254	9201.26526148098	-33.9669319884823
6.75822	8513.58296393708	4972.81031908039	9859.50999560283	-30.2893336254997
5.761429	59219.4215125587	2146.22287722344	59258.3003208903	-2.07559805455651
4.919708	62438.3546890709	-399.40037529462	62439.6321012384	0.366499787515209
4.191257	64892.2706166423	-3072.17938022473	64964.9526431584	2.71051665156837
3.564097	66919.4150132388	-5861.94841760827	67175.669293017	5.00616716875401
3.051758	73517.2179133858	-13327.2627320396	74715.4419223568	10.2750412161534
2.604164	73912.4097851095	-15337.4735867476	75486.9685195143	11.7230029672742
2.214424	74163.4480637391	-17181.6957756896	76127.7065097279	13.0437910061877
1.892567	74218.5048558832	-18706.8813176608	76539.7535381177	14.1468149759059
1.607507	74323.2945349061	-20214.6828184826	77023.2790263714	15.2154271004485
1.376413	74450.8037235154	-21498.4433600283	77492.6141124543	16.1066228437288
1.17375	74508.2133275778	-22694.6386086864	77887.8711664835	16.9403394610016
1.001604	74183.5249461752	-23754.0262786368	77893.8324765572	17.7553891133091
