EC-Lab ASCII FILE
freq/Hz	Re(Z)/Ohm	-Im(Z)/Ohm	|Z|/Ohm	Phase(Z)/deg
6999984	-0.416147980324841	0.396288477431513	0.574650936546205	-136.400280765347
5969734	-0.910124484972602	0.485495970557901	1.03151971167526	-151.922796055252
5091109	-0.815641714768608	0.490267491958052	0.951647844815252	-148.99068453867
4341796	0.245096740406298	0.875104095997512	0.908779176142046	-74.3536498065992
3702781	93.4100991049291	-81.587363352036	124.023967335067	41.1350006985577
3157797	67.8228832683367	-156.062200233209	170.162727518281	66.5107743237304
2693047	-20.0973854188616	1.26921847400534	20.1374232763039	-176.386375033953
2296687	14.4459014590023	10.4400867409309	17.8235653033102	-35.8557274671767
1958656	-15.1008782560911	-0.285254079051657	15.1035722262947	178.9178171644
1670375	-12.4474475757899	-0.0964030969676132	12.4478208819513	179.556264035514
1424531	-9.44078150458529	0.721691467462889	9.46832582833568	-175.628581054113
1214875	5.45185183226839	2.10655956509734	5.84467976901312	-21.1262029544668
1036062	4.19149235224268	2.62805329640139	4.94724895953651	-32.0875903134075
883578.1	3.09335107040272	3.49869435254877	4.67008383407817	-48.518673426941
753531.2	2.15826233494968	4.71525802821443	5.18572604165541	-65.405538736923
642624.9	1.47308747897833	6.12815960506002	6.30272376562801	-76.4836777057775
548046.8	0.991871944479535	7.40851112203511	7.47461350168446	-82.374428684856
467390.6	0.843478205280941	8.32980082777209	8.37239734563145	-84.2179203906894
398593.7	0.871861519616915	9.04995930209394	9.09185931913519	-84.4971800200362
339937.5	-0.100057770118177	35.4477819823068	35.4479231975939	-90.1617272615971
289906.2	1.4399626523667	35.4998050453269	35.5289973218557	-87.6772103745713
247234.4	2.46352321328354	34.0556760939264	34.1446631384294	-85.862538445833
210843.7	3.43180943257034	31.7271781045812	31.9122413261948	-83.8265329208356
179812.5	4.26039258866153	30.3045962623944	30.6026060922309	-81.9974797514394
153343.8	5.23261526706617	31.5779996957345	32.0085977093178	-80.5913267306294
130781.2	6.13856232839096	36.1227078327514	36.6405781699724	-80.3554973021535
111531.3	14.5340285255056	68.6256107681058	70.147789975706	-78.0421802043128
95109.37	15.4091872114081	69.9257805078408	71.6034763831125	-77.5726412912031
81109.37	15.7480346743362	72.1127274505971	73.812235140715	-77.6811022018214
69171.88	16.1160302800345	83.9463732101613	85.479354274156	-79.1325761842263
59000	17.2838231052669	142.68152933208	143.724560718325	-83.0930896472886
50312.5	24.3539961291589	95.9274977351015	98.9707125829505	-75.7547607988121
42906.25	23.996426539885	60.6480598628247	65.2228154238137	-68.4129369077852
36593.75	24.0903448587793	44.504491345505	50.6062690319791	-61.573253228411
31203.13	24.0808355103621	34.0725917639616	41.7232327174046	-54.7492055672659
26609.38	23.7547062509207	26.4542806869719	35.5543954488418	-48.077644893717
22703.13	23.6063111375384	20.3594741138702	31.1731633254571	-40.7764207920531
19359.37	16.3358381397623	3.57286377743331	16.7219904108515	-12.3370762137836
16500	16.151917385548	0.969140896223108	16.1809662661505	-3.43372174227415
14112.02	16.6544315375383	1.02189710096551	16.68575331004	-3.51120225195189
12011.13	16.3315115484898	-0.0752660513087449	16.3316849846222	0.264053730534448
10236.38	15.0469895649632	-0.535711667504764	15.0565229040045	2.03901641821079
8750.684	21.2451510591485	13.5373539135669	25.1915937270194	-32.5051791432327
7449.463	20.7581620605729	17.0943199057829	26.8908360817259	-39.4714120108174
6363.206	20.5993681488681	21.2550901521447	29.5992031228612	-45.897563401556
5414.761	20.6441588759042	26.2428552314471	33.3896502885589	-51.8093476612938
4620.567	21.0288008587716	31.6235766641872	37.977112404626	-56.3771963871947
3941.215	21.98358891487	37.7378224655801	43.6740360628788	-59.77771809003
3361.769	23.4890120453133	44.5953151650065	50.4031330527293	-62.2235603258845
2867.244	25.7810368966117	51.8132908159589	57.8729554165293	-63.5461761001645
2442.658	28.9869349313458	59.5198091332638	66.2030971781097	-64.0333048175847
2083.003	32.6739861558498	68.1804651072859	75.6053251666739	-64.3949557778713
1777.843	0.290125153955688	0.0383331054161003	0.292646599038249	-7.52667153489196
1513.548	3.66612902553696E-05	-0.000181390192075127	0.000185057969253528	78.5737131508557
1292.065	4.57033497997516E-05	-0.000157367181190837	0.000163869539264831	73.8053864924384
1101.762	5.12540966615346E-05	-0.000141119964089493	0.000150139357562265	70.0392203134845
939.101	5.6569982727153E-05	-0.000132400310934919	0.000143979183500302	66.8646903537827
801.2801	5.1994253334277E-05	-0.000121873400786242	0.000132501049803361	66.8956873704993
684.3433	5.15880827569867E-05	-0.000114852684684551	0.000125906590223827	65.8119377010093
582.9476	4.35851563586473E-05	-0.000114465957369316	0.000122483146805108	69.1546880693616
497.0677	3.4854054670537E-05	-0.000112196883572565	0.000117485938777253	72.7425497824708
423.5089	3.12162899692248E-05	-0.00011002104610664	0.000114363837579202	74.1597608887269
361.5036	0.00693568357868466	-0.00534050156692111	0.00875355149010519	37.5964018966739
308.1262	0.0338076689542931	-0.00083217609566854	0.033817909414647	1.41005142564814
262.7298	0.0395186639428174	-0.00215585099964805	0.0395774240364127	3.12254607190741
224.2111	0.0556096944331765	-0.00415458273417107	0.0557646722634172	4.27261216843699
191.2854	0.0702892324574465	-0.00316638478359897	0.0703605158597828	2.57931275423018
163.1722	0.0907570083939686	-0.000721373402984704	0.0907598752324474	0.455400434669723
139.1537	0.113583570781045	0.00064879061944697	0.113585423715548	-0.327270570493971
118.6706	0.12758434478393	-0.0011031542689148	0.127589113890197	0.495393920093886
101.1982	0.135928145354727	-0.00310819470758955	0.135963677406564	1.30992304024446
86.24196	0.14793695248805	-0.00600334271153358	0.148058711446384	2.32381139281632
73.61024	0.1621199048197	-0.00968086766819923	0.162408690461926	3.41731624172616
62.69291	0.177026761274282	-0.0130732318303558	0.177508826816449	4.22356354342702
53.57697	0.188593278551363	-0.016778838610127	0.189338200424153	5.08412667114848
45.65746	0.210740005840549	-0.0216575655645159	0.211849947386955	5.86763786162296
38.96512	0.230917793552931	-0.0275024947386143	0.232549811000141	6.79197921335161
33.18414	0.236824367609312	-0.0306951274184751	0.238805301324713	7.38501344962382
28.30617	0.233844223028824	-0.0333395661618791	0.236208906089116	8.11407359603803
24.17237	0.243943424928476	-0.0370275242292748	0.246737577430729	8.63089298640194
20.61345	0.24887619269827	-0.0398815387996083	0.252051376566388	9.10404726319892
17.55618	0.250514472514697	-0.040666715310192	0.253793779816286	9.22055250126082
14.98558	0.250995897409294	-0.0429445286182648	0.254643226995226	9.70909642443502
12.76553	0.264716707307498	-0.0475635974414279	0.268955815942496	10.1860666001476
10.8809	0.262192558805579	-0.0476401990414009	0.26648550890756	10.2982517364342
9.278505	0.266244046086782	-0.0500786554786166	0.270912834341983	10.6524771636959
7.923394	0.280339744356382	-0.0538973645667414	0.285473813462884	10.882743171981
6.75822	0.291334409717186	-0.0582703784760433	0.297104653772038	11.310593675917
5.761429	0.282158634915573	-0.0553390839720593	0.287534188353813	11.096433511253
4.919708	0.291588851943287	-0.057567905609009	0.297217298173932	11.1681850159372
4.191257	0.313071553193541	-0.0638748999085513	0.319521204706892	11.5315892270769
3.564097	0.318687173867695	-0.0664676525691919	0.325544871908371	11.7811238060123
3.051758	0.307330877910149	-0.062623014786054	0.313646154922896	11.5171564202176
2.604164	0.308719130608877	-0.0636025845069687	0.315202776573854	11.641247619487
2.214424	0.3087313594167	-0.0635448586440557	0.315203111259037	11.6305218495621
1.892567	0.300190588852501	-0.0600446552753153	0.306136816248459	11.3111322562444
1.607507	0.280940865212452	-0.0554596490426213	0.286362606529295	11.1669989933013
1.376413	0.28336581336633	-0.0567366262457586	0.288990015298994	11.3222705557818
1.17375	0.240595350398706	-0.125538575199703	0.271378069299358	27.5547894158347
1.001604	0.321777181296245	-0.205272716642847	0.381677144457054	32.5352021316975
