EC-Lab ASCII FILE
freq/Hz	Re(Z)/Ohm	-Im(Z)/Ohm	|Z|/Ohm	Phase(Z)/deg
6999984	25.6129998781925	91.1485680553311	94.6788636459987	-74.3044900277769
5969734	24.4950511990755	83.6868032388432	87.1979848940454	-73.685294538579
5091109	23.2218042171158	84.9490485390893	88.0658449047905	-74.7110608792018
4341796	22.0920171047291	89.8135050816787	92.4906639332445	-76.1809268068304
3702781	21.4282894558983	98.6658345843679	100.965927437109	-77.7467631651434
3157797	22.133522790154	107.532844280803	109.787091364248	-78.3692245137735
2693047	21.0929002450423	119.692791145099	121.537132979397	-80.0056492724467
2296687	22.0396273374009	137.747613811896	139.499642594677	-80.9097193773836
1958656	22.8608699579578	156.868095201908	158.525135759316	-81.7084798395755
1670375	23.326701855419	181.745435239371	183.236290755407	-82.6861750211867
1424531	25.1925669779099	209.333901060663	210.844368111202	-83.1376657637498
1214875	28.0154323927461	241.868478150657	243.485574880869	-83.3929184614806
1036062	29.7766341240736	279.956332476175	281.535425893918	-83.9287485914869
883578.1	31.7769599871751	325.104505665607	326.653814902115	-84.417424294954
753531.2	34.6322310138363	377.332425510805	378.918395920365	-84.7559850560968
642624.9	39.8545363154595	436.789383246589	438.603863847386	-84.7865237065773
548046.8	40.4932002774537	520.284861789444	521.858253432837	-85.5497034896915
467390.6	156.31404360377	710.979079146811	727.959704387687	-77.6003724484875
398593.7	178.289205713522	807.541789333653	826.98898565468	-77.549952162516
339937.5	201.770234147412	916.582589683	938.528034263173	-77.5853036584755
289906.2	223.564145224847	1044.00256664564	1067.6714317583	-77.9131501088494
247234.4	246.10124473061	1191.51698843099	1216.66698663916	-78.3299769048071
210843.7	267.301158529002	1363.10355342238	1389.06486770908	-78.9052265311184
179812.5	288.459765818672	1566.42543850577	1592.76416675355	-79.5657895731247
153343.8	310.440821314083	1803.78724349881	1830.30651076457	-80.2347750947195
130781.2	333.172868491422	2084.13303055894	2110.59580435611	-80.9174543076179
111531.3	356.250887394957	2410.28018126089	2436.46572866288	-81.5922839987229
95109.37	381.539200303806	2795.99898225392	2821.91113788748	-82.2294703626879
81109.37	410.246343430162	3244.62593063466	3270.45860576841	-82.7938337908918
69171.88	443.352478135462	3765.68632484639	3791.69552008122	-83.285202395996
59000	474.841278737824	4369.52669280376	4395.25172875433	-83.7979423268585
50312.5	1421.82825197992	5737.33087836633	5910.88497485648	-76.0813467420366
42906.25	1785.52010964569	6785.70397021047	7016.68443306946	-75.2579490946541
36593.75	1918.55223137811	7546.69664730379	7786.74983230823	-75.7361969662498
31203.13	2040.89854816344	8585.14091339975	8824.39297554375	-76.6276047039144
26609.38	2157.53487384673	9847.37235765467	10080.9572502896	-77.6419118886345
22703.13	2298.59446626373	11328.4813069787	11559.3263317074	-78.5301683584258
19359.37	2437.93311063113	13073.9432258438	13299.3048436563	-79.4372178438974
16500	2581.6557771996	15134.9843718487	15353.5891076989	-80.3199166230759
14112.02	2831.90922747858	17470.4516726644	17698.4855713584	-80.7926068040588
12011.13	3003.83141183876	20342.9383692868	20563.5148903914	-81.6004199994138
10236.38	3216.25289599876	23613.4383730801	23831.4656387363	-82.2437943075662
8750.684	3497.88495050874	27415.4774625234	27637.7206662403	-82.7290322642625
7449.463	3835.34666034074	31899.8994916692	32129.6354100631	-83.1441974826143
6363.206	4194.91311328684	37050.8510307106	37287.5697535778	-83.5404550937268
5414.761	14641.2727144971	49845.8941546402	51951.708641544	-73.6308635480416
4620.567	17395.8435658157	57968.9724137926	60522.8645726338	-73.2960843083467
3941.215	17548.2795592129	63433.8623191868	65816.3885686372	-74.5364806390254
3361.769	27611.6845178803	74442.8054813884	79398.5919891202	-69.6496090127956
2867.244	16224.0497357852	84295.9473815078	85843.0342822011	-79.1057617594142
2442.658	21504.2346532479	96046.5701298798	98424.4671905104	-77.3799555847006
2083.003	22531.6737373782	110643.374725381	112914.271427614	-78.489545650751
1777.843	24655.840221263	127777.587945264	130134.631970611	-79.078488968366
1513.548	26907.7862077403	148116.677507834	150540.954941043	-79.7035859228537
1292.065	29325.3542467571	170144.858882975	172653.553123025	-80.2208522202978
1101.762	30524.6388450437	199141.524076497	201467.367551498	-81.2854650994304
939.101	34694.6419303195	231606.446812134	234190.658190319	-81.4804426371134
801.2801	38346.9073607716	269114.034181739	271832.390817772	-81.89033664375
684.3433	125234.047217366	379539.497408683	399667.107322679	-71.7390142042991
582.9476	143385.123979016	426233.572909908	449704.739194534	-71.4070424578003
497.0677	157614.793441696	480018.329492466	505232.639246917	-71.8223222677112
423.5089	173033.074920281	542560.67848755	569484.446545504	-72.3115136331939
361.5036	198908.845846419	616519.923510787	647812.893543885	-72.1186560393528
308.1262	220894.007639337	704596.986559208	738411.183609298	-72.5935807557368
262.7298	248145.412045167	797584.157930392	835294.340038646	-72.7179698930597
224.2111	267942.834091463	915312.151967688	953724.120425129	-73.6834610736346
191.2854	296355.260042297	1059535.29117607	1100200.65142786	-74.3735314420902
163.1722	386859.471218739	1235599.95615252	1294746.11492591	-72.6149520814951
139.1537	371212.602807161	1416438.60323041	1464273.57867449	-75.3145000290335
118.6706	502932.642088637	1598399.04760859	1675655.32191866	-72.5339358492637
101.1982	466672.014416631	1808122.00711961	1867374.61738932	-75.5279268077198
86.24196	636055.03932674	2054444.04493792	2150652.53977341	-72.7974964350238
73.61024	817099.947487999	2352812.89100127	2490658.71292047	-70.8485804948863
62.69291	671838.186946226	3095829.53601575	3167890.00211603	-77.755873194086
53.57697	1092092.04822425	3489479.1037949	3656382.01746151	-72.6215983919187
45.65746	2065563.48221588	3847569.88506167	4366960.78749252	-61.7709236677311
38.96512	2086188.82262987	4085550.50767577	4587363.81317587	-62.9499562185513
33.18414	2665079.09762136	4599015.97391674	5315411.04007204	-59.9081805799813
28.30617	3154533.39840081	4793800.62327725	5738606.57105534	-56.6533104782462
24.17237	4133643.85590997	5230421.97928791	6666657.7539964	-51.6804035094996
20.61345	4657130.51112416	6231992.26435299	7779883.81536634	-53.2294579339932
17.55618	4789408.10275958	5370616.5299897	7195967.75194121	-48.2740605554658
14.98558	3281921.4035268	2569794.27795345	4168315.09484702	-38.0614831981375
12.76553	6834088.58916593	6070735.8231455	9141039.34347676	-41.6147554491546
10.8809	8050908.67381911	5570886.7005102	9790398.82252491	-34.6815879759269
9.278505	8792264.81970056	4169575.1514949	9730841.56708492	-25.3718144868083
7.923394	8132187.51600222	2579115.74107644	8531372.21092191	-17.5963761364264
6.75822	10188685.9265387	2336007.69896832	10453049.9319236	-12.9132884091908
5.761429	10129456.2864361	6007372.17128631	11776858.8793093	-30.6704708803986
4.919708	13592701.8513392	385842.305035136	13598177.0066342	-1.62596083046067
4.191257	8119515.12644301	1271385.6130082	8218451.63431051	-8.89933517257663
3.564097	10248993.8077059	-2322448.69192288	10508836.3769262	12.7677513996496
3.051758	10328062.0594791	-4117105.48172213	11118427.2022655	21.7338533440928
2.604164	13465983.5047855	-237187.829897971	13468072.2383646	1.00909498765779
2.214424	9755177.76433201	-1400186.62617237	9855151.73915803	8.1680290316055
1.892567	9149000.04708684	-753151.090738192	9179947.62659761	4.70601119566103
1.607507	7931691.8750895	-3948438.17313147	8860129.79636318	26.4643647880314
1.376413	6609193.43028555	-2211573.39818754	6969397.01082528	18.501311407634
1.17375	6892330.41272082	-3496794.32305165	7728634.35904706	26.9007638222708
1.001604	7222037.15704738	-2503137.36153353	7643527.80779124	19.1161696063227
