EC-Lab ASCII FILE
freq/Hz	Re(Z)/Ohm	-Im(Z)/Ohm	|Z|/Ohm	Phase(Z)/deg
6999984	14.6125246803279	97.4876839769337	98.5767437315703	-81.4753433127367
5969734	16.9258162090995	89.69430897412	91.2773373663426	-79.3136308474877
5091109	18.6410077616781	90.3644565854832	92.267124071148	-78.3441289623468
4341796	17.017363641565	92.2194979765115	93.7764707821161	-79.5447620220434
3702781	18.465475698688	100.662574561469	102.342208839375	-79.6052663652092
3157797	19.0059954370176	108.524733591319	110.176429709892	-80.0664973902896
2693047	17.1385559473133	120.803951988663	122.013625944148	-81.925287069253
2296687	14.7844754634898	137.658788765613	138.450434593562	-83.8699631217065
1958656	17.378955842848	157.857173256892	158.810941861208	-83.7174417566427
1670375	17.7558160831776	181.726088587344	182.591457297528	-84.419544238796
1424531	20.3084132370316	210.194395621141	211.173188636111	-84.4813663848906
1214875	25.6113489923652	240.221502259961	241.582928505392	-83.9143673508291
1036062	26.762510309326	279.241081106775	280.5206112494	-84.5254841351157
883578.1	33.3164155612509	323.224810113296	324.937319214993	-84.1150171706839
753531.2	32.0095547933084	372.647580109028	374.019826425258	-85.0904778168942
642624.9	37.2666851944925	434.731842494361	436.326231968612	-85.1003899867499
548046.8	46.9589171700851	508.48006133542	510.643821736306	-84.7236129406719
467390.6	152.777560372623	713.449479977245	729.623973998396	-77.9132647004084
398593.7	177.722812364716	808.551384078023	827.853090064481	-77.6032945332426
339937.5	202.89304534912	917.095750088692	939.271101802765	-77.5251430899868
289906.2	228.748226062613	1041.60097601481	1066.42315436313	-77.6137796608935
247234.4	252.941498413664	1185.74613970705	1212.42455825092	-77.9582418873262
210843.7	279.110018275002	1351.07899772119	1379.60750229359	-78.3278569609651
179812.5	248.512884952112	1567.01311500463	1586.5965954154	-80.9885010742141
153343.8	199.595079633582	1916.70821840567	1927.07254412432	-84.0549711937542
130781.2	434.63099719515	1692.66413766077	1747.57431505665	-75.599088165875
111531.3	240.269344408574	1950.36625937862	1965.11015049668	-82.9770083979951
95109.37	777.819635804928	2629.98875610885	2742.59808267685	-73.5244079897063
81109.37	793.491605547368	3021.47178411821	3123.92712307708	-75.2853937730409
69171.88	703.358381103876	3597.63770621816	3665.74822887111	-78.9378851254409
59000	487.169239535093	4337.79763386327	4365.06840499654	-83.592078591068
50312.5	1429.22282345215	5654.94897307453	5832.76313312594	-75.8161818744501
42906.25	1845.42745702126	6701.5457642811	6950.99403897615	-74.6038604757328
36593.75	1962.01420040541	7485.89172767398	7738.73857169566	-75.3134114092228
31203.13	2093.44352933616	8498.02933117315	8752.08594130557	-76.1610451713393
26609.38	2205.23601207543	9750.27730475828	9996.54807364216	-77.2557383347163
22703.13	2307.01457059223	11184.8219863974	11420.2696595274	-78.3454467652756
19359.37	2478.39226269178	12922.8938449826	13158.4046729252	-79.1434623823338
16500	2627.4020542578	14955.7933226464	15184.827804899	-80.0360733313681
14112.02	2806.08037225642	17296.4354089023	17522.5787174688	-80.7849291696041
12011.13	3051.68392857567	20014.2258750532	20245.5430200718	-81.3305568779072
10236.38	3234.46062532666	23160.7410920764	23385.5011379056	-82.0499053896939
8750.684	3518.97213206726	27337.2736805928	27562.8318057833	-82.6649755827669
7449.463	3514.70826017363	31611.8943755893	31806.6823194049	-83.6557342021071
6363.206	3578.58663947624	35996.110765022	36173.5576428967	-84.3225424840803
5414.761	16955.3330334094	50322.4695071913	53102.1115924406	-71.3795977794136
4620.567	17940.291698453	57564.4937348652	60295.314952133	-72.6900668484368
3941.215	17339.7310215492	58869.1999345907	61369.7724685247	-73.5878344176273
3361.769	15541.0577807006	74057.6403354125	75670.7246495789	-78.1484065795301
2867.244	21873.6635394747	85279.7671064684	88040.3080092956	-75.6141569558869
2442.658	18938.050363845	94325.3857361491	96207.7343349111	-78.647452819089
2083.003	25314.2225570889	109066.82696514	111965.98862116	-76.9331058002781
1777.843	26718.7003649205	128043.934962421	130801.904534495	-78.2133226977184
1513.548	30498.3038773549	143703.818677431	146904.506540376	-78.0178867937993
1292.065	22727.7360042511	170718.911743574	172225.13408556	-82.4168275616957
1101.762	25146.6715951943	194636.579302512	196254.307200885	-82.6382757495138
939.101	27881.6354808153	227579.498384387	229281.080078523	-83.0152819787099
801.2801	26676.1463895423	266665.381224381	267996.347605225	-84.2873628754593
684.3433	45286.3228963107	286855.367625731	290408.080082429	-81.0286654156528
582.9476	150334.155609129	400802.503088782	428068.925320378	-69.4397918682187
497.0677	178578.919841021	500369.459801666	531281.494985283	-70.3588161716085
423.5089	227979.04850763	608411.06789177	649721.843631294	-69.4584129965604
361.5036	167704.945206673	551796.114399648	576718.21586744	-73.0946323475787
308.1262	169229.322615079	698441.874539917	718651.247646306	-76.3799723448588
262.7298	357148.238133211	859842.325793251	931065.888767924	-67.4437215015419
224.2111	279117.073196767	876201.347033896	919584.221860044	-72.3305358319922
191.2854	217604.268212794	1036137.99571411	1058741.49994551	-78.1394111421465
163.1722	452492.760788503	1162056.00568135	1247046.05324186	-68.7245686525569
139.1537	291886.492710674	1468358.01459241	1497088.1682936	-78.7570596452976
118.6706	334768.375336826	1698238.95794636	1730920.39776888	-78.8484464136209
101.1982	402091.806207789	2123051.82746419	2160793.11427968	-79.275586449891
86.24196	333491.128294461	2188893.62454476	2214152.57654566	-81.3372604841102
73.61024	132481.63714827	521451.181244334	538017.396189563	-75.7448486289563
62.69291	254692.685297057	535657.389555226	593124.947147685	-64.5699943842837
53.57697	782044.675871892	92869.558838877	787539.605365026	-6.77228665393296
45.65746	8206.68075868907	853030.022171149	853069.497951008	-89.4487958771158
38.96512	766954.300856765	650929.46905801	1005946.35706425	-40.3219334802214
33.18414	405872.009727197	-1275498.21473118	1338517.00925406	72.3485840025388
28.30617	470115.984166604	1308703.29334156	1390580.22011389	-70.2405576826935
24.17237	-79897.930229955	1488101.67790357	1490245.04127155	-93.0733268891134
20.61345	924849.990578289	-1814723.57672377	2036803.66382962	62.9949334054691
17.55618	-497831.146254314	1635784.7248309	1709861.84125238	-106.926988009141
14.98558	1395585.20846713	1378512.46514975	1961620.42471664	-44.6473866813144
12.76553	1188957.16472794	1841812.07242542	2192234.21415001	-57.1562757491239
10.8809	181963.767715981	2054372.93842192	2062415.81231374	-84.9383002265074
9.278505	-2589277.26438777	1193844.7934881	2851249.22495632	-155.246867999483
7.923394	-2068399.94489668	-3006009.76097491	3648886.5445674	124.531402743433
6.75822	2207632.74803158	-3122408.46898786	3824013.20570268	54.7385886593221
5.761429	3594415.40386289	-717536.831010636	3665335.07327551	11.289296834672
4.919708	3335184.412354	1935772.45265932	3856250.77671094	-30.1312832177128
4.191257	2008229.06888202	3572292.58825047	4098079.83440684	-60.6566926435402
3.564097	409471.303786958	4829834.34219216	4847160.66596144	-85.1540761321537
3.051758	-2257126.77720067	5536813.76699637	5979207.9725292	-112.17866186353
2.604164	-4123695.36373054	5431277.00404535	6819357.25325522	-127.20757401293
2.214424	-5440313.27612656	5649293.82180341	7842928.61292674	-133.920404836462
1.892567	995785.560837445	-9729076.12576129	9779903.43224465	84.1560409488153
1.607507	2878609.50806775	-9157757.10690471	9599526.44295549	72.5502078506454
1.376413	8031963.92836222	-3399696.85588305	8721833.70962855	22.9415280550916
1.17375	7912376.34721185	2342940.84021274	8251973.77847593	-16.4945954851237
1.001604	6143618.29946473	6388727.54653478	8863401.46181871	-46.1204554430178
