EC-Lab ASCII FILE
freq/Hz	Re(Z)/Ohm	-Im(Z)/Ohm	|Z|/Ohm	Phase(Z)/deg
6999984	3.29217256660887	1.0124477588302	3.44433602784228	-17.094327598021
5969734	6.51215345523001	2.88588041663218	7.12295222527607	-23.9006708632965
5091109	9.27962096584328	0.711337784955066	9.30684515365024	-4.38348752320394
4341796	0.202486782170856	0.761481552160286	0.787943558406531	-75.1089800679201
3702781	6.23390991959938	-3.64823838123056	7.22296865367442	30.3372271675946
3157797	1.18339008823394	-8.56463511989324	8.64600409656617	82.1331561573264
2693047	1.75994925106803	-8.68954032012479	8.86597610764936	78.5503937685939
2296687	7.79597301519062	-7.17496603275188	10.5951561019517	42.6246852363199
1958656	3.67858775487912	-13.4748157142779	13.9679156069936	74.7304841484567
1670375	10.1410028407288	-6.43405343850288	12.0098702018457	32.3934638323381
1424531	15.425694641546	-6.81326119614546	16.8633502988321	23.8302142432293
1214875	0.0365584177594973	-12.9395015649062	12.9395532096792	89.8381206989072
1036062	10.8939113247657	-0.54150646634727	10.9073614226794	2.84567395769296
883578.1	16.5026695099795	4.91161826517681	17.2180746582893	-16.5743569397839
753531.2	6.27894729911513	4.52719134711899	7.74084237525182	-35.792026019514
642624.9	6.34861216860749	-4.62376468365872	7.85392107913243	36.0662665385754
548046.8	8.30292184189766	3.03243190698353	8.83935259977522	-20.0634407290125
467390.6	4.3509378508156	0.39327724956103	4.36867567767191	-5.16487705096304
398593.7	4.78770129671892	-0.42921821479064	4.80690253515838	5.12288096345334
339937.5	2.29163393801836	2.24197100901392	3.20593513832336	-44.3723841283854
289906.2	1.11955927230655	-3.41748562491253	3.5961953451796	71.8613406935596
247234.4	2.79828868627527	3.83741269784087	4.74933214097377	-53.9000076303687
210843.7	3.21131456164893	-1.07705346944818	3.38712051600011	18.5411090560838
179812.5	3.11960380874065	-0.162149184413622	3.12381502037415	2.9754133749068
153343.8	3.77932062399334	0.378988124846261	3.79827544784681	-5.72644444512666
130781.2	3.9237786150142	-2.16159722481723	4.4797925378281	28.8502298018916
111531.3	3.47776948631221	-1.53133046591651	3.79998073623648	23.7648397588049
95109.37	2.24213845839115	1.98245917960146	2.99287976126385	-41.4825454379282
81109.37	1.79901452525835	-1.37896648921417	2.26671609172083	37.470603283175
69171.88	-2.10090861862216	1.43365600303867	2.54345956501173	-145.690447638716
59000	-1.20626916479727	0.369080638296092	1.26146970455329	-162.9875278117
50312.5	-0.839270947536264	0.56922649240766	1.01409788631924	-145.853339539872
42906.25	-0.520590754633873	0.804604311150414	0.958333361274717	-122.903457760127
36593.75	0.373508071583977	0.847705583572663	0.92634390803775	-66.2212014540713
31203.13	1.55180302715453	-0.813735378930131	1.75221514147336	27.6716441581516
26609.38	-0.168358171142732	0.0186613727675029	0.169389257699811	-173.674966860055
22703.13	0.785675443070541	-0.531364421706893	0.948490406119109	34.071095715637
19359.37	0.474336077675638	0.50483207481675	0.692712161253499	-46.7838890035777
16500	0.354859299452728	0.405726094255954	0.53901649879041	-48.8261569572759
14112.02	-0.295389676831842	0.397971826012927	0.495617428546337	-126.584195931827
12011.13	-0.603484743266057	0.224543529903879	0.643904986917009	-159.590862114826
10236.38	0.640196698281518	-0.405474150236907	0.757800170889991	32.3484809158424
8750.684	0.667351866625065	-0.575748297124388	0.881387891639992	40.7855136322618
7449.463	-0.444601615324702	1.06378971508904	1.1529610376238	-112.682062582332
6363.206	1.66765583966668	1.49751749985855	2.24134661798593	-41.923127064072
5414.761	-16.4164455598197	-56.3112329819873	58.6553888809049	106.253017754728
4620.567	287.155630878193	5.17154562153593	287.202195724839	-1.03176005211758
3941.215	166.239266249018	-1172.56598936979	1184.29155745946	81.9307301683067
3361.769	457.67605087805	-1578.99657962349	1643.98831078874	73.8356386640214
2867.244	1385.67128947939	-1373.96961503043	1951.37833992138	44.7570508033024
2442.658	513.53860983052	-1796.3604728544	1868.32354056259	74.0459714706139
2083.003	226.378432293993	-2543.51434871498	2553.56856902784	84.9139495202144
1777.843	1936.76418106544	-288.802551348493	1958.17833884544	8.48122495115786
1513.548	2142.72536893504	-745.893109666508	2268.83858785189	19.1932553480796
1292.065	1601.06616322447	-2149.04259967626	2679.88748910204	53.313384791824
1101.762	2261.05950318479	-1516.58434785359	2722.5756483699	33.8513606716264
939.101	639.391232671503	-2957.14182877596	3025.47664739188	77.7993606907364
801.2801	2960.80636991679	-1833.18322623765	3482.37492253476	31.7637201901318
684.3433	1585.74331104546	-1722.44469230878	2341.23846854355	47.3662375769707
582.9476	1417.43356673108	1857.72534487613	2336.72021711867	-52.6565803529537
497.0677	3682.00428564834	-552.464235619162	3723.22068794894	8.53325524853369
423.5089	1419.73273859185	-1154.73999581935	1830.04521992611	39.1231911812487
361.5036	710.569365630709	-749.16757885326	1032.55066925439	46.5146561356457
308.1262	652.229220487243	259.085113263247	701.803428298855	-21.6644681551025
262.7298	277.900210865617	-750.605558501338	800.398170695224	69.6837000016059
224.2111	572.650269501437	531.355920013161	781.196162876586	-42.85790197725
191.2854	794.193103469078	-260.67734765792	835.879994484742	18.1713450134182
163.1722	1175.14803587825	244.032003532292	1200.21853217508	-11.7313452327713
139.1537	955.486723969159	142.574970307976	966.065474923743	-8.48689150375171
118.6706	829.251946708112	-595.510196415637	1020.92663064208	35.6832385229525
101.1982	1034.91156205494	-980.124425589697	1425.37217277192	43.4425595705574
86.24196	1125.48872521344	-361.728991238819	1182.18980442449	17.8172628256053
73.61024	862.951156061131	-881.882183056841	1233.85610285006	45.621621197843
62.69291	1860.2801679931	-476.546506270819	1920.34863399003	14.3684350510625
53.57697	1123.84211999613	1067.58639660806	1550.08445734417	-43.5294944568126
45.65746	568.239452669359	1040.31030152413	1185.38668755271	-61.3557011535998
38.96512	1119.40043579508	-958.357925638114	1473.60349120501	40.5679902053404
33.18414	947.721723925356	-901.020761163807	1307.67537181376	43.5529628081011
28.30617	666.976064804812	79.3321335209693	671.67749585013	-6.78306399005937
24.17237	1084.70457195774	-966.420763809999	1452.77427742548	41.6995360141001
20.61345	3058.40919909751	-782.260936161113	3156.86537587017	14.3471725872852
17.55618	3730.02492117494	-664.206766524232	3788.70116811589	10.0968456122898
14.98558	1885.02194504498	-2567.16369185789	3184.9077151614	53.7108341551503
12.76553	8965.72950459194	-114.619826166804	8966.4621369892	0.732441743321078
10.8809	1625.69054849776	-5321.97442398683	5564.73553091653	73.0137880026857
9.278505	4415.36105994946	1316.46209423837	4607.43808805767	-16.6022141477831
7.923394	2341.052583281	-3691.34244829172	4371.10240880341	57.6170942445917
6.75822	1444.01913408275	-4328.39566792312	4562.91576929629	71.5505110897011
5.761429	109.262200218366	91.3561411520602	142.422515504935	-39.8996177485864
4.919708	2.49183889577249	-1.01963933902091	2.69238285987778	22.2539615122008
4.191257	2.28029058380299	-3.08233942386894	3.83412851512796	53.5062538448209
3.564097	1.74890529883225	0.217937525502185	1.7624319871432	-7.10322134682258
3.051758	1.1068624391922	0.873500279394095	1.41001673656595	-38.2793675884698
2.604164	1.66005409968271	-0.0177884924924167	1.66014940422196	0.61393573663858
2.214424	1.58367346083656	0.988906156135301	1.86707177585661	-31.9822291044609
1.892567	1.31003202298981	-0.997506240257687	1.64657298672479	37.2869703098355
1.607507	0.504843941188643	1.16881418249367	1.27318262560924	-66.6391168698397
1.376413	1.11407420583996	-1.31757797260524	1.72544865180406	49.7839074780386
1.17375	0.0873856287939905	1.23123192822856	1.23432909275004	-85.9402888186322
1.001604	4.42202754070925	4.85713936248838	6.56857140917454	-47.6847047082383
