EC-Lab ASCII FILE
freq/Hz	Re(Z)/Ohm	-Im(Z)/Ohm	|Z|/Ohm	Phase(Z)/deg
6999984	-0.98818513919811	0.693950384281381	1.2075085942453	-144.92165286921
5969734	-1.53347784283031	1.19419587221879	1.9436198382595	-142.090324628791
5091109	-1.53434125883196	1.53414944806783	2.16975059109587	-135.003581548157
4341796	-0.617468741210472	2.84810745361252	2.91427241583474	-102.232401018957
3702781	104.721652744805	42.981251204917	113.198995175504	-22.3148783849791
3157797	77.6476060235814	-117.942632547813	141.207702670576	56.6410663701643
2693047	-20.5992425904632	0.769938813147914	20.6136265872055	-177.859449525234
2296687	14.7829349102217	10.6589852286408	18.2249590030879	-35.792851078739
1958656	12.5883847300646	-9.14450385146612	15.5592217286599	35.9955520875004
1670375	-12.7789151600242	0.351107905016267	12.7837376939634	-178.426162080398
1424531	-9.62977585290621	1.11914051796031	9.69458913395281	-173.371012749738
1214875	5.84495857235719	1.7582771349899	6.10369389763281	-16.7423080582706
1036062	4.53918495230477	2.366287811585	5.11893719813848	-27.5331373407567
883578.1	3.40165049521354	3.27431659806098	4.72148019967512	-43.9073028269218
753531.2	2.44352061598105	4.55803888838195	5.1717029602179	-61.8046708818643
642624.9	1.68897228471933	5.98328512981215	6.21709967132434	-74.2365945290539
548046.8	1.18335255143629	7.23230262980638	7.32847355116296	-80.7075798672614
467390.6	1.00001328449796	8.18836582889971	8.24920368987606	-83.0371689664838
398593.7	1.00155474657083	8.90444300095529	8.96059245070549	-83.5824529001098
339937.5	1.12554232785485	9.35583952966469	9.42329978492828	-83.1400721864893
289906.2	1.53874172565255	36.2254233440098	36.2580890636971	-87.5677181399218
247234.4	2.65778780121239	34.750074557611	34.8515640646987	-85.62636524268
210843.7	3.61819704864801	32.3310104140238	32.5328385523698	-83.6145385366372
179812.5	4.42536112671474	30.8894279317642	31.204816600222	-81.8470210344381
153343.8	5.48984605023159	32.166038710927	32.6311577485093	-80.3145308198017
130781.2	6.39414593873528	36.785839662362	37.3374222724447	-80.1393203260507
111531.3	14.5765311499377	68.4927099652016	70.0266133605098	-77.9856292699334
95109.37	15.4390240903374	69.7273302395998	71.416132961707	-77.515001737013
81109.37	15.8151623478191	72.4614833199282	74.1672833870306	-77.6879203995834
69171.88	16.1807880609496	85.0408236401166	86.5665038433619	-79.2270569246434
59000	19.0574140256213	148.675212834284	149.891640663059	-82.6955715290269
50312.5	25.4522750141282	89.6755226674585	93.2175824030889	-74.1546615643502
42906.25	26.447246510595	58.4919004444005	64.1931403312678	-65.6697868720373
36593.75	27.1265051782396	43.1016471923043	50.9273921762634	-57.8152803459274
31203.13	27.6953201562491	33.0730521325493	43.1376579790728	-50.0572484533617
26609.38	27.9609503856603	25.7288510786319	37.997217323059	-42.6193567288252
22703.13	27.9907743016291	19.9815855263109	34.3910919592562	-35.5216472359918
19359.37	27.6378739425075	14.9915032503274	31.4419663152054	-28.4765581870632
16500	26.7116559244067	10.9286612632262	28.8608419702238	-22.2511654781605
14112.02	22.4810316223721	0.951963617110625	22.5011781365865	-2.42475223237349
12011.13	22.1993664817615	-0.140265344751297	22.1998096063568	0.362015074965381
10236.38	20.9422098435856	-0.630727659205628	20.9517056707291	1.72508596676507
8750.684	27.0287527712714	13.4437089571238	30.1875270085902	-26.4450847582253
7449.463	26.3215377139337	17.0020149392366	31.3351537353825	-32.8598514775746
6363.206	25.9866586324258	21.41355926861	33.6726439031523	-39.4892481869799
5414.761	25.7461447693574	26.5121248595101	36.956146106581	-45.8397576896052
4620.567	25.7366049506233	32.4818959191448	41.4420848520752	-51.6089155654011
3941.215	0.302357605349123	0.0105775911602084	0.302542570471014	-2.00360189689376
3361.769	-9.21749697397504E-06	-0.000413204067873402	0.000413306864154942	91.2779063422914
2867.244	5.56406761783875E-06	-0.000344061237401367	0.000344106224777489	89.0735085213051
2442.658	1.52794222224919E-05	-0.000284592233560573	0.000285002105512308	86.9268075502885
2083.003	2.54486832116572E-05	-0.000242390189030412	0.000243722463501841	84.0064416685067
1777.843	3.02339772954732E-05	-0.000207733538233964	0.000209922167219912	81.7191941503444
1513.548	4.31243519178261E-05	-0.000178523740887573	0.000183658475951494	76.4197356158409
1292.065	5.29872140477029E-05	-0.000156713862909567	0.000165429379738231	71.3188642531297
1101.762	5.85450086758412E-05	-0.00014234474211482	0.000153914078786149	67.6431108142474
939.101	5.79909187258442E-05	-0.000129377139851759	0.000141779374278804	65.85657111325
801.2801	0.000333860859992902	-0.000492257922913689	0.000594794869267128	55.8539598695254
684.3433	0.041709197293613	-0.00172934901927015	0.041745033080691	2.37424084611255
582.9476	0.0283690725184155	-0.00139258874102301	0.0284032318399992	2.81029495975922
497.0677	0.0445349595808597	-0.00326141294764748	0.0446542208451103	4.18844466833227
423.5089	0.0562623471857376	-0.00502930524497959	0.0564866853523524	5.10810724670589
361.5036	0.0646118905988502	-0.00445158970088181	0.064765060469537	3.94130046931818
308.1262	0.0757262044384672	-0.00232184514790138	0.0757617911849196	1.75619872095627
262.7298	0.0840172345277529	-0.00073607584371595	0.0840204588498488	0.501956063017298
224.2111	0.0932699345209271	0.000360883510419709	0.0932706326902854	-0.221689861416049
191.2854	0.105585085553446	0.00168912111436111	0.105598595736248	-0.91652391557189
163.1722	0.120657908147596	0.00215716364660364	0.120677189864332	-1.02424456471885
139.1537	0.133206175728031	0.00150545905334964	0.133214682595607	-0.647513355264427
118.6706	0.145767826696623	0.000579958142326789	0.145768980415257	-0.227958248877899
101.1982	0.159472971029763	-0.00332311616907042	0.159507591011001	1.19376329573302
86.24196	0.174601428218557	-0.00686462254255924	0.174736320719568	2.25147890892782
73.61024	0.184632451586051	-0.0108024744527752	0.184948197160659	3.34844384996246
62.69291	0.184767621693178	-0.0139688958634049	0.185294911095249	4.3234799344465
53.57697	0.186018167460782	-0.0166961698614012	0.186765951697595	5.12887295607481
45.65746	0.199584922327133	-0.0208066114250217	0.200666530092389	5.95155326029782
38.96512	0.211940019412134	-0.0235436513368773	0.213243699430225	6.33879251571493
33.18414	0.213522101154297	-0.0272625479759162	0.215255509112973	7.27616865728282
28.30617	0.225840812088923	-0.0311549504439645	0.227979611680847	7.85443204159655
24.17237	0.241355685227722	-0.0363109221736725	0.244071812917522	8.55573811241463
20.61345	0.244719702183069	-0.0393054657945304	0.24785611204466	9.12458780015436
17.55618	0.25081563178201	-0.0412153463130143	0.254179436457614	9.33174642056187
14.98558	0.256503962270731	-0.0445444016283859	0.260343016762531	9.85171707879899
12.76553	0.249711573840346	-0.0442651443924771	0.253604560522696	10.0521205268019
10.8809	0.256673642578908	-0.0471066664575255	0.260960527320639	10.3996194295487
9.278505	0.264729161030747	-0.0500014275572719	0.269409857759155	10.6958901758329
7.923394	0.271874580636004	-0.052319974557928	0.276863084093465	10.8929246320005
6.75822	0.267827986505227	-0.0511619668689541	0.27267082207186	10.8146643267636
5.761429	0.263670125554778	-0.0511795752495493	0.26859129552686	10.9847754961379
4.919708	0.268941087229085	-0.0526611904782933	0.274048370516143	11.0788780844102
4.191257	0.275444582341376	-0.0539065506957257	0.280669973722031	11.073251638862
3.564097	0.270951079474618	-0.0536929599112677	0.27621987874245	11.2087905348781
3.051758	0.268541497932097	-0.0522387492331655	0.273575260272306	11.0081349854454
2.604164	0.281122062908599	-0.0568665989700326	0.286816011290173	11.4357276583736
2.214424	0.305955983187423	-0.064514572864814	0.312683855931374	11.9070885772718
1.892567	0.287986335457074	-0.0588035576796001	0.293928542005999	11.5405101799471
1.607507	0.29411199402922	-0.0600549300990266	0.300180711673889	11.5406190419282
1.376413	0.318035032892221	-0.0655764603064273	0.324725352094776	11.6506842343728
1.17375	0.231948094576014	-0.141676872645098	0.271794508443307	31.4171208311234
1.001604	0.32299953851705	-0.206852225731506	0.383557746854767	32.6359166529256
