EC-Lab ASCII FILE
freq/Hz	Re(Z)/Ohm	-Im(Z)/Ohm	|Z|/Ohm	Phase(Z)/deg
6999984	22.0780391515294	84.2223828638873	87.0680744478002	-75.3110049864832
5969734	22.9382139440912	85.4691515261781	88.4937145878152	-74.976970591922
5091109	20.9013258837639	84.2673122798847	86.8207656184562	-76.0697156987955
4341796	20.3510663566358	90.0028061362815	92.2749750162918	-77.2587750110305
3702781	21.5441720263719	98.6271810458841	100.952821601774	-77.6778363423892
3157797	21.2441180112795	107.437545115364	109.5177549555	-78.8149283826058
2693047	20.983886946959	120.702745236999	122.513167533741	-80.1378306357833
2296687	20.90464266363	138.091936426968	139.665267661806	-81.3918060662067
1958656	22.2009380005252	157.791575621885	159.345734129722	-81.991177215693
1670375	22.8901599047458	181.659384721597	183.095853251498	-82.8182417929644
1424531	24.7052862359167	209.993879374435	211.442144670175	-83.2901298330341
1214875	26.9047285813563	242.672954434873	244.159839519497	-83.6735531895357
1036062	28.8627796724623	280.677569176406	282.157682669101	-84.1287681577671
883578.1	31.0041647228329	325.676162206103	327.148621973954	-84.5618669551065
753531.2	33.819814781194	378.641957042561	380.149327902674	-84.8959586454473
642624.9	36.6750286650357	440.504366104077	442.028454156897	-85.2407073507775
548046.8	40.6488073998175	513.116667092552	514.724236452099	-85.4705207224044
467390.6	163.553359666239	714.716237283737	733.190971913278	-77.1105508294301
398593.7	177.27226936348	810.552036368928	829.71082983597	-77.6633405101723
339937.5	200.472325641791	920.232388483184	941.815694370026	-77.7101511620345
289906.2	223.408490138355	1046.60284863322	1070.18170243799	-77.9504496613124
247234.4	246.43265797192	1195.59589842501	1220.72871975956	-78.3534681744074
210843.7	265.753337389024	1368.47475461274	1394.04016812493	-79.0101351034069
179812.5	286.195856890651	1572.72046274485	1598.54862998839	-79.6864544847793
153343.8	307.597683389499	1812.86327018472	1838.7739315129	-80.3700504301499
130781.2	328.388422855685	2094.23540409772	2119.82567303115	-81.0882530263464
111531.3	353.134695768839	2423.26282465984	2448.85827085484	-81.7088236142526
95109.37	375.569745230069	2808.73708333163	2833.73545639223	-82.3838824884757
81109.37	404.651504714785	3261.28714981833	3286.29528707299	-82.9270464782597
69171.88	437.374131384672	3782.87748520117	3808.07801900728	-83.4047786878398
59000	468.688588952483	4393.39465877216	4418.32384747226	-83.9107004209403
50312.5	1373.95951414505	5777.26658434145	5938.39826325736	-76.6223334921991
42906.25	1661.20143438139	6844.61142978243	7043.31568441306	-76.3579707655258
36593.75	1942.24612539145	7547.66047625472	7793.55494472297	-75.5691224731897
31203.13	1985.64106619299	8612.75901265398	8838.6870209214	-77.0175024835009
26609.38	2137.52880693126	9948.76389606849	10175.8013178411	-77.874131683001
22703.13	2310.71150348183	11381.4245888798	11613.6218865899	-78.5235220480022
19359.37	2444.14142456067	13199.5056727011	13423.888308047	-79.5094105260839
16500	2560.19502619033	15177.6950732187	15392.109222187	-80.4253981531595
14112.02	2698.3701430975	17597.4787854657	17803.1587375408	-81.2822565357776
12011.13	2855.59805594848	20556.9412271862	20754.331424431	-82.0915594213999
10236.38	3057.57223338452	23939.4451236362	24133.9134992639	-82.7215265171463
8750.684	3661.90570184141	27611.4379847765	27853.2055777488	-82.4453608598932
7449.463	3471.34827266767	31956.7108309498	32144.6982559037	-83.8004633411571
6363.206	4565.97009546974	37444.2808282541	37721.6416617555	-83.0476540941347
5414.761	15521.4169908885	51707.1445403209	53986.5092585053	-73.2913287586471
4620.567	16864.7489032447	56849.8794600314	59298.6386874909	-73.4767951969309
3941.215	16989.3749530902	65568.4393605958	67733.7368043489	-75.4736104087414
3361.769	19008.6595775214	74571.062454768	76955.6527785127	-75.6994703715819
2867.244	20677.4211840489	83613.9755748977	86132.7618172212	-76.1096508571161
2442.658	20560.0785576514	95025.966086805	97224.7451065181	-77.7915111689431
2083.003	20115.9210411004	112378.038575428	114164.240607084	-79.8514090339974
1777.843	22655.4455448803	130615.805213555	132566.050648054	-80.1598895108959
1513.548	25287.3007748609	151446.74368299	153543.361148112	-80.5206810344898
1292.065	27028.0143371893	175386.83331811	177457.191627631	-81.2393419969223
1101.762	27152.7958768022	200646.619294446	202475.52977636	-82.2931832695065
939.101	34495.5492684102	236299.586985239	238804.182812454	-81.6944996693743
801.2801	37618.227506305	269153.663139009	271769.802262619	-82.0436028539475
684.3433	111601.218363054	382427.558569416	398378.801511178	-73.7315322326461
582.9476	138970.04729605	416220.804326257	438807.967110287	-71.5365882152794
497.0677	162373.219212684	499177.809422629	524922.420684681	-71.9812607600805
423.5089	144288.800427969	547677.401325758	566365.424308262	-75.2404738819026
361.5036	193270.574269918	620801.62322149	650190.872185284	-72.7073701738497
308.1262	194371.687884283	699134.885462208	725651.390904228	-74.4631420412486
262.7298	224310.178652431	832264.859200562	861962.790442382	-74.9161797698586
224.2111	191122.426634003	949165.622681823	968216.484699286	-78.6152525910027
191.2854	246287.645640979	1073873.47011889	1101753.98080541	-77.0828769679253
163.1722	277046.542192568	1276045.20356759	1305774.15661695	-77.7504300950322
139.1537	312125.41443357	1453527.25889419	1486661.95440785	-77.8805488103064
118.6706	277546.082676902	1698176.82002927	1720708.09264501	-80.7177785160147
101.1982	311105.091806968	1968741.80398771	1993171.00844785	-81.0202429360643
86.24196	450009.258655515	2271014.89527662	2315171.04928425	-78.791838183462
73.61024	461140.926056161	2599639.09232601	2640222.40806216	-79.9411342247149
62.69291	594968.03371659	3079648.91855918	3136594.39882292	-79.065540122196
53.57697	637715.443244396	3647489.46411192	3702817.89686717	-80.0828266874508
45.65746	827400.773435124	4142803.52920551	4224619.87893333	-78.7054934437358
38.96512	1002121.8139242	4735008.77662489	4839892.17283376	-78.0502016134447
33.18414	1205710.35241059	5499814.01909753	5630425.53441316	-77.6348072119748
28.30617	1544178.62800665	6362111.86171522	6546827.85600553	-76.3572832161716
24.17237	1757724.23130094	7629880.85641727	7829730.28631416	-77.026898991341
20.61345	2162650.16937858	8435505.29424289	8708318.1685279	-75.6205167874129
17.55618	2996662.65087181	10141995.3846271	10575445.9681343	-73.5391330050412
14.98558	3551315.94223849	11034369.4425997	11591770.9569063	-72.1596798174842
12.76553	4385204.71456688	12817791.8473643	13547169.7498414	-71.1132297004573
10.8809	6002708.87500689	14469337.9471488	15665064.776977	-67.4685305740711
9.278505	7171949.79286977	15706776.579736	17266722.1659812	-65.4578497836185
7.923394	8480596.07925714	17994695.3315151	19892952.770606	-64.7662897248956
6.75822	9996194.17564376	21794050.072682	23977166.5667097	-65.3606761415643
5.761429	13275958.4575164	20741577.3957567	24626491.9513492	-57.3781135482426
4.919708	16509668.0871964	23471549.8994761	28696389.9303203	-54.877805944383
4.191257	18586864.2881646	23904525.9375355	30280321.7348323	-52.1332979986607
3.564097	21833239.5624695	24765517.4102993	33015469.1378454	-48.6006522282683
3.051758	24943199.2436112	26762191.7478723	36583850.202738	-47.0148311020611
2.604164	30013972.2343571	27858317.6420956	40950267.2901247	-42.8668057413863
2.214424	32588715.4346504	27990626.9628023	42959278.0601743	-40.659462917333
1.892567	40072032.6908956	25938887.6747788	47734617.3943501	-32.9152450372078
1.607507	42105821.8678703	26132225.4773348	49555962.7448311	-31.8250667812565
1.376413	43515722.5581331	24389957.7970499	49884748.6823206	-29.2700245192281
1.17375	49799789.3418902	25018898.6697568	55731178.9678291	-26.6744798706618
1.001604	55136547.7533531	22170872.788286	59427152.8709911	-21.9054771220463
