EC-Lab ASCII FILE
freq/Hz	Re(Z)/Ohm	-Im(Z)/Ohm	|Z|/Ohm	Phase(Z)/deg
6999984	60.0905910147128	57.8249584234476	83.3942740550628	-43.8992527699003
5969734	85.3797264261651	31.4147754456912	90.9757429258481	-20.2006813096802
5091109	79.8946137500754	59.8128222215488	99.8034218270112	-36.820233160344
4341796	132.086680879181	-30.1636301638302	135.48703203753	12.8636186979309
3702781	123.96578576804	-88.3589963499337	152.232809463188	35.4801020662669
3157797	141.846505004277	-72.3910269417002	159.251033791314	27.0373856085197
2693047	145.10852928228	-57.5878795859606	156.118061561349	21.6461850718599
2296687	184.069234835995	-16.8164628209091	184.835809936591	5.22001965508202
1958656	163.852745231206	36.2873831632993	167.822812205739	-12.4873687730244
1670375	261.860513679438	-28.6513663565761	263.42328943842	6.24415707669318
1424531	246.934558116161	176.981844019445	303.807914815508	-35.629758642355
1214875	236.086509371719	99.422900029249	256.167431492664	-22.8373757870927
1036062	70.1741551355152	311.789212506164	319.588681095243	-77.3158416074255
883578.1	125.539781907581	331.48814730393	354.463860843945	-69.2575339935875
753531.2	94.8696171534052	417.166240925289	427.817620986525	-77.1880147233318
642624.9	329.532793953148	952.211494946562	1007.62026249919	-70.910746415658
548046.8	540.222462394683	1168.09713523001	1286.96978449703	-65.1803663234366
467390.6	652.628171334889	1286.96888169117	1442.98732927955	-63.1102125138494
398593.7	760.675550594322	1376.11283202581	1572.35931635809	-61.0674460868695
339937.5	859.454218493718	1475.18020181724	1707.28386085039	-59.7745095263773
289906.2	947.930928987125	1596.23856450147	1856.48878287269	-59.2959178801045
247234.4	1027.16440458662	1726.49799556636	2008.94550517042	-59.249852073376
210843.7	1096.29645177345	1878.82622831794	2175.28248887046	-59.7364078330011
179812.5	1145.31831762085	2081.8688026679	2376.11695002576	-61.1830689699269
153343.8	1199.51805253147	2297.12639062167	2591.45388012973	-62.4272468220535
130781.2	1241.03435537678	2570.53206162798	2854.43538218732	-64.2290844961809
111531.3	1279.77242860233	2900.60362079795	3170.38149660208	-66.1924962685352
95109.37	1340.45966043471	3300.01264952918	3561.86967592938	-67.893092300263
81109.37	1467.76012095137	3676.82006791371	3958.95511271196	-68.2384712591679
69171.88	1583.97097991529	3919.97038028348	4227.89922390703	-67.9974852105358
59000	0.00691837163703421	0.00147470279264993	0.00707379773776215	-12.0329387569723
50312.5	-0.000535203129073564	0.000907558202033827	0.00105361486295942	-120.52860499509
42906.25	-0.000467647763210704	0.000876988775380329	0.00099388316344481	-118.068438814357
36593.75	-0.00045886930853648	0.000820415001437378	0.000940022242768883	-119.2188807712
31203.13	0.000602882417794299	0.00092097118796265	0.00110075207869113	-56.7906026251155
26609.38	0.000296294088739911	0.00146953235638546	0.0014991049107671	-78.6005848714473
22703.13	0.000118959946755633	0.00103395787170034	0.00104077872258382	-83.4368070285876
19359.37	0.000687074573014641	0.00118189323182964	0.00136709293039206	-59.8291124042533
16500	-0.00222768785270792	0.00735510348316091	0.00768505955846201	-106.850326256152
14112.02	3.20872996898713E-05	0.00042842533067524	0.000429625253873159	-85.7167779827517
12011.13	0.000772540694602078	0.000538750858614055	0.000941844792135967	-34.8909696725795
10236.38	0.000147764518458578	0.000201647019172714	0.000249991746376828	-53.7664855457914
8750.684	5.13145021347047E-05	0.000101679142241045	0.000113893924755481	-63.2212517345458
7449.463	0.000165097624043601	0.000373026489340319	0.000407928899704845	-66.1263196431976
6363.206	0.000679894287054911	0.000406161335366078	0.000791974287408538	-30.8536282987681
5414.761	-0.000438401691689611	0.00122746764260812	0.00130340816973282	-109.65466818442
4620.567	0.00081896465390962	-0.000115535170830923	0.00082707404750254	8.02999203960258
3941.215	0.000926835773438292	0.000327559968762444	0.000983015810686995	-19.4642987626442
3361.769	0.000728273946727167	-0.000382781861715448	0.000822742301781006	27.7264819487236
2867.244	4.76095322458168E-05	-5.4389090082639E-06	4.79191954425952E-05	6.51721157311867
2442.658	0.000516662493198952	-0.000406264528035114	0.000657260221387352	38.1788478728921
2083.003	0.000674284393522466	-0.000462267954324672	0.000817527433755881	34.4332967154069
1777.843	0.000283868808128638	-0.00078999969203753	0.000839452806087254	70.2352291751988
1513.548	0.000178481386536701	-0.000356067064898937	0.000398295568699687	63.3773254379394
1292.065	0.000230477763826173	4.06516809836082E-05	0.00023403537934489	-10.0029492888238
1101.762	0.000616143830459585	0.000155735453643742	0.000635520850432959	-14.1848880213923
939.101	0.000492892614090065	0.000509117208715375	0.000708620816258366	-45.9276551449562
801.2801	0.00671050301381957	-0.00942630233242711	0.0115709129441372	54.5532654604871
684.3433	0.000448232515359685	-0.000200252371927736	0.00049093115636345	24.0731827258325
582.9476	0.000210582554686851	-0.000253435067712141	0.000329506215244414	50.2763589733756
497.0677	0.000973066761816777	0.000444683090688073	0.00106986072649504	-24.5599905868874
423.5089	0.000683303726969624	-0.000243481886621165	0.000725387766924133	19.6125286738225
361.5036	0.00053757342562195	-0.000758761985815436	0.000929895122609804	54.6829028912134
308.1262	0.00179602285102278	-0.00167997035137475	0.00245926787131744	43.0877841038124
262.7298	0.000705553907239272	-0.00120934904094987	0.00140011835887791	59.7400174671104
224.2111	0.00360111983073398	2.32819313966714E-05	0.00360119509102674	-0.370423058721588
191.2854	0.00298950016427026	-0.00385925759246663	0.00488169851559713	52.2375304807509
163.1722	0.00270376177642001	-0.0030631994915754	0.00408577029075518	48.5664638366328
139.1537	-0.000342093105069574	0.00497054722508819	0.00498230543116016	-93.9371180610526
118.6706	0.00574807378849289	-0.00276321625131295	0.00637775166727892	25.6745424674436
101.1982	0.00768070841845786	0.00889392058707764	0.0117513873742045	-49.1864099005423
86.24196	0.0101205638084461	-0.00772052474098035	0.0127291914148904	37.3383875423706
73.61024	0.00179448637617265	0.00742933115191166	0.00764297996327573	-76.4208242356516
62.69291	0.00969663687079784	-0.00297372203495374	0.0101423759221045	17.04949938013
53.57697	0.00564143540502695	0.0125688733446831	0.0137768781145722	-65.8274648572574
45.65746	0.0160771057777156	0.000283430951486019	0.016079603953211	-1.00998994773379
38.96512	-0.000921013940780299	-0.0188723231756363	0.0188947836379455	92.7939526682076
33.18414	0.0181673016504016	-0.00557572802293733	0.019003673125016	17.0617778656796
28.30617	0.0218287390365279	0.0211444338378431	0.030390474334037	-44.0876985887188
24.17237	0.0325035104816604	0.000760487494136366	0.0325124058608425	-1.34030985690922
20.61345	0.0208426285432924	0.0567009478237048	0.0604103687184589	-69.8171418720918
17.55618	0.0482092242017722	0.0392025111580332	0.0621366733840206	-39.1171292877763
14.98558	0.0743532510056671	-0.00229490383125927	0.074388658535468	1.76786586053852
12.76553	0.0695290037560107	0.0315709021071074	0.0763610124550475	-24.4212832342642
10.8809	0.0169548535479961	-0.0813845452645849	0.083131890792627	78.2318865302807
9.278505	0.0552744303771609	0.0506648947742605	0.0749812924402247	-42.5085696095587
7.923394	0.0971550204005311	0.0174958840580104	0.0987177995500252	-10.2085322752947
6.75822	0.224619950568275	0.133371243732094	0.261231718686572	-30.700316251947
5.761429	0.183994024764424	0.0675929172987866	0.196016845240332	-20.1715521353758
4.919708	0.0672980512647686	-0.13520915369945	0.151031595860458	63.5389568319458
4.191257	0.0824372293410747	0.184609118294606	0.202179186215952	-65.9368425003478
3.564097	0.300415165289441	0.0671596133025479	0.307830611204978	-12.6016108277955
3.051758	0.131211426722089	0.373717781833001	0.396082591085022	-70.6539467318804
2.604164	0.0492028757660632	0.334823624891507	0.338419536624497	-81.6401259746164
2.214424	0.375474980541063	0.332405028794805	0.501472396229729	-41.5182120606751
1.892567	0.40294007195526	-0.141386206217746	0.427025480382561	19.3352801263367
1.607507	-0.0036344633619878	-0.572378199518533	0.572389738384615	90.3638094759397
1.376413	0.218195084610183	-0.496239197802513	0.542090800866171	66.2650327253988
1.17375	0.389860185951664	0.145085046996017	0.415981532585405	-20.4125668318975
1.001604	0.333172746377844	0.194264797025763	0.385671998325541	-30.245404951347
