EC-Lab ASCII FILE
freq/Hz	Re(Z)/Ohm	-Im(Z)/Ohm	|Z|/Ohm	Phase(Z)/deg
6999984	5.08416749896577	2.53903519395162	5.6829093670113	-26.5375601463594
5969734	5.36151245848325	3.65874273988511	6.49093323637927	-34.309967550005
5091109	6.8313241615942	-1.54051242403373	7.00286857861712	12.7080377382411
4341796	0.807025528893681	-0.181234380445667	0.827125205118095	12.656975739539
3702781	2.65719769837822	-7.07201168057231	7.55473684640423	69.4070759781167
3157797	1.45860737374596	0.0286946683661054	1.45888959648725	-1.12701428555808
2693047	3.08855652862262	-6.2427783024344	6.96501703973818	63.6765239985567
2296687	4.5769813732786	-12.6664514266705	13.4680269614945	70.1328416172089
1958656	8.4113420164379	-12.3439524365608	14.9373302927119	55.7289347490499
1670375	-2.05291738781508	-13.4044869131279	13.5607794468243	98.7072781844143
1424531	15.0481206040947	-2.65235903114246	15.2800831851617	9.99619411641918
1214875	19.948460218114	-16.4955690917486	25.8852248345331	39.5876651474495
1036062	1.48083020914046	-15.9292868469784	15.9979697949966	84.688891698287
883578.1	7.4245326223159	-0.733036481094911	7.46063181925291	5.63863350640271
753531.2	11.0830977004497	-10.2242399943406	15.0787976344133	42.6917671349738
642624.9	9.42279930070336	-10.2888849371525	13.9517131532761	47.5158253981235
548046.8	1.29891726447021	11.5349910285405	11.6078940419203	-83.5751763361117
467390.6	5.64887695192906	-6.2870554300862	8.4520338853445	48.0605191852205
398593.7	4.60813124705032	-0.402751962322506	4.62569808063563	4.99497443822613
339937.5	3.47405079399888	0.958568221765373	3.6038704131895	-15.4253702957403
289906.2	6.38468828042041	3.01415091527385	7.06040722467082	-25.2715526022383
247234.4	4.16263367419802	-3.47512746027965	5.42254829123328	39.8564339195674
210843.7	-1.815630970011	-4.79201779580646	5.12444634810327	110.751022925403
179812.5	2.34027781503583	0.958224045859123	2.52885222455	-22.2665895020055
153343.8	3.52890090186134	1.08830534999154	3.6929053751725	-17.1396485596158
130781.2	9.55735837607383	0.477734780485698	9.56929096899004	-2.86160905989114
111531.3	2.89957362081945	-1.16148234048806	3.12355060945355	21.8295602141915
95109.37	2.61382824509234	-4.08139911752189	4.84663974845985	57.3635031244668
81109.37	5.53280644938404	-3.03252468569598	6.30937026776057	28.72709544214
69171.88	6.33572012245776	2.24733663124838	6.72248997055905	-19.5300513992134
59000	8.12280943867967	1.08375032663934	8.19478785250688	-7.59955749601056
50312.5	8.42762046752047	0.539763038685779	8.4448878549393	-3.66461227455596
42906.25	4.74055873569793	-5.07866235553509	6.9473526215481	46.9720769913884
36593.75	4.249291379945	-1.55303554272651	4.52420121442965	20.0764010343384
31203.13	12.0424106223849	-72.4225335031431	73.4169123064435	80.5592410941021
26609.38	2.50735133863773	-3.0570254858062	3.95375967355593	50.6416310269274
22703.13	-1.95778084266085	7.66458370798927	7.91067312209677	-104.328796295561
19359.37	4.31922100162418	-8.37815198460502	9.42598009429324	62.727362115143
16500	8.29782092901901	-5.38320915836362	9.89104509203936	32.9734804675049
14112.02	11.4788562582476	2.57178307595711	11.7634267621	-12.6283049314707
12011.13	18.3179378433977	-0.64555671783716	18.3293095972141	2.01836988406325
10236.38	23.8749474574702	-1.74000267220296	23.9382690559747	4.16833843338554
8750.684	19.2951798066128	-9.98908927417919	21.7275370968971	27.3705433776545
7449.463	117.959093529927	-56.903534584507	130.967018728428	25.7526881811215
6363.206	129.798161094896	-36.2893764503603	134.775670900843	15.6200957319935
5414.761	443.811697169238	269.7113954665	519.339060141567	-31.2877125835151
4620.567	338.058749404997	-273.264475617959	434.692065356648	38.9497969637083
3941.215	322.420723764499	-634.0782954346	711.344085414415	63.0472444521645
3361.769	108.890042499124	-234.167446554537	258.246847766498	65.0611338062699
2867.244	325.252193124608	-387.572433466832	505.965789669389	49.9965034679219
2442.658	53.5833406793843	-281.619228921542	286.671527181768	79.2271715162024
2083.003	166.90372986897	83.1885924603558	186.48645248304	-26.4927032805786
1777.843	198.693250847496	36.6900386809167	202.052386451517	-10.4621978799329
1513.548	349.411500692539	32.3464061145811	350.90552404421	-5.28902268122301
1292.065	-5.09962680523283	-153.114448373248	153.199348870015	91.9075869591402
1101.762	281.765041556828	-23.6634782183619	282.756960736445	4.80060710059492
939.101	277.247254478764	159.118093560566	319.663272545286	-29.8524303884006
801.2801	435.478389045261	72.0955973185855	441.4059384265	-9.40033519821698
684.3433	454.873474217648	597.059326807633	750.59291048798	-52.6978046663134
582.9476	647.731324356129	-58.1233756045093	650.333910651911	5.12763307540615
497.0677	-181.185524866169	1191.72678037871	1205.42146716111	-98.644825784745
423.5089	1228.94160702628	445.24678799387	1307.11215115582	-19.9155030263097
361.5036	-267.936860928193	1439.98271987848	1464.69805591209	-100.540456649935
308.1262	1154.50108472274	316.449373289034	1197.08519349335	-15.328328433979
262.7298	602.893821627858	1093.17051141815	1248.40006696221	-61.1228511056587
224.2111	-396.178537050909	-1968.90986733348	2008.37334649287	101.376975030826
191.2854	3886.36657792807	-1346.43369499977	4112.99512193572	19.1086695887845
163.1722	1477.58815937798	1271.92048882113	1949.62778463402	-40.7221502296983
139.1537	1161.52576204141	-1063.9140573579	1575.13657100888	42.4885160867291
118.6706	5487.55946225392	2260.41869280297	5934.88007617219	-22.3875924587592
101.1982	1146.44039436291	-497.718673378945	1249.81976926958	23.4677210349839
86.24196	6323.24642119166	-5704.78425783892	8516.33775349474	42.0565345570903
73.61024	4413.56566740042	-4181.81701218172	6080.0621233527	43.4555657125068
62.69291	9948.3313753881	-9916.29837278654	14046.4326635862	44.9076069231289
53.57697	718.01367092042	7479.26042494108	7513.64626101857	-84.5163741061731
45.65746	3252.65169850845	9295.21311735246	9847.87946559111	-70.713648934133
38.96512	1084.75828187093	-6501.66744994016	6591.53852751382	80.5278430069289
33.18414	5605.08671224563	-272.102474879359	5611.68751879753	2.77927788951982
28.30617	5756.45057129812	3772.92754051442	6882.71061470483	-33.241876817056
24.17237	7078.6748133991	497.770533647176	7096.15477692096	-4.02240264521895
20.61345	6183.48218351156	-297.55517240488	6190.63736576694	2.75500338661351
17.55618	1144.71932524636	3077.5849995651	3283.58215416343	-69.5971260787616
14.98558	2348.59831768538	-3698.83097928015	4381.46832364644	57.5862118194341
12.76553	2372.31791682777	-539.105529221785	2432.8023080677	12.8029424674265
10.8809	0.841403842167238	-0.539291559979123	0.999397724771527	32.6575400801139
9.278505	0.0283725597744271	-0.536581410255144	0.537331007833674	86.9732171316941
7.923394	0.359285601893814	-0.372827531989051	0.517770714059078	46.0596818096882
6.75822	5.57710058270665	2.88305686584612	6.278221706927	-27.3364982254678
5.761429	3.53369772155881	1.68792940609764	3.91613652306952	-25.5322483990229
4.919708	3.84150038546257	-1.93494194602105	4.30129347359382	26.7341362362908
4.191257	5.10354512940741	-0.0729791364912599	5.10406689241639	0.8192563084393
3.564097	5.65941163101641	-2.67291606191128	6.258867332298	25.2811668340406
3.051758	-0.526809048729643	4.10695780461886	4.1406074654262	-97.3095476431926
2.604164	4.07208775811429	-4.79850754309048	6.29345480248174	49.6815485679385
2.214424	5.62749087374356	0.915856445169438	5.70153019480082	-9.2436656187164
1.892567	3.96916427115911	1.73944660915984	4.33358275766873	-23.6649560263797
1.607507	3.9989127296888	-0.267341882138793	4.00783915615543	3.82474022730795
1.376413	6.4198054896093	-2.9631913700189	7.0706722183801	24.7766431179602
1.17375	2929.10503007338	-285.591711058679	2942.99488661238	5.56881401540365
1.001604	2211.60546248418	1557.9667850024	2705.26509326915	-35.1628037689014
