EC-Lab ASCII FILE
freq/Hz	Re(Z)/Ohm	-Im(Z)/Ohm	|Z|/Ohm	Phase(Z)/deg
6999984	-43.2336082227046	83.3725234828868	93.915507515313	-117.409422758398
5969734	-28.62517737922	90.5118474539038	94.930476189212	-107.550022315566
5091109	-15.016051603031	91.2187209165924	92.4463998834139	-99.3479595909296
4341796	-9.98797559595937	92.7386775464065	93.2749804050467	-96.1470735726517
3702781	-9.77144582075093	100.916979981435	101.388944180326	-95.5305136893114
3157797	-3.92167954668289	110.247285743708	110.317014029213	-92.0372473081783
2693047	-1.74161260152774	122.09298847113	122.105409578222	-90.8172482750063
2296687	-2.93759411124761	137.316080922489	137.347499209392	-91.2255379998165
1958656	-0.528028871481173	158.296955547925	158.297836214621	-90.1911199964873
1670375	0.0549337922796274	181.104312309659	181.104320641105	-89.9826206548392
1424531	1.96295594183101	210.943616264316	210.95274930348	-89.4668440476624
1214875	3.01573464057773	241.645894695558	241.66471210882	-89.2849872434879
1036062	9.75053657277379	278.207868993714	278.378683331682	-87.9927382323499
883578.1	13.5328383533351	325.118380286787	325.399906137358	-87.6164768482874
753531.2	13.7943811243384	376.045269971532	376.298192951502	-87.899174224405
642624.9	19.5189135856392	437.792675130922	438.227582867456	-87.4471678198263
548046.8	26.4225871067781	507.040230790198	507.728223313608	-87.0169338114625
467390.6	122.98761914731	703.264090418316	713.937206857456	-80.0803629689317
398593.7	156.460549143256	795.810340567282	811.04500589796	-78.8772088949365
339937.5	185.820163019377	927.341715942129	945.775761537078	-78.6691679195245
289906.2	201.482307045508	1052.55402500597	1071.66463765893	-79.1634013136043
247234.4	136.85804169476	1162.2558713929	1170.28579166107	-83.2842283677442
210843.7	205.350577425862	1217.41680952783	1234.61433159107	-80.4256273362775
179812.5	363.975552740944	1440.24274853915	1485.52259414413	-75.8172704942608
153343.8	292.817825654562	1777.97725244928	1801.92824198084	-80.6478203692293
130781.2	314.432176268766	2048.57973792058	2072.57003164957	-81.2738913519687
111531.3	339.465556866147	2368.69091702568	2392.89229274918	-81.8442708370215
95109.37	365.229220583587	2743.95700760503	2768.15686751182	-82.418317251963
81109.37	394.601302724043	3177.81699848703	3202.22283171934	-82.9216033792059
69171.88	418.729653903597	3685.2037971734	3708.91649269156	-83.517594077701
59000	436.608458828921	4261.60949416504	4283.91671570288	-84.1503686666435
50312.5	312.264491490091	4886.22414433666	4896.19193877692	-86.3433646275068
42906.25	1835.47062197689	6790.38928268649	7034.08409208788	-74.8741819634755
36593.75	1946.87250063648	7484.76653067494	7733.82457471374	-75.4198096717786
31203.13	2017.77841330011	8519.83614400395	8755.51469908286	-76.6759623418234
26609.38	2171.12788496287	9721.01998677169	9960.52337360231	-77.4099785731655
22703.13	2299.72665712623	11144.6444064574	11379.4482135066	-78.3405193282375
19359.37	2433.26317598365	12878.8747199316	13106.7228449865	-79.3009684802153
16500	2573.24493951031	14898.5598435446	15119.1492793211	-80.2006841059092
14112.02	2724.95121746265	17211.3825508183	17425.7581886173	-81.003455272667
12011.13	2918.18206898319	20002.0108554791	20213.7632530521	-81.6994271064124
10236.38	3097.4296613594	23234.3060014005	23439.8601931365	-82.4065143213833
8750.684	3444.13733408096	26985.1903978206	27204.0912875737	-82.7266258415229
7449.463	3702.05463962022	31262.0025714924	31480.4385823122	-83.2464704490451
6363.206	3906.99115132283	36940.6309435319	37146.665992559	-83.9626103971791
5414.761	15363.3993798027	49761.3279147178	52079.0149324985	-72.8423590303826
4620.567	16266.1927938502	54986.6316926795	57342.1197106725	-73.5206837640379
3941.215	17292.6304111817	63572.0001689948	65881.9722839595	-74.7827951951521
3361.769	17696.1172476579	68478.1845464924	70727.7479100411	-75.5106234823068
2867.244	19730.5577674601	82692.8436896035	85014.1241635076	-76.580106502698
2442.658	20834.5465618883	95236.9684921921	97489.2737588207	-77.6600746507401
2083.003	21961.7012874681	109938.977369117	112111.083610887	-78.7031443167758
1777.843	24279.3316712295	128001.363698333	130283.671482786	-79.2597155189658
1513.548	25110.4783355157	147379.379029961	149503.235702426	-80.3308028211834
1292.065	25514.0769256589	169314.272141402	171225.847558543	-81.4305380131575
1101.762	27999.725526391	197080.109792899	199059.172874636	-81.9139425049094
939.101	30376.8517891848	229561.314889179	231562.411496924	-82.462091227511
801.2801	30960.394433254	266551.875336808	268343.899258082	-83.3746984035954
684.3433	39796.0450033992	304126.480347989	306719.15696084	-82.5449982204665
582.9476	137666.7964087	422502.645428077	444365.426453451	-71.9524982787649
497.0677	156578.862443024	487849.101021009	512360.893834568	-72.2055737368742
423.5089	172404.505643459	554328.758811886	580520.186050487	-72.7235275836724
361.5036	174023.234154416	629148.261935216	652772.258541726	-74.5384859913083
308.1262	184340.403074951	688924.055969328	713160.388060825	-75.0198851307773
262.7298	173030.781277216	854964.888836699	872298.465212999	-78.5588162481823
224.2111	203132.804703626	922166.213240779	944274.039243693	-77.5773968409027
191.2854	259940.304386911	1008685.79011717	1041641.00583121	-75.5491835419191
163.1722	251426.212912499	1277689.73029492	1302192.83803921	-78.8674686124193
139.1537	395807.613702869	1634952.65133379	1682181.2741701	-76.3910304303048
118.6706	329255.025060632	1645353.06912275	1677973.65700399	-78.6838929348594
101.1982	329168.018655971	1959253.90251272	1986712.7218139	-80.4629841845201
86.24196	155243.214934448	2179973.66516953	2185494.36892797	-85.9266524231081
73.61024	1068212.718099	2557418.17723954	2771545.80412875	-67.3301039707675
62.69291	1487597.68642402	-67692.4323677439	1489137.04609547	2.60542014912311
53.57697	522608.861718738	2652234.92300285	2703233.26946508	-78.8529727802025
45.65746	1583898.39962408	3084916.20246964	3467771.923958	-62.8225304049142
38.96512	381864.203361123	4918027.57651694	4932830.37547306	-85.5601313215629
33.18414	1861263.38088158	5787099.92628048	6079048.19274911	-72.1710243818278
28.30617	-180795.056524167	4663503.21244299	4667006.4350641	-92.2201354363841
24.17237	916858.351927978	4403082.52731069	4497528.76364441	-78.2373296293344
20.61345	3549418.75400828	6133012.63764065	7086057.96651182	-59.9403235122882
17.55618	1315240.07028666	6333007.07869465	6468140.00322227	-78.2675818009173
14.98558	-842987.920144287	6680244.53642743	6733223.27715172	-97.1922058867499
12.76553	475891.298379287	4329120.53500686	4355198.86279504	-83.7267809687033
10.8809	3433552.76728944	1278385.78676815	3663816.97490088	-20.4213846523646
9.278505	4157531.08019818	-66636.3771101505	4158065.06557656	0.918250810366414
7.923394	4949093.13373384	2470322.04653189	5531366.36464744	-26.5259119143844
6.75822	5485201.33556128	-324131.554054907	5494769.78189053	3.38178999363908
5.761429	6955659.52801163	94565.0955853249	6956302.32428997	-0.778912058252959
4.919708	5492128.91539833	2228850.7606053	5927162.53669539	-22.088611622104
4.191257	6476619.71834963	-918292.830343023	6541396.23462566	8.06993865707911
3.564097	5474615.51788916	-6526239.73555908	8518404.78931959	50.0079855421363
3.051758	2286792.65562506	8345662.40143108	8653294.26105926	-74.6765115241554
2.604164	12806782.3244356	2537963.61843079	13055839.0321708	-11.2092660898481
2.214424	2216053.4795491	10818390.1058554	11043027.5516587	-78.4235982085314
1.892567	15697122.9307609	-2920938.10420243	15966575.9545371	10.5410998979004
1.607507	-6639014.9035538	-18025724.0503637	19209457.2132965	110.219146204183
1.376413	11820187.5817995	-9886893.37535999	15409980.3726242	39.9105039466939
1.17375	-6913692.87862187	16210650.2884374	17623402.9629332	-113.097800758479
1.001604	7344558.50912998	20919987.4949241	22171793.2626528	-70.6549207601321
