EC-Lab ASCII FILE
freq/Hz	Re(Z)/Ohm	-Im(Z)/Ohm	|Z|/Ohm	Phase(Z)/deg
6999984	26.3206378279029	7.02369756757899	27.2416648387804	-14.9412954433681
5969734	20.8313060619532	-0.477356456528772	20.836774736829	1.31272251203147
5091109	13.2368213076649	-6.68270596031454	14.8280813756559	26.7872608830554
4341796	8.58026036781685	-4.60161717777456	9.7363108326675	28.2047813865208
3702781	6.75162496718769	-5.20974880273104	8.52794947716681	37.6548149438875
3157797	4.61787492394343	-4.58146500304889	6.50496659386867	44.7732311314369
2693047	3.07877114366184	-3.66571057573138	4.78709366735953	49.9736424518962
2296687	2.6414412570637	-3.87739324490293	4.69162981171118	55.7356841918765
1958656	1.82003914262188	-3.21708696106568	3.6962401160821	60.5013637852803
1670375	1.38778822339121	-2.64504910003114	2.98701203455207	62.3151762773259
1424531	1.23621726473967	-2.45704202878351	2.75050698178518	63.2915536560083
1214875	0.864149588212852	-1.99827887729717	2.17712493492231	66.6140786141925
1036062	0.804784062387518	-1.79314397349551	1.96546246383802	65.8288972517452
883578.1	0.725101391777847	-1.54206208707168	1.70403271938717	64.81636623619
753531.2	0.66070888741674	-1.33744303765291	1.49174063190546	63.7102139169104
642624.9	0.600643329894614	-1.18965962774307	1.33268992628768	63.2113968604695
548046.8	0.566420486678439	-0.990979992152389	1.14143484815183	60.2487466934071
467390.6	0.537254376806191	-0.858378426551455	1.01264790947612	57.9577749495765
398593.7	0.50775000790279	-0.738891431409751	0.896532552636007	55.5040029778374
339937.5	0.488950807627308	-0.64303260727557	0.807814227591353	52.751273087755
289906.2	0.472780667584036	-0.55457202273114	0.728746655592541	49.551928325946
247234.4	0.459637210874602	-0.478393319604496	0.663420329702665	46.145487969087
210843.7	0.553057868260852	-0.257983993847729	0.61026940503917	25.0075622981318
179812.5	-0.440852928801584	-1.56881795202764	1.62958309743232	105.695873594743
153343.8	1.0900622741087	-1.68492393315725	2.00678958088812	57.0991346682155
130781.2	1.51214140225224	-4.78780658674015	5.02092257781752	72.4722282947281
111531.3	2.09128441286035	0.236837478876558	2.1046525810388	-6.46120494864463
95109.37	2.91663520447744	-1.48426048045396	3.27258156351138	26.9713063860073
81109.37	0.641779430808638	-0.445420924744348	0.781204607007134	34.7622145968577
69171.88	0.538473111339941	-0.170817556234764	0.564917630415385	17.6003696522585
59000	0.404860939302864	-0.12386546369415	0.423385206720032	17.0112659064609
50312.5	0.363308845754715	-0.0903145738365699	0.374366183904082	13.9601281375184
42906.25	0.403623387894407	-0.110502521544915	0.418476578225285	15.3110480268779
36593.75	0.375778546664648	-0.0960366396338926	0.387856355221318	14.3360572060596
31203.13	0.36700944790051	-0.0880626736824723	0.377426773486384	13.4928409485436
26609.38	0.357380748740863	-0.0783384558605101	0.365865977151729	12.3637817766147
22703.13	0.378217144192764	-0.0594012577388455	0.382853389148231	8.92573133819831
19359.37	0.350259861951743	-0.0603528032827672	0.355421484660878	9.77655647523373
16500	0.350212798399761	-0.0560065126920023	0.354662845004818	9.08588450109328
14112.02	0.345948116929385	-0.0505571526412823	0.34962283290738	8.31439682994962
12011.13	0.344156402066817	-0.0430979548057033	0.34684443601132	7.13786810469414
10236.38	0.341449458360195	-0.039794402828299	0.343760566544407	6.64757666024479
8750.684	0.343187596643138	-0.0339538483765357	0.34486314721824	5.65026741443284
7449.463	0.334940265181592	-0.0342874517033172	0.336690674929114	5.84494300335782
6363.206	0.474264583129175	0.0551417485913701	0.477459429950235	-6.63188334623616
5414.761	0.336877488615665	-0.029351802102964	0.338153767719197	4.97954926846561
4620.567	0.333976416180897	-0.0259910234925373	0.334986238325136	4.44995635701706
3941.215	0.333290296290423	-0.0229466122923423	0.334079284926577	3.93852620767416
3361.769	0.327491936586242	-0.018582836316112	0.32801873473105	3.24764510393848
2867.244	0.3301980112997	-0.0217548885084379	0.330913888859762	3.76944865416223
2442.658	0.329326493244344	-0.0207340895325313	0.329978547213845	3.60253401632693
2083.003	0.327166604263012	-0.01937471537432	0.327739784800116	3.38908202749771
1777.843	0.326640138809372	-0.0184047791170339	0.327158243325386	3.22496285074484
1513.548	0.324708163306276	-0.0170785814507285	0.32515699171647	3.01079523762951
1292.065	0.324533627957195	-0.0191621054065645	0.325098849519145	3.37910912411566
1101.762	0.321890374673694	-0.0166836996339837	0.322322445915652	2.96700693813664
939.101	0.321172951405048	-0.0155773660333153	0.321550492219752	2.77675458339006
801.2801	0.319839509559475	-0.0185570445248378	0.320377395857982	3.32057059914494
684.3433	0.31754376420398	-0.0172676856131838	0.318012916642184	3.1126167133178
582.9476	0.319175971229657	-0.0159710645538806	0.319575304917916	2.86460161845511
497.0677	0.312466015700483	-0.0127266157469414	0.312725083285791	2.33234502621699
423.5089	0.312229343733088	-0.0131937988123565	0.312507982962189	2.41969416095807
361.5036	0.309200262035271	-0.0140750565613581	0.309520450471186	2.60635292441359
308.1262	0.309980343791547	-0.0120688693647066	0.310215201343951	2.22964520622877
262.7298	0.307241718210594	-0.00980384153739223	0.307398094850779	1.82764312026231
224.2111	0.310166709696501	-0.0137780903808395	0.310472581041379	2.54349601654097
191.2854	0.318465209062783	-0.0301098116766486	0.319885432839017	5.40106744284982
163.1722	0.306681615907447	-0.0371015944431517	0.30891769429061	6.89798213502876
139.1537	0.289137741623773	0.00018503710592442	0.289137800832105	-0.0366671044600173
118.6706	0.303468345422793	-0.00536459537954351	0.303515758334282	1.01274702064396
101.1982	0.281644229145253	-0.0255087576459759	0.282797044764376	5.17520748000925
86.24196	0.307986398326591	-0.012390509485102	0.308235537015909	2.30380714435712
73.61024	0.290724834860925	-0.0264571001414541	0.291926202580047	5.1998177361835
62.69291	0.700959779216618	0.122040580994423	0.711504403000337	-9.87648031470454
53.57697	0.305791057428026	-0.0121119568182535	0.306030832271714	2.26822016274375
45.65746	0.280516237103443	-0.0232425714537165	0.281477488276516	4.73650400951789
38.96512	0.301407334868001	0.0256654457991619	0.302498093581267	-4.86711088483355
33.18414	0.307360797980772	0.00178972867300633	0.30736600863482	-0.333623354639043
28.30617	0.30672025895708	-0.0327917567935958	0.308468177561817	6.10236721113215
24.17237	0.284865878003373	0.0316642739876604	0.286620297079252	-6.34267716956592
20.61345	0.251486907358878	0.013833948704224	0.251867113195995	-3.1485887225695
17.55618	0.241985752106198	0.0675798185168026	0.251245171283283	-15.6035544404481
14.98558	0.28131234086638	-0.00452224344022646	0.281348687236061	0.920980381302417
12.76553	0.356446677955757	-0.010040638412775	0.356588065764169	1.61352077081279
10.8809	0.284744414504993	-0.137655554137139	0.316272719621207	25.8007707992889
9.278505	0.306534601974174	-0.108460702557283	0.325157171544292	19.4852346404783
7.923394	0.288342760883414	0.0766583345007974	0.298358924790773	-14.8881707966036
6.75822	0.40778625839305	0.147558674209079	0.433662535698606	-19.8928081680446
5.761429	0.332421265626896	-0.0183865363275085	0.332929365720584	3.16585824347253
4.919708	0.528182214356415	-0.143693981708912	0.547379586705429	15.2191971627404
4.191257	0.496438607940081	0.0968441894056815	0.50579648918822	-11.0385074781653
3.564097	0.492889682007308	-0.214926044831513	0.537711301142335	23.5597552456157
3.051758	0.614439977870985	0.179038522585313	0.639993186663443	-16.2453244667741
2.604164	0.518624140689668	-0.390036629021707	0.648921852987487	36.9453728723785
2.214424	0.684014343834159	0.0243051387068646	0.68444602587672	-2.03503951815479
1.892567	0.528390387847442	0.440522442407401	0.68793635187723	-39.8181832571645
1.607507	0.371519646973613	-0.468426877303275	0.597871714891661	51.5812932700978
1.376413	0.332211261074453	0.640032222207429	0.721114115413405	-62.5682517354352
1.17375	0.747006728092894	-0.111120969135057	0.755226404197817	8.46098808183385
1.001604	0.23374791669683	0.0923072121599612	0.251313966935489	-21.5490973734749
