EC-Lab ASCII FILE
freq/Hz	Re(Z)/Ohm	-Im(Z)/Ohm	|Z|/Ohm	Phase(Z)/deg
6999984	-17.6657251579972	19.8360652070055	26.5621408823625	-131.687817491955
5969734	15.3850757306631	25.5453562960728	29.8205597454432	-58.9409132302415
5091109	4.84463795909162	33.1591079443473	33.5111467517831	-81.6877387673917
4341796	32.3983891395155	61.6651629262843	69.6580787673667	-62.28291875346
3702781	17.2790829769547	46.4357352100509	49.5463844596399	-69.5893911485273
3157797	31.0792367473865	-32.375067211997	44.8783236516408	46.1699017007376
2693047	0.763904247346932	0.335408574990408	0.834295278238933	-23.7049083734342
2296687	24.6871318972029	22.6315170226951	33.4908949426323	-42.5125230183451
1958656	13.3021786705018	31.5270796416562	34.2184848892128	-67.1237245729613
1670375	55.9639101075575	40.5143471859873	69.0895908399629	-35.90217142605
1424531	53.5492497295569	19.9527613283785	57.1457332722723	-20.4356856789311
1214875	5.01427116261821	-88.7413354566812	88.8828866201334	86.7659782971952
1036062	116.233120667634	12.0466239684838	116.855720823478	-5.91711849681045
883578.1	97.2872137696279	-67.7269422602404	118.540038261253	34.8438840009756
753531.2	129.42977285509	48.4196048730309	138.190174170889	-20.5107947162948
642624.9	-23.5927549498233	265.265721368514	266.312825487772	-95.0825179892987
548046.8	96.8733976971365	47.7589651050165	108.006360596447	-26.2434780988526
467390.6	87.6289484704532	12.0706898395054	88.4563969605301	-7.84300726316164
398593.7	5.21305048191196	-0.910283888506389	5.29192895687734	9.90491621007689
339937.5	1.58067826066237	5.51771419076779	5.73966145819863	-74.0144014961022
289906.2	5.16042559330292	24.1582675283444	24.7032767517809	-77.9423136606215
247234.4	5.90363474519933	8.81743499685058	10.6113176904855	-56.19606723942
210843.7	2.681583633235	0.238649940528042	2.69218212165297	-5.08569084592919
179812.5	1.49567032461289	2.76301482757816	3.14185942673195	-61.5725083832773
153343.8	2.84627093030685	-3.45731367234224	4.47820008906195	50.536710995483
130781.2	9.0577889720461	16.2497454289855	18.6037030606532	-60.8642179569366
111531.3	13.4125835430944	9.06840466122951	16.1905330486768	-34.0630857656611
95109.37	7.17003736811595	-2.07709009302285	7.46483349544468	16.155788352129
81109.37	281.573376755164	334.092749416354	436.922798340718	-49.8758099083776
69171.88	373.768230050179	108.668004821384	389.244685341629	-16.2110673202032
59000	639.967829752052	92.4221820273037	646.607054437422	-8.21766436539769
50312.5	667.13597491159	9.80515636514171	667.208026115231	-0.842037683331497
42906.25	664.077833713492	642.860488085708	924.266723609261	-44.0699197083359
36593.75	56.9928013246045	968.819710854463	970.494622109237	-86.6333385676225
31203.13	808.617652247332	261.002055276222	849.696757899192	-17.8888137950612
26609.38	1498.87663129774	177.703580857149	1509.37394919215	-6.76130305300031
22703.13	-501.794327086559	1888.71949586656	1954.24125449308	-104.878606595768
19359.37	489.145951610027	1049.7331650329	1158.10339769231	-65.015812844675
16500	156.660390048832	-40.7463096566711	161.872602873029	14.5792204943132
14112.02	95.6001547934857	-58.9732567923222	112.326464438402	31.6693597708518
12011.13	47.6922551872026	16.1067004034232	50.3386233694058	-18.6609317197795
10236.38	1406.58341900767	1279.19922027016	1901.26998602699	-42.2845488412405
8750.684	0.520219293848145	0.303213613222779	0.602135042108891	-30.2360829280202
7449.463	-0.558371330357605	0.0503916017030386	0.560640576561775	-174.843170508547
6363.206	111.801305678885	11.2822807241774	112.369131926177	-5.76241989212513
5414.761	3186.77674953581	487.292996317188	3223.81769268081	-8.69380948188525
4620.567	-0.559541393103797	0.0485595472119205	0.561644549712685	-175.040038806954
3941.215	269.411250336063	-102.087361128474	288.104583632084	20.7530813791217
3361.769	133.702803254974	-25.2732347495664	136.070481710564	10.7040662835695
2867.244	-9.31482822526797	-22.0072366089129	23.8973740822485	112.941096801511
2442.658	18.3277687455203	24.1175688784563	30.2913227805646	-52.7675508187146
2083.003	52.3024049457877	183.474631774076	190.783862178502	-74.0889433052487
1777.843	14.4323581176428	132.350496256479	133.135069835758	-83.7766855926592
1513.548	51.9309071013421	360.798937388464	364.517067272594	-81.809492298857
1292.065	103.535510810146	56.5554697024477	117.975095473504	-28.6452312323718
1101.762	270.389802250391	149.793073897804	309.10938217524	-28.9859864218699
939.101	427.76227836589	128.823499927424	446.739365767478	-16.760029642874
801.2801	486.813643692181	-157.655452615935	511.705741050844	17.9446370730408
684.3433	398.781107500964	36.9955543272977	400.493498998023	-5.3002492162608
582.9476	592.879139140597	-243.452402584765	640.917113168614	22.3243952139562
497.0677	1696.98744917607	-527.971293940924	1777.22257747496	17.2821030562192
423.5089	504.929980569493	-266.566687515625	570.974679097911	27.8308290223728
361.5036	395.044953834266	520.897413456319	653.754258797142	-52.8235746319225
308.1262	473.960466478168	-420.314294563412	633.484514411	41.5670280648202
262.7298	226.8203490036	-1111.15191251281	1134.0661547736	78.4626739301594
224.2111	1600.09785619334	167.889175745207	1608.88157573108	-5.98980392270075
191.2854	735.854419078579	-1721.41564607748	1872.09870269648	66.8547208881474
163.1722	1276.34761784532	-224.346531151906	1295.91458345807	9.96917342680081
139.1537	1271.75686709168	-829.488339459973	1518.35978420627	33.1139238822474
118.6706	666.651990257903	1945.54956808848	2056.59621656856	-71.085727726291
101.1982	1425.06735442735	-479.200226717735	1503.47923894575	18.5859888401764
86.24196	3350.84873740896	1292.17048051486	3591.36350314323	-21.0878778075505
73.61024	2060.4375736652	-405.940475681824	2100.0453958827	11.1454786985162
62.69291	826.693553216981	-2726.27373824635	2848.85779335899	73.1310151675695
53.57697	3536.33647836366	1355.67427238745	3787.28509898829	-20.9746040514532
45.65746	4278.47370021025	-462.614437773236	4303.41135861157	6.17119090148327
38.96512	5452.2655365899	1515.85761716882	5659.06562932563	-15.5371772798821
33.18414	1172.74742301964	585.142097855072	1310.62114773165	-26.516893558689
28.30617	3106.92782961741	3542.16757078732	4711.68246362045	-48.7451521842003
24.17237	2054.01815263071	-6400.66817259162	6722.16807488208	72.2082093427318
20.61345	0.595044701108062	0.777132837223686	0.978781713666596	-52.558994181287
17.55618	0.49788800128114	0.829349267832256	0.967322422914732	-59.0221013498115
14.98558	1.10761980208015	0.47356581215284	1.20461039527311	-23.1492596332943
12.76553	1.05629139680757	0.238480331331061	1.08287782478055	-12.7224418972107
10.8809	7101.38211851595	1240.59999501774	7208.93309310165	-9.90947695412613
9.278505	3297.13697087284	5748.22904080012	6626.70727512499	-60.1617717001062
7.923394	3888.23069757717	6524.02247787424	7594.81449736527	-59.2056197315919
6.75822	-6854.53253325944	14938.7599210609	16436.2758625124	-114.647651594308
5.761429	9178.9204991828	6675.97870957422	11349.945958506	-36.0290070931581
4.919708	10649.9132943124	2101.79591464277	10855.3304529702	-11.1640482606564
4.191257	-453.849832481514	-7550.96290289267	7564.58990503152	93.4396188075405
3.564097	6637.46236215353	-824.567440329468	6688.48398911564	7.08153489427687
3.051758	1588.58927100541	4963.85611722071	5211.85988150324	-72.2537021916652
2.604164	8022.96975520332	-2965.09776600496	8553.35305332796	20.2831070180877
2.214424	4988.82380053392	2141.00526644363	5428.83656631079	-23.2270902201848
1.892567	1175.07102729951	4645.56283137683	4791.87290518735	-75.8050664932245
1.607507	3399.93206078961	-1443.63926313697	3693.72878539502	23.0064785507477
1.376413	4847.99665221573	-1750.16532857229	5154.23614294412	19.8499853024365
1.17375	-404.792156916917	3391.76706381776	3415.83672114174	-96.8058031497136
1.001604	2620.62463507132	1014.30529736213	2810.06916537646	-21.1587870642759
