EC-Lab ASCII FILE
freq/Hz	Re(Z)/Ohm	-Im(Z)/Ohm	|Z|/Ohm	Phase(Z)/deg
6999984	3.54690778200287	1.29003442950567	3.77422093197292	-19.9866701140429
5969734	6.65109578276429	1.78873646613151	6.8874271870397	-15.0528789739699
5091109	4.09874987387983	9.69006936356857	10.5212734400072	-67.0723875545176
4341796	0.971670558767287	0.285107344649903	1.0126351133298	-16.3527311350493
3702781	6.69559745348268	-6.3806185993972	9.24896312945712	43.6201306504243
3157797	0.310610202840149	-11.1728337558726	11.1771504791908	88.4075596760246
2693047	5.54459275401502	-11.2001632520389	12.4974463663662	63.662486532576
2296687	-1.04951827472601	-9.41867894396434	9.47697217778237	96.3582085201574
1958656	-8.13591669533939	-9.7560081600614	12.7032608291213	129.826048432457
1670375	13.2757527101185	-15.9267171078834	20.7341729484145	50.1870233939588
1424531	-7.33776546241016	-10.6869497813118	12.9635526615824	124.473877780802
1214875	10.4156054025212	-22.3995817852349	24.7027549081971	65.0619932429626
1036062	14.1943860410676	-4.90452583154748	15.0178217034019	19.0613490044846
883578.1	11.8238592911462	-3.53801962690088	12.3418487844067	16.6586103835579
753531.2	9.95452867324386	-3.17211512475637	10.4477248944994	17.675026052964
642624.9	15.1031883379155	11.4450380709816	18.9498072395675	-37.1544680901336
548046.8	5.28732714860908	5.17762258471362	7.40024350992284	-44.3993876292699
467390.6	8.63077263092749	3.05847914382605	9.15666592597906	-19.5127538033784
398593.7	5.95340791846004	-3.93682341911963	7.13734155529295	33.4755576538001
339937.5	6.36763603465973	8.07758047372861	10.2856256484211	-51.7509403436581
289906.2	10.5340924368039	2.70141323983077	10.8749591704733	-14.3832517396446
247234.4	-0.83287822326564	5.69767089135313	5.75822366020659	-98.3165209681351
210843.7	3.0864374158448	-1.89500215151983	3.62175773295116	31.5489756085168
179812.5	3.85043197487026	-2.28852075552092	4.47919118162569	30.7253144005485
153343.8	-7.45680675911135	6.60497965263566	9.96141170991641	-138.466595757707
130781.2	4.38227876689842	4.5267480606323	6.30046150652848	-45.9290302436646
111531.3	1.34108428185043	-1.06042513815782	1.70968082537745	38.3342053790418
95109.37	1.83881491532615	-0.402740990327272	1.88240287880031	12.3539612800061
81109.37	1.54315628353114	-0.732413317688501	1.70814536364126	25.389965789758
69171.88	-0.0909242329148595	3.03742837783743	3.03878896381819	-91.7146147737402
59000	1.69697132960447	-1.16349264909458	2.05752930428625	34.4356630311008
50312.5	0.478345909178275	0.306783082955808	0.568269890822539	-32.6737375969822
42906.25	-0.612838368185385	0.162798985133132	0.634093348869473	-165.123113401492
36593.75	-0.581683790509987	0.14530351989469	0.599557457660108	-165.974643276615
31203.13	-0.562659795598081	0.230234796843764	0.607942519700805	-157.746109901844
26609.38	-0.573790339119083	0.123431855643615	0.586916328154208	-167.859731718375
22703.13	-0.572530342729793	0.0923838605637376	0.579936005985966	-170.833726449781
19359.37	-0.567470104324438	0.0975588876814666	0.575795150958771	-170.245126906843
16500	-0.564004642712697	0.0879049777770866	0.57081391198837	-171.141232898428
14112.02	-0.558867332363675	0.0792227319764401	0.564454547722933	-171.93174276837
12011.13	-0.556608384465856	0.0695916839184164	0.560941972157808	-172.873398904667
10236.38	-0.558827201146333	0.0629680516221011	0.562363597920533	-173.571089611798
8750.684	-0.565829121906891	0.0578810577744628	0.568781866840895	-174.159288084279
7449.463	-0.541726147418198	0.143610144719102	0.560438303886168	-165.152563432161
6363.206	-0.476877086617703	0.0818639444874417	0.483852726713441	-170.259164372824
5414.761	0.248372973762224	-0.181928848013599	0.30787536412491	36.2221225180069
4620.567	-0.681412544559875	0.0408932999530922	0.682638497203767	-176.565653528049
3941.215	-0.535229308019873	0.114264551875875	0.547290416487285	-167.948998542856
3361.769	-0.540438724590303	0.0731061191503574	0.545360907742772	-172.296258517632
2867.244	-0.592927579644749	0.0396550581357123	0.594252167298636	-176.17375039618
2442.658	-0.47799898688042	0.0460200586875756	0.480209201557317	-174.500713634398
2083.003	0.404711338399391	0.325441017439379	0.519329493925585	-38.8038474245546
1777.843	-0.562767919147814	0.0423885871402803	0.56436204970011	-175.692523144049
1513.548	0.387532958752707	0.305929698897217	0.493735531217846	-38.2885807498155
1292.065	-0.492143157233257	0.0400137499253141	0.493767138836319	-175.351785143285
1101.762	-0.107598776906128	0.473322759385073	0.485398734386066	-102.807192279032
939.101	0.39979722844066	-0.295964782283943	0.497426352560071	36.5120735398108
801.2801	0.433089377800403	-0.320602557185365	0.538843584760304	36.5113917200346
684.3433	-0.465851937849537	-0.0289000825287074	0.466747515010348	176.450087940771
582.9476	0.43034257031234	-0.30976128579803	0.530232762098194	35.7464013902878
497.0677	0.400501642097536	0.261980606423625	0.478576434297504	-33.1899496520833
423.5089	-0.50360084061623	0.0899582372110448	0.511572371333218	-169.872074086433
361.5036	-0.480968216083241	-0.0629448992186575	0.48506956740239	172.544005468246
308.1262	0.420930056491468	0.304501159292575	0.51952196148809	-35.8820090412393
262.7298	-0.180828760302236	-0.56053932110046	0.588985034658953	107.879587639325
224.2111	-0.0836268535400605	0.456326821958542	0.463926307803075	-100.384841312778
191.2854	0.437545603428756	0.287960573873421	0.52380096142079	-33.3499939529972
163.1722	-0.392946769679074	0.0619893649226011	0.397806291006975	-171.035178410549
139.1537	0.414427357212416	-0.283525374491286	0.502132126423405	34.3775020853171
118.6706	0.468833643281518	0.341456313850975	0.579997758048527	-36.0662321611077
101.1982	-0.424671623873493	0.0604674452296294	0.428954892798704	-171.896333976631
86.24196	0.564367442111887	-0.287664937332586	0.633452228574874	27.0084913469113
73.61024	0.539957593494316	0.194559815257345	0.573940523473596	-19.8153213558311
62.69291	0.0892426426598209	0.47060554779206	0.478992516519385	-79.2622938290439
53.57697	0.591606053294568	-0.555139347470325	0.811281342941247	43.1785979143406
45.65746	-0.00667993281591575	0.868220008367999	0.868245705104812	-90.4408150036053
38.96512	0.248212174981957	0.654946143279165	0.700402551684049	-69.2442413727405
33.18414	-0.399077526479055	-0.559596382703989	0.687321601345418	125.494659388607
28.30617	-0.17788698089564	-1.01244196942488	1.02795064055872	99.965207023624
24.17237	-0.440142961885016	-0.0476791104216379	0.442717883609318	173.817461463704
20.61345	0.412660042529456	-0.550248676211869	0.687794966813023	53.1318660327486
17.55618	0.270906542056908	-0.324444610976534	0.42267559678901	50.1386084602702
14.98558	0.660159055135232	0.231077219081054	0.699433098484248	-19.2917124155949
12.76553	0.673497884149785	0.25684394298494	0.720810801113779	-20.8747604260737
10.8809	0.940533231060504	0.711046725305542	1.17906327408534	-37.0894201916524
9.278505	0.0636299552724648	1.03636404403175	1.03831556040051	-86.4866040762895
7.923394	0.820085643266128	-0.0655860236071809	0.822704071208974	4.57247536009666
6.75822	0.583459227223774	-3.04755915930704	3.10290855477708	79.161797031778
5.761429	3.16534055121175	0.338513961377493	3.18339009660974	-6.10423505354428
4.919708	1.09271911503976	-1.31417280598229	1.70911826049477	50.2568784083411
4.191257	1.7281140946227	-0.369107224937767	1.76709322547932	12.056619102645
3.564097	2.08945199277227	1.58141089769462	2.62043318125979	-37.1204172083689
3.051758	2.32928190184165	1.28782416221988	2.66158697980065	-28.9375313811357
2.604164	1.23508573256296	-2.26698924110868	2.5816035687307	61.4178670743715
2.214424	2.0035839222903	-1.44886361650553	2.47256027487575	35.872045305182
1.892567	1.5594470050379	-0.380488742997474	1.60519364721814	13.7116707192379
1.607507	1.56744086069166	-0.349157930422162	1.60585868373979	12.5579858212743
1.376413	1.87151844245536	0.772280638963863	2.02459839616872	-22.4234538871564
1.17375	1.06528641860845	-0.906293491625436	1.39864328784513	40.3895081225792
1.001604	-0.266463076481517	0.337537070588937	0.43003935302453	-128.288745372342
