EC-Lab ASCII FILE
freq/Hz	Re(Z)/Ohm	-Im(Z)/Ohm	|Z|/Ohm	Phase(Z)/deg
6999984	23.8229584159877	4.95233463806908	24.3322618360336	-11.7434346422486
5969734	17.4574183677234	-5.14572493829232	18.1999983847881	16.4233367241433
5091109	13.4979521696569	-6.38237177732495	14.9308198796429	25.306657726346
4341796	8.38135867424224	-6.77001588609824	10.7740562614235	38.9294340436693
3702781	6.80533375304894	-5.27199716346549	8.60851448171956	37.7644446884078
3157797	4.00529108401162	-4.92602721744672	6.34886610464332	50.8858714758357
2693047	2.868021752573	-4.07059503053458	4.97948719004726	54.8325995743472
2296687	2.66072021808898	-3.56620085309819	4.44940676984986	53.273610061686
1958656	1.77577235043143	-3.26534284121513	3.71696533629675	61.46158375414
1670375	1.35916464821736	-2.7192692978404	3.04002533791106	63.4428718097024
1424531	1.18945508160594	-2.41704136679865	2.6938619786422	63.7976472764474
1214875	0.832574782712749	-1.87917890371662	2.0553574192784	66.104146176526
1036062	0.817184795894347	-1.83500580245533	2.0087402235445	65.9951123081126
883578.1	0.713467550694783	-1.55793941184346	1.71353761466434	65.3943087641385
753531.2	0.642451927252309	-1.35197221326134	1.49685448332861	64.5831151177922
642624.9	0.562273721839376	-1.14856785484655	1.27881189213188	63.9162495400395
548046.8	0.545880606230124	-0.998071399572649	1.13759929452469	61.3241884748676
467390.6	0.514360666392307	-0.86079780115195	1.00276604928546	59.1400160640494
398593.7	0.486532682516252	-0.742968995900011	0.888097393321887	56.781246224321
339937.5	0.466335681672694	-0.645630419852043	0.796434308050238	54.1596033481865
289906.2	0.448354925513821	-0.558948735410177	0.716551343623846	51.2655190404674
247234.4	0.435822479603724	-0.481157471952011	0.649194690784813	47.8303677684944
210843.7	0.424926487791449	-0.415629506122133	0.594399197834338	44.3663050461791
179812.5	0.418560101195459	-0.357256392494498	0.550295092010583	40.4819720515574
153343.8	0.178574752195562	-0.49341089430324	0.524731600667264	70.1038499527753
130781.2	3.46974973762237	-1.08880986394964	3.63657395931453	17.4218932990752
111531.3	1.97767493905718	-0.934800316931455	2.18747566777552	25.2989972806251
95109.37	0.298860004885455	-0.182661297827557	0.350260549083367	31.4330032212044
81109.37	0.380789013429938	-0.201901405242927	0.431004002519715	27.9333655493894
69171.88	0.354172223666478	-0.151155733083978	0.385079238158866	23.112109049858
59000	0.36305639888886	-0.131307349840839	0.386071973725589	19.8836408433225
50312.5	0.338357274390502	-0.0841465942519773	0.348663583497297	13.9656629098194
42906.25	0.404193702821584	-0.12096646901589	0.421906904454994	16.6613090147729
36593.75	0.365997820553569	-0.102329934498105	0.380033972355563	15.6205483686516
31203.13	0.363242544400291	-0.0937539298347631	0.37514656525398	14.4723524063654
26609.38	0.352142770271765	-0.0788375182209633	0.360859924255817	12.6192579278855
22703.13	0.347828232549946	-0.0678982577763476	0.354393358808941	11.045594966091
19359.37	0.346407942228729	-0.0622557515494741	0.351957726211731	10.1883240538604
16500	0.343141469108924	-0.0545378671660093	0.34744848075254	9.03088055276072
14112.02	0.339921196026217	-0.0482934470906134	0.343334642207552	8.08603877112228
12011.13	0.337676334765496	-0.043858742702774	0.340512696344978	7.40037444811127
10236.38	0.336064233497091	-0.0394239424909048	0.338368757833098	6.69082924419921
8750.684	0.332801913203482	-0.0242946331076584	0.333687492468228	4.17520189481341
7449.463	0.265639654255271	0.155537937361627	0.307825398353627	-30.3499239123347
6363.206	0.243206398924445	0.131323645277479	0.276396910776444	-28.367621721475
5414.761	0.336602356157756	-0.0301483964826565	0.337949806896569	5.1181426024876
4620.567	0.32306527558664	-0.0257968832570287	0.324093584440742	4.56540276907356
3941.215	0.331168840024238	-0.020409620308776	0.331797156714984	3.52662398396563
3361.769	0.327779259903225	-0.0188132224393102	0.328318717957501	3.2849452293593
2867.244	0.324000671351053	-0.0267351185026909	0.325101832657532	4.7171105340683
2442.658	0.323037100674148	-0.025177819240968	0.324016806653128	4.45667772491174
2083.003	0.324351113388343	-0.0242522773432698	0.325256541383248	4.27614445324397
1777.843	0.320142344831579	-0.0213387604095477	0.320852713328215	3.81335097225634
1513.548	0.320367128535418	-0.0170452450842078	0.320820257193977	3.04557033804718
1292.065	0.31822529623953	-0.0186185578227769	0.31876949330533	3.34841405615712
1101.762	0.317097462341872	-0.0158487614542591	0.317493281603389	2.86130367338634
939.101	0.317312723310956	-0.0155277536029029	0.317692422803831	2.80154417535419
801.2801	0.312715370420298	-0.0173607186394988	0.313196898849245	3.17757293855178
684.3433	0.311692175094205	-0.0135222965640366	0.311985359463104	2.48413357826085
582.9476	0.310586299091641	-0.0161820082278457	0.311007566746741	2.98249857100138
497.0677	0.309819287627638	-0.0132855297093543	0.310104008819227	2.4554272468092
423.5089	0.308617574709593	-0.0135208501608848	0.308913613828696	2.50858226033687
361.5036	0.309687552630108	-0.0133409491135154	0.309974775066094	2.46670477509076
308.1262	0.307652158482722	-0.0125126080897812	0.307906505258148	2.32900926593374
262.7298	0.298170469901381	-0.0215374016560939	0.298947301026964	4.13140442799582
224.2111	0.303368599190973	-0.00916304532042684	0.303506949466791	1.73005465676445
191.2854	0.299599870073045	-0.00704109591375972	0.299682597391727	1.34629841178393
163.1722	0.292123833948534	-0.00395750636191293	0.292150639597785	0.776158996047355
139.1537	0.283774002251517	-0.0205430825486071	0.284516612159014	4.14055628285744
118.6706	0.296005244261951	-0.021647997208437	0.296795789076789	4.18281306616393
101.1982	0.31289932141702	-0.0290187510504643	0.31424206156363	5.29854008315793
86.24196	0.29564321844603	-0.0051515515168536	0.295688097657241	0.99827181490777
73.61024	0.282812297466338	0.0129049006126077	0.28310657367502	-2.61262967705925
62.69291	0.708921828404197	0.168605756722403	0.728696136937671	-13.3783353331867
53.57697	0.323300530873576	0.011493044060257	0.323504750080902	-2.035956250627
45.65746	0.285966015416702	0.0120826121061423	0.28622115835244	-2.41941742234302
38.96512	0.307261599436491	-0.0379554797680682	0.309597010535785	7.04197215852309
33.18414	0.32073411294528	0.0187575765518057	0.32128214685054	-3.34703150899747
28.30617	0.270038118554791	-0.0350921304760325	0.27230872753909	7.40423618365046
24.17237	0.343311649633932	0.0537138265117564	0.347488221286574	-8.89228779169652
20.61345	0.259049711041301	-0.112630450670559	0.282475434699789	23.4985920009855
17.55618	0.254917677275432	0.156637958415731	0.299196377324575	-31.5692640440424
14.98558	0.758410298992651	0.640359333133248	0.992595716870156	-40.1758808086646
12.76553	0.296037034246239	-0.151559394364187	0.332578074540924	27.1106726400949
10.8809	0.21076342872777	0.0794898200063768	0.225255087342621	-20.6640609264923
9.278505	0.506717895270426	0.202629041155925	0.545730293924627	-21.7957442451229
7.923394	0.516580466970201	-0.145971944538966	0.536808333996071	15.778885255336
6.75822	0.547611909236731	-0.00377776013542007	0.547624939725666	0.395254877675219
5.761429	0.516374539949518	-0.0463547251067677	0.518450987122023	5.12966822149446
4.919708	0.298566192229639	-0.0881772080101842	0.3113149388561	16.4537435943309
4.191257	0.299003077286077	-0.0573499200121896	0.304453368435871	10.857681998022
3.564097	0.649433458333292	-0.117462555535571	0.659970657495988	10.2522088480175
3.051758	0.439480293461533	0.0747486129893584	0.445791749009409	-9.65272883655005
2.604164	0.741663007315454	0.0134497156367835	0.741784949477215	-1.03891858680994
2.214424	0.608394009987314	0.0854896595103383	0.614371022486931	-7.99865697778688
1.892567	0.848224881878053	-0.429426208924616	0.95073251714055	26.8514779927336
1.607507	0.680191025823929	0.396802942550816	0.787472162573633	-30.2579985636839
1.376413	0.588380243329181	-0.511915089833324	0.779902795186148	41.0246146497478
1.17375	0.848464507175076	-0.0280730908458197	0.848928806417525	1.89505045894386
1.001604	0.278743018310837	0.025871193887504	0.279941045454575	-5.30264647167563
