EC-Lab ASCII FILE
freq/Hz	Re(Z)/Ohm	-Im(Z)/Ohm	|Z|/Ohm	Phase(Z)/deg
6999984	2.61653881862393	0.664052142314967	2.69948895850288	-14.2404534683641
5969734	4.05867838281789	1.07327385654084	4.19818853629602	-14.8122023225472
5091109	6.02213615526856	0.812377481571701	6.0766833918806	-7.68273950870765
4341796	7.38170146236887	-7.09768853992852	10.2404442818352	43.8762886214714
3702781	-0.288834083150576	-7.09122875355299	7.09710859172988	92.3324351642297
3157797	-2.69235722992068	-4.90801368326802	5.59798050806292	118.747565688926
2693047	0.820595486741801	0.525928550782414	0.974668042663297	-32.6562509250748
2296687	0.945876674362852	0.616235447335365	1.12890602339448	-33.0841071585888
1958656	1.11873342578725	0.590898582117464	1.26519785501008	-27.8423569332108
1670375	1.35831795761804	0.595267176981893	1.48302754053309	-23.6648815418663
1424531	1.70294689722667	0.51679565213703	1.77963644625572	-16.8815425320653
1214875	2.23118800626944	0.211456625097272	2.24118580747294	-5.41392862647712
1036062	2.99693315111492	-0.085095660453988	2.99814102131299	1.62643352064165
883578.1	3.87706323104816	-0.719291975436467	3.94322206367748	10.5102976868342
753531.2	3.80117570261179	-0.781163061150159	3.8806123808275	11.6129263156737
642624.9	3.75886683462839	-1.56098045702516	4.07010317654034	22.552111560053
548046.8	3.48397959849073	-2.08166770518692	4.05850394573146	30.8581947723953
467390.6	3.0687802157789	-2.49622214333714	3.95582317623559	39.1257637617489
398593.7	2.78583426926251	-3.16284545833631	4.21479109436233	48.6264009515814
339937.5	2.27200764905094	-4.31143201425492	4.87344485665819	62.2119865784228
289906.2	-12.4050198707272	-2.87156731441224	12.733044287771	166.966490515766
247234.4	-16.2883956233673	16.2978290160695	23.041941381324	-134.983413433768
210843.7	-25.0924051075902	58.8626328465177	63.9877983658397	-113.087945884403
179812.5	-12.7470523491192	69.455795869637	70.6158262960639	-100.399623623892
153343.8	-1.07041556069719	62.5888351999921	62.5979878363862	-90.9797964014849
130781.2	8.20209325987098	49.8307272502978	50.5012446592873	-80.6529769893855
111531.3	13.999285067932	35.0617513326842	37.7532301787305	-68.2344032588224
95109.37	5.91058874076043	107.516847904856	107.679188530831	-86.8534116567322
81109.37	14.7572505157485	87.2497228926574	88.4889291811697	-80.3999588270557
69171.88	20.1624052234125	63.8815506970524	66.9878728118244	-72.4831717886151
59000	23.1952500350258	40.6138208424661	46.7707394383636	-60.2685710331186
50312.5	23.7544851574736	23.721510063633	33.5706062619619	-44.9602044487219
42906.25	19.5502669044504	-0.345118189926213	19.5533128292948	1.0113295230588
36593.75	18.8185272138712	-2.09677491951963	18.9349790483734	6.3577173116881
31203.13	18.0161883482695	-3.3879550793221	18.3319743132	10.6501280367358
26609.38	17.1137097743518	-4.33072104419293	17.6531642207101	14.2009021917662
22703.13	16.084771028936	-4.97685759561938	16.8371307110319	17.192813313426
19359.37	14.9945060954971	-5.38366026823707	15.9316983065741	19.7502791869279
16500	13.8630010869336	-5.52468698002124	14.9233027632471	21.7282841943242
14112.02	12.3833429505626	-5.74621813823634	13.6516008410532	24.8926212348506
12011.13	11.103251609032	-5.58253547818465	12.4276666618743	26.6925108524746
10236.38	10.7625837071838	-4.90303520716049	11.8267900250572	24.4922555163471
8750.684	11.7503445636254	3.242178765549	12.1894347904937	-15.4253531070065
7449.463	13.2923634086038	8.28149999526074	15.6611036379271	-31.9240165924756
6363.206	14.1823043134834	12.5364883339074	18.9288482319037	-41.4751657415269
5414.761	14.8814141467976	17.0114311252742	22.6018865570655	-48.8209201230284
4620.567	15.3734894163931	21.876487465784	26.7380792256391	-54.9027410676271
3941.215	15.7214802989814	27.8682478118498	31.9969401489257	-60.5710927489477
3361.769	16.4875755275622	35.5802284805528	39.2147013950815	-65.1373944888018
2867.244	16.6890906391822	44.0206679784222	47.0780729812651	-69.2373085834194
2442.658	17.3383241285445	54.0618537536773	56.774127160798	-72.2182933999261
2083.003	17.8074464308759	66.3661861948289	68.7137236542688	-74.9801218597952
1777.843	18.6141337660624	80.6861112899299	82.8054015807654	-77.009251891251
1513.548	20.1334353717252	97.545436678463	99.6015433447669	-78.3378837223799
1292.065	21.8715250755739	117.386533578147	119.406707829271	-79.4456403234858
1101.762	23.5488509598388	138.910057527029	140.891988642688	-80.3783583181793
939.101	25.1624494517496	166.151925244124	168.046455257887	-81.3884256152154
801.2801	28.2298096505945	194.74332406095	196.77877024521	-81.7519100404464
684.3433	33.1895341374547	232.004786607543	234.366734382405	-81.8587666692383
582.9476	37.9457287111877	273.068356568807	275.692230007689	-82.0888092239833
497.0677	41.5491213754362	321.594946109989	324.267850473274	-82.6383330452933
423.5089	47.4648777174958	374.943338313036	377.935737344407	-82.7851821281853
361.5036	53.7247967354807	439.510665114806	442.782089219887	-83.0308664307374
308.1262	60.1109086452369	513.208832857571	516.717163892575	-83.3195225679243
262.7298	68.2328155589573	600.736082808054	604.59867540929	-83.5200005004406
224.2111	79.6494427867952	697.4747128052	702.007840938364	-83.4852219622762
191.2854	88.5806886237336	819.505915178918	824.27937218536	-83.8308301042991
163.1722	105.797630786466	958.455993115386	964.277464954372	-83.7009978679224
139.1537	121.410899333225	1119.27514843207	1125.84078109408	-83.8091722996431
118.6706	148.041332870369	1310.38637379559	1318.72236838055	-83.5543206723689
101.1982	170.105753849799	1521.90884861464	1531.38581389026	-83.62244535421
86.24196	219.627727503357	1781.92860768645	1795.41246001571	-82.9735706512243
73.61024	266.764409259758	2082.23544244007	2099.25407890548	-82.6993530504747
62.69291	334.235032841372	2422.55693914068	2445.50509722576	-82.1446153132291
53.57697	412.83424243847	2821.91407907279	2851.95217025092	-81.6769098650638
45.65746	518.41017794945	3275.47261195529	3316.24334816835	-81.0063773574222
38.96512	651.729475900494	3793.30294092782	3848.88276145289	-80.2511616876602
33.18414	836.089940166162	4442.40836909158	4520.40247166355	-79.341247413213
28.30617	1066.73839523014	5125.89083804485	5235.71272009936	-78.2440905313169
24.17237	1364.42210389302	5930.09988111369	6085.04168248471	-77.0426553307071
20.61345	1750.27205673757	6839.43055467777	7059.83445874308	-75.6455550430601
17.55618	2245.92179195157	7907.3241127305	8220.09363202952	-74.1438326620222
14.98558	2889.50222756093	8972.52643320351	9426.3170813216	-72.1494238729513
12.76553	3675.94198928008	10194.9604505836	10837.4244217672	-70.172490296632
10.8809	4816.35826545485	11530.7267911627	12496.1981127723	-67.3298174918699
9.278505	6101.19909389684	12921.0949721383	14289.1331319428	-64.7238335522764
7.923394	7653.13532399009	14261.033250707	16184.7937788862	-61.7799191051147
6.75822	9560.32785756153	15571.570288808	18272.2103206853	-58.4517218647588
5.761429	11686.9022154045	16737.3031472245	20413.7453700813	-55.075144068182
4.919708	14249.999462544	17659.1971859354	22691.6224614781	-51.0983815220498
4.191257	16871.7702314242	18257.8110507848	24859.6921764556	-47.2594382439583
3.564097	19723.580136662	18510.6044408186	27049.2530427696	-43.18290655696
3.051758	22424.8190565624	18389.2461058537	29000.6358906356	-39.3531191444347
2.604164	25084.9509453824	17880.9763299173	30805.5851826143	-35.4819126128995
2.214424	27610.1355070537	17090.3771788086	32471.5348394838	-31.7570624205524
1.892567	29757.9102089238	16144.5974658268	33855.2986596774	-28.4812163339376
1.607507	31693.1345691294	14847.4228334666	34998.5820228861	-25.1018883399442
1.376413	40237.614212517	-2510.41637854517	40315.850330968	3.57004444455403
1.17375	40567.7062039556	-4109.58180127356	40775.3289285546	5.78443293061406
1.001604	40918.9013528723	-5497.38327758221	41286.5318333562	7.65177113988083
