EC-Lab ASCII FILE
freq/Hz	Re(Z)/Ohm	-Im(Z)/Ohm	|Z|/Ohm	Phase(Z)/deg
6999984	27.9214724350288	87.0684801626269	91.4359276256867	-72.2197830901934
5969734	23.5707346879444	86.4715774614917	89.6265208652452	-74.7525430235692
5091109	24.4885696505549	86.8349141624597	90.2219062153522	-74.2508611781527
4341796	23.5448249553183	89.9270614294286	92.9582441718259	-75.3280791287781
3702781	23.0573844184681	97.5825165841071	100.269589203849	-76.7056415556112
3157797	23.1301414773268	106.954133237938	109.426642374879	-77.7970115637764
2693047	22.9197541514629	119.96394943288	122.133796689933	-79.183684019552
2296687	22.3471091932638	136.775502283753	138.58907357461	-80.7207006007699
1958656	23.4181715158367	157.060627125004	158.796887091796	-81.5195183587413
1670375	23.960248334374	180.745084784775	182.326298635442	-82.448684015105
1424531	25.500501245354	209.842185919285	211.385946919724	-83.0712599552941
1214875	28.5169398510146	242.315509571191	243.987749768738	-83.2880098891921
1036062	31.6805479865678	279.757952702807	281.546033929081	-83.5391945865775
883578.1	36.7484274416292	325.432954791806	327.501228980837	-83.5573573486831
753531.2	30.3878181651025	378.792970396842	380.009912916621	-85.4133968302299
642624.9	37.5106430253498	444.997092521604	446.575257591435	-85.181692697879
548046.8	43.1553657700383	503.638882744302	505.484430825198	-85.1024526348124
467390.6	142.61118499381	723.178475475167	737.105865853695	-78.8443784132755
398593.7	162.450972397537	792.477081301927	808.95626755822	-78.4153476162816
339937.5	225.467392086293	919.073864536287	946.325690958383	-76.216392894349
289906.2	235.445904950241	1024.97308555158	1051.66753314105	-77.0630526282138
247234.4	185.705250492363	1161.55823329195	1176.30947007526	-80.9166521667047
210843.7	305.36144057437	1259.32774138233	1295.82096356124	-76.3700028792235
179812.5	308.604607196179	1455.3565775991	1487.71622682004	-78.0279135552141
153343.8	310.595429896256	1686.81832795873	1715.17509094842	-79.566935488715
130781.2	277.40172432484	2096.29182161713	2114.56641372108	-82.461862044393
111531.3	295.220190626054	2429.9184359847	2447.78646260077	-83.0728642371205
95109.37	447.094279622013	2765.45398156886	2801.36199357487	-80.8163845525568
81109.37	339.26567335571	3237.43988534996	3255.16792322182	-84.0175570497322
69171.88	409.483434630866	3842.31483049574	3864.07297289849	-83.9168310693482
59000	422.562828197352	4418.38846974537	4438.54886346348	-84.5370005867978
50312.5	1502.95903087803	5856.53423113456	6046.31119352525	-75.6068230961093
42906.25	1801.13077823263	7024.36214899871	7251.60228367377	-75.6185114351299
36593.75	1807.53223387283	7729.2611645198	7937.79887159175	-76.8375937358298
31203.13	2327.79538623976	8651.38371238089	8959.07760313797	-74.9403012930336
26609.38	1981.07721985391	9723.24678437426	9923.01340223163	-78.4838160727997
22703.13	2513.49946547122	11405.0482350697	11678.7330137816	-77.5715526713924
19359.37	2447.27146683773	13097.6370943923	13324.3099291783	-79.4164194759341
16500	2566.81461638118	15122.6901739517	15338.9796066167	-80.3668418664971
14112.02	2637.08596916836	17551.8119582526	17748.8119440892	-81.4554616772457
12011.13	2983.37176647411	20521.0898808396	20736.8183913177	-81.7282468835075
10236.38	3293.41932326666	23526.4137892008	23755.8152169014	-82.0310550782341
8750.684	3525.53408768173	27737.5652019489	27960.7209123044	-82.7563623510902
7449.463	3371.48256081839	31895.9950119536	32073.6869171673	-83.9661054397294
6363.206	4664.19674297802	37377.8546966082	37667.7415433679	-82.8871113199391
5414.761	16044.0461869922	51199.4777607762	53654.4307678923	-72.6009146155144
4620.567	15618.428044225	57920.7118553169	59989.5337238029	-74.9090177974195
3941.215	14772.7885366386	64440.7175354678	66112.3389212194	-77.0882627711995
3361.769	22390.410474837	73545.1268690317	76877.9303013137	-73.0674168523099
2867.244	19856.8040016568	83859.8874798558	86178.7293553014	-76.6785406519015
2442.658	20875.5389999314	96109.5919774929	98350.6064984748	-77.7453880664351
2083.003	22128.86408826	111222.116602844	113402.142164305	-78.7473193627803
1777.843	24744.3357179107	127542.939050647	129921.06623561	-79.0205629352782
1513.548	24189.8513265318	148860.226519271	150812.850734175	-80.7700895627102
1292.065	27472.623708865	172292.418917903	174468.973373581	-80.9402580278641
1101.762	29980.2213749918	200368.863201211	202599.34603606	-81.4902402154101
939.101	32968.4581916323	232535.79670333	234861.269655058	-81.9305009851887
801.2801	33274.5188403166	271679.096447983	273709.197965371	-83.0173446267723
684.3433	124865.31803341	375981.848622971	396173.823140211	-71.6284333498389
582.9476	125832.747144526	424759.000674535	443005.743651217	-73.4983384100279
497.0677	146655.744261165	479776.230355139	501690.281487078	-73.0029018045782
423.5089	161052.307839968	548043.691510729	571217.763786532	-73.623644279823
361.5036	183995.888499074	630889.476507408	657172.746355442	-73.7409287404862
308.1262	183596.218245378	709856.547647149	733214.763620819	-75.4988778475066
262.7298	174442.404495743	838575.285575395	856527.093596059	-78.248788785237
224.2111	225878.071838128	939587.825986269	966357.173139887	-76.4825317901872
191.2854	277255.93284572	1044482.87054868	1080655.04170747	-75.1337891404493
163.1722	306488.087699488	1260226.05593894	1296959.77577144	-76.3309844533751
139.1537	409732.016558714	1492730.25567596	1547941.84051071	-74.6511867896106
118.6706	381535.45642454	1683767.1875685	1726453.37221757	-77.232590839793
101.1982	341006.695839948	1879971.2272404	1910648.4192178	-79.7189411917632
86.24196	421415.105012737	2368951.92660213	2406142.95528858	-79.913116588533
73.61024	437269.475845435	2603039.31530118	2639510.99098105	-80.4642446916694
62.69291	479797.646441226	3199449.65654049	3235225.47688219	-81.4713326081708
53.57697	577995.588009812	3402050.1496594	3450800.50431147	-80.3577318375546
45.65746	894265.868457708	3941686.90883092	4041856.89142224	-77.2174647540015
38.96512	1507274.66205956	4826017.13393142	5055919.13344017	-72.6552310144928
33.18414	886567.887868878	5415349.57890187	5487441.45130615	-80.7023659513257
28.30617	598224.485343099	6656321.57475292	6683149.6647453	-84.8644459667151
24.17237	3362619.66440071	5841489.04536202	6740193.26685065	-60.0733643123175
20.61345	3165621.8432822	6554735.62938044	7279129.12550223	-64.2216933406237
17.55618	3420648.92492755	7830524.55968158	8545054.35602281	-66.4025998920097
14.98558	3256355.34803929	6048488.46587461	6869356.80209743	-61.7030854647876
12.76553	7571472.44394674	-673749.164055487	7601390.19558332	5.08508408362415
10.8809	4049538.70745972	5170452.16587561	6567521.55252058	-51.9316741505542
9.278505	7461474.40916895	-63801.4290586831	7461747.18018729	0.489911688022735
7.923394	6297761.906183	6405911.35424326	8983179.02000135	-45.4877610681666
6.75822	7596505.61858679	2873677.51375939	8121879.09700132	-20.7210988749975
5.761429	9825287.04472417	-1430522.4988164	9928880.1045659	8.28382953157939
4.919708	9979292.1962679	2788658.16923878	10361606.3968554	-15.6127274947481
4.191257	5965799.90753917	9520138.7435589	11234937.0373583	-57.9266633413009
3.564097	14931048.5719324	5180305.71580481	15804169.6639401	-19.134143292356
3.051758	11790299.0411999	-8816652.87089332	14722245.7297367	36.7887262111898
2.604164	-1162084.58776883	17169075.6422388	17208358.4050904	-93.8721446470848
2.214424	13950683.2479741	-10576125.3265304	17506455.6666329	37.1660590263291
1.892567	-18202287.8214122	22644276.7660088	29053167.6790868	-128.793578485631
1.607507	14183469.8289772	6386224.8791555	15554892.625687	-24.2400509540864
1.376413	17394279.6750714	-15954404.7636393	23603050.582004	42.527712129494
1.17375	12938188.6100009	-41454258.6823004	43426400.8111084	72.6664609872774
1.001604	-26670437.6034332	-139679195.968318	142202637.205906	100.809975996765
