EC-Lab ASCII FILE
freq/Hz	Re(Z)/Ohm	-Im(Z)/Ohm	|Z|/Ohm	Phase(Z)/deg
6999984	9.3925494232975	2.10006849339003	9.62446218476729	-12.6033984561163
5969734	4.85469821153934	4.25867305085066	6.45789368750872	-41.2581178695755
5091109	8.36932503128869	-1.00936465715723	8.42997144066773	6.87682280365458
4341796	3.48674003062026	-5.47893175015156	6.49430898279013	57.5277128285513
3702781	2.16783692398058	-5.82519426059407	6.21549717260266	69.5873285004648
3157797	-1.19868719264083	-7.20825805315026	7.30724538705296	99.4415235988744
2693047	0.0449603014318551	-8.05973488642661	8.05986028837888	89.6803854179077
2296687	-2.73879493803397	-10.7451879367918	11.0887357940198	104.299403560671
1958656	9.75861753446001	-16.1468411043421	18.8666662087593	58.8526204340118
1670375	8.91354967004566	-5.73782033817733	10.6006579962553	32.7701492051689
1424531	-2.39027401932734	-7.0991165874812	7.4907186711371	108.608389954732
1214875	38.4235981477481	25.6573782970755	46.2025319187041	-33.733039157354
1036062	16.0463383667402	-16.2065376746869	22.806508684605	45.2845845044353
883578.1	16.5420606364554	-0.806839894134397	16.5617257770721	2.79239174753477
753531.2	10.5616049093848	7.49781669500718	12.9524033852359	-35.3714234316864
642624.9	0.122905920934968	-0.928214434496683	0.93631613347676	82.4572783820319
548046.8	0.632781684323676	-0.315753801285517	0.707186766732638	26.5188874518161
467390.6	4.56919394255795	1.21377613271395	4.72766176720102	-14.8766658040774
398593.7	5.9146230693052	-0.682426508708354	5.953861939258	6.58165786591499
339937.5	12.7323804943453	4.68125892021986	13.5656808944824	-20.1867412465247
289906.2	8.01102630145166	-7.35420163459519	10.874779266028	42.5522404527036
247234.4	7.09364127788542	8.94040105395146	11.4127348862933	-51.5702294550739
210843.7	5.59507226227681	51.8706928602501	52.1715785789782	-83.843549767351
179812.5	179.820505130735	33.3235252647462	182.882124335712	-10.4986952914828
153343.8	163.287401212961	515.579919995937	540.819220532979	-72.4266781500152
130781.2	114.035510215719	-263.973562368573	287.551976553308	66.6358510104074
111531.3	-4.7980095125141	-40.2714717207359	40.5562859472635	96.7942866980315
95109.37	3.24731347228802	2.75360451295018	4.25762640458776	-40.2967405259695
81109.37	0.311187811389577	-0.0854000041553652	0.322693375617119	15.3460099115367
69171.88	0.328961822252721	-0.123558325496308	0.35140082569522	20.5862188804458
59000	0.295871319169623	-0.139306974107888	0.327026406490774	25.21276140288
50312.5	0.307322268244336	-0.0605403838512043	0.313228534197788	11.1441838138992
42906.25	0.342803745226622	-0.0987248100721793	0.356736591710448	16.0659886768981
36593.75	0.325473903719853	-0.088610807066345	0.337320525808302	15.2297510453268
31203.13	0.315119196975502	-0.0769880596405073	0.324387530015713	13.7292204165027
26609.38	0.312522514991535	-0.0682778840054415	0.319894032174554	12.323966939431
22703.13	0.309511914722948	-0.051560864000323	0.313777226789844	9.45791745662762
19359.37	0.304018884110152	-0.0526829317997474	0.308549790469219	9.83106195028452
16500	0.303854736303432	-0.0470875894145006	0.307481612215912	8.80891097334909
14112.02	0.302462114195649	-0.0418845680350733	0.305348403570718	7.88410552580637
12011.13	0.29933897455973	-0.0361640675461944	0.301515607343892	6.88869448916969
10236.38	0.300330859381888	-0.0393846574179372	0.302902255417473	7.4709972259391
8750.684	0.295022159060306	-0.0311352249695543	0.296660540973196	6.02442203268255
7449.463	0.288686604611715	-0.0286847846662368	0.290108208352657	5.67445826550106
6363.206	0.291903303535448	-0.0262070528178594	0.293077375845196	5.13025550323446
5414.761	0.290602495720834	-0.0223238206723817	0.291458682300922	4.39278261751434
4620.567	0.293256622628551	-0.025021588326817	0.294322147651007	4.87684658368841
3941.215	0.292448619987128	-0.0262131500126764	0.293621056067106	5.12192526985106
3361.769	0.293949683316839	-0.0208459907823315	0.294687922476926	4.05644607853224
2867.244	0.287642541934322	-0.0196181530555811	0.288310776523789	3.90171538821039
2442.658	0.286482738431103	-0.0183588247017752	0.287070384859557	3.66670185163481
2083.003	0.284869156020142	-0.0171742211001493	0.285386387065019	3.45007796845174
1777.843	0.283068652969084	-0.0164814262538407	0.283548055371735	3.33223487393821
1513.548	0.281792909873864	-0.0139703392659039	0.282138998428761	2.83820717170682
1292.065	0.279637191508786	-0.0141902369108219	0.279997003017009	2.90499227822286
1101.762	0.278311129734204	-0.0145066638269849	0.278688945294423	2.9837797046313
939.101	0.276355671452875	-0.0136101211706259	0.276690607976578	2.81945712786116
801.2801	0.278113380159286	-0.0161812257474547	0.278583711459076	3.32983589965
684.3433	0.280556251702664	-0.015920299267227	0.281007591175411	3.24779350000742
582.9476	0.270323220740334	-0.0102241267857816	0.270516499385822	2.16600048138784
497.0677	0.273385469181522	-0.00738893621515455	0.273485303330897	1.54818696639182
423.5089	0.270114362111027	-0.00164986553531417	0.27011940077479	0.349959756476931
361.5036	0.276924552728375	-0.0269232210207159	0.278230242306513	5.55297115941049
308.1262	0.266822389867007	-0.0124192531224741	0.267111260680753	2.66490978403375
262.7298	0.276251161084798	0.0042545517264995	0.276283921376349	-0.88234411830336
224.2111	0.273450537689096	-0.0115667254264101	0.273695059691522	2.42211891834707
191.2854	0.262816446151337	-0.013670838565657	0.263171761773004	2.97765249397017
163.1722	0.284577616375976	-0.0149770525548737	0.284971457948798	3.0126435994766
139.1537	0.265458267471249	-0.012920352738343	0.265772510398875	2.78649429294949
118.6706	0.261563629113035	0.000717562905176811	0.261564613377468	-0.157182491318773
101.1982	0.257731978878757	-0.000466222452139893	0.257732400563326	0.103644684688175
86.24196	0.275888945294206	0.00196356540111256	0.275895932780158	-0.407780422626133
73.61024	0.249571051750788	-0.0313559805221309	0.251533113896558	7.16109008413079
62.69291	0.292130831180557	-0.169089969538811	0.337537909463335	30.0629408119096
53.57697	0.244553139191965	-0.0450542157456252	0.248668695748174	10.4385977483515
45.65746	0.286158383386332	-0.0151272191527132	0.286557940287079	3.02601586145716
38.96512	0.2308904747043	-0.0399444707467468	0.234320233979942	9.81512226442398
33.18414	0.245524007097709	-0.0123462483064901	0.245834228512958	2.8787107041602
28.30617	0.247524789858027	0.0174368320780178	0.248138196791984	-4.02953253202156
24.17237	0.335373777753965	-0.0450174499268258	0.338381650807014	7.64515347734706
20.61345	0.338793471275593	0.0462007268328735	0.341929120343459	-7.76543450727888
17.55618	0.269433477884703	-0.0258638632554886	0.270672012641768	5.48322156926245
14.98558	0.214814103175401	-0.0305303270472005	0.21697280887858	8.0889551262995
12.76553	0.29377730208264	-0.0741097345131208	0.302980784817387	14.1583199684321
10.8809	0.300479357358219	-0.104409398901381	0.318102446984232	19.1611181453508
9.278505	0.41982032494485	0.0722465993129161	0.425991404078862	-9.76435247419744
7.923394	0.35094069770903	0.0970956571900624	0.364124896091535	-15.4653054540609
6.75822	0.529416632795246	-0.0784633900446534	0.535199471839758	8.43028327359278
5.761429	0.532781071318241	-0.262749259566777	0.594047846017391	26.2509265501893
4.919708	0.439936565318737	-0.14890277533399	0.464452600387394	18.699119356825
4.191257	0.583693050775862	-0.125787001018262	0.597092913330247	12.1613672467508
3.564097	0.548927739728797	0.0094766252691518	0.549009535318156	-0.989049486237344
3.051758	0.498119284252303	-0.06939460133919	0.502929848029576	7.93101358049373
2.604164	0.590410479515122	0.0492579396947928	0.592461710952068	-4.76914140440193
2.214424	0.0515188885584655	-0.505899623338265	0.508516100799274	84.185261796367
1.892567	0.448709667854096	-0.143601812614831	0.471128269807701	17.7463764871917
1.607507	0.484750983048881	-0.300346180160478	0.570255507210449	31.7818829522375
1.376413	0.192030739336998	0.25700729995113	0.320824807454916	-53.2336462554756
1.17375	0.105096800978535	-0.515871557552626	0.526468234053769	78.4849046926104
1.001604	0.350542281241251	-0.0717612720014736	0.357812200877905	11.5694560077571
