EC-Lab ASCII FILE
freq/Hz	Re(Z)/Ohm	-Im(Z)/Ohm	|Z|/Ohm	Phase(Z)/deg
6999984	4.99967397620497	0.445135260409683	5.01945069389084	-5.08779188216393
5969734	8.24672611429288	-5.34617904018241	9.82802736737367	32.9544926461743
5091109	3.06856872764103	-5.59368446244255	6.38007992909397	61.2518239053426
4341796	17.4656050946229	-9.93745002567359	20.0947822664013	29.638688482927
3702781	12.3859240367613	-5.87675369977731	13.7093890561275	25.3829527863456
3157797	22.2182554372296	33.9455835495058	40.5703526875287	-56.7942237183807
2693047	-8.08814054387749	-17.5071436554719	19.2851781539825	114.796506029483
2296687	7.98281382474307	-1.50768021137035	8.12394092668496	10.6952312743685
1958656	-11.1146953145265	-17.5708800621054	20.7911586519763	122.315946837
1670375	5.28492508979416	5.28105304537605	7.47127529092668	-44.9790031939802
1424531	14.221908149646	-8.24723393829821	16.4401806270486	30.1092930975357
1214875	10.5824537184691	7.9213725065096	13.2187922704922	-36.8162625628237
1036062	5.74972595844914	10.5259954312895	11.9939955151231	-61.3548417169071
883578.1	0.639049490926498	1.1002889909887	1.27240721294103	-59.8519161244995
753531.2	0.842988501288471	-2.26248065034008	2.41442504676949	69.5648685548957
642624.9	1.54733070254285	1.95464355914587	2.49296284495821	-51.6342345703679
548046.8	7.40780976206975	-5.51366369393182	9.23450771837881	36.6604638791718
467390.6	0.00518608142712024	-0.0927518894453318	0.0928967622484647	86.7997255113284
398593.7	-0.0120560674186319	-0.00968733200971628	0.0154658709120783	141.217308836351
339937.5	0.017223928677743	0.00982715917559319	0.0198301986010837	-29.7070366183082
289906.2	-0.0201706282265005	0.00737007019106755	0.0214749197361238	-159.928391551938
247234.4	-0.0187459580571911	0.00706882585270891	0.0200344513879939	-159.339276346984
210843.7	-0.0167105873550151	0.00894482130552252	0.0189539852784928	-151.840805794769
179812.5	-0.0135572712129576	0.0100911728400129	0.0169006322967132	-143.338341298145
153343.8	-0.0123015358449124	0.00919523439972831	0.0153583892322604	-143.222374640411
130781.2	-0.0102133538651986	0.0106984587751493	0.0147908626299934	-133.671110899801
111531.3	-0.0075238267546842	0.0100501703686495	0.0125544372025743	-126.819509698288
95109.37	-0.00587291187790957	0.00926889091323117	0.0109728497978907	-122.358975967415
81109.37	-0.00449750809821573	0.00849462663364492	0.00961177718939353	-117.899129785896
69171.88	-0.00359924518566336	0.00784344565219824	0.00862984389230236	-114.64971424237
59000	-0.00295741330876476	0.00663703446201763	0.00726612138137456	-114.017398019664
50312.5	-0.00228902248919898	0.00571363498180855	0.00615509940304826	-111.832251580594
42906.25	-0.00180366413013137	0.00494763045069741	0.00526614198165895	-110.029382582435
36593.75	-0.00159279203644251	0.00426370057693745	0.00455149745480885	-110.48419648021
31203.13	-0.00118341928784284	0.00377862088205734	0.00395960313429998	-107.389937907606
26609.38	-0.00103615983388142	0.00328708082480342	0.00344652398078694	-107.495992395485
22703.13	-0.000838060979284578	0.00279895733191542	0.00292173036929873	-106.668698635096
19359.37	-0.000613163042343564	0.00247001838602679	0.00254498717949746	-103.941419530273
16500	-0.000492639044168513	0.00211223854543161	0.002168927131244	-103.128449714762
14112.02	-0.000388819872337705	0.00181157160024444	0.00185282825861894	-102.113684163806
12011.13	-0.000294845046330167	0.00159263597078747	0.0016196984092082	-100.488432082137
10236.38	-0.000204885810672625	0.00141449709167003	0.00142925862521726	-98.24180727165
8750.684	-0.000129219410422666	0.00128328886608427	0.00128977826382903	-95.7499565248466
7449.463	-9.72231628032492E-05	0.00117543459138198	0.0011794485245244	-94.7283154803488
6363.206	-4.73279198785679E-05	0.00103695321970197	0.00103803271232188	-92.6132417796234
5414.761	-3.12325052751066E-05	0.000918880013486192	0.000919410652847869	-91.9467199765477
4620.567	-1.42052363715671E-05	0.000859976124723068	0.000860093439013505	-90.9463356662492
3941.215	3.79540559531925E-06	0.000667571951316479	0.000667582740406105	-89.6742547694998
3361.769	4.81863214215603E-05	0.000602948404037292	0.000604870812242796	-85.4307574514224
2867.244	5.47559706133627E-05	0.000549609779157425	0.000552330630748726	-84.3105676661621
2442.658	9.95879154520218E-05	0.000442464437357853	0.00045353338491282	-77.3154978327484
2083.003	5.04253947350577E-05	0.000386535049752058	0.000389810293759685	-82.5674581660356
1777.843	0.000121164979546971	0.00032558538579466	0.000347400051398493	-69.5875003878034
1513.548	8.77999641270171E-05	0.000308073357536338	0.000320340486552071	-74.0926102351375
1292.065	0.000122916060158701	0.000222476314168807	0.000254173303497978	-61.0797646794648
1101.762	0.000162223630830546	0.000180243249722938	0.000242495640106231	-48.0119610120832
939.101	0.000162691807901147	0.000143017375599686	0.000216616236883493	-41.317711209847
801.2801	0.000112891738393236	0.000137392778715522	0.000177823846096689	-50.5910273944614
684.3433	0.000161321552757749	6.78603105670691E-05	0.000175013328447951	-22.8141767259679
582.9476	0.000141977458481016	2.26727780744493E-08	0.000141977460291356	-0.00914972345862675
497.0677	0.000167642293335464	-3.9252734776385E-06	0.000167688241348784	1.34131138713511
423.5089	0.00010236379155072	1.4480278836101E-05	0.000103382901370635	-8.05158108932311
361.5036	4.3226841924881E-05	-8.83097325099731E-05	9.83217611659883E-05	63.918655962779
308.1262	2.18397117587659E-05	-8.32131345404579E-05	8.6031382470319E-05	75.2941027315269
262.7298	6.24248518966183E-05	-5.82826970942243E-05	8.54033659459147E-05	43.0346308091581
224.2111	-2.10362042008841E-05	-9.74361537028737E-05	9.96811212597016E-05	102.183012057016
191.2854	-1.96043309664064E-05	-6.67162781584632E-05	6.95369798305753E-05	106.37522965243
163.1722	-3.97573216514784E-05	-7.53558415229375E-05	8.52006307284705E-05	117.815879018263
139.1537	-2.89806319871795E-05	-7.39741973216466E-05	7.94484669440402E-05	111.393595092642
118.6706	-3.44269862877651E-05	-7.93583776991964E-05	8.65041588358981E-05	113.452003267429
101.1982	-6.38745776309718E-05	-6.29214957526959E-05	8.96608961325481E-05	135.430664288647
86.24196	4.14726868965431E-05	-7.38749196108337E-05	8.47200537412828E-05	60.6905544492325
73.61024	7.57401437175914E-05	-1.90725310662478E-05	7.81046145348301E-05	14.134095312854
62.69291	5.6552437800035E-05	-3.37310605381551E-05	6.58480270483142E-05	30.8142317207749
53.57697	7.05777920257902E-05	-3.22894852836889E-05	7.76133724761478E-05	24.5841923241537
45.65746	6.95315990127811E-05	-4.34239638746201E-05	8.19773377212172E-05	31.9856553920758
38.96512	4.48435507671244E-05	-8.02704684575427E-05	9.19472248183545E-05	60.8098442621787
33.18414	0.000103775082694737	3.758866079495E-05	0.00011037289163856	-19.9110339555077
28.30617	6.72545928392798E-05	2.97407253145908E-05	7.35370042918207E-05	-23.855544707352
24.17237	6.02841113031455E-05	6.24244936046496E-05	8.67812852947395E-05	-45.9992977876594
20.61345	5.8056075804031E-05	-4.70449060351436E-06	5.8246374733557E-05	4.63275854155355
17.55618	8.01516093672137E-05	1.55138583639621E-05	8.16392080160722E-05	-10.9545061358211
14.98558	1.28219524151702E-05	-8.19419860869162E-05	8.29390833540211E-05	81.1067022673496
12.76553	7.4592420845985E-05	4.86972016127805E-05	8.90811242215787E-05	-33.1382631293845
10.8809	4.94054706674861E-05	-5.5340821479631E-05	7.41856256556229E-05	48.2431437528405
9.278505	4.05191376293023E-05	0.000120876585515805	0.000127487055971115	-71.4682916460998
7.923394	9.67592712853001E-05	-2.63941889011147E-05	0.000100294614947215	15.2580379716724
6.75822	5.43115547835839E-06	-7.85208556577949E-05	7.87084634779664E-05	86.0432493344172
5.761429	9.28159782353376E-05	5.54231630413922E-05	0.000108104268265852	-30.8426733457252
4.919708	7.79901160795578E-05	-2.72441373694875E-05	8.26117499337135E-05	19.2557421252166
4.191257	-5.87611411671484E-06	9.6076534458659E-05	9.62560605400955E-05	-93.4998939675883
3.564097	4.45379306616283E-05	-4.53791326197049E-05	6.35837474905087E-05	45.5360041145166
3.051758	-1.5244488010845E-05	-8.59997177036391E-05	8.73404022192388E-05	100.051952833807
2.604164	6.40515808910043E-05	5.15237967587224E-05	8.22028384368265E-05	-38.8135819774939
2.214424	6.55586518187672E-05	-2.70829910687205E-05	7.09325400188288E-05	22.4460513425963
1.892567	6.45740000942877E-05	-5.33935309657585E-05	8.3789442277464E-05	39.5859176261743
1.607507	-6.61800807733787E-05	-8.12028998558883E-06	6.66763991275847E-05	173.004778127091
1.376413	-7.48705805562353E-06	7.81586528788651E-05	7.85164381398392E-05	-95.4718428110901
1.17375	-2.34563791162379E-05	-7.14147610657164E-05	7.51682766818426E-05	108.182911496067
1.001604	7.0619060056092E-05	-4.52614184437876E-05	8.38787675323712E-05	32.6567665870905
