EC-Lab ASCII FILE
freq/Hz	Re(Z)/Ohm	-Im(Z)/Ohm	|Z|/Ohm	Phase(Z)/deg
6999984	2.69608386719927	1.10852438884334	2.91508053741791	-22.3505507373039
5969734	4.61847592642059	1.07971804152011	4.74300652878642	-13.1584169426816
5091109	6.18660620478713	0.477450352935932	6.20500243131534	-4.41304526993914
4341796	7.36402464010953	-9.04239616306532	11.6616374180455	50.8410203396329
3702781	-0.90339063023867	-7.74509467980388	7.79760259502428	96.6529380099727
3157797	-3.07391195075336	-2.51844942217895	3.97385482536262	140.672311381622
2693047	0.691424890593216	0.489471280381698	0.847142558044595	-35.2953174477592
2296687	0.854854901275818	0.603537975074013	1.04643919536289	-35.2225575373556
1958656	0.975661178204884	0.636210746389765	1.16476557661959	-33.1076328056569
1670375	1.22957470876703	0.6372080841639	1.3848783726246	-27.3947508444987
1424531	1.63828600690984	0.562926388177195	1.73230111670656	-18.9630752834638
1214875	2.35686362049974	0.351179884571004	2.38288342915939	-8.47489376752167
1036062	3.14641249141107	-0.109166265896469	3.14830570938043	1.98710701492974
883578.1	4.13575455822951	-0.979750380144345	4.25022076759656	13.3275426246483
753531.2	4.08339240219288	-0.643270647627623	4.13375019037021	8.95242544187346
642624.9	4.02448721155197	-1.70583784968063	4.3710845433769	22.9703707504985
548046.8	3.60893488905384	-2.44132327574346	4.35711720867328	34.0770315583946
467390.6	2.93166360457397	-2.98232666658935	4.18197606839561	45.4908206627926
398593.7	2.31193596661989	-3.60409014709327	4.28188202804858	57.3208177687295
339937.5	1.50705649145276	-4.5564887608192	4.79925088903483	71.6983914966244
289906.2	-10.6946814903193	-3.01122856703569	11.1105224747673	164.274734794241
247234.4	-16.0005301421432	14.651065398326	21.6949460044421	-137.520871621064
210843.7	-25.1640367140954	55.4983956061533	60.9368579646624	-114.390450840074
179812.5	-14.4699410507212	65.464676182836	67.0447837026485	-102.463933263969
153343.8	-4.20163205089052	58.8094356983312	58.959337165942	-94.0865454540227
130781.2	4.02746423362951	46.4622745515279	46.6365031349341	-85.0458444046535
111531.3	9.08509179001843	32.2763087796109	33.5305681620495	-74.2792225890116
95109.37	-0.907704460629881	119.186694022174	119.190150429149	-90.4363459328033
81109.37	8.48682317485311	102.078579558046	102.430769655361	-85.247353661201
69171.88	14.6384812326063	78.6425325784671	79.9933313667622	-79.4556670849006
59000	18.2568920704178	53.0430979043361	56.0970974593149	-71.0070606210195
50312.5	18.9228220771101	31.3547583003966	36.622316467398	-58.888716775105
42906.25	14.0499882161851	-1.01720254835809	14.0867622220057	4.14092182993074
36593.75	13.5169389080097	-2.44268412325752	13.7358779540617	10.2435285374213
31203.13	12.8708524630798	-3.50246432342005	13.3388942368998	15.2229271179867
26609.38	12.0986509567341	-4.31348149496345	12.8445894282485	19.6224637619901
22703.13	11.1717920503729	-4.87200181607734	12.1879177595123	23.5619439443931
19359.37	10.2295224980777	-5.20577653301669	11.477945802729	26.9714209775663
16500	9.17189355731564	-5.2590479122268	10.5726636364648	29.8294146737702
14112.02	7.80120851759316	-5.51073435584267	9.55128512168037	35.2371908794432
12011.13	6.63655680338741	-5.31126643344546	8.50020219357353	38.6704456611143
10236.38	6.37196923469683	-4.67656045439737	7.90393633650703	36.2759519028595
8750.684	7.53143247359162	3.6164936744716	8.35472929554055	-25.6496990174467
7449.463	9.15529433404603	8.67161432439332	12.6101669034965	-43.4458311595676
6363.206	10.0512969872966	12.9011870448169	16.3544855710043	-52.0778929798716
5414.761	10.7504034444365	17.4029237429849	20.4556331855628	-58.2949033162315
4620.567	11.4002983607139	22.2426324898589	24.9940293428695	-62.862923929471
3941.215	11.6238730006696	28.1516308487095	30.4569982594757	-67.5641572300784
3361.769	12.2039518348031	35.2030076173063	37.2583975190872	-70.87992128628
2867.244	14.2983611310298	39.4186131111546	41.9317325022498	-70.0627115830849
2442.658	14.9538708497686	49.7806579107226	51.978189227944	-73.2799841943035
2083.003	15.8512107650184	61.8506627449049	63.8495525802727	-75.6255015202305
1777.843	16.696940290163	75.7061078663288	77.5254963435996	-77.5625572340088
1513.548	18.1495121576211	92.8874775979764	94.644008188972	-78.9441303654078
1292.065	19.4040916072959	112.475805714307	114.137310473775	-80.2117994871347
1101.762	21.784947510677	134.868309133599	136.616414630889	-80.8244059616886
939.101	24.3960834325027	161.165505073309	163.001499724329	-81.3923217282223
801.2801	27.8594153387495	191.817953492818	193.830529858404	-81.7362109968598
684.3433	31.3544087160198	226.575938574538	228.735119487288	-82.1212386351877
582.9476	31.9222916178344	272.095462600849	273.961627732981	-83.3086363698168
497.0677	34.0244940650596	321.711076643427	323.505306032924	-83.9627822845177
423.5089	37.9519458140931	376.026336138024	377.936708537901	-84.2367134063697
361.5036	42.7695007933385	438.237155114935	440.319241370784	-84.4259040703219
308.1262	48.9585305529329	513.250920836458	515.580687626462	-84.551095348558
262.7298	55.6886594352778	600.352018377008	602.929326504397	-84.7004081499691
224.2111	60.2418953907219	701.749687955236	704.330682638161	-85.0934571974288
191.2854	69.7076664442376	824.053073410769	826.996146640863	-85.1647904429226
163.1722	78.1794817768523	961.834669740395	965.00671670487	-85.3531216701821
139.1537	89.8683377775537	1123.06683925748	1126.65675499448	-85.424913281912
118.6706	100.639383056478	1319.31104138694	1323.14394883833	-85.6378243985827
101.1982	112.543852608105	1540.07226429061	1544.17897213926	-85.8204260478908
86.24196	132.956108031542	1799.63944461222	1804.54411341676	-85.7747040158394
73.61024	159.370437009807	2105.61342671721	2111.63605741248	-85.6716289084954
62.69291	187.084547684726	2462.83992702292	2469.93545140773	-85.6559871606883
53.57697	214.656947380969	2869.30695206571	2877.32514503167	-85.7215908282308
45.65746	247.702195620319	3360.47878084965	3369.59552680375	-85.7843297067976
38.96512	303.102568441437	3915.98589762467	3927.69865409645	-85.5740541959846
33.18414	316.206302688643	4564.45345367145	4575.39307126648	-86.0371186860093
28.30617	409.956131470635	5330.65410160346	5346.39478346597	-85.6023010152845
24.17237	495.361445443929	6232.52512560766	6252.17981211058	-85.4556811155106
20.61345	547.300914407972	7201.50440925501	7222.27139115051	-85.6539818084053
17.55618	644.326159752722	8555.05573227549	8579.28521396051	-85.6928856426947
14.98558	790.414410924184	9838.79694173087	9870.4954385081	-85.4069224071449
12.76553	920.643706211583	11527.7191951116	11564.4236637686	-85.4338514235161
10.8809	1116.31085605133	13446.4064893883	13492.6645776585	-85.2542291547426
9.278505	1332.45780118734	15675.760093502	15732.2884000064	-85.1414710606608
7.923394	1625.17984614018	18258.5441315784	18330.7294818591	-84.9135484497578
6.75822	1806.36377680416	21271.7171794557	21348.2763205112	-85.1461693145809
5.761429	2060.0682752944	24784.8793067261	24870.3462691587	-85.2486141683503
4.919708	2576.29896291736	28939.5738460406	29054.0229699222	-84.9127463088446
4.191257	3082.54022928256	33771.8080645602	33912.1965406937	-84.7847475374124
3.564097	3655.31328111623	39414.2754083705	39583.4109337483	-84.7014967697799
3.051758	4311.11751760948	45893.1302260172	46095.1747604108	-84.6334866794978
2.604164	5183.61028170543	53267.5237695617	53519.1452107881	-84.4418895928061
2.214424	37784.023329262	73897.4720423662	82996.7998973364	-62.9191883849528
1.892567	43563.6541056619	85028.6879870857	95538.8389077601	-62.8720912541931
1.607507	51146.3896418698	98161.2206553075	110686.84842355	-62.4784692489382
1.376413	59312.6194936792	113309.523646123	127894.624516096	-62.3698937467609
1.17375	69410.9010595476	130740.883285993	148023.82155687	-62.0359739437586
1.001604	81835.8981772837	151583.466138932	172263.349082664	-61.636565064773
