EC-Lab ASCII FILE
freq/Hz	Re(Z)/Ohm	-Im(Z)/Ohm	|Z|/Ohm	Phase(Z)/deg
6999984	20.0479491133608	0.139314037421003	20.0484331570556	-0.398144361131843
5969734	17.0731215771461	-3.99484781434207	17.5342604476997	13.1694062731922
5091109	14.1882088303962	-7.64373886804808	16.1162034517389	28.3130704098006
4341796	7.66416423501652	-5.53716885124154	9.45513893649723	35.8471789368733
3702781	6.14459007289241	-4.497249849655	7.61454157347046	36.2005449274423
3157797	4.24204400395318	-4.97801619932214	6.54030447396669	49.5638401185068
2693047	3.41028084511132	-4.43387426818388	5.5936800470349	52.4345878552303
2296687	1.83637263291767	-4.21983681312696	4.60209595470916	66.4824702086509
1958656	1.77309453918559	-3.25082330127091	3.70293348319621	61.3906515791028
1670375	1.35249561744312	-2.98475686382066	3.27689150435705	65.6230908117342
1424531	1.16893281981214	-2.44442253461311	2.7095397145933	64.4426831622057
1214875	1.09583114287902	-2.17432851332756	2.43486146989368	63.2525352301599
1036062	0.842831551559422	-1.81813666744043	2.00399250642198	65.1290293049929
883578.1	0.723675037016366	-1.58485658733983	1.74226173740775	65.4576778962799
753531.2	0.634899852837989	-1.35507789579971	1.49644041873329	64.895319820359
642624.9	0.622381374734399	-1.16098033569341	1.31728277734246	61.8050146565414
548046.8	0.564074417275817	-1.01798484832213	1.16381832759176	61.0087752086481
467390.6	0.526331944655383	-0.882617135470044	1.02763725301785	59.1910666035956
398593.7	0.495206571373398	-0.749769268778417	0.898545215743714	56.5560909995684
339937.5	0.47267744322584	-0.65990631789764	0.811726748195314	54.3867467364882
289906.2	0.451243339419798	-0.573763515366125	0.729948712538097	51.8162861801928
247234.4	0.433671969083623	-0.484286951284158	0.650080939539817	48.1560140609349
210843.7	0.422847818650969	-0.426005513797877	0.600234100600821	45.2131366673825
179812.5	0.411378482881217	-0.3696393631685	0.553051096175811	41.9409116740328
153343.8	0.404189050490766	-0.31190090364576	0.510539873302437	37.6563218228887
130781.2	0.400131418735357	-0.27443633567909	0.485201457747332	34.4448819220245
111531.3	0.391460619769204	-0.242819824919326	0.460654842809604	31.8109892082301
95109.37	0.386280767054402	-0.205506131222652	0.437544970221621	28.0135280745062
81109.37	0.379811775512989	-0.187685327847582	0.423654065373606	26.2964423174345
69171.88	0.37085508587772	-0.154662369744658	0.401813319013201	22.6382156575053
59000	0.362407282657603	-0.136679477507681	0.38732456428045	20.6636312081459
50312.5	0.354317355412146	-0.0996083801919083	0.36805246602993	15.7021375586783
42906.25	0.396259401723381	-0.104852086222227	0.409896905866981	14.8210602500599
36593.75	0.377158100689815	-0.102804674427255	0.390918193488155	15.2471116665192
31203.13	0.369568360319322	-0.0814627070951943	0.378440147971102	12.4307318949757
26609.38	0.358551097705139	-0.0774221636651164	0.366814777636	12.1848355980394
22703.13	0.363693728795466	-0.0599425866375599	0.368600382606897	9.35912807359117
19359.37	0.355953669048495	-0.062844276779819	0.361458735726589	10.0124947656906
16500	0.35496308792618	-0.0523098464092158	0.358796758376445	8.38316895409918
14112.02	0.352834964105941	-0.0478095163649094	0.356059351443952	7.71664142144554
12011.13	0.351153032204586	-0.0407514524838042	0.353509735235134	6.61958767195265
10236.38	0.347794695967453	-0.0402955221389173	0.350121235642086	6.60882752456009
8750.684	0.347544070215383	-0.0329730007979535	0.349104711402606	5.41967482020449
7449.463	0.345884843795583	-0.0298244603912744	0.347168292914439	4.92822829284016
6363.206	0.34326894105502	-0.0278737869120947	0.344398771614906	4.64229026743335
5414.761	0.341552285859261	-0.0256929940585412	0.342517289956841	4.30192640810927
4620.567	0.33908678920288	-0.0242110733782109	0.339950035572941	4.08403456932558
3941.215	0.339050073930639	-0.0214480534490842	0.339727790486922	3.61966488144354
3361.769	0.335143243962133	-0.0222900039376384	0.335883667731853	3.80507459690567
2867.244	0.335973247732831	-0.0220399118315527	0.336695382958675	3.753236813349
2442.658	0.334242687261733	-0.0146119564202611	0.334561927389194	2.50318327903336
2083.003	0.329159962959788	-0.0210467797631573	0.32983215148631	3.65856241319718
1777.843	0.331980171693371	-0.019306256064562	0.33254107403566	3.32827860036283
1513.548	0.324229346502256	-0.0141305704214993	0.324537119839499	2.49548673697136
1292.065	0.330302608705658	-0.0139463983691956	0.330596907646207	2.41776902276643
1101.762	0.329242423941172	-0.0115013693429158	0.329443250377695	2.0006901253789
939.101	0.325491210876336	-0.00943040241750824	0.325627794955375	1.65955678373596
801.2801	0.320354809167286	-0.0114456816931125	0.320559210421458	2.04620130896173
684.3433	0.322786363807701	-0.00460803669662492	0.322819253859485	0.817888085224528
582.9476	0.329789285156591	-0.0153300199694005	0.330145395418984	2.66143765979526
497.0677	0.312843829883973	-0.0157157452550859	0.313238322280968	2.87584247743778
423.5089	0.312086385226183	-0.0127284499738293	0.31234584242836	2.33551520169745
361.5036	0.316790961719733	-0.00810160672831526	0.31689453996384	1.46496198186009
308.1262	0.319340266647595	-0.0103251074156374	0.319507141932229	1.85187751612296
262.7298	0.314195661887771	-0.0115394105873784	0.314407493463179	2.10334697353249
224.2111	0.306797712590781	-0.00777835292370889	0.306896300442252	1.45232940839304
191.2854	0.311630236369874	-0.010781981022779	0.311816701500608	1.98156536713523
163.1722	0.308888700717571	-0.0162860966118153	0.309317743386697	3.01811420050451
139.1537	0.308639055414782	-0.00981070332636441	0.308794942359953	1.82064673262597
118.6706	0.307779432915616	-0.00720612814657368	0.307863780930337	1.34123747557954
101.1982	0.309270018950083	-0.0133409022990581	0.309557626776563	2.47002220072457
86.24196	0.31329047357522	-0.0136116933371994	0.3135860313032	2.48779477857173
73.61024	0.275538143632079	0.00420646885877385	0.275570250528739	-0.874630960465309
62.69291	0.240127872259454	0.0200868569795215	0.240966547178583	-4.78169777448222
53.57697	0.328082128055411	-0.000528409860432912	0.328082553584228	0.0922806397795499
45.65746	0.284838857743708	0.0262577001058009	0.286046572598916	-5.26689161342829
38.96512	0.283716470657207	0.00320697532882971	0.283734595023134	-0.647612476962984
33.18414	0.299286443930562	0.0127310315868362	0.299557097538794	-2.4357765133096
28.30617	0.291523709182289	-0.0262469660184648	0.292702880478778	5.14468143460027
24.17237	0.305095172174882	-0.0108722137818273	0.305288829007775	2.04089915752559
20.61345	0.294506264953784	0.00169126705561825	0.294511121150427	-0.329030009291259
17.55618	0.263670661087106	-0.0101816124807932	0.263867168762657	2.21137129031087
14.98558	0.28407509139893	-0.00578556284970503	0.284134000589156	1.16674260611465
12.76553	0.325415026361579	0.0360436341989183	0.327405074713531	-6.32043494795894
10.8809	0.28854645143187	0.0187017685679712	0.289151881857086	-3.70836562362333
9.278505	0.297572769226669	0.00876467351598364	0.297701818078208	-1.68709542720113
7.923394	0.266481872399318	-0.0165023589069637	0.26699235226302	3.54361676625362
6.75822	0.28617256017638	0.14299110138234	0.319908095040495	-26.5498042544414
5.761429	0.205706895543486	-0.0217546854492562	0.206854038425975	6.03691824219436
4.919708	0.192597181931747	-0.0178040026126693	0.193418347105652	5.28150662086648
4.191257	0.183557987632133	0.0584521024618022	0.192640035054407	-17.6635267900158
3.564097	0.144110943648023	-0.115095260387585	0.184431242046486	38.6128691322816
3.051758	0.172974598317465	0.115216783414937	0.207834354339154	-33.6672177658493
2.604164	0.141455657463116	-0.0172054560223062	0.142498178041889	6.93490353534699
2.214424	0.17243333109244	0.0127474173908832	0.172903875959368	-4.22799365309897
1.892567	0.178372916771055	0.119939130844278	0.21494718547842	-33.9171476856633
1.607507	0.106893022325094	-0.181849913986946	0.210939587178066	59.5526029723231
1.376413	0.183379571940473	0.0548895881634449	0.191418218291321	-16.6636123051093
1.17375	0.216762482528124	-0.11227466440245	0.244113854785913	27.3824265223255
1.001604	0.275231771629554	0.0680914315729647	0.283529489062423	-13.8957735179693
