EC-Lab ASCII FILE
freq/Hz	Re(Z)/Ohm	-Im(Z)/Ohm	|Z|/Ohm	Phase(Z)/deg
6999984	1.94115147686926	94.6986447043661	94.71853766766	-88.825704274911
5969734	13.9725488850306	90.7545383664921	91.8238441607606	-81.2474779976132
5091109	15.5363824447004	89.1685843935305	90.511963972804	-80.1162301269069
4341796	15.8714351057137	91.9307196305395	93.2907265707784	-80.2046948104751
3702781	17.4297898586811	100.672382371041	102.170084402328	-80.1775366109859
3157797	18.0663338788106	108.532759772855	110.026144001019	-80.5492143326873
2693047	17.913501037062	121.167730406162	122.484743585416	-81.59027864644
2296687	17.6594408059725	138.45183390376	139.573515255918	-82.731209503884
1958656	19.6380158233208	157.780534596835	158.997952072157	-82.9052167862652
1670375	20.7978224664083	181.214169825574	182.403741093532	-83.4528498468513
1424531	22.7734742847657	208.826365235807	210.064470933562	-83.7762272264231
1214875	25.265748974584	240.488009142489	241.811580807381	-84.0024882597203
1036062	27.5262133468428	278.153574142043	279.512259532939	-84.3483828806407
883578.1	29.851842853903	322.24899461866	323.628717907591	-84.7074555308492
753531.2	32.8981127915103	374.127380559836	375.571008878225	-84.9747403422778
642624.9	35.9296115119996	434.684278937254	436.166664634752	-85.2748556353673
548046.8	39.9914218604036	505.58903504873	507.168203048971	-85.477396215946
467390.6	137.155565991978	705.596272667235	718.802997548337	-78.999879158874
398593.7	176.544636175659	807.112896310858	826.195640241279	-77.6616789325665
339937.5	201.278795647581	915.667116742852	937.528358110574	-77.6026069838885
289906.2	225.411918167338	1038.9083740458	1063.08096705489	-77.7582796168255
247234.4	249.59886073211	1184.57739164504	1210.5879514002	-78.1014240403294
210843.7	271.772770362485	1352.69557501604	1379.72669662454	-78.6398324804138
179812.5	293.534985975186	1552.13642333842	1579.64877888891	-79.290884423021
153343.8	315.16977564124	1786.01290794496	1813.60803230019	-79.9922993558201
130781.2	336.610389722791	2060.23714487341	2087.55446577699	-80.7207578965494
111531.3	361.691544566076	2383.75379612306	2411.03772968025	-81.3722109096132
95109.37	389.061612299178	2758.62890359388	2785.92935407709	-81.9722696084537
81109.37	415.618478666259	3199.18424575023	3226.06859165538	-82.5979395207365
69171.88	446.738600664749	3713.42290386556	3740.19852952718	-83.1400721864893
59000	475.257338767971	4302.04310268127	4328.21492019288	-83.6959558393253
50312.5	1272.57897392358	5714.93551220032	5854.90778351639	-77.4464186889358
42906.25	1839.7539980149	6679.87299144318	6928.59278317205	-74.6015113487727
36593.75	1943.91938261411	7457.12717941859	7706.33300189697	-75.3893283170776
31203.13	2058.37147268757	8492.95592975445	8738.83250464988	-76.3763627107495
26609.38	2186.8562032292	9727.45090663479	9970.23777021351	-77.3298217776267
22703.13	2293.50190621865	11222.3939393976	11454.3562335408	-78.4496104924304
19359.37	2453.70050021786	12902.1548802372	13133.4019468833	-79.2322135447996
16500	2595.32688138904	14921.6699668764	15145.6910116918	-80.1332469734223
14112.02	2758.01159518016	17237.6758245436	17456.9211429509	-80.9097766731631
12011.13	2980.15846372939	20050.0957488012	20270.3646737061	-81.5457025299788
10236.38	3246.72181859659	23419.1392628187	23643.123448027	-82.107086577648
8750.684	3228.60538306808	27232.4789530557	27423.1982570997	-83.2387355188109
7449.463	4005.84844477975	31889.1570312993	32139.7753248122	-82.8401287807384
6363.206	3997.65439011981	35817.3100728007	36039.7133933387	-83.6314407915935
5414.761	16390.4770533591	47996.0320554024	50717.5199620398	-71.145143449646
4620.567	13595.3056788523	55620.2417711643	57257.6949517198	-76.2644640533604
3941.215	16901.8678408336	62536.0163977585	64779.8308380759	-74.8757862453019
3361.769	17602.1928188666	74690.4954585885	76736.6099321699	-76.7391595866263
2867.244	17883.6280118425	82175.7543728991	84099.219720643	-77.7223551630708
2442.658	18349.6048246296	95679.9949288063	97423.6594816499	-79.1435769738928
2083.003	22011.8046951436	105782.250279391	108048.15602364	-78.2452937426867
1777.843	24980.3773567498	127371.367130068	129797.859833929	-78.9038514324101
1513.548	24105.9824300408	150238.565249442	152160.194785392	-80.8845092343978
1292.065	24033.0856620348	170290.06618749	171977.602752737	-81.9668838051795
1101.762	25011.6961775552	194989.556548829	196587.16160723	-82.6904722046502
939.101	30922.0610598338	235766.051903777	237785.207888301	-82.5279813739511
801.2801	29776.2796022133	259090.12514544	260795.55167761	-83.4439690010267
684.3433	120670.317049533	387275.87237595	405640.144390799	-72.6936191867666
582.9476	121256.103561973	427680.103424654	444537.190251114	-74.1708762699524
497.0677	145859.435713067	509074.515647687	529558.153056358	-74.0119950733626
423.5089	155196.360119035	539570.598163963	561446.649822772	-73.9532096035822
361.5036	168644.216422298	626164.329235854	648477.169174118	-74.9262638270529
308.1262	174827.803969986	732296.763306552	752876.690162619	-76.5726007555818
262.7298	175926.236247305	789742.083140853	809099.869289197	-77.4416058434567
224.2111	187070.498413372	911002.779850729	930011.524806216	-78.3958670512471
191.2854	203315.529253381	1109221.72525788	1127701.21939264	-79.6132304785616
163.1722	194866.151493091	1273160.68613629	1287987.16985875	-81.2980128751437
139.1537	274102.645018597	1437233.95899322	1463138.3095557	-79.2024770352323
118.6706	252398.666197944	1698278.64131957	1716931.98183875	-81.5465619666715
101.1982	257976.788863376	1922733.86205232	1939963.28003262	-82.3581566834743
86.24196	227504.728582689	2238089.87666604	2249623.23458007	-84.1957469240179
73.61024	274089.571149707	2799622.44574433	2813007.45319462	-84.4084288575704
62.69291	1343025.50605043	594938.935417804	1468900.89753464	-23.8925806992293
53.57697	1312059.39050477	2738275.13803006	3036387.75122106	-64.3983362288625
45.65746	1116414.97257829	4885796.39987792	5011725.13732118	-77.1287708873153
38.96512	-144128.543422516	5069713.23215635	5071761.55722351	-91.6284419213525
33.18414	361216.405537728	6165658.09904531	6176230.00591402	-86.6471468504851
28.30617	-547641.202298563	5771452.97168412	5797377.01817093	-95.4204484968668
24.17237	-346145.750315282	6447819.47456976	6457104.06119511	-93.0729258186568
20.61345	2007283.54851612	11121758.2935735	11301446.5793019	-79.7692468861757
17.55618	4999178.99979105	9334802.25311765	10589160.6738571	-61.8290788839369
14.98558	1294467.84600869	11113426.4021902	11188560.8279729	-83.3562491625922
12.76553	321638.007205509	10072221.5016399	10077355.6544253	-88.1709854024151
10.8809	3691920.95318126	19103916.4473442	19457386.8736695	-79.0621596712047
9.278505	852061.940437467	17473202.9510789	17493965.5572981	-87.2082444192567
7.923394	-3507745.8877146	19497571.2739927	19810592.287895	-100.198801916699
6.75822	7131153.48621271	22571809.7389871	23671500.6904285	-72.4670143787924
5.761429	26532469.0406284	16995373.9688817	31508961.4194763	-32.6415946646754
4.919708	-6274710.89478032	23333585.3983227	24162537.2085361	-105.051525258339
4.191257	24051029.2115277	15758737.08623	28753952.7836901	-33.2336548726959
3.564097	18607415.4943687	25075282.8195532	31225081.5829302	-53.4222926095224
3.051758	33729206.2186777	27361406.2454889	43431623.3161134	-39.0492452482092
2.604164	32115140.1278381	13592155.6317136	34873040.0187222	-22.9396372943677
2.214424	55113312.564055	12893842.0449333	56601487.4757096	-13.1676071857155
1.892567	12861740.610158	38704036.1336975	40785129.4537794	-71.617833630629
1.607507	28243013.5697741	24917375.0618951	37663555.2686891	-41.420322221377
1.376413	23223612.5526123	59214026.0314027	63605322.5669164	-68.584996133663
1.17375	23237998.402492	107396202.805836	109881522.317751	-77.7907663238094
1.001604	55888676.7803646	87920708.8624751	104180589.550742	-57.557048267662
