EC-Lab ASCII FILE
freq/Hz	Re(Z)/Ohm	-Im(Z)/Ohm	|Z|/Ohm	Phase(Z)/deg
6999984	-0.546406159506044	0.88914122437898	1.04361477952178	-121.572075731582
5969734	-0.899874095092311	0.374862562031995	0.9748309224842	-157.384745420455
5091109	-0.552242708161034	0.256082588358378	0.608728429414431	-155.122192383263
4341796	0.0159959348418881	0.393632984034978	0.393957860756385	-87.6729704868873
3702781	0.804730136400316	0.329983977850917	0.869758597582792	-22.2963489298846
3157797	1.69195198954565	-0.676719802637206	1.82226541047368	21.7996288989739
2693047	1.74748686867086	-3.09847416047191	3.55728161371702	60.5777390593712
2296687	1.30487378553573	-3.30993056702832	3.55785552752311	68.48415556172
1958656	-2.23200965895776	-5.73647486522263	6.15540502298685	111.260554292613
1670375	-6.6757921843509	-7.639542386191	10.1453836378448	131.148492319399
1424531	-13.3798569454193	-8.4648998673999	15.8327224963047	147.680100878088
1214875	5.15121374230391	3.32091488345986	6.1289051780955	-32.8093051408881
1036062	5.42494655163335	2.52549675969983	5.9839935637777	-24.9635763281996
883578.1	6.89199199051318	2.78206346889948	7.43232337444239	-21.9822591961718
753531.2	2.09315192932973	4.56221414434132	5.01947038023782	-65.3542590142588
642624.9	1.34556442343897	5.93278852029349	6.08346309630879	-77.2214181627879
548046.8	0.828310002137192	7.10852650493669	7.15662256452217	-83.3536708525141
467390.6	0.666208595033475	8.00310056661607	8.03078156666379	-85.2414521959112
398593.7	0.651194418633034	8.71971490905691	8.74399692738328	-85.7290392795675
339937.5	0.758856474579733	9.17444125616546	9.20577185855931	-85.271589775935
289906.2	1.08549876662028	9.50803239982826	9.56979559282841	-83.4869408356615
247234.4	3.29486739187643	33.4346501527647	33.596606703175	-84.3718741502411
210843.7	4.09864719929897	31.2415184435789	31.5092269585403	-82.5259187258886
179812.5	4.58347427432881	29.1675397140978	29.5254739063899	-81.0694027148865
153343.8	5.29784055025447	29.9543840880227	30.4192741627526	-79.9701831849281
130781.2	5.95411773155205	34.0312138596076	34.5481553012535	-80.0759511939092
111531.3	8.6643520315672	83.2674821148845	83.7170506759498	-84.0594975603358
95109.37	13.0765773317287	41.6334253289826	43.6387325587792	-72.5630994010358
81109.37	11.9334736990385	26.5030779805163	29.0658035665105	-65.7595120627549
69171.88	11.7491067091338	20.7566336648862	23.8511917849172	-60.4883576433308
59000	10.6106790200991	16.3813106892117	19.5175267173905	-57.0676277190612
50312.5	11.4471706435533	14.0131195583114	18.0943426379119	-50.7549735379602
42906.25	12.1602868122315	12.0369605195942	17.1102599017665	-44.7079826977274
36593.75	12.7211250838395	9.93491753139668	16.1409296434358	-37.989049873677
31203.13	13.2985043079291	8.08713369481243	15.5644450021766	-31.3047695370762
26609.38	13.8742010781059	6.45944160882335	15.3041772550344	-24.9653754156763
22703.13	14.4352223988412	4.99419240327756	15.2747374270382	-19.0842214796662
19359.37	14.8539379413308	3.54828183981243	15.2718622433432	-13.4349435633456
16500	16.5158118617657	2.42703674990626	16.6931886959513	-8.35991259719482
14112.02	15.1689781375177	1.00113918542469	15.2019793910228	-3.7759946969716
12011.13	14.8218048386878	-0.0346328256111042	14.8218453003922	0.133877834072284
10236.38	13.5347238653919	-0.368968754232943	13.5397521415279	1.56154776921647
8750.684	19.3301275503008	13.9597023621678	23.8438067671925	-35.8358114542179
7449.463	18.7063171692814	17.4441615415121	25.5778238699879	-43.0003908513211
6363.206	18.2126479374116	21.8456100618844	28.4417162609433	-50.1820902273427
5414.761	17.8085993551877	27.0572362414708	32.3919780813144	-56.6477871651012
4620.567	17.6974126211627	32.7234197885799	37.2024275571274	-61.5946818499489
3941.215	17.4955819635184	39.6193947370664	43.3104124613663	-66.174161619091
3361.769	17.3616448957369	47.3412206147921	50.4243778621421	-69.8602855940652
2867.244	18.6015744064671	55.5135364628814	58.5471715885148	-71.4749379565233
2442.658	19.7622270857653	64.7084430905384	67.6589109178592	-73.0171111578975
2083.003	20.9597770725626	75.0046269435566	77.8781504523163	-74.3871678376143
1777.843	22.5052858719807	86.2632214319988	89.1506100035531	-75.377983752734
1513.548	25.0846551431255	99.1271005856213	102.251757902549	-75.7991077321552
1292.065	26.9507064747492	113.690787882268	116.841498744149	-76.6640448196847
1101.762	28.6035392644504	131.311431769365	134.390678887241	-77.7112397818453
939.101	31.3165827068739	150.874190552587	154.090070177591	-78.2737697451047
801.2801	35.6809241941656	173.737348768131	177.363453699822	-78.3943773609797
684.3433	34.3453453038395	201.243107172788	204.152861671342	-80.3148745944788
582.9476	40.6023122736483	234.378849789992	237.869697504425	-80.1719789203731
497.0677	42.3607491886723	274.19898966953	277.451831869275	-81.2178560796049
423.5089	44.6804971265011	316.542386001794	319.680197946604	-81.9656805938097
361.5036	47.0607388843804	368.057774735191	371.054226073986	-82.713562403794
308.1262	56.0431266581651	429.152704234454	432.796575306884	-82.5598378273604
262.7298	57.6892387162284	501.224693423027	504.533687240669	-83.4343433100685
224.2111	65.791612602983	581.696750398936	585.405539531001	-83.5471014041503
191.2854	77.4651250474905	679.770165309264	684.169805854663	-83.4987437662412
163.1722	80.4651728876545	795.501925288378	799.561102846653	-84.2241656306564
139.1537	93.17695813855	930.51326887968	935.166770736162	-84.281747889067
118.6706	95.6435342437509	1084.66678013611	1088.87543345117	-84.9608174678561
101.1982	126.817446214324	1265.31590974043	1271.65522690177	-84.2765912689108
86.24196	135.269626137351	1466.66317280379	1472.88788922111	-84.730545729993
73.61024	171.54484966126	1725.93011347403	1734.43431470949	-84.3238602870091
62.69291	309.213217689206	2001.29605884964	2025.04289563476	-81.2168820513532
53.57697	359.431431650468	2330.70557492659	2358.25771090697	-81.2331540527349
45.65746	436.342991966101	2723.59842861678	2758.329858266	-80.8980883341424
38.96512	513.475725320803	3174.35689176881	3215.61798054649	-80.8115717070777
33.18414	607.528730054691	3714.29549505818	3763.65277123852	-80.7106738393551
28.30617	723.791349369991	4330.84530710275	4390.91049686472	-80.5121439633423
24.17237	858.104536597815	5049.31879918512	5121.71492095509	-80.3550389359174
20.61345	1054.45556505904	5891.89434447834	5985.50712180512	-79.8533570905009
17.55618	1206.39279049959	6945.45973990122	7049.45349396378	-80.1463104111513
14.98558	1411.94384339997	8028.11999439502	8151.33707199746	-80.0251298374811
12.76553	1687.52492771918	9431.96326608051	9581.73634757113	-79.8562218794765
10.8809	1988.43748126305	11027.4319697162	11205.2728419977	-79.7784142108978
9.278505	42068.7210962418	58610.6946454112	72145.6223307486	-54.33052811763
7.923394	48400.8464083691	68771.6925142487	84096.2997064729	-54.8624907825192
6.75822	55673.3913906706	80790.7422524554	98115.597856006	-55.4290371799225
5.761429	71117.7195897691	129816.001890492	148020.013466022	-61.2845397954446
4.919708	79699.0163869684	149833.437985725	169711.497405663	-61.9907102779433
4.191257	91115.0001773268	173786.107454767	196223.225948393	-62.3322504196208
3.564097	103804.865360828	201850.947585246	226978.534477693	-62.7848297819946
3.051758	119602.690273025	235142.920478031	263812.42687084	-63.040368958623
2.604164	138166.757069981	272370.745815892	305410.99511239	-63.1024775836152
2.214424	159352.570220939	317497.953995481	355243.849246311	-63.3478754072697
1.892567	183728.221257947	369171.758140512	412363.73057674	-63.5415351420239
1.607507	213492.981981446	429055.536378655	479236.796012687	-63.5456031423693
1.376413	253409.740328046	497857.213483174	558639.688448967	-63.0238677741232
1.17375	287799.479345707	579369.052393503	646913.471171381	-63.5842777935407
1.001604	347983.193731705	674171.273842501	758682.548628962	-62.6988288169455
