EC-Lab ASCII FILE
freq/Hz	Re(Z)/Ohm	-Im(Z)/Ohm	|Z|/Ohm	Phase(Z)/deg
6999984	4.00603804272023	0.865582294341282	4.09848429397977	-12.1924330184028
5969734	5.18818818084488	0.797401949029646	5.24910911185649	-8.73773815603793
5091109	9.40400601295265	-2.13306640054425	9.64288864193611	12.7798866457505
4341796	-0.169140740019032	0.877764422886993	0.893912172431006	-100.906920455701
3702781	4.13245305881327	-4.45467412887361	6.07628915356659	47.1489433331674
3157797	-0.319289561519587	-9.25279595188853	9.25830323284889	91.9763418945559
2693047	1.83583687380519	-9.97890831607847	10.1463741409394	79.57575903876
2296687	0.368726266211684	-9.88366854999224	9.89054412383364	87.8634789537683
1958656	-4.91414920346129	-8.64108432983723	9.94068412078554	119.626712129774
1670375	-2.41962874821076	-9.68201213072338	9.97977766178398	104.031373904108
1424531	8.57381832247069	-8.16361776675899	11.8387083614927	43.5960778821847
1214875	-1.46736396628084	-19.1995597079705	19.2555511473825	94.3704460415101
1036062	15.613083991726	1.67320987617508	15.7024846130292	-6.11688023208281
883578.1	4.98402759316564	10.5502620561471	11.6682715302145	-64.7135776077435
753531.2	-2.67019686179392	7.90791450357548	8.34655995465159	-108.657836212451
642624.9	11.9327645568679	0.338983565446766	11.9375784741833	-1.62720930549626
548046.8	8.97390997357239	-6.78680685662801	11.2513024811777	37.0995615446262
467390.6	10.9091940866028	0.221048989799824	10.9114333739918	-1.16080447152592
398593.7	1.72841191898784	6.5970237643511	6.81968696562477	-75.318568029379
339937.5	7.58523518835583	-6.4456606028346	9.95401092372344	40.3566891000741
289906.2	11.3021603667191	-0.0118704486568435	11.302166600373	0.0601766686027796
247234.4	6.53529934512247	0.492917611402962	6.55386186168044	-4.31330305808939
210843.7	4.81962746856774	2.34076735805996	5.35798476671329	-25.9046365883902
179812.5	-0.128742498127124	3.73065420510805	3.73287495489929	-91.9764564861149
153343.8	-0.232781241852264	3.10734026466399	3.11604727611126	-94.2842158933429
130781.2	3.09598100685411	1.641296742341	3.5041337576098	-27.9297559152801
111531.3	-0.0708503106569674	-2.07535262125812	2.07656164586634	91.9552570476951
95109.37	0.296419836219918	1.30778859319598	1.34096074655381	-77.2292676845812
81109.37	0.289460575595565	1.20781887467562	1.24202007183733	-76.5229253147439
69171.88	1.7995441278718	-1.70697246157272	2.48034555107258	43.4877487518593
59000	-0.508391943572841	0.19338889783431	0.543931644690157	-159.173519656853
50312.5	-0.535546493456138	0.176209133365173	0.563790479996311	-161.787410414019
42906.25	-0.577007589889948	0.175181639386246	0.603014399138743	-163.111515878567
36593.75	-0.552645038326708	0.163969256763205	0.57645681152243	-163.474427346003
31203.13	-0.534420992898486	0.13678726127155	0.551648939541059	-165.643129896352
26609.38	-0.535036303441629	0.126086274718942	0.54969227270627	-166.739656524674
22703.13	-0.528598304747267	0.108606715894799	0.539640238046736	-168.389488495753
19359.37	-0.524502310670632	0.0962400134062442	0.533258674640429	-169.602554739604
16500	-0.520051726433887	0.0856077028737968	0.527050734709852	-170.652156124504
14112.02	-0.516940713536683	0.0783916297440628	0.522850790308043	-171.377062326903
12011.13	-0.513351654438134	0.0701243057288366	0.518119039766269	-172.221487525367
10236.38	-0.511307716090989	0.0643043548682489	0.515335454426731	-172.83185946452
8750.684	-0.506856829350833	0.0577080961196593	0.510131424063776	-173.504569211783
7449.463	-0.504591314577588	0.0508204904930631	0.507144079134415	-174.248784091879
6363.206	-0.502813757167107	0.0487314033607293	0.505169698289603	-174.464330814407
5414.761	-0.626365285343523	0.0382278634636669	0.627530748432673	-176.507498311843
4620.567	-0.387818645134659	0.0298859469729504	0.388968470882349	-175.593401445492
3941.215	-0.519474007571231	0.113185921382844	0.531661826108851	-167.708184381563
3361.769	-0.552006690147887	0.0800692816002232	0.55778353850217	-171.746734696322
2867.244	0.401576585736844	-0.265694556339433	0.481515681448142	33.4897612775414
2442.658	0.395016675287208	-0.27023732892903	0.478608804454803	34.3766655669362
2083.003	0.407332163068525	0.285851852897693	0.497625132881296	-35.0598719010061
1777.843	0.389521029245283	0.27412699021414	0.476311073761851	-35.1361211243821
1513.548	-0.498227127161307	0.0329191372218932	0.499313468509355	-176.219816202908
1292.065	-0.48536742739412	0.0287988570796997	0.486221054402505	-176.604385475
1101.762	-0.477493089417031	0.0289110033944734	0.478367532926615	-176.535114877569
939.101	-0.471613701302313	0.0271669498291645	0.472395519050601	-176.703163398881
801.2801	-0.135224865773523	0.461331601800973	0.48074173018755	-106.336841480156
684.3433	-0.150363488888706	-0.441516496819451	0.466418262672576	108.806862534965
582.9476	-0.466008514847463	0.0364786598235925	0.467434090041434	-175.524073552281
497.0677	-0.456347460148196	0.0411957068366184	0.458203110689439	-174.84173811406
423.5089	-0.467809481195933	0.0623113315936022	0.471941111518986	-172.4129700205
361.5036	-0.147858034287193	0.485828262203227	0.507829793000253	-106.927217192259
308.1262	-0.47195590745762	0.0149360889532892	0.472192191101639	-178.187353271387
262.7298	-0.474690054183938	0.0589784020777419	0.478339941310355	-172.917516654892
224.2111	0.338380732267659	-0.254893525459656	0.423641628373852	36.9897771015012
191.2854	-0.0883334772008445	0.415418713804752	0.424706382073058	-102.004421112274
163.1722	-0.428171244320051	0.0590609296884289	0.432225413272106	-172.146315462646
139.1537	0.402492270612596	0.226082535993487	0.461642005220636	-29.3232064617721
118.6706	0.369660842684315	0.237742421004531	0.439511771582029	-32.7465548031654
101.1982	0.34411781019804	-0.226753345247826	0.412109387027976	33.3825264966047
86.24196	0.369937598316752	-0.283850954681211	0.466288742220742	37.4988157250072
73.61024	-0.109376959117695	0.445612452869975	0.458839598703762	-103.790788925933
62.69291	0.420024568875584	0.280665769027416	0.505167212280123	-33.7513508884863
53.57697	0.359839939041037	-0.279339165754033	0.455538309314613	37.8217347383429
45.65746	0.384187795135145	0.235739994609723	0.450747830820512	-31.533534395938
38.96512	-0.136238718069427	0.43601933074571	0.456808324229252	-107.351950805789
33.18414	0.348412948812217	-0.269129149838091	0.440252293795953	37.6840415210171
28.30617	0.40907624105352	-0.250793211605541	0.479833935838118	31.511297903909
24.17237	0.431947511949126	0.303813284820788	0.528092004401352	-35.1209033653434
20.61345	0.463800747490683	-0.170510650498862	0.494150802191458	20.1853317703487
17.55618	0.437680152725841	0.311257193832213	0.53707071862318	-35.4186179652714
14.98558	0.484801292532245	-0.364553965888185	0.606573892683933	36.9419122072959
12.76553	0.704884386192363	-0.282597397210375	0.759422995969876	21.8464968466156
10.8809	0.211446667091784	0.694961684048562	0.72641684680343	-73.0772717263862
9.278505	-0.216863850544568	0.594229046838362	0.632564692169461	-110.049550696824
7.923394	0.595684916667204	0.148943531316727	0.614023367198603	-14.0382623920404
6.75822	0.121983106448885	-1.51688195614649	1.52177881018948	85.4023387447839
5.761429	0.982144718991227	0.00216412501569491	0.982147103279055	-0.126249244804794
4.919708	2.00021006328626	2.70800275576095	3.36661836602851	-53.5493402710147
4.191257	1.75068897646111	-1.00832485049139	2.02030465435808	29.9401731451469
3.564097	2.38800532594173	-0.261804429725547	2.40231367563647	6.25652723549005
3.051758	2.94930198333	-0.257149728836245	2.96049120449881	4.98301910087293
2.604164	2.85077180702674	0.290770786186102	2.86556234373601	-5.82386961565291
2.214424	2.4512344662298	0.884422806295652	2.60590754032617	-19.8398038424171
1.892567	2.62243051356903	1.074813833723	2.8341430055063	-22.2864711374965
1.607507	0.336016782984836	1.54138739226232	1.57758751626422	-77.7021297529027
1.376413	1.77128344999909	1.1394784784707	2.10614725580586	-32.7534474854408
1.17375	1.86988458117075	-1.1957827589346	2.21954156380667	32.5987316920217
1.001604	-0.727710407042554	0.11556239474048	0.736829087099712	-170.976622123887
