EC-Lab ASCII FILE
freq/Hz	Re(Z)/Ohm	-Im(Z)/Ohm	|Z|/Ohm	Phase(Z)/deg
6999984	3.95125962401998	1.82312018491267	4.35157670563745	-24.7687076524977
5969734	11.0066603005849	2.24928290585425	11.2341374641331	-11.5497405300266
5091109	9.36269516323913	2.87710382444989	9.79478366970939	-17.0819001434446
4341796	2.68315843899995	-4.86758110874707	5.55811884174924	61.1351124024745
3702781	5.03549074136433	-5.0951582856839	7.16357487310206	45.3374570497699
3157797	2.32183454892828	-4.85957857180636	5.38576081609243	64.4622210230196
2693047	-1.24461367667281	-6.56299026660149	6.67996290735712	100.738127089255
2296687	1.6486848629719	-3.44896214549808	3.82276099939186	64.4511056417941
1958656	1.4862009117487	-2.91552574022783	3.2724736044793	62.9896048979744
1670375	1.27685011769426	-2.53167607337786	2.83544175809869	63.2359194541011
1424531	1.07430425486999	-2.14282127754499	2.39704248179528	63.3730855502555
1214875	0.569427373594872	-2.03901911255709	2.11703719267571	74.3967935285725
1036062	0.764658569796114	-1.58777961229989	1.76231291931877	64.2850051769857
883578.1	1.09895052169221	-0.85893317829351	1.39479692210048	38.0109712389187
753531.2	0.625832065646473	-1.54449611986492	1.66647353374397	67.9421374875262
642624.9	0.782156441877213	-1.04221391123588	1.30306505453243	53.1126547578778
548046.8	0.585927173072323	-0.900856934429355	1.07464127431156	56.9595850676334
467390.6	0.527221130958818	-0.780279329579238	0.941699502547453	55.953792035749
398593.7	0.500409220212319	-0.675385204795345	0.840567999944057	53.464359170841
339937.5	0.462092100064807	-0.57761052533966	0.739704689673833	51.3399691763667
289906.2	0.431710547254846	-0.501090456242411	0.661411855010406	49.2537152527363
247234.4	0.402515027863042	-0.439797381753676	0.596187960842027	47.5343663123739
210843.7	0.382419324445348	-0.380085774465064	0.539175051036252	44.8246540935499
179812.5	0.374273959068175	-0.339013334938025	0.504986175753721	42.1699458230584
153343.8	0.356199907828201	-0.286649833405409	0.457216033542315	38.8251729136894
130781.2	0.354809324809218	-0.248850585672152	0.43337774626871	35.0444478771612
111531.3	0.341730360980103	-0.215310490414575	0.403903759450387	32.2133717381726
95109.37	0.33532208884351	-0.18490974817629	0.382926256917692	28.8740648461691
81109.37	0.275324139071706	-0.247153791440177	0.36998429450293	41.9137821224334
69171.88	0.137029079325644	-0.167069384188205	0.216076717195213	50.6416482156612
59000	0.208297833128834	0.0307782959960461	0.210559470911635	-8.40526220667942
50312.5	0.459945642123327	-0.0594754253149768	0.463775074712556	7.36801379184229
42906.25	0.464848947760239	-0.0614581719829403	0.46889407240579	7.5314557324813
36593.75	0.351588253140771	-0.0586891155363719	0.356452959068964	9.47676203850948
31203.13	0.315386415718697	-0.0914940225329015	0.328389627392733	16.1775149117204
26609.38	0.3148685630848	-0.06941482512457	0.322429263507768	12.4323648246918
22703.13	0.310475676358793	-0.0618915564827879	0.316584444302484	11.2738040558916
19359.37	0.309037993940098	-0.0552881231573369	0.313944673885035	10.1431348725584
16500	0.306600475989981	-0.0495782447569807	0.310583087482989	9.1853958109516
14112.02	0.304738309319864	-0.045113419379876	0.308059503627584	8.42089822490854
12011.13	0.307279067263245	-0.0430046133037479	0.310273785459833	7.96696668213819
10236.38	0.301618349567973	-0.0378412244220511	0.303982872974561	7.15100029735853
8750.684	0.299300459902055	-0.0343028559789195	0.301259773660362	6.53814745095275
7449.463	0.307745446824626	-0.0415920352335138	0.310543326181959	7.69693167329304
6363.206	0.307622019690624	-0.0232699999434752	0.308500891240054	4.32588807605943
5414.761	0.287722173932635	-0.028731681524813	0.289153175489678	5.70260080648229
4620.567	0.29254512836451	-0.0246830605984948	0.293584579994108	4.82282353910112
3941.215	0.290833210594648	-0.0249500522407988	0.291901458529432	4.90329546142724
3361.769	0.290921208009557	-0.0201671534927705	0.291619380956995	3.96549704996435
2867.244	0.287995214972121	-0.0200477223141361	0.288692145748413	3.98201026657782
2442.658	0.285640108083399	-0.0130208716340939	0.285936731540401	2.61001469768227
2083.003	0.292169787169462	-0.00970603888852738	0.292330962652872	1.90269715367768
1777.843	0.290671481787805	-0.0276190859264771	0.291980691539924	5.42784691723644
1513.548	0.265393951729537	-0.0137795754427929	0.265751437087372	2.97219736280273
1292.065	0.273364333458063	-0.015286412603661	0.273791404571547	3.20062131177651
1101.762	0.281217724393215	-0.014508447172349	0.281591732038161	2.95335736458323
939.101	0.275912126404595	-0.0151706664709664	0.276328881259774	3.1471643494908
801.2801	0.279785302838925	-0.0111772695907862	0.280008476729141	2.28771848946984
684.3433	0.277010145135008	-0.0146721962991442	0.277398438805915	3.03191102421126
582.9476	0.274608108866499	-0.00811195591839535	0.274727896807108	1.69203203156398
497.0677	0.271905171304281	-0.0166628032197185	0.272415255066873	3.50679563354954
423.5089	0.279513444648804	-0.0212963835405901	0.28032356606491	4.35699968433504
361.5036	0.259875850708158	-0.0143499467056863	0.260271740209622	3.16057557260143
308.1262	0.268349347069032	-0.0101778495551305	0.268542288464857	2.17205091570442
262.7298	0.262828350709667	-0.0148022751535136	0.263244846647535	3.22344565850334
224.2111	0.265639496575146	-0.0202147743661774	0.266407543518146	4.35173706698676
191.2854	0.253429359761178	-0.0282079955579654	0.254994375236707	6.35117413366771
163.1722	0.258987380436139	-0.0409782808427461	0.26220923463143	8.99108863388888
139.1537	0.261621207983055	-0.0212745881266616	0.262484789209721	4.64896522574662
118.6706	0.26041218861812	-0.0178844267404193	0.261025593957207	3.928754985436
101.1982	0.253890379767748	-0.0232093541036682	0.254949012660416	5.22316863112406
86.24196	0.266726251917687	-0.0336439286209121	0.268839742960572	7.18912490904654
73.61024	0.247922834143762	-0.0314516020935342	0.249909853675531	7.22994815194961
62.69291	0.283159181690281	-0.0109290294953407	0.28337001581187	2.21033480965948
53.57697	0.269478585326954	-0.0492760480064522	0.273946777416619	10.3624516573786
45.65746	0.230839708881831	-0.0603759373532497	0.238604746406964	14.6573261009454
38.96512	0.237895703953296	-0.0336595964905267	0.240265133540718	8.05325985566285
33.18414	0.215283541013694	-0.0545538815878239	0.222088110955299	14.2197009370245
28.30617	0.2714119784555	-0.050495713300767	0.276069337505783	10.5392778921119
24.17237	0.254008552021951	-0.0631155422907137	0.261732527934415	13.9541407285593
20.61345	0.214821405316703	-0.0758052562968367	0.227804023372003	19.4366993856528
17.55618	0.228431670713032	-0.0813702462954165	0.242491536278947	19.6065412648634
14.98558	0.28418209104353	-0.0278448398005892	0.285542984458371	5.59611430842605
12.76553	0.185076480390413	-0.0683593297947534	0.197297495077081	20.2720718509535
10.8809	0.231928383924152	-0.0727663451144399	0.243075536101399	17.418982673476
9.278505	0.250519363711911	-0.132590621220115	0.283443511885801	27.8906114387168
7.923394	0.158214812085998	-0.179282591166494	0.239111217342014	48.571969961044
6.75822	0.157308423761242	-0.000884814471218178	0.157310912154545	0.322268820829818
5.761429	0.200429789711005	-0.189083729226906	0.275544474199632	43.3315146202831
4.919708	0.190628895041804	-0.130986536286872	0.231293857059134	34.4940646191585
4.191257	0.208779204812904	0.014586111866253	0.209288105303869	-3.99640812301166
3.564097	0.257792534897568	-0.129018094551674	0.288275319392171	26.5867084660257
3.051758	0.247642714785857	-0.00475960531794955	0.247688449527409	1.10106903772117
2.604164	0.209047131972348	-0.175627252186044	0.273030465509409	40.0347040079444
2.214424	0.216889361101577	-0.0254542683979143	0.218377917241473	6.69364819655126
1.892567	0.220287331525235	-0.0909091053621654	0.238308568600162	22.4251670309638
1.607507	0.174016504298518	-0.14062883877777	0.223736930488152	38.942892822277
1.376413	0.182770008747022	-0.0478766006050311	0.18893661631055	14.6788177478408
1.17375	0.105878572126119	-0.0615664655003916	0.122477351823415	30.1772229737264
1.001604	0.0392675255041273	-0.0464978094292606	0.0608603716792554	49.8188177964959
