EC-Lab ASCII FILE
freq/Hz	Re(Z)/Ohm	-Im(Z)/Ohm	|Z|/Ohm	Phase(Z)/deg
6999984	30.9183915156404	7.64787758630786	31.8502270869388	-13.8936249262376
5969734	16.5973385356276	-1.87900766854475	16.7033624245143	6.45903343860109
5091109	13.2149451112969	-6.10708955032914	14.5578610060108	24.8033143033236
4341796	8.94077290298734	-4.35335529735184	9.94430100347802	25.9619323679033
3702781	6.27764885684276	-6.06103746174678	8.72611312570018	43.9942491723329
3157797	4.14966941114609	-5.02400359808474	6.51616208940278	50.4443616580638
2693047	2.79083852581104	-3.8374631523626	4.74498715729472	53.9730540196699
2296687	2.18561317107094	-3.88129272230368	4.45436169723186	60.6154969780703
1958656	1.85383574875949	-3.30734030108544	3.79146500057202	60.7284269594906
1670375	1.52002182708832	-2.68447315147542	3.08494124025358	60.4802789384194
1424531	1.21162002161807	-2.46206937462169	2.74404968654647	63.7975326848884
1214875	1.52262488869158	-2.35829623679395	2.80712445255631	57.1518467853675
1036062	0.809711974912347	-1.83511740762316	2.00581389517522	66.1914076487245
883578.1	0.70315075920409	-1.55478798429328	1.70639581172483	65.6652032096763
753531.2	0.639971003161915	-1.34598395867715	1.49038105929466	64.5704527505198
642624.9	0.612640989964449	-1.14405230223581	1.29776140058012	61.8309123488813
548046.8	0.546081128669971	-0.996274006893341	1.13611905005628	61.2718201323927
467390.6	0.517189120955454	-0.862427849039221	1.00561741315129	59.0493168450802
398593.7	0.487102025448908	-0.745129945825664	0.890217400056068	56.826784909878
339937.5	0.46439257779023	-0.647213134535991	0.796583522188701	54.3395579324812
289906.2	0.450980955146939	-0.560185415553255	0.719160289298442	51.1639680008584
247234.4	0.436820819183695	-0.482976227005728	0.651213071064305	47.8726921608207
210843.7	0.425794837426755	-0.416167618388622	0.595396279946839	44.344893613375
179812.5	0.419739954669653	-0.356884486415081	0.550952054347598	40.3728980760983
153343.8	0.262885184898726	-0.445443708816213	0.517231783790576	59.4523926539547
130781.2	3.20333125563822	-0.18191147246844	3.20849231215603	3.25023430021468
111531.3	1.34929610099418	-1.63447803586328	2.11946182269877	50.4596080649923
95109.37	0.437841737640921	-0.400054864382531	0.593084548556566	42.4178646610116
81109.37	0.334963157090787	-0.136089877601151	0.361553276010222	22.1110772972511
69171.88	0.394857963139289	-0.1576304430617	0.425158991007289	21.7622777803093
59000	0.373905750342742	-0.141670299073733	0.399844949673007	20.7513510465804
50312.5	0.339050615665634	-0.0774961175279891	0.34779443384729	12.8748142932478
42906.25	0.401140607383036	-0.112145400604015	0.416521761458229	15.6192019178331
36593.75	0.369857250105712	-0.0965343182915899	0.382247642325995	14.6280995238158
31203.13	0.363242593447405	-0.0902596904995468	0.374288649872623	13.9544214778789
26609.38	0.355996496917709	-0.0821179997009435	0.36534486679378	12.9892626128251
22703.13	0.353072386689328	-0.0650527518592775	0.359015279294577	10.4395316695576
19359.37	0.349683012791373	-0.0602645332576055	0.354838024179496	9.77832691482068
16500	0.346278406202323	-0.0547146224141021	0.35057442078386	8.97893619905416
14112.02	0.343809759504291	-0.0483374577424856	0.347191100910442	8.00296562040626
12011.13	0.34185455793885	-0.0449252217281128	0.344793872235118	7.48669053994773
10236.38	0.339326404143806	-0.0400540530778318	0.341682214516834	6.73203636882502
8750.684	0.387239101269734	-0.0571819584548261	0.391438242798172	8.3999222400288
7449.463	0.35055109384106	-0.0339529618946267	0.352191528879645	5.53218138581417
6363.206	0.334828375744931	-0.0309427257224227	0.336255101788986	5.27991780890059
5414.761	0.332961213870414	-0.0277618914313327	0.33411658527811	4.7662261951403
4620.567	0.331968312939547	-0.0265464681580266	0.333028040512498	4.57203532851
3941.215	0.330232656764589	-0.0245808098806049	0.331146227229279	4.25695094006488
3361.769	0.328607597399567	-0.0271863485181321	0.329730269484719	4.72942110525448
2867.244	0.327669614499958	-0.0216465665013141	0.328383845686487	3.77959172600943
2442.658	0.326132377194967	-0.0204730302879245	0.326774344806949	3.59204144022469
2083.003	0.325249645491814	-0.0196056320842586	0.325840010897947	3.4495422529133
1777.843	0.323851573080095	-0.0192491313004782	0.324423134875236	3.40155188095094
1513.548	0.321762737119831	-0.0173035962693979	0.322227673303674	3.07825872617498
1292.065	0.320950018120057	-0.0173875273675254	0.321420659322361	3.10097822162531
1101.762	0.319073586539384	-0.0160516971549251	0.319477089332958	2.87996204398477
939.101	0.318853331216873	-0.0151867857492949	0.319214794910092	2.72690152563573
801.2801	0.316532886284625	-0.01423218679071	0.31685268381461	2.57444146705598
684.3433	0.314650279955971	-0.0159316475145345	0.315053354320976	2.8985745779596
582.9476	0.316138929350196	-0.013654061003288	0.31643365186492	2.47307148211026
497.0677	0.314431051544604	-0.0120323810815878	0.314661189805698	2.19147704974833
423.5089	0.312249276133594	-0.0140164058159102	0.312563705631268	2.57019699570965
361.5036	0.311591035252842	-0.0100872276586185	0.311754270879767	1.85420544364457
308.1262	0.306673692436905	-0.0145306440593226	0.307017740936357	2.71272826865758
262.7298	0.310585752555665	-0.00958944239067386	0.310733755964705	1.76846517439222
224.2111	0.305323145866896	-0.0142848218749023	0.305657127412491	2.67868197055531
191.2854	0.308398876841037	-0.0150995194476051	0.308768299416183	2.80302068759224
163.1722	0.298383096026163	-0.00117918390874281	0.298385426032923	0.226426732691514
139.1537	0.311574896649633	-0.0130928032482652	0.311849864067835	2.40623137164588
118.6706	0.302909867022672	-0.0109413639514717	0.303107408330465	2.06867328664456
101.1982	0.30867823933336	-0.013495324211732	0.308973104352989	2.50336089594985
86.24196	0.302569001452583	-0.00350230485402715	0.302589270760389	0.663182032087869
73.61024	0.286671477598788	0.0105964674611724	0.286867253605789	-2.11690601975426
62.69291	0.791083680369052	0.173350981274445	0.809854278284098	-12.3599200410755
53.57697	0.309087310982969	0.0276940161800883	0.310325513522278	-5.11999153729249
45.65746	0.396732746095986	-0.034248896681801	0.398208310748009	4.93396188149603
38.96512	0.224113789589148	-0.139474348019494	0.263969855171896	31.8955405900576
33.18414	0.432408542036183	0.0829110522035209	0.440285577555469	-10.8542900878748
28.30617	0.211753876044818	-0.0298411894038458	0.213846207834136	8.02152372339055
24.17237	0.215503271176038	-0.0555559251507415	0.222549142229144	14.4558798697554
20.61345	0.174821562917798	0.113070081643517	0.208200437616959	-32.8937476607345
17.55618	0.286759920922894	-0.03349635859231	0.288709643563649	6.66251366996385
14.98558	0.302132756191886	-0.0297761490335695	0.30359647793638	5.62850647737377
12.76553	0.296124178637931	-0.0354337569409757	0.298236617981329	6.8234804329279
10.8809	0.436739849861933	0.0295320509716252	0.437737179700348	-3.8684127893262
9.278505	0.265345125785692	-0.145537331491672	0.302636994823735	28.7440263449862
7.923394	0.453090386848869	-0.0279986829426649	0.453954650710158	3.53609153857237
6.75822	0.365438695280504	0.143916491159897	0.392756153912442	-21.495434146383
5.761429	0.435130498740812	0.137756031198643	0.456415682318245	-17.5670349677378
4.919708	0.444411050283414	0.214346511661019	0.493402076075137	-25.748751961069
4.191257	0.336910039891658	0.0239727672627405	0.337761851827634	-4.07001028137416
3.564097	0.677289360852982	-0.0458475746212686	0.678839361280188	3.87260053785081
3.051758	0.504541697088914	0.0168962994022788	0.504824532916985	-1.91802778540199
2.604164	0.444800062485709	0.527330784924602	0.689873069713906	-49.8525879289409
2.214424	0.681376416355013	-0.101556631374471	0.688903164560108	8.47731737899507
1.892567	0.508002378690804	0.320602850429289	0.600710083533563	-32.2562289812483
1.607507	0.290761917202835	0.591361380100675	0.658977066649548	-63.8174716161589
1.376413	0.804084186207265	0.381672323743179	0.89007030127969	-25.3921544885354
1.17375	0.380510530009332	0.140419216114132	0.405593170186691	-20.2554961819404
1.001604	0.272205947282595	0.0120129812882712	0.272470896529239	-2.5269352444305
