EC-Lab ASCII FILE
freq/Hz	Re(Z)/Ohm	-Im(Z)/Ohm	|Z|/Ohm	Phase(Z)/deg
6999984	2.53997880924447	0.813925870274721	2.66720221837667	-17.7678452157752
5969734	4.79619378130431	0.973702724817556	4.89403430557442	-11.4759779434815
5091109	8.47769504333377	-6.50950549002148	10.688544099754	37.5184624478022
4341796	3.72938613639799	-4.79401033555358	6.07378432706925	52.1197188989161
3702781	2.60888641600625	-6.87216802508157	7.35071300599986	69.2116973699771
3157797	1.0926492411126	-6.19149352103796	6.28716743734084	79.991726398025
2693047	2.13575647514778	-7.58231185759602	7.87736687142201	74.2687374613608
2296687	0.93948665801059	-6.86839859222618	6.93235417461301	82.2111930090232
1958656	-4.55271870566819	-7.6073332542241	8.86559455726264	120.899022209642
1670375	1.74972821419021	-10.0514984844174	10.2026550762916	80.1251109727314
1424531	-11.2331599515174	-9.34522453963433	14.6122244779006	140.24184819014
1214875	13.3588276553645	7.11486671252979	15.1353759339765	-28.0396148429185
1036062	7.50052261427532	-8.39440754623955	11.2571718268675	48.2187586690797
883578.1	8.63181613113802	8.85821690502037	12.3683570638207	-45.7416272080332
753531.2	12.2679781785092	-8.49437420955132	14.9217184600256	34.6988110872485
642624.9	5.11090926104297	3.45712533625668	6.17034108175574	-34.0752382004958
548046.8	0.100223578917338	-0.0489855441302104	0.111554243777333	26.0476583132108
467390.6	3.71423533111265	-1.16738585973391	3.89337049873143	17.4479571491757
398593.7	0.0822604506037018	-0.526323385696905	0.532712950907876	81.1169582118824
339937.5	0.502285283476864	0.101002082704613	0.512339659511249	-11.3697000020627
289906.2	0.653272833677753	-0.0623502034801824	0.656241528017986	5.45195640829775
247234.4	0.743255148821623	-0.407741923557826	0.847750961353916	28.7487074101724
210843.7	2.80280704851463	-0.293843174648526	2.81816805078953	5.98496242933189
179812.5	1.95221522418699	-1.52829832055281	2.47928216186702	38.0557364314523
153343.8	-0.239911919460574	-1.59412335378863	1.61207536926583	98.5586529323574
130781.2	-0.434518142582404	-0.9933135369717	1.08419453926152	113.626640803385
111531.3	-0.447177501881991	-0.750203075222679	0.873368405807642	120.798124341919
95109.37	-0.582991264887898	-0.408876769192818	0.712080773031507	144.956374111595
81109.37	-0.540394263595382	-0.102067936576311	0.549948928359481	169.3041583199
69171.88	-0.477571940138108	-0.0268350922976268	0.478325287002369	176.783893152214
59000	-0.133857083736761	-1.00652382715133	1.01538560827395	97.5752854685743
50312.5	-0.657362556112503	0.021595980362804	0.657717201042054	-178.118369152854
42906.25	-0.167707771600297	-1.04332168305449	1.05671473491515	99.1318399106062
36593.75	0.428164933488276	-0.764790111424846	0.876486808116498	60.7578769901603
31203.13	0.226140594665999	-0.230780900071369	0.323108948179469	45.581852197283
26609.38	0.133974693619034	-0.144858164832032	0.197314739563009	47.2352479658479
22703.13	0.0795263239903893	-0.10208611316975	0.129406378164027	52.0809754928094
19359.37	0.0472715962356609	-0.0761353928271918	0.0896169730107984	58.1643262347211
16500	0.0399931976240033	-0.0564789334018872	0.0692049548400069	54.6973758051184
14112.02	0.0154534101369725	-0.0446775773571352	0.0472746634399896	70.9201429234982
12011.13	0.00731725179806063	-0.0339626300455054	0.0347419402665437	77.8414730886785
10236.38	0.00231345083962433	-0.0253013478990047	0.0254068939521113	84.7756375084698
8750.684	-0.000169105766847479	-0.0184172330026624	0.0184180093450605	90.5260711235208
7449.463	-0.00150370832179481	-0.013328656966441	0.0134132112205128	96.4367610338699
6363.206	-0.00179825575893922	-0.0100932211118171	0.0102521625126891	100.102086640881
5414.761	-0.00152536737860795	-0.00820367550868135	0.00834428172411858	100.533122790158
4620.567	0.0343671006474166	-0.00612424632649782	0.0349085089910366	10.1040935283982
3941.215	0.0312700604473935	-0.00600903124153308	0.031842191143911	10.877678225072
3361.769	0.037885357472567	-0.00670382206456	0.0384739072761979	10.0346281253166
2867.244	0.044263502196563	-0.00676478568912943	0.0447774491471431	8.68927165614782
2442.658	0.0510013766761345	-0.00757662700714467	0.0515610870683149	8.44990707807601
2083.003	0.0563259608433847	-0.00815855046774332	0.0569137576572239	8.24170567448138
1777.843	0.0604719479132254	-0.00886670609085425	0.061118532061245	8.34156075901677
1513.548	0.0635388527519706	-0.00976095588668072	0.0642842287723694	8.73360713033504
1292.065	0.0664418382313598	-0.0102225606935568	0.0672236462466567	8.74678515962305
1101.762	0.0685847542095247	-0.0101615275091099	0.0693334345846166	8.42764193815723
939.101	0.0708484889553898	-0.0103731219669618	0.0716038410045401	8.32964896645601
801.2801	0.071882093237135	-0.0114247445795589	0.0727843397775945	9.03089774149457
684.3433	0.0752585305442974	-0.00963572002834295	0.0758728773683426	7.29616488433288
582.9476	0.0795652809022657	-0.00801011212322882	0.0799674672681532	5.74879495575692
497.0677	0.0826640631522704	-0.00620328887609916	0.0828964904548008	4.29155472610181
423.5089	0.0864275716984231	-0.00456631594017865	0.086548116045074	3.02435428385128
361.5036	0.0871974511365635	-0.00477561173789349	0.0873281280698521	3.13483143295061
308.1262	0.0958848831287896	-0.00116071731307948	0.0958919082994103	0.693549941145393
262.7298	0.111117813860843	0.00162974403571917	0.111129764792493	-0.840286151351782
224.2111	0.12549520261984	0.00391257593056713	0.125556179182895	-1.78573756008424
191.2854	0.134712914325668	0.0046302075061006	0.13479246309666	-1.96853401504277
163.1722	0.144436363388262	0.00330085871563153	0.144474076349658	-1.30917418440622
139.1537	0.155749883614326	0.00236585601968708	0.155767851370499	-0.870261584319642
118.6706	0.164795876447602	-0.000385311094425945	0.164796326897091	0.133963663149994
101.1982	0.179627858873559	-0.00316363291792444	0.179655715903332	1.00899758483262
86.24196	0.206606229978199	-0.00843045025212617	0.206778158317696	2.33662559390442
73.61024	0.219989650212276	-0.0127930516597033	0.220361313236437	3.32817145725515
62.69291	0.210282062902089	-0.0160015291734272	0.210890006672308	4.3515674714794
53.57697	0.208138061121916	-0.0188322904334312	0.208988295486995	5.17003309816142
45.65746	0.214299753701422	-0.0223788380045548	0.215465071013666	5.96166023580392
38.96512	0.226811089651226	-0.0273273770062796	0.228451430117695	6.87017649323106
33.18414	0.22882152721032	-0.0302726430381825	0.230815346611486	7.53635452162967
28.30617	0.237033853748524	-0.033162471084652	0.239342426893598	7.96433107628059
24.17237	0.26002443301398	-0.0398581105436549	0.263061541735679	8.7148083850768
20.61345	0.268858831900358	-0.0436105281260869	0.272372813720939	9.21347647249096
17.55618	0.266809294667175	-0.0463330605863241	0.270802422854913	9.85151654357069
14.98558	0.276498672180492	-0.04941626138876	0.280879836597819	10.1330049787405
12.76553	0.276130351334805	-0.0508456442510666	0.2807725956492	10.4333666436819
10.8809	0.27764926989653	-0.0527614027698141	0.282617909369372	10.7595687051838
9.278505	0.279639819370175	-0.05414299559002	0.284833095950673	10.9578464797668
7.923394	0.290063621080216	-0.0578248820116716	0.295771231281595	11.2742509629718
6.75822	0.306380871803457	-0.0634157668752029	0.312875051890394	11.6941430831335
5.761429	0.304098113855157	-0.0621045198382282	0.310374989705358	11.542521261808
4.919708	0.307933752467847	-0.0634455952905041	0.314401875742966	11.6421070561797
4.191257	0.326763948981306	-0.0699376869346941	0.334164567851879	12.0808151103334
3.564097	0.326269876477663	-0.0717300816464221	0.334061726197049	12.399161920464
3.051758	0.360216320585317	-0.0835332623776765	0.369775071549559	13.0559778184902
2.604164	0.371599943563331	-0.0868501806087033	0.381614297331789	13.1550078438006
2.214424	0.348408966287804	-0.0801414401646378	0.357507284151524	12.9539168464435
1.892567	0.335787308824588	-0.0738249430414083	0.343806979252496	12.3995629909206
1.607507	0.234493369726616	-0.143523145694649	0.274929143227543	31.4689792411607
1.376413	0.312729576810548	-0.202290803039292	0.372453161090608	32.8970249793227
1.17375	0.326586740256688	-0.215456066073448	0.391254668111877	33.4136667527701
1.001604	0.32222773139376	-0.206151178324577	0.382529762507155	32.6098356140913
