EC-Lab ASCII FILE
freq/Hz	Re(Z)/Ohm	-Im(Z)/Ohm	|Z|/Ohm	Phase(Z)/deg
6999984	4.33111231017662	1.93412780046042	4.74335157793277	-24.0639179982852
5969734	12.110320658104	1.97835236290168	12.2708493802955	-9.27793422444318
5091109	11.790449650282	-1.2406453097102	11.8555431651334	6.00682076921613
4341796	1.18123964902041	-0.807813607754683	1.43104504935781	34.3670284168221
3702781	7.53115065824273	-3.09631428003144	8.14281231257828	22.349244393531
3157797	3.87533906102402	-6.44457699133072	7.52002828685423	58.9801035434284
2693047	11.8959664079166	-15.2705532971165	19.3572677508567	52.0809296561858
2296687	18.1675453337085	-11.2719676421956	21.3802936831808	31.8173375806002
1958656	13.5326248549646	-17.3902577035621	22.0352671520339	52.1109182671829
1670375	40.1648131259005	-14.8935648419119	42.8372558310957	20.3453474233728
1424531	-0.998250965480867	-41.6419149831608	41.6538784323246	91.3732465194012
1214875	81.9491921378472	-14.9958669661228	83.3099400918729	10.369814165046
1036062	1.23919327744713	40.4741746750087	40.4931403524348	-88.2463293524747
883578.1	68.3431894073565	26.3123992688722	73.2334206059935	-21.0569037091458
753531.2	79.3371074715469	6.47631533256353	79.6010005102862	-4.66672691739568
642624.9	97.8821135338743	9.34237242327188	98.3269447931408	-5.45208818859063
548046.8	35.8671667229374	54.5521128104125	65.2869562838624	-56.6757016688799
467390.6	41.1611996491127	58.3317950144613	71.3921751045817	-54.7917075765087
398593.7	28.4302867381856	17.1331382407627	33.1937589012232	-31.0747155231752
339937.5	-29.3223324771062	21.0725059593573	36.1088588756984	-144.297071576738
289906.2	29.4131881286034	2.88209585542484	29.5540540773762	-5.59634864816426
247234.4	152.747161399085	-67.7771681761424	167.109065706966	23.9278806289873
210843.7	-74.7930616624361	111.083389987422	133.916099121572	-123.952600778792
179812.5	-1.63800508891507	13.8373073219054	13.9339202879939	-96.7510283844991
153343.8	6.24792668314778	1.84049027436687	6.51337027106774	-16.413716762763
130781.2	3.55439696633829	0.265354403839029	3.56428825348787	-4.26951074789195
111531.3	-0.611413969525635	-6.18376918351543	6.21392213960927	95.646709530164
95109.37	2.6024294372994	-3.21984938585559	4.14005664740437	51.0532725548391
81109.37	1.54790722963182	-0.987188368922544	1.83590785914828	32.527971404323
69171.88	1.73748818752507	-1.549238074637	2.32787538620393	41.7219157455779
59000	-1.07454696857203	1.43020824789188	1.78889541896817	-126.918344917948
50312.5	-1.68062089174653	0.666753536956763	1.80805056920962	-158.360263362444
42906.25	0.956183620327785	-1.59408439186695	1.85886851718376	59.0433007882313
36593.75	-0.177787761672515	-1.9091410247717	1.91740135096095	95.320295474278
31203.13	0.503847168276922	1.05661934215563	1.1706008727137	-64.5059377027881
26609.38	1.12764082363561	-0.626158294237194	1.28982480848045	29.0426118407627
22703.13	0.56270329395942	0.946334752821125	1.10099248927039	-59.2637176520182
19359.37	-0.732401331484104	1.05976655357692	1.28822236374005	-124.64822883786
16500	0.809271771579272	-1.06666948874538	1.33891919042763	52.8127629183284
14112.02	1.58503537724204	0.78412799697811	1.76838736219012	-26.321921750584
12011.13	-0.376416459105788	-1.88093679803232	1.91823163066346	101.316642574999
10236.38	1.04144570269624	0.368151817021685	1.10460169836952	-19.4685386503282
8750.684	0.629584844706432	0.319111978573256	0.705839593358831	-26.8786705696905
7449.463	-0.55347401125279	0.0366044610148133	0.554683123682737	-176.216206568799
6363.206	-0.523727166454845	0.0890678345425603	0.531246857904046	-170.348316605746
5414.761	-0.557884626466235	0.0334867941294829	0.558888738326727	-176.564965978695
4620.567	-0.532351389190794	0.0618945453673539	0.535937436945395	-173.368205256542
3941.215	-0.504118879191453	0.0414715835324466	0.505821842744989	-175.29712496963
3361.769	-0.518746495969217	0.0414426415409384	0.520399288641166	-175.43234300928
2867.244	-0.516308114231837	0.0396114949597155	0.517825394659802	-175.612824714747
2442.658	-0.512691499289638	0.0364823036702451	0.513987871379223	-175.929784967013
2083.003	-0.525536326463489	0.060154810582386	0.528967892852621	-173.470134448296
1777.843	-0.150867948896845	0.48781411582702	0.510611153035691	-107.185449270524
1513.548	-0.505060245209141	0.0326219679014064	0.506112679233071	-176.30438477347
1292.065	-0.499831119065677	0.027405991106982	0.500581897330499	-176.861586229234
1101.762	-0.499579016129851	0.0280887242227102	0.500368034336457	-176.781945095711
939.101	-0.496691505327455	0.0275536904228877	0.497455181217739	-176.824802338787
801.2801	-0.490005777267913	0.024527433304593	0.490619258428002	-177.134428731276
684.3433	-0.496236013925534	0.0267206247333365	0.496954900672931	-176.917793388937
582.9476	-0.491095969885285	0.032586566455741	0.492175919718694	-176.203716088865
497.0677	-0.486694556023267	0.0204262149424354	0.487123004096049	-177.596748376167
423.5089	-0.47973261808137	0.0157349458156517	0.479990597169389	-178.121405829168
361.5036	-0.484669049394503	0.0237205146062251	0.485249163063838	-177.198084342315
308.1262	-0.129690679316141	0.465347150700184	0.4830814040783	-105.572974147687
262.7298	-0.471552412424586	0.0192999255112538	0.471947205509459	-177.656278691081
224.2111	-0.483566999640325	0.030920039306476	0.484554529410117	-176.341397847035
191.2854	0.385255149756637	-0.282394726892079	0.477669668484886	36.2416775675547
163.1722	-0.121087575903556	0.491494333671116	0.506190558059921	-103.840120592094
139.1537	0.408113355731443	0.262612968551411	0.485306173850862	-32.760489136743
118.6706	0.385624370643474	0.280311911341857	0.476739890164753	-36.0135544214234
101.1982	-0.456054374172114	0.0186710961185142	0.456436416198122	-177.655591141727
86.24196	-0.133244831386241	0.459426719896568	0.478358752450572	-106.173433916985
73.61024	-0.466142149037509	0.0442223160741414	0.468235107983445	-174.580641246818
62.69291	0.314034854981569	0.403240827583364	0.511097891967294	-52.0893464061962
53.57697	0.43771816409494	-0.243529731033117	0.500903105476206	29.0898980475948
45.65746	-0.43778807329871	0.0235817436485406	0.438422736358531	-176.916704769126
38.96512	0.342043717631446	0.254164583032277	0.426137935461174	-36.6151658358887
33.18414	-0.0969673090999917	0.461704375781165	0.471777055026597	-101.860895184594
28.30617	-0.481124867973318	0.0155243814444429	0.48137526421865	-178.151887183869
24.17237	0.257241058192577	0.482604731345607	0.546882335367675	-61.941206724444
20.61345	24.8993084352939	-33.5421216312482	41.7737894388496	53.4124090875564
17.55618	20.6777387849274	17.4515857575934	27.0578403926169	-40.1636768076284
14.98558	-0.452125628056716	0.0155473335075293	0.452392863697996	-178.03053472286
12.76553	-0.448995023440897	0.0159962178905974	0.449279879430957	-177.959602547823
10.8809	14.0547818844192	-8.97362934204761	16.6752186608469	32.5572208997644
9.278505	55.1807854972888	-65.2350982824812	85.4431807461706	49.7729296066839
7.923394	111.063887644148	-53.1930051824796	123.144967168679	25.591652663222
6.75822	97.2893608063679	-14.8143152941428	98.4107903826907	8.65795951264392
5.761429	47.7886941600512	-11.1841228393372	49.0799744621806	13.172024690316
4.919708	19.180590141363	21.5330794058259	28.8369302608401	-48.3069483329063
4.191257	54.659424086125	-15.5805978940231	56.8366754144021	15.9101326974667
3.564097	16.1898865011012	21.8076716699538	27.1603933804915	-53.4100255831287
3.051758	38.3776552034969	-2.77162455625431	38.4776080545468	4.13071515976827
2.604164	52.787257229276	-20.850178513702	56.7558320337478	21.5532799653794
2.214424	43.9367396314918	-3.77155496953685	44.0983187472464	4.90627541491972
1.892567	-17.6377380994574	50.8540165785221	53.8258377309044	-109.128119970695
1.607507	34.6337377087023	28.7893818733713	45.0369214792262	-39.7351387543382
1.376413	28.5719725694206	42.3244889531722	51.0658396744332	-55.977913558924
1.17375	29.7670978220946	21.706246532413	36.8407553027356	-36.0996298709859
1.001604	19.0747567600889	13.3733706309125	23.2957804653184	-35.0344153861684
