EC-Lab ASCII FILE
freq/Hz	Re(Z)/Ohm	-Im(Z)/Ohm	|Z|/Ohm	Phase(Z)/deg
6999984	-3.43633644214365	-14.5905548923392	14.9897531737507	103.252666964746
5969734	1.77059611992973	-1.34424926127077	2.22306470808594	37.2060285621174
5091109	-14.5572657037915	24.4181936367698	28.4281931408517	-120.801905863367
4341796	-12.8872724946388	35.6522471801285	37.9099528006044	-109.87348076638
3702781	37.1683476212256	15.2655204635059	40.1811172058964	-22.3285892650166
3157797	1.38881450329181	10.1146973478634	10.2095988248034	-82.181800274133
2693047	16.1209580956877	18.8415452272304	24.7969578068095	-49.4494720130207
2296687	57.3231309663145	-24.2509478606377	62.2418654598383	22.93112887111
1958656	28.2850836479265	33.3168579174317	43.7042215176123	-49.6696711528454
1670375	47.9325752442858	23.4270477999864	53.3512730698338	-26.0470738962597
1424531	48.425538929676	20.0681558215766	52.419115775723	-22.5097356015251
1214875	37.131772132999	84.1803416232321	92.0059694668831	-66.1978247760299
1036062	64.4549415934204	15.2856417174476	66.2426625259388	-13.3413623666669
883578.1	122.389664484179	-50.1972718904907	132.283771029547	22.300646113348
753531.2	97.3760662001392	85.8259493647891	129.800584948533	-41.3925165795793
642624.9	179.205683176577	44.2424238440206	184.586210076423	-13.8679105803921
548046.8	197.081294437638	169.884226627606	260.195478581152	-40.761363461197
467390.6	131.225183074894	62.8003546944631	145.478291242336	-25.5743493378091
398593.7	103.919088731249	31.9977056453367	108.733758186217	-17.1141118306869
339937.5	76.2869091785909	101.633295059684	127.07879121518	-53.1077616983074
289906.2	-27.7700439099889	151.428658461262	153.953934480871	-100.391831397878
247234.4	80.7784295589036	86.55620124392	118.393963764124	-46.977537279176
210843.7	103.166720346002	40.3975783216256	110.794117719318	-21.3841027172111
179812.5	142.837449824072	-37.2588021861978	147.616921159447	14.6196942329612
153343.8	131.553742453144	30.6963402581622	135.087573294782	-13.1342152054153
130781.2	107.56129688977	-2.74607806356667	107.596345353086	1.46246388587332
111531.3	5.87808351592112	167.281953945811	167.385196423544	-87.9875243164142
95109.37	-248.916320181326	-144.309885181005	287.72326533245	149.896874587449
81109.37	228.567845031661	85.9774365273006	244.203561346315	-20.6141505729584
69171.88	86.9802785216781	-316.694322069951	328.421775287593	74.6423632395656
59000	98.9741971178387	189.924149736683	214.165997180511	-62.4748596148289
50312.5	-42.0742030848352	20.3325979974017	46.7295742174899	-154.207579854895
42906.25	-11.4378098893093	7.81273593379945	13.8514381143354	-145.664492650597
36593.75	9.59637022408838	-2.85008819010316	10.0106605261159	16.5412342496474
31203.13	5.89425581397851	-1.31483484315177	6.03912595210477	12.5751172593487
26609.38	-0.200355038726443	3.83829226948226	3.84351787917142	-92.9880707691979
22703.13	-2.54195952263534	2.91017422401266	3.86402280386958	-131.136345614142
19359.37	-10.3699620578813	-34.2271507584572	35.7635843019692	106.855482876308
16500	-0.0142214472647449	11.4719265699011	11.4719353848758	-90.0710280426279
14112.02	-0.551864514651333	0.05936836715767	0.555048687549407	-173.859860340544
12011.13	-0.552837599007307	0.0793963235598731	0.558509791383274	-171.827292562317
10236.38	-0.558713700789127	0.05664569817209	0.561577897153089	-174.210796990061
8750.684	74.9324170726629	45.060531857299	87.4375128855696	-31.0205538228015
7449.463	2591.67021824404	-367.113377268816	2617.54212036842	8.06238134376133
6363.206	-0.544949796709275	0.0458852086332747	0.546878170440912	-175.187002481405
5414.761	-0.538884359357295	0.0455047457756015	0.540802213982177	-175.173251494322
4620.567	-0.516825418339949	0.132489576786572	0.53353725361904	-165.621701274814
3941.215	184.548245555889	-100.80840709967	210.286447208872	28.645317176041
3361.769	267.800981028718	-14.8117950657752	268.210280774273	3.1657447978291
2867.244	32.5529071044217	17.2994235440078	36.8640992824194	-27.9872866074892
2442.658	25.4883151494147	-9.97292079710781	27.3699353010063	21.3691256004464
2083.003	52.3698310248449	27.4319700829078	59.1194738153204	-27.6461074292226
1777.843	133.865017915601	40.2929801558504	139.797593939895	-16.7516415407532
1513.548	244.512868622636	46.4053232979563	248.877473774664	-10.7461786815116
1292.065	98.3251327725814	121.730369584393	156.480396899735	-51.0711889450929
1101.762	556.811458071914	-105.18735947758	566.659845439957	10.6976892633097
939.101	-344.66072151318	367.761619772621	504.023433911329	-133.14278651691
801.2801	530.7341161816	287.766709092318	603.728731253439	-28.4667720679224
684.3433	668.31414291533	794.194845906485	1037.97362533211	-49.9194234557429
582.9476	366.932861964644	-104.062297530091	381.40357491351	15.8333563529191
497.0677	616.404703660095	-166.555569766422	638.510388728725	15.1205166416851
423.5089	-0.140559535401066	0.522588388600211	0.541161350146081	-105.054447343094
361.5036	-0.153375125293354	0.528675677218837	0.550474250752519	-106.178074875125
308.1262	-0.155092033118036	0.5044695119362	0.527771756737544	-107.089306952501
262.7298	-0.527596306795289	0.0808561574863128	0.533756106426409	-171.286993361509
224.2111	-0.0999363267873283	0.451997352391144	0.462913464894194	-102.467485602299
191.2854	0.432850976270976	0.308461432184551	0.531515214085243	-35.4747105334147
163.1722	-0.0857568288235448	0.432652203691045	0.441069340408726	-101.211390228034
139.1537	-0.111285395059613	0.43996224816766	0.453818486805369	-104.194838763059
118.6706	0.401295262622028	0.297899792897171	0.49978212694239	-36.588185253316
101.1982	0.422864668322299	-0.32697529471155	0.534534723911396	37.7125805487925
86.24196	0.47412596181222	0.206068190476681	0.516971495143297	-23.4910919834473
73.61024	0.39538925004934	0.229486218387003	0.457161441379461	-30.1311285191081
62.69291	0.592084499520809	-0.250712629334693	0.642978131106122	22.9497729177636
53.57697	7.07040322458244	-7.2059172230084	10.0953377745886	45.543847906732
45.65746	28.5228154218133	-7.85100868505406	29.5835991211284	15.3897609687729
38.96512	13.3362304945638	-7.66426970296342	15.381679813463	29.8857822616552
33.18414	3.19684211855233	-2.76119879358932	4.22421807068116	40.8180576350252
28.30617	8738.10836577736	-153.779841714186	8739.46142801637	1.00823039434494
24.17237	10585.523875006	-1503.61464523426	10691.7806145509	8.08446313718567
20.61345	12802.4318329938	4263.14545406437	13493.5788433226	-18.4174991413623
17.55618	10019.0347149028	11532.454138314	15276.7324736261	-49.0169117960088
14.98558	4767.6918001194	-1464.24757500407	4987.47491841624	17.0727041708328
12.76553	11595.6808780022	-8077.78831002004	14131.8958036763	34.8618576870089
10.8809	6070.81621507418	-6145.35455315151	8638.29798635979	45.3495922958708
9.278505	8807.68554105101	-6199.42531302253	10770.7102273612	35.1403896599558
7.923394	5785.05796243468	-269.415498873048	5791.32802902425	2.66639087993417
6.75822	8341.59661905588	-5988.95630507161	10268.8768509074	35.6769417167841
5.761429	4576.81523221472	7063.7686076772	8416.89162414716	-57.059657876131
4.919708	5629.07816258658	3605.75940287945	6684.91000926435	-32.6419785463981
4.191257	4740.51475555171	3598.94309577662	5951.87966563855	-37.2053410127632
3.564097	3203.36475671165	-2913.36193565446	4330.03735926869	42.2855572469599
3.051758	3601.80516590335	332.261064503074	3617.09798984114	-5.27053218725855
2.604164	7399.47485350548	-1102.98383205218	7481.22994175613	8.47822265231138
2.214424	-319.167787364387	4150.76716718855	4163.02007594265	-94.3970312832041
1.892567	2569.32421883006	1574.3887878884	3013.32490729018	-31.4984579197201
1.607507	1260.86888637619	-3457.4355674719	3680.16997594558	69.9639336592043
1.376413	4471.22198851533	1448.15684577794	4699.89194775332	-17.9463043802246
1.17375	1174.33619384463	770.989055864246	1404.80946054472	-33.2861721841976
1.001604	1115.99309751819	-66.7928568145269	1117.9901070357	3.42510101928861
