EC-Lab ASCII FILE
freq/Hz	Re(Z)/Ohm	-Im(Z)/Ohm	|Z|/Ohm	Phase(Z)/deg
6999984	3.69981284972109	16.9056860058096	17.3058034904475	-77.6554336925995
5969734	-9.96381048375722	39.7036770833989	40.9348200594438	-104.08769565537
5091109	-3.75485993735502	29.3754448683154	29.6144514445328	-97.2842229086479
4341796	-2.70686490246591	34.1851227120822	34.2921234752285	-94.5273791815964
3702781	-2.42250455373573	27.7577010431048	27.8632104308038	-94.987750769984
3157797	131.680036314455	12.616227105487	132.283034249119	-5.47278743485532
2693047	0.348992288263717	0.533399566829451	0.63742506631085	-56.8041072403467
2296687	12.8219656352028	12.0803288909191	17.6163886441886	-43.2941291241508
1958656	25.0000924953597	35.0554551368278	43.0568178065528	-54.5051140873843
1670375	38.1659273924017	35.0434663900759	51.8139223602542	-42.5577523066927
1424531	33.6444436115179	41.1841387349769	53.1797129483644	-50.7536786533432
1214875	-28.9621994162514	-42.8183529432122	51.6935232287005	124.074297014477
1036062	-10.9692239087986	-108.481375703212	109.034548412982	95.773906160683
883578.1	-1.79530725385056	-110.181329543182	110.195955043908	90.9335014116383
753531.2	46.4647168009584	98.8892420903184	109.261393495557	-64.8327528291307
642624.9	243.890990181261	-29.7220369780605	245.695369459258	6.94815031957042
548046.8	170.025804193357	108.355220254947	201.617528623123	-32.5088288843877
467390.6	167.251616464099	25.3539298740457	169.162421861098	-8.61992657420313
398593.7	11.9139456338259	-11.3963838049274	16.4869543698941	43.7280644398711
339937.5	16.9380045590804	-1.36571901465749	16.9929746327835	4.60981215481636
289906.2	-3.78867713215952	7.30508545684221	8.22911586645346	-117.412860505168
247234.4	6.27700133548283	-4.09169687336919	7.49284519186086	33.0985342358702
210843.7	3.6081784054974	-0.231068217830275	3.61556965458958	3.66422552804425
179812.5	5.34853388796333	5.84962539807901	7.92621801671788	-47.5621433062818
153343.8	27.4913504508148	9.44542489599691	29.0687186005065	-18.9615970523523
130781.2	2.78412866526961	-13.0584272005805	13.3519247068591	77.9644298315136
111531.3	3.18024569264338	-2.04024972276889	3.77843639576417	32.6817303582243
95109.37	2.68850594925955	2.93738442999634	3.98199592274891	-47.5330026728215
81109.37	3.57922929966959	0.169466280302107	3.58323892585643	-2.71076703412484
69171.88	5.3541059777107	-3.87914383754628	6.61167208298557	35.9239896588886
59000	11.8688839513141	-2.52833356131301	12.1351916691507	12.0255132239474
50312.5	2.3240393823889	1.57178436155149	2.80564878951596	-34.0711071747929
42906.25	-1.82397234344528	-5.41614327304225	5.71502257771341	108.611770405723
36593.75	-2.14864468217415	7.22667037801185	7.53932614513188	-106.558346963753
31203.13	78.2246979854786	-7.43248401785026	78.5770016836665	5.42763836059901
26609.38	3.11604039383682	1.13790579615969	3.31730874911524	-20.0610228471171
22703.13	8.4357995673283	5.44175911255579	10.0386979523851	-32.8252219084369
19359.37	7.05573661135935	-5.52257415427688	8.96003596077403	38.0505339746725
16500	7.36447350963174	-6.36672039182028	9.73501918959012	40.8440068935667
14112.02	13.6322067150577	-7.46317960346426	15.5414320355503	28.6992382341408
12011.13	12.3183556714608	-14.7231145341845	19.1966660656304	50.0818627202405
10236.38	32.974654439255	-5.44302584850286	33.4208672205817	9.37311970294826
8750.684	16.8203656651802	25.1114210261334	30.2242976272751	-56.1846653792969
7449.463	39.5987701088039	10.3309729023808	40.9242177107838	-14.6220376303433
6363.206	39.2220853972718	-21.07924942145	44.527595253759	28.2550584330436
5414.761	30.2792745673099	16.7585864666696	34.607581375811	-28.9630910283765
4620.567	5.06737576917853	0.0723000406839037	5.06789152231385	-0.817426281241653
3941.215	13.185706027455	7.76426753178188	15.3018526246839	-30.4912668708156
3361.769	5.95095057301613	1.21182680050199	6.07308298287582	-11.5100975801815
2867.244	-0.0833799920924566	0.773074937386494	0.777558410601074	-96.1558398269172
2442.658	0.214228246063996	0.496222284250768	0.540490792519822	-66.6492582228135
2083.003	0.41055541014552	-0.276042709718141	0.494727523378566	33.9154689193236
1777.843	0.451764456210011	-0.372637087549937	0.585618922945995	39.5174548992342
1513.548	0.474566144497984	0.237016717133609	0.53046201532671	-26.5393191267905
1292.065	-0.165381164762141	0.469627072949347	0.497896090871433	-109.399931148705
1101.762	-0.058753918798648	0.540867931130668	0.544049760499687	-96.1996710982447
939.101	0.44407837396496	0.257742641110588	0.513455812383134	-30.1308363106326
801.2801	0.403325427426687	-0.295948573296238	0.500256892451267	36.2701478403948
684.3433	-0.466115272954339	0.125223626252033	0.482643143795711	-164.962341444178
582.9476	0.474073438694017	0.280797285346103	0.550992505151305	-30.6385800495216
497.0677	0.46540475766295	0.286614663228793	0.546579869399765	-31.6264051249508
423.5089	0.342875479522238	0.2647480421645	0.433191782340732	-37.6731839707994
361.5036	-0.454301730314136	-0.0938677705046533	0.463897855681542	168.325832884714
308.1262	0.393869773611714	-0.279743586411656	0.483104411802871	35.3840399623352
262.7298	-0.38985084069373	0.086745501542996	0.399385102410636	-167.45550999391
224.2111	0.374770848194336	-0.250043511831762	0.450527409227744	33.7108370427926
191.2854	0.384740700628132	-0.338704928026203	0.51258797780387	41.3589469823626
163.1722	-0.0685143818413928	0.359373653628575	0.365846475234434	-100.793875882722
139.1537	0.377705594754051	0.282929260650439	0.471922115227413	-36.8359092856188
118.6706	0.480617486206922	0.133088018823025	0.498703908950089	-15.4779678213333
101.1982	0.454672942066098	0.312669178076993	0.551805671560544	-34.5154989702744
86.24196	0.570966713306636	0.241111840866302	0.619788599048191	-22.8937032679321
73.61024	0.354191928787908	-0.310686405522282	0.471145375648381	41.2562557567413
62.69291	0.00323796891233054	-0.549609886553392	0.549619424547486	89.6624518389201
53.57697	0.674107499516266	0.47482620981189	0.824548876919008	-35.1600077348611
45.65746	-1267.10869501205	-2257.96535823204	2589.20296692845	119.299954299211
38.96512	6510.0518167742	-5072.34976328741	8252.84840392739	37.9241738625344
33.18414	4027.17936987588	1305.0381057013	4233.35542265073	-17.9553112767641
28.30617	5352.85629553747	3730.75312209747	6524.69074966125	-34.875144578278
24.17237	7298.32529083058	163.791326895227	7300.16298787523	-1.28563421339327
20.61345	0.652721196711791	0.473835869368591	0.806576339683456	-35.9773664070829
17.55618	-0.0411928356482099	-0.600338149990818	0.601749735391	93.9252578346934
14.98558	0.296732669370639	0.676592934550299	0.738801919431189	-66.3192345328181
12.76553	0.802171104825446	-0.0206960082584968	0.802438038838335	1.47790280662091
10.8809	2023.49954184431	1887.42406406657	2767.1140188763	-43.0072720744406
9.278505	1859.2277770982	1491.04090469068	2383.26056204401	-38.728492015339
7.923394	2410.85756884412	2.77947169001264	2410.85917106659	-0.0660561323132941
6.75822	12193.4629548679	9904.16764271463	15709.0125573421	-39.0853072118347
5.761429	12133.4105096974	2139.67502022057	12320.6274105255	-10.001041339366
4.919708	8712.29360088253	-12829.7544978284	15508.2771532665	55.8207741540314
4.191257	3776.76239652069	-7508.7620219588	8405.0842531282	63.2984864453294
3.564097	8035.0922362067	-3010.24572978345	8580.45957965123	20.537826865069
3.051758	6812.25469894394	6962.60550760104	9740.87724682742	-45.6253511530893
2.604164	6521.68392738883	2503.65359299242	6985.74566975249	-21.0016362002274
2.214424	1529.21483518359	-9628.11752103997	9748.80223469029	80.975208453367
1.892567	4637.2088301234	-243.640462232852	4643.60489372336	3.00757349594749
1.607507	4929.0953377766	225.820699724012	4934.2654810331	-2.62310449146983
1.376413	6613.01946749282	5.8298847281709	6613.02203723796	-0.0505106184974928
1.17375	3241.69099967196	3394.6589828061	4693.85450849303	-46.3204349022523
1.001604	946.088607824379	-1371.57169980968	1666.22104823276	55.4026983100803
