EC-Lab ASCII FILE
freq/Hz	Re(Z)/Ohm	-Im(Z)/Ohm	|Z|/Ohm	Phase(Z)/deg
6999984	2.74383081405522	1.27068661904054	3.02378108003334	-24.8491738452459
5969734	4.13544554523836	1.42973435895077	4.37561997833406	-19.0716393264852
5091109	6.30494231011558	-0.782573028723236	6.35332338852436	7.07539851629102
4341796	3.34992652706317	-5.10564526217532	6.10652284691499	56.7302357918205
3702781	1.93690877841846	-5.9234376506447	6.23207262610038	71.8927387807327
3157797	2.52168168793984	-8.91087959223854	9.26081279600578	74.1990657934728
2693047	0.441394124602723	-6.75118480158237	6.76559864301383	86.2593117189611
2296687	-0.662074745307336	-7.24627056671979	7.27645381312101	95.2204862263661
1958656	-0.069255541082178	-10.2059848772808	10.2062198509171	90.3887904358074
1670375	-2.63468691563884	-8.16606064766284	8.58056651071164	107.881707583167
1424531	-0.991789634400719	-6.41608998845499	6.49229215445955	98.7871485010555
1214875	12.1535344558895	-0.00134594804023374	12.1535345304183	0.00634524402048811
1036062	-1.9530589005333	-8.60121698505195	8.8201685183957	102.793097517272
883578.1	0.979616529266169	-9.96515800579735	10.0131924292365	84.3856251373242
753531.2	0.0267529633425204	-10.8516685081405	10.8517014855559	89.8587471795319
642624.9	8.61821164889452	7.20239356424424	11.2315646763667	-39.8861074037772
548046.8	9.54568193353507	3.09156408435878	10.033833368355	-17.9456053717146
467390.6	0.087662254430054	-0.104269285025751	0.136223179567726	49.9452466635695
398593.7	0.0486026858072346	-0.144727211405951	0.152670189588602	71.4367789673676
339937.5	0.0387434410438519	-0.112050893368699	0.118559929692295	70.9263308676856
289906.2	0.0420654575101609	-0.111797397291562	0.119449406682104	69.3804334406431
247234.4	0.0425265911152913	-0.107679048685485	0.115772572216817	68.4490332488784
210843.7	0.0433009473072608	-0.102740087899909	0.111492141872811	67.146470997428
179812.5	0.0420404604080705	-0.0965599418814818	0.105314874008744	66.4725580387951
153343.8	0.0401329410655761	-0.087809084077278	0.0965457829481096	65.4373378945528
130781.2	0.0397508362206438	-0.0812905935716749	0.090489168321273	63.9415169788047
111531.3	0.0381428995039211	-0.074659209234769	0.0838384059135623	62.9378095132946
95109.37	0.0370464114255727	-0.0690381294828336	0.0783498559156384	61.7816379785001
81109.37	0.0374348973324806	-0.0653401335713529	0.0753040808549948	60.1905914772013
69171.88	0.0464459775789057	-0.0676462714761563	0.0820563640303789	55.5264801121404
59000	0.0449270738713529	-0.0635971109363127	0.0778654896991451	54.7613694612565
50312.5	0.0424477463564904	-0.0601265125372522	0.0736003307101081	54.7789076993655
42906.25	0.0384092789731974	-0.0568725752332638	0.0686277095997248	55.966609101626
36593.75	0.0324225802565269	-0.052955472873463	0.0620927195228475	58.5224821524574
31203.13	0.105526938858196	-0.121577611871988	0.160987734108152	49.0426719784778
26609.38	0.0701822490927087	-0.108946764944505	0.129595315037174	57.2108327903762
22703.13	0.0405826205750133	-0.0875744104789444	0.0965206012386482	65.1366496436681
19359.37	0.0214374410448512	-0.0698905858160364	0.0731044312217817	72.9477259689071
16500	0.0201859764641796	-0.0574174841678842	0.0608624772251479	70.6301116876029
14112.02	0.00291957646228156	-0.0427795646907835	0.0428790751049045	86.0957895642307
12011.13	-0.00133255733775106	-0.0328995625989128	0.0329265383582631	92.3194290222803
10236.38	-0.00351396817229334	-0.0246904266242754	0.024939228921613	98.1000002173551
8750.684	-0.00413016744126805	-0.0181476207589427	0.0186116743551814	102.821401632351
7449.463	-0.00403898130621508	-0.0134379818328638	0.0140318468396834	106.728916499364
6363.206	-0.00354566100944	-0.0101568752552411	0.0107579657437823	109.243570966414
5414.761	-0.00278088059517524	-0.0082846879388704	0.00873895595189075	108.555104879784
4620.567	0.0324002570662173	-0.00610193569559924	0.0329698389014898	10.6655807084705
3941.215	0.028848464355952	-0.00593917569573569	0.0294534837267419	11.6332262103552
3361.769	0.0358914909206155	-0.00600314365435101	0.0363900653233736	9.49529149360401
2867.244	0.0433831868037652	-0.00684712772481316	0.0439202009937374	8.96895527426298
2442.658	0.0501191939354057	-0.00750407642414369	0.0506778527930515	8.515333128702
2083.003	0.0555147341839742	-0.0080298088914736	0.0560924553068494	8.23034392140393
1777.843	0.0594089901607834	-0.00843358846175091	0.0600046125415891	8.07961591423887
1513.548	0.0616206896616912	-0.00884461302465781	0.0622522013581721	8.16805767949526
1292.065	0.0650098573127677	-0.009480650783083	0.0656975211640226	8.29718517778389
1101.762	0.068528839162661	-0.00956812738910926	0.0691935752705126	7.9483627425303
939.101	0.070656850352863	-0.00991737363759065	0.0713494555105675	7.98982196858596
801.2801	0.0740198859384573	-0.00878568877668959	0.0745394649942102	6.76897495787711
684.3433	0.0751143407932347	-0.00934273799304862	0.075693136716673	7.09004904711252
582.9476	0.0774608209694367	-0.00840911375143922	0.0779159289192124	6.19574214300462
497.0677	0.0811643728019842	-0.00706507613221212	0.0814712876607055	4.97485846299688
423.5089	0.0870196943148529	-0.00431668233268347	0.0871266947898963	2.83987562480624
361.5036	0.092302790877541	-0.00283834837795963	0.0923464207497926	1.7613135151934
308.1262	0.10096941081305	-0.000797748248157557	0.100972562224606	0.452678254889277
262.7298	0.111355232800345	0.00183710260711506	0.111370385731612	-0.945161492088118
224.2111	0.122499481773269	0.00294510442666402	0.122534879421345	-1.37722667356509
191.2854	0.13282232584702	0.00403570344344883	0.132883622563864	-1.74035242721633
163.1722	0.140963198457216	0.00359417436080701	0.141009011799333	-1.46056854148703
139.1537	0.146732711371955	0.00160044486406737	0.146741439308493	-0.624912462077696
118.6706	0.157279189969439	0.000511084615984803	0.157280020361543	-0.186184125218028
101.1982	0.165599855707672	-0.00300723472260508	0.165627158615604	1.04035671087572
86.24196	0.178779223351235	-0.00723102682686621	0.178925399122208	2.31616183329352
73.61024	0.181023245627827	-0.0105212798310796	0.181328742307767	3.32635460808679
62.69291	0.198677929898072	-0.0142663258699329	0.199189477338564	4.10714825973895
53.57697	0.207030142812962	-0.0179260504766618	0.207804772127224	4.94870809626931
45.65746	0.216853363588395	-0.0218588258843906	0.217952264426513	5.75597411692991
38.96512	0.226015060696341	-0.0257562686863611	0.22747789571344	6.50127761683608
33.18414	0.230478140103692	-0.0287686185415775	0.232266671045262	7.11494406331095
28.30617	0.20342257146615	-0.0271873118118441	0.205231314631698	7.6124375872451
24.17237	0.206394374045051	-0.0285808511994956	0.208363870891131	7.88400239340325
20.61345	0.210202946234169	-0.0308879193648184	0.21246021314169	8.3594083943351
17.55618	0.238273918950572	-0.0383252512705017	0.241336456709323	9.13749653927866
14.98558	0.264758854001883	-0.0456295093163633	0.268662060761922	9.77850453173717
12.76553	0.279238378614052	-0.0505466494394411	0.283776383549721	10.2603563078642
10.8809	0.282891564112308	-0.0518722621901479	0.287608012111331	10.3905838851195
9.278505	0.270085673436675	-0.0499847698518701	0.274672073958906	10.4850990030043
7.923394	0.272917482996081	-0.0521193960355847	0.277849570753727	10.811667757495
6.75822	0.261813767749918	-0.0473086968910723	0.266053682148809	10.2425946162152
5.761429	0.241251645492362	-0.0438950148958423	0.245212415643006	10.3119912643614
4.919708	0.264306821651921	-0.0494055743850194	0.268884746224203	10.5878303356713
4.191257	0.263732824369672	-0.0510450464747381	0.268627249957283	10.9540592287409
3.564097	0.275127867990513	-0.0532485685890276	0.280233391660925	10.9536638878623
3.051758	0.285408258473598	-0.0561674998041656	0.290882557124319	11.1333663707271
2.604164	0.273874802786937	-0.0544437064104474	0.279233817381224	11.243282594145
2.214424	0.297280537721616	-0.0615168027513206	0.303578713233979	11.6913069420476
1.892567	0.307332795103183	-0.0634601923595843	0.313816256685741	11.6668588329293
1.607507	0.288830770017554	-0.0574747899489003	0.294493743887037	11.254346409169
1.376413	0.242108525370104	-0.129227396258088	0.274438076805189	28.0914331459101
1.17375	0.321627145126506	-0.207585915152847	0.382800121018883	32.8391734307483
1.001604	0.315681539557128	-0.192532642328178	0.36976161615158	31.3788128729409
