EC-Lab ASCII FILE
freq/Hz	Re(Z)/Ohm	-Im(Z)/Ohm	|Z|/Ohm	Phase(Z)/deg
6999984	2.67364982720583	0.964238859631192	2.84221040335522	-19.8315933572128
5969734	4.1628550441349	0.639133489965959	4.21163314362439	-8.72860520878355
5091109	7.17626051388044	-2.33994125110205	7.54811499791098	18.0594348968732
4341796	2.93801601664269	-5.5568524863628	6.2857416164877	62.133720543608
3702781	2.80652283830346	-5.37442324714007	6.06308466717384	62.4264446811403
3157797	1.67903194130457	-6.42513588976836	6.64089748918853	75.3548362578107
2693047	1.42106547814678	-7.57064057091607	7.70285828424624	79.3688639789383
2296687	6.57006362145073	-4.14604827222648	7.76887715603371	32.254034552893
1958656	-0.870597178914321	-8.29116095861908	8.33674333835839	95.9942657286903
1670375	6.41962948744956	-11.6263584468509	13.2809583046854	61.0942032159021
1424531	8.65667304537586	1.85626144457592	8.85345665630979	-12.1027307459972
1214875	3.67187474434771	-7.84182440083026	8.65891875880791	64.9090135116627
1036062	13.3937777012632	-5.75981388439178	14.5797372093494	23.2694719082907
883578.1	4.38337871190589	-6.0619675135591	7.48073920594988	54.1294944160524
753531.2	13.5622786976192	-15.2038421538876	20.3738121055493	48.2660907125355
642624.9	7.847170291955	-6.42902339852818	10.1444774853003	39.3270495647563
548046.8	5.73539128407606	0.195701319609005	5.73872914397886	-1.95427137664858
467390.6	0.13218034628616	-0.0393369562651793	0.137909535828882	16.5730391368551
398593.7	0.0337447948523899	-0.119241425035854	0.123924285853141	74.1987220187958
339937.5	0.0397270146516061	-0.115046729054571	0.121712717327668	70.9495929541679
289906.2	0.0429337571780481	-0.1137594602102	0.121591620980804	69.3230803653505
247234.4	0.0444454956508727	-0.10938558232333	0.118070350655301	67.8871335391936
210843.7	0.0434122301032459	-0.105011204820211	0.113630871070891	67.5395200448878
179812.5	0.0419001254461447	-0.0981958438551705	0.106761623549062	66.8920777363899
153343.8	0.0417057003519907	-0.0921750620276652	0.101171179204623	65.6550618567025
130781.2	0.0406310290789	-0.0835873521967378	0.0929393671770575	64.0760474691015
111531.3	0.039042832310242	-0.0770655580317108	0.0863912205582527	63.132385980521
95109.37	0.0387550735135965	-0.0719223623093125	0.0816993385725753	61.6821725052654
81109.37	0.0362476326156261	-0.0651081282119202	0.0745181805299703	60.8940117622834
69171.88	0.0444035372071344	-0.0669488031544923	0.080335648129111	56.4458252718955
59000	0.0437559188698125	-0.0636510290003393	0.0772401057025665	55.4940220530462
50312.5	0.039380407161008	-0.0592096094605883	0.0711097343592434	56.3720569557724
42906.25	0.397975876867327	-0.273270353266417	0.482764419300626	34.4754606795506
36593.75	0.244200914549436	-0.2264684129452	0.333049588993439	42.8423977393137
31203.13	0.140999899040419	-0.161637710639881	0.21449410488475	48.9011399439246
26609.38	0.0813952212965622	-0.119466589801434	0.144559496847148	55.7325329240033
22703.13	0.046320591363533	-0.0920983784221657	0.103090777920529	63.3000334313763
19359.37	0.0247065333241153	-0.0725803350509777	0.0766701886329218	71.2012933135689
16500	0.0252045851171892	-0.0575061711594127	0.0627871868484749	66.3324698578857
14112.02	0.00416755665626444	-0.0445073145265662	0.0447020086220951	84.6505608217927
12011.13	-0.000511439774341598	-0.0337855423478283	0.0337894131700992	90.8672674905212
10236.38	-0.00286323471022023	-0.0252181139028415	0.0253801375453817	96.4775556288832
8750.684	-0.00385230557875809	-0.0185476979714187	0.0189435307773156	101.733354779398
7449.463	-0.00384953690964679	-0.0134449215777245	0.0139851653779959	105.97742505527
6363.206	-0.00338343841039924	-0.0101579290845756	0.0107065951060191	108.422064079755
5414.761	-0.00266664917219958	-0.00830715043402896	0.00872466424231788	107.796967125267
4620.567	0.032163806962268	-0.00628750613009336	0.0327725984877916	11.0609158575328
3941.215	0.0288483431442761	-0.0059930580361145	0.0294642774694059	11.7359002472426
3361.769	0.0349683208277493	-0.00624079765583287	0.0355208532680939	10.1190419972732
2867.244	0.0430129454935266	-0.00677529187113539	0.0435432894941133	8.951537357291
2442.658	0.049888691196707	-0.00752206907755717	0.0504525820204272	8.57430194497687
2083.003	0.0551897171209027	-0.00809391789613857	0.0557800715560199	8.34330828029193
1777.843	0.0592180090136443	-0.00886551499300171	0.0598779587797647	8.51450233989906
1513.548	0.0624014488625052	-0.00930342860013328	0.0630911610596732	8.47976390878028
1292.065	0.0652685952020834	-0.00969593973834549	0.0659848525577124	8.44974664989338
1101.762	0.067950171934182	-0.00952547841314301	0.0686145801188359	7.9799097987302
939.101	0.0696008217873322	-0.00990496299466685	0.0703020816576416	8.09943452437244
801.2801	0.0718360260271886	-0.0107334700548253	0.0726334772318987	8.49805272160086
684.3433	0.073506663500051	-0.00973500556589864	0.074148499056136	7.54418112511116
582.9476	0.0757544593577598	-0.00885741479920966	0.076270517957542	6.66889641980161
497.0677	0.0808351320947349	-0.00690404644073334	0.081129430159647	4.88172703818734
423.5089	0.0873596745613738	-0.00464970511006265	0.0874833269662264	3.04668416800091
361.5036	0.0934061747929346	-0.0036676832767863	0.0934781546141508	2.24861870361453
308.1262	0.0978325029385345	-0.00141982049300374	0.0978428051593509	0.831462028348972
262.7298	0.10496522009223	0.000252507024810772	0.104965523810477	-0.137831930408041
224.2111	0.112549731191843	0.001216041364391	0.112556300347675	-0.619027039606112
191.2854	0.126657669714735	0.00259261133839379	0.126684201584565	-1.17264865506686
163.1722	0.14331159610004	0.00333986926022128	0.143350508556532	-1.33503348857386
139.1537	0.15494378254969	0.00263633617909949	0.154966209282071	-0.974781691222997
118.6706	0.16241632104836	-0.000659576468049846	0.162417660320549	0.232678217898407
101.1982	0.171652953268289	-0.00451713020334922	0.171712378211355	1.50741815447928
86.24196	0.180010998571442	-0.0073314729976554	0.180160234521948	2.33224876930741
73.61024	0.188253907478245	-0.0108578827411636	0.188566771458941	3.30098002621383
62.69291	0.19529558984605	-0.0149032201442956	0.195863404912673	4.36384595702906
53.57697	0.20586928669909	-0.0182816991249962	0.206679422606338	5.07469463992504
45.65746	0.215009203745266	-0.022226552972572	0.216154984564816	5.9019809518631
38.96512	0.220293430072498	-0.0249033567515328	0.22169657757981	6.44969422654046
33.18414	0.227002050591617	-0.0291172575796733	0.228861848418998	7.30934291362089
28.30617	0.225789331442976	-0.0308545401583486	0.22788774614237	7.78137992271737
24.17237	0.234854245854224	-0.0352544210389658	0.237485559557943	8.53703676998156
20.61345	0.248021830631112	-0.038508913322669	0.250993555444957	8.82551529025198
17.55618	0.258060153072166	-0.0419835915151517	0.261452987284791	9.24044559590777
14.98558	0.255769440540773	-0.0439367986982194	0.259515797196217	9.7472955206364
12.76553	0.260901278081893	-0.0470348412496024	0.265107059876082	10.2194184734021
10.8809	0.264582709364768	-0.0489635721919115	0.269075159568091	10.4845203156312
9.278505	0.267314478190897	-0.0506607393047713	0.272072675506706	10.7312760492602
7.923394	0.251867932376314	-0.0454617965502565	0.255937942292846	10.2316396631723
6.75822	0.23538827501746	-0.0427052513042513	0.239230805927361	10.2830225182396
5.761429	0.249490342275365	-0.0459673861533469	0.253689636127394	10.4393941596867
4.919708	0.271331659001316	-0.0522965921017316	0.276325537585402	10.9094372756561
4.191257	0.281318264539675	-0.0547169430818712	0.286590142579676	11.0067140501135
3.564097	0.284450401360952	-0.056246884972305	0.289958174403644	11.1853049948557
3.051758	0.30467236752864	-0.0633031036581818	0.31117926420034	11.7375904727382
2.604164	0.312959667551987	-0.0654412214114981	0.319728489462667	11.8106196733056
2.214424	0.317104488414787	-0.0670632249900749	0.324118393058575	11.941311346375
1.892567	0.322542120377952	-0.0694450776900671	0.329933384538886	12.1506070993583
1.607507	0.289211472442022	-0.0607813681582178	0.295529441016064	11.8686889458421
1.376413	0.299128508696863	-0.0626118850652708	0.30561104833863	11.8221475841436
1.17375	0.238226702806738	-0.138356618372055	0.275489592866083	30.1470395570789
1.001604	0.32344279460966	-0.203696341092317	0.382240030294191	32.2017177766196
