EC-Lab ASCII FILE
freq/Hz	Re(Z)/Ohm	-Im(Z)/Ohm	|Z|/Ohm	Phase(Z)/deg
6999984	2.79385698374518	1.03313944130396	2.9787604722098	-20.2938728950582
5969734	4.741396042844	0.801581788135304	4.80867651211504	-9.59570807677864
5091109	5.61633191522122	-2.37489594416825	6.09781230668502	22.9213312928133
4341796	3.31507861284995	-5.24699081544603	6.20650133543449	57.7150700275591
3702781	3.11804985299166	-5.56775019543228	6.38138520420743	60.7503139472646
3157797	2.30057075658593	-5.64758913965026	6.09818734513412	67.836254886986
2693047	1.38298331059696	-6.5570341820954	6.70129391256324	78.0899648844267
2296687	2.44166208947718	-7.85073801766327	8.2216665695693	72.7237567667905
1958656	-1.26443186432345	-10.4734690018235	10.5495185137367	96.8838400014104
1670375	0.314378793395247	-9.67326447927438	9.67837174899415	88.1385559912106
1424531	-2.69309384884979	-8.59348068787995	9.00559075306435	107.400365739478
1214875	-3.10560570658742	-8.95340040338033	9.47671702585022	109.129781548301
1036062	-9.8123022212396	-6.45267207593553	11.7438601745977	146.670663834626
883578.1	5.75110770360419	5.24919273655473	7.78647957705884	-42.3875551936491
753531.2	8.84298926251416	-6.24051298888231	10.8232371063998	35.2106858518404
642624.9	4.71370748328054	-2.57984327806397	5.37351184769391	28.6921793941048
548046.8	4.20681425971432	-3.6947505307324	5.59897023568469	41.2921114555606
467390.6	0.0716725799307645	-0.102192532830362	0.124820961702017	54.9561579228672
398593.7	0.0664923772000602	-0.176817686800744	0.188906671643118	69.3912050471916
339937.5	0.0386774320815306	-0.11186469582049	0.118362383903976	70.9270757128192
289906.2	0.041705329471433	-0.109593630244461	0.117260813132438	69.1659180421461
247234.4	0.0443842529277125	-0.106924284316642	0.115770309166803	67.4566703477118
210843.7	0.0446020777194522	-0.101517735005653	0.11088370420206	66.2815912056781
179812.5	0.0447555903503816	-0.0968282664365842	0.106671345959097	65.1928568033704
153343.8	0.0446950724483423	-0.090140506413025	0.100612923611031	63.6260464168057
130781.2	0.0564175025731167	-0.0958919232877304	0.111257339301314	59.5297992520769
111531.3	0.0596754831404194	-0.0922533138648739	0.109871912730658	57.1025666854083
95109.37	0.0440064389909102	-0.0740108512507261	0.0861055908493624	59.2645197929314
81109.37	0.0500666052762128	-0.0735551942042604	0.0889777025906522	55.7581670557574
69171.88	0.0482541430664195	-0.0679994541175169	0.083380981544683	54.6395185269661
59000	0.0494070509623659	-0.0646833593909736	0.0813940640765632	52.6263453701047
50312.5	0.0464911112480051	-0.0609013004439756	0.0766184822405259	52.6424454841478
42906.25	0.399472014994117	-0.275448703730172	0.485231778792457	34.5875025763885
36593.75	0.245567360859167	-0.229812516229974	0.336328888642186	43.1018215697931
31203.13	0.142728073356382	-0.162196363813114	0.216053149382787	48.653163810192
26609.38	0.0827526109795314	-0.120314599225116	0.146026016211598	55.4797324856357
22703.13	0.0471425562071084	-0.092355189441483	0.103691376799195	62.9580349234627
19359.37	0.0252158526883573	-0.0719321155791775	0.076223805195602	70.6818497765033
16500	0.00904592795149915	-0.061750346760013	0.0624094074437945	81.6659090753972
14112.02	0.00468252370252533	-0.0440463022624117	0.0442945004624326	83.9317279720216
12011.13	-0.000197729075729326	-0.0337206393769162	0.0337212190879189	90.3359637270964
10236.38	-0.00271433783102694	-0.0251420220287798	0.025288117793869	96.1617985879866
8750.684	-0.00373013533007931	-0.0184116729881147	0.0187857289398622	101.452891938681
7449.463	-0.00371765747761207	-0.0132840517147415	0.0137944556645332	105.634738998003
6363.206	-0.00331789278697335	-0.0100497926505271	0.0105833239043524	108.270402151384
5414.761	-0.00258957915480305	-0.0082051970128741	0.00860413727337427	107.515816735197
4620.567	0.0324931661681717	-0.00613827343462604	0.0330678733575453	10.6976606154199
3941.215	0.0289965088473286	-0.00587178560868584	0.0295850535163886	11.4475821551548
3361.769	0.0356707656817296	-0.00599078165586633	0.0361703329977638	9.53365674756597
2867.244	0.0434409218321357	-0.00669867132285897	0.0439543614117805	8.76607091900715
2442.658	0.0500917717772278	-0.00723830280135752	0.0506120403385006	8.22237407847366
2083.003	0.0553690967584387	-0.00784648604811625	0.0559223052023844	8.06581336095416
1777.843	0.0595281574171971	-0.00852377371885668	0.0601353161120557	8.1487318130655
1513.548	0.063071322231335	-0.00926222672409835	0.0637477884471101	8.35435490658205
1292.065	0.0659180646607299	-0.00958374196001593	0.0666111053696929	8.27219848833824
1101.762	0.0684876437033739	-0.00903697827897983	0.0690812877446204	7.516782283348
939.101	0.0702921306779362	-0.00987084790870422	0.070981809456232	7.99355192383226
801.2801	0.0730471084014081	-0.00860224652376162	0.0735518775495407	6.71638889144
684.3433	0.0750264630638831	-0.00929025808198358	0.0755994646482769	7.05879992896608
582.9476	0.0776005077564902	-0.00853299857795723	0.0780682449450256	6.27506814974048
497.0677	0.0807107833315168	-0.00680645878744658	0.0809972741961867	4.82043144030645
423.5089	0.0886056063292793	-0.00474241046772645	0.0887324288522726	3.0637010145163
361.5036	0.0966040788713921	-0.00134310058476531	0.0966134150818143	0.796540250735749
308.1262	0.106792848007677	0.000564349495560376	0.106794339156829	-0.302778171738175
262.7298	0.111901148626632	0.00197299144798041	0.111918540730361	-1.01010912295517
224.2111	0.116265848836228	0.00210982770003168	0.116284990340681	-1.03960842799528
191.2854	0.123186816373725	0.00246302353331484	0.123211437022784	-1.14543144092476
163.1722	0.134052158771398	0.00250375134011097	0.134075538567052	-1.07001415226728
139.1537	0.145783528164912	0.00138328067392241	0.145790090711381	-0.543640060415995
118.6706	0.15720298379521	-0.00179823060772358	0.157213268356827	0.655372617340236
101.1982	0.17225966120791	-0.00423338897155793	0.172311672447482	1.4077962637665
86.24196	0.178770934478192	-0.00689583931472796	0.178903883731071	2.20900955827934
73.61024	0.179948044386011	-0.0103342995561664	0.180244546174541	3.28684916811252
62.69291	0.191458320826403	-0.0141761998321839	0.191982429548509	4.23463939056469
53.57697	0.194650201922815	-0.0166108745483695	0.195357677765309	4.87763554657231
45.65746	0.207144208842247	-0.0208814401241341	0.208194038816048	5.75632935076289
38.96512	0.217279219984541	-0.0242176026283814	0.218624682307732	6.35984871468599
33.18414	0.229243965970253	-0.0288330670110428	0.231050084802049	7.16871042280603
28.30617	0.225845627599854	-0.0305825458543467	0.227906866103032	7.71171398440741
24.17237	0.221620268093804	-0.0324180162653155	0.223978728919841	8.32205154609257
20.61345	0.216532650941266	-0.0320092416974933	0.218885770386521	8.40892913656826
17.55618	0.203053560981936	-0.0305701078464323	0.205341861589856	8.56169114390604
14.98558	0.225222787405425	-0.0364069027937682	0.228146370862444	9.18234194590355
12.76553	0.233973596176345	-0.0397271354960317	0.237322331444834	9.63653131968171
10.8809	0.252948378538645	-0.0453691463914475	0.256984905489833	10.1685226324607
9.278505	0.24997195382687	-0.0446883930316289	0.253935090469537	10.1358984156059
7.923394	0.255846375231029	-0.0464901150049295	0.260035956190731	10.2989049083206
6.75822	0.264996584896336	-0.0506077209129516	0.269785713896648	10.8118740223013
5.761429	0.27506908164103	-0.0518767528207484	0.279918197261387	10.6802713463377
4.919708	0.259956228896115	-0.0492635841167539	0.264582957996009	10.730714550621
4.191257	0.248518183373867	-0.0466043754286401	0.252850262559762	10.6212624230172
3.564097	0.277744143897457	-0.0543222464611875	0.28300656517106	11.066427711522
3.051758	0.286096702057809	-0.056248483173703	0.29157368672035	11.1228583247644
2.604164	0.28636389381676	-0.0569391002327057	0.291969760107459	11.2457233943523
2.214424	0.283518814555547	-0.0561898657655699	0.289033249336016	11.2100395828715
1.892567	0.263439134953889	-0.0524362091484735	0.268607024954888	11.2573028713919
1.607507	0.298691993757909	-0.0603207067559935	0.304721995921885	11.4172956061042
1.376413	0.293092827856104	-0.0595714536566165	0.299085546008914	11.4889325192294
1.17375	0.243142159631946	-0.128948735522427	0.275219705296186	27.9389289695801
1.001604	0.326651117306909	-0.20982741268258	0.388237679200406	32.7150421244332
