EC-Lab ASCII FILE
freq/Hz	Re(Z)/Ohm	-Im(Z)/Ohm	|Z|/Ohm	Phase(Z)/deg
6999984	3.14189905237639	0.834787155249098	3.25090745021949	-14.8794331902279
5969734	4.21444819774752	1.82243705307044	4.59160651884516	-23.3849114448536
5091109	6.40316294201619	-1.84443761695027	6.66351602270383	16.0690998377257
4341796	3.58145390224543	-5.10100143829858	6.23273838111574	54.927000100673
3702781	2.38048354031973	-5.13107567509363	5.65638042119435	65.1117832753594
3157797	1.45038816305558	-6.54304705179782	6.70187216720611	77.5014226372684
2693047	-0.309717787476829	-7.99766739564649	8.0036622167147	92.2177290136445
2296687	-2.44801101590364	-9.1217866083819	9.44456186717208	105.022476298126
1958656	-2.18378330733071	-7.53692906276211	7.84692355197146	106.15865160587
1670375	-0.810334698684064	-10.808400842232	10.8387347550465	94.2875963443341
1424531	6.717097781611	-10.3417282463199	12.3316967903226	56.9957100566164
1214875	4.03665000519848	-7.31426009842884	8.35421714177559	61.1062353295999
1036062	11.2005782126429	-4.27242285083087	11.98776665246	20.8791836602521
883578.1	0.237266179469369	-11.1212112247448	11.1237419219124	88.7778050032381
753531.2	-1.44417759947701	-6.40008879402373	6.56100491618619	102.715805510709
642624.9	8.34645555213383	3.68088393113327	9.12207360188575	-23.7980369334547
548046.8	0.609345919414208	0.523161047184731	0.803118877127272	-40.6481240825674
467390.6	0.0514113769215229	-0.152877526726525	0.161290631640484	71.4126574441926
398593.7	0.0363907568898502	-0.132073186683527	0.136994940883808	74.5952661088058
339937.5	0.0421752333470321	-0.130087877982065	0.136753816421164	72.0370095535467
289906.2	0.0442047531507617	-0.126546199940861	0.134044772074826	70.7448178381881
247234.4	0.0470777243148473	-0.123130092401189	0.13182310791887	69.0760782598696
210843.7	0.0461897589166874	-0.117316799966826	0.126082216760485	68.5095375920443
179812.5	0.0439879384640964	-0.108724345120426	0.117285642566286	67.9726188422271
153343.8	0.0405995817140294	-0.098925811853864	0.10693288683235	67.6865410151184
130781.2	0.0400113097282328	-0.0907519542520361	0.0991807547195131	66.2079661290038
111531.3	0.0378029935436406	-0.0830656117915456	0.0912631480016129	65.5298132826869
95109.37	0.0363461700450008	-0.0753064375959538	0.0836187994432675	64.236017285502
81109.37	0.0347585385645141	-0.0689590331298562	0.0772237285641234	63.2497850327433
69171.88	0.0367266559480797	-0.0660961751757855	0.0756144935180865	60.9410515972637
59000	0.0405485237239442	-0.0648317554768423	0.0764678971490673	57.9763960779182
50312.5	0.040244397101998	-0.0618514949828709	0.0737917267023845	56.9494895512832
42906.25	0.0372676974076094	-0.05943677981195	0.0701542020443492	57.911709142848
36593.75	0.205789519887439	-0.176467542259952	0.271090612096344	40.613574727521
31203.13	0.131750361537043	-0.153020300981603	0.201924169622267	49.2715743472106
26609.38	0.0769397681304802	-0.118821785919169	0.141556860409494	57.0760387394937
22703.13	0.0440092740100541	-0.0928743514463437	0.102773835948022	64.6456821090205
19359.37	0.0234575451652414	-0.0733428828261921	0.0770028238861139	72.263958136198
16500	0.0125603531185351	-0.0590242410253297	0.0603458656336829	77.9866605939647
14112.02	0.00354773747675837	-0.0450474604538094	0.0451869465060598	85.49693407676
12011.13	-0.00083064845116715	-0.0343464759199663	0.0343565188133235	91.385393224658
10236.38	-0.0031303180089256	-0.025673591652798	0.025863723614198	96.9516209085744
8750.684	-0.00391616558282287	-0.0188650183115488	0.0192672070826874	101.727396018328
7449.463	-0.00384390302260703	-0.0137202999136513	0.0142485866024581	105.650839112046
6363.206	-0.00336396307874539	-0.0103973687404153	0.0109280155709684	107.92846093925
5414.761	-0.00265115799254284	-0.00864332435257672	0.00904077953305297	107.052293878936
4620.567	0.0325291337010524	-0.0067581597680466	0.0332237454660276	11.7366450923763
3941.215	0.0289227786393409	-0.00652181916471858	0.029648967088882	12.7071439240807
3361.769	0.035656841448621	-0.0068650464981117	0.0363116951616601	10.8978635281945
2867.244	0.043218204702456	-0.0073118878527499	0.0438323729870353	9.60267524356743
2442.658	0.0499883144347353	-0.00795309448905278	0.0506170257124791	9.03993901550174
2083.003	0.0552275501446768	-0.00849629581822775	0.0558772703128349	8.7459085341965
1777.843	0.0595542929788975	-0.00945714254530314	0.0603005087651716	9.0231513521044
1513.548	0.0632243817051298	-0.00997662967723981	0.0640066838831129	8.96717337552012
1292.065	0.0664321942325279	-0.0102711953088476	0.0672215284237186	8.78900641954624
1101.762	0.0682062248101408	-0.0107716285693728	0.069051553819505	8.97444993951828
939.101	0.0701085437703568	-0.0108300979365229	0.0709401080554203	8.78142045833871
801.2801	0.0722614778244756	-0.0112129757681289	0.0731262743680671	8.8203701292517
684.3433	0.0739496369351425	-0.00971522274977054	0.074585081322722	7.48443881581287
582.9476	0.0767297880167649	-0.00889241566150265	0.0772433519818671	6.61066671908246
497.0677	0.0812660872300005	-0.00655107137771046	0.0815297091241586	4.60879630064559
423.5089	0.0870349224406527	-0.00472083069313257	0.0871628588716756	3.10471791715412
361.5036	0.0884286340590658	-0.00373965526874914	0.0885076739219897	2.42160096450027
308.1262	0.096041667574975	-0.00186637538951843	0.0960598004769768	1.11328736270233
262.7298	0.104839955947132	0.000126257876425507	0.104840031972754	-0.0690007916055894
224.2111	0.119147065403277	0.00241999274605289	0.119171639071986	-1.16357300359199
191.2854	0.136852217084314	0.00451853043865111	0.136926792258554	-1.89108158029699
163.1722	0.145293695255618	0.00315523752333057	0.145327951216761	-1.24405523915842
139.1537	0.149359996771296	0.00178903147024782	0.149370710881093	-0.686255042497787
118.6706	0.158745993838069	3.44426267109229E-05	0.158745997574524	-0.012431287664037
101.1982	0.16834111841012	-0.00439171273528668	0.168398394553866	1.49440341816289
86.24196	0.17943262442044	-0.00799151701299184	0.179610498163597	2.55013717034433
73.61024	0.188274838317287	-0.0110111114808945	0.18859655171674	3.34708765886139
62.69291	0.200051166653682	-0.0158042683565	0.200674473159352	4.51704971482688
53.57697	0.210578458766017	-0.0191157386186837	0.211444315977538	5.18693821790676
45.65746	0.229583511867691	-0.0243362121518583	0.23086974713765	6.05084684619399
38.96512	0.24943827014465	-0.0312157594639388	0.251383918045021	7.13315266204021
33.18414	0.251363360610779	-0.0332882358176935	0.253557973058231	7.54382589127818
28.30617	0.23985620373401	-0.0345437798653886	0.242330912590778	8.19531328180963
24.17237	0.243426771386016	-0.0375607132597694	0.246307531772786	8.77155412510655
20.61345	0.252819989398185	-0.0413370746246762	0.256177088705888	9.2859212561073
17.55618	0.26071784565033	-0.0452415641090529	0.26461404755527	9.84433165281975
14.98558	0.285503916798467	-0.0524270609529845	0.290277596840393	10.4052974412985
12.76553	0.295238549899518	-0.0560089602557859	0.300504251177424	10.7417898248009
10.8809	0.262931434553357	-0.050194933915594	0.267679791293772	10.8080065571841
9.278505	0.26829517007923	-0.051099753426666	0.273118075359558	10.7834553156628
7.923394	0.279475851967092	-0.0551799694992776	0.284871165383008	11.1688782948693
6.75822	0.269251818010456	-0.0526147135926383	0.274344399593596	11.0568822346551
5.761429	0.28439071464755	-0.0573627200867926	0.290118183217633	11.4037738021391
4.919708	0.303406574335447	-0.0628474405888683	0.309847301325254	11.7027088021707
4.191257	0.298556013709861	-0.0618358797278205	0.304892389777174	11.7014540245993
3.564097	0.303488439892418	-0.0640755397738101	0.310178832201101	11.9217792151389
3.051758	0.337955956985591	-0.0733048402065277	0.345814731409394	12.2382467237015
2.604164	0.329867351133809	-0.0734834815726221	0.337953090543746	12.5585358607576
2.214424	0.303811625002245	-0.063983844307751	0.310476143719454	11.8929021422644
1.892567	0.29770295600214	-0.0627205924038774	0.304238266370136	11.8971878665719
1.607507	0.293784256609753	-0.0608379802041659	0.300017414939646	11.6996606667006
1.376413	0.23777784238581	-0.130810826484457	0.27138491972694	28.8169008469489
1.17375	0.324290837065459	-0.210627753342147	0.386689277692796	33.003830041913
1.001604	0.327606137815605	-0.211842603775794	0.390132119042979	32.8882472659013
