EC-Lab ASCII FILE
freq/Hz	Re(Z)/Ohm	-Im(Z)/Ohm	|Z|/Ohm	Phase(Z)/deg
6999984	2.44546887474142	0.498206937886628	2.49570193939249	-11.5150880425771
5969734	9.15274860536965	1.25955058575235	9.23900831860028	-7.83551297520133
5091109	12.6817889550037	3.85267378521633	13.2540886670697	-16.8985593785807
4341796	-32.4753553659805	8.71258037071842	33.623767826687	-164.982165783889
3702781	38.9220630390994	18.8082399653287	43.2281954494173	-25.7911451083307
3157797	3.21799795364882	-8.06552529614006	8.68379002120406	68.2488990910392
2693047	26.3258324310556	5.38053591424972	26.8700506123928	-11.5511614653586
2296687	24.470235890388	-8.98277315897798	26.0668881563736	20.1576693679997
1958656	6.69029226119963	-8.99611491380929	11.2111593549788	53.3623039283722
1670375	-0.946410794244383	-18.4591587440101	18.4834043111118	92.9350148773688
1424531	9.51776712972651	-0.210995957977223	9.52010558922458	1.26996152586526
1214875	22.9612649817764	-33.0687695738669	40.2587035396429	55.2258606161911
1036062	6.83995475554413	-26.8838249330651	27.7403140589573	75.7253107681423
883578.1	18.7073005741615	-8.12458983226678	20.3953929776947	23.4753299145032
753531.2	-13.3578360793146	40.7858690168266	42.9175825994379	-108.134210083481
642624.9	25.0768570525446	-38.6803597492649	46.0979282611085	57.0442625001758
548046.8	18.3678614638412	-3.63786264671452	18.7246463088418	11.2027859371852
467390.6	8.54122490682842	0.775840329229368	8.57638916593019	-5.19020636917018
398593.7	-2.06624056465471	-24.3836910718093	24.4710796728803	94.8435945887291
339937.5	6.84661395250733	3.15378823604873	7.5380702339861	-24.7324394240659
289906.2	23.9109783478687	-37.9129329210931	44.8232681565228	57.7611358342876
247234.4	56.8361827486331	1.73072808992269	56.8625279877466	-1.74418436895017
210843.7	19.8463095935436	-2.79006611724132	20.0414688439086	8.00240412176704
179812.5	81.5337086480359	-45.3378802322716	93.2913127244901	29.076817421132
153343.8	95.1879442154828	-59.0472832914573	112.01484896241	31.8122840928471
130781.2	-17.59462282334	-163.600211351515	164.543610956354	96.1383646141657
111531.3	-21.5307991844787	-192.092550985845	193.295430514463	96.3953361852819
95109.37	-25.1535877250648	-223.081984869908	224.49560117949	96.4332086955401
81109.37	-29.0247252385431	-259.382679654395	261.0015501484	96.3847937618515
69171.88	-33.4431626448448	-300.998193848686	302.850388521892	96.3399884622723
59000	-39.1818269873539	-348.701267919236	350.895696489071	96.4111498204275
50312.5	-45.329714245336	-406.432619704931	408.952634609165	96.3639380981087
42906.25	-53.8244721817259	-469.00313174348	472.081572814311	96.5468262263145
36593.75	8.95015407225443	-523.49289767136	523.569402438945	89.0205099252555
31203.13	-56.2006238764242	-623.226228911423	625.755097883551	95.1528199107612
26609.38	-87.3836153320981	-690.391254016301	695.899403542429	97.2136345082878
22703.13	13.7574927371587	-812.564998591477	812.681453918065	89.0300210246547
19359.37	-50.0430192759701	-976.554747383244	977.836120428678	92.9335251871015
16500	-119.698172981633	-1136.03342714738	1142.32202124067	96.014777617756
14112.02	-96.5901586159575	-1236.86311314132	1240.62888060495	94.4653278523837
12011.13	-254.435859396809	-1504.36027989179	1525.7252237094	99.5997172461101
10236.38	-280.561678532341	-1597.53569712121	1621.98494414635	99.9607952486015
8750.684	-212.556770385452	-1947.11034339017	1958.67788826383	96.2300378613867
7449.463	-486.383475038498	-2414.13514407683	2462.64438737253	101.391069792587
6363.206	-170.77214333992	-1669.38767119897	1678.09961614084	95.8408276311543
5414.761	-392.813059623814	-3088.81640837075	3113.69377178158	97.2475536097595
4620.567	-658.341447530045	-3713.7281647893	3771.62966679992	100.052525791602
3941.215	2436.26130006879	883.207601214626	2591.4136661398	-19.926887697699
3361.769	-609.048005057943	-3210.49241179246	3267.75167334393	100.741679427585
2867.244	-1557.08560723642	-5660.70219161822	5870.95093579006	105.379944666508
2442.658	-1550.25009890227	-6629.34542360109	6808.19330766741	103.161910449997
2083.003	-1630.91732267231	-7728.62774922595	7898.83397720815	101.915899132926
1777.843	-1933.49688277006	-8765.71265873017	8976.42070154379	102.438837712542
1513.548	-2057.50362541146	-10159.1837738206	10365.4395043742	101.449053121454
1292.065	-2339.02548631581	-11745.3777682726	11976.0151613576	101.262784542257
1101.762	-1607.58876122966	-13741.5986075539	13835.3125702443	96.6725331665662
939.101	-397.218463802741	-17238.3270156269	17242.9029112177	91.3200187402336
801.2801	-3493.80448068647	-17856.2573667564	18194.8508347034	101.070786385108
684.3433	12176.875896343	-263.016721959822	12179.7161046951	1.23737856197177
582.9476	-3789.37235842335	-23914.6241301431	24212.9839168329	99.0038984349535
497.0677	-4345.10970476254	-28346.1208746774	28677.2130268658	98.7148985230895
423.5089	-17431.8732713241	-45383.293343475	48615.9800934569	111.011947905305
361.5036	-18335.295621554	-51776.5421922603	54927.1643808115	109.500256058632
308.1262	-19756.3372090408	-60115.6296546984	63278.7625408255	108.192537187026
262.7298	-21653.9179375883	-75322.2724549666	78373.0622715995	106.039075314026
224.2111	-32665.7772127141	-79980.4313202303	86393.995133231	112.216190599111
191.2854	-25552.8159518007	-92738.1345890019	96194.1162967592	105.404868330596
163.1722	-27164.0526952874	-106365.890933408	109779.727240005	104.326160689703
139.1537	64405.6590479875	-156082.351087827	168848.420894332	67.5770487804688
118.6706	-196361.467206644	-201694.336909145	281493.217226927	134.23243765169
101.1982	-35435.977166773	-169931.589333446	173587.02005379	101.779134107229
86.24196	-45070.7496506231	-194773.284222648	199919.995800685	103.028984241527
73.61024	-42097.2851713204	-222642.936013665	226587.860168149	100.707072776759
62.69291	30728.5867837912	-433956.320028658	435042.910226732	85.9496280306929
53.57697	-391337.282306801	-1145051.93960267	1210078.0193488	108.8685700895
45.65746	-228213.431064612	-439451.162095532	495175.417388016	117.443513747208
38.96512	252997.451068506	-579896.428336183	632682.841433386	66.4292997252628
33.18414	-256029.442290023	-586333.523422773	639795.339158316	113.589054772024
28.30617	274919.45107099	-957786.875492386	996461.942796935	73.9846076907554
24.17237	-330613.927171751	-754623.7676797	823870.499281916	113.659070214589
20.61345	-387271.498766955	-1016115.09072421	1087413.94664345	110.863322653248
17.55618	-260569.338046468	-1177237.93361688	1205730.29002199	102.480606335807
14.98558	645639.833108963	-798853.379173159	1027140.45559181	51.0545731690341
12.76553	-649631.127923707	-2265421.88826523	2356725.89288585	106.000744437532
10.8809	958786.121418271	-1311429.37787025	1624536.19219931	53.8294593370542
9.278505	-582734.749605248	-2161670.86022456	2238839.14034516	105.086934050078
7.923394	-746893.29527429	-2062160.68013155	2193252.43991801	109.909863586371
6.75822	1591443.30290905	-2999940.38953614	3395929.05213644	62.0544231847619
5.761429	2718587.34616947	-1069592.70487784	2921428.71093591	21.4765093504098
4.919708	1809467.22037618	-3183875.12668788	3662134.95709234	60.3894651278912
4.191257	-1540781.57194523	-3830118.63289469	4128415.7487459	111.91395536218
3.564097	-5118334.81433711	-6711714.88753485	8440643.81449734	127.329041065497
3.051758	-1776118.8973033	-4976106.15207963	5283581.24515206	109.642979845399
2.604164	-2130088.72503599	-5612194.34818001	6002832.94605715	110.784082590182
2.214424	-4106366.30042413	-6017940.06217856	7285454.4666227	124.307834611773
1.892567	-3488546.91024777	-7374420.51647973	8157943.21498235	115.31698089058
1.607507	-3533885.20769231	-8832630.58227927	9513343.66372631	111.806067409357
1.376413	-5517255.408983	-9335540.6047121	10844004.1327076	120.582864098289
1.17375	-6967811.69263211	-10959204.0663208	12986706.80162	122.448013608778
1.001604	-8899833.05136947	-12308846.1445607	15189296.2889238	125.868571645709
