EC-Lab ASCII FILE
freq/Hz	Re(Z)/Ohm	-Im(Z)/Ohm	|Z|/Ohm	Phase(Z)/deg
6999984	25.883399880039	90.5296352837708	94.1571306591411	-74.044195301449
5969734	23.9976009157246	84.0018849836301	87.3624720947926	-74.0564565982648
5091109	22.7090518638009	84.8256589621758	87.8128319490959	-75.0125512709996
4341796	21.7968211156049	89.0259118494565	91.6554111407116	-76.2425197698069
3702781	22.0345025261848	98.1295611217319	100.573008643076	-77.3444322014025
3157797	22.140524018758	106.861527123596	109.131062411269	-78.294568113068
2693047	21.612363184582	120.012660592404	121.943154563468	-79.7913630570677
2296687	21.460318467468	137.325704020122	138.992425165356	-81.1180468316932
1958656	22.9683047638894	157.21747384202	158.886365384174	-81.6883117251869
1670375	23.6993981719757	180.850958714678	182.397178546523	-82.5342839096975
1424531	25.6099966224764	209.361951145233	210.922494092835	-83.0259962894788
1214875	28.2236732066478	241.554754807983	243.198016644093	-83.335679977747
1036062	30.1699184118638	279.559762748409	281.18300966617	-83.8405130910368
883578.1	30.8321150884657	323.879204986119	325.343447364887	-84.562038842445
753531.2	34.9324348790516	376.843425762081	378.45903681466	-84.7039604882989
642624.9	38.0562225063882	438.484923613793	440.133280164145	-85.0397137562456
548046.8	41.9813791234988	510.64909107928	512.371867312409	-85.3001803699121
467390.6	155.307977033712	710.896570898837	727.663728823987	-77.6763466521218
398593.7	177.420145436502	806.120902981526	825.414331248531	-77.587595489656
339937.5	203.563128147408	916.530142167441	938.863913803608	-77.4777594803295
289906.2	225.215012689169	1041.90705861759	1065.9700374484	-77.8027984375072
247234.4	246.154825807962	1189.87218377328	1215.06708126998	-78.3118141427014
210843.7	268.026046265927	1361.67247339369	1387.80037695449	-78.8644892318846
179812.5	289.768819548909	1563.72531075841	1590.34675976318	-79.5017901874086
153343.8	311.065137772088	1800.91737362683	1827.5844458104	-80.2002257396731
130781.2	331.826635166396	2080.18210227237	2106.48201853711	-80.9366483937547
111531.3	358.162392248492	2407.86243849933	2434.35449800498	-81.5394572900119
95109.37	382.434530495036	2788.81928688732	2814.91903702924	-82.1916551482093
81109.37	414.086679052676	3238.25125558439	3264.61926908219	-82.7129321502193
69171.88	442.18389851635	3757.76708608047	3783.69397194551	-83.2887547343258
59000	477.882025213192	4359.99449226459	4386.10569897711	-83.7450010265885
50312.5	1423.84049129349	5722.96849109474	5897.43080457161	-76.0288065122231
42906.25	1796.02286551041	6771.38446721825	7005.52251700905	-75.1450764090133
36593.75	1925.83746894401	7528.92480371873	7771.32927219275	-75.6518575788066
31203.13	2045.58926337037	8572.82414114467	8813.49812443441	-76.5794189533438
26609.38	2172.55727743675	9820.76964989211	10058.206681113	-77.5258879351205
22703.13	2311.90880214358	11425.0513279116	11656.617011588	-78.5604205300087
19359.37	2458.79938279298	13032.9654547347	13262.8761190449	-79.3161518617862
16500	2613.72172721152	15091.606250811	15316.2697970758	-80.1743853431127
14112.02	2781.44200751509	17429.2496038249	17649.792106243	-80.9329241680864
12011.13	3013.42097388304	20264.6841424821	20487.5115463153	-81.5419210085309
10236.38	3271.8788177954	23570.1023454179	23796.1113539967	-82.0970025204537
8750.684	3551.682235936	27303.690826029	27533.7244016941	-82.5885430128964
7449.463	4131.84452042276	31821.6717980363	32088.7976584179	-82.601892929523
6363.206	4229.42334922098	36954.2817331364	37195.5233903081	-83.4708980173979
5414.761	14798.5919472997	49565.4461724931	51727.4760441779	-73.3761265123265
4620.567	16092.1605650809	56108.0374949715	58370.1079593782	-73.9967543960122
3941.215	18593.8965361906	64365.1476394521	66997.0538087088	-73.8869756824651
3361.769	16136.1292263824	72757.4264633734	74525.2827702365	-77.49534928464
2867.244	17260.2099554195	87693.4070530511	89375.8831468382	-78.8651194854592
2442.658	27298.1457482607	92652.8454966359	96590.5716926697	-73.5835372341638
2083.003	14262.6816225975	110111.427318641	111031.304203886	-82.6195973253925
1777.843	19953.6016204371	137813.950244474	139250.964447696	-81.7615930271841
1513.548	25986.8885616525	132725.487952254	135245.604473046	-78.9219568987362
1292.065	43749.144983269	187748.821105601	192778.649007897	-76.8830292889837
1101.762	54568.9965024727	212441.441330765	219337.961543322	-75.5941034330574
939.101	57703.7800193965	218767.966545984	226250.19207769	-75.2238008100643
801.2801	42853.7759689896	242704.573708235	246458.832695638	-79.9866270736483
684.3433	166700.13687315	349400.25419503	387129.788656309	-64.4940201806494
582.9476	165823.171218032	457618.417782914	486736.006893822	-70.0814473029857
497.0677	135071.319228996	438522.451678511	458853.137620735	-72.8804034279793
423.5089	166617.608952989	512306.288041098	538719.927587294	-71.9838963659381
361.5036	231568.046153995	569685.80365243	614951.766305857	-67.8790548342823
308.1262	292758.656896699	698216.873675435	757109.261515838	-67.2519525275116
262.7298	237564.818128696	793772.751381064	828560.331929778	-73.3383112978478
224.2111	283872.067513885	837415.234681401	884221.480168353	-71.2740589535505
191.2854	400613.845090078	1110276.76234992	1180341.45139958	-70.1593695631235
163.1722	353926.633079822	1170514.16813972	1222852.19033988	-73.1763361291643
139.1537	537116.11616643	1274920.36401217	1383443.40571584	-67.1546069981189
118.6706	498325.800487051	1530433.46958563	1609520.17951282	-71.9641866177855
101.1982	709517.745107277	1635575.26090279	1782840.95328196	-66.5486468339885
86.24196	889318.5145448	1813454.59270861	2019778.44827796	-63.8766581563959
73.61024	1123852.00316278	2027923.40464784	2318516.04698597	-61.0052801660978
62.69291	1491099.6254972	1872924.47853185	2393997.53455213	-51.4754966132269
53.57697	1758189.80968994	2378428.27340119	2957727.58357015	-53.5273215029479
45.65746	2557352.00118117	2522895.89351676	3592360.3587988	-44.6114049317802
38.96512	2586627.54107086	3147206.48480918	4073763.70132722	-50.5838826107561
33.18414	3113784.32574367	3482984.0905013	4671919.41303915	-48.2033174565009
28.30617	4307235.16211124	3288190.40226254	5418899.41438839	-37.3585098201356
24.17237	4600285.7389484	3401535.08776762	5721282.18437846	-36.4798962300363
20.61345	5164472.1731936	2138127.89229588	5589576.34454568	-22.4898998026577
17.55618	6190294.37525143	3296736.88890008	7013431.29765338	-28.0382225554763
14.98558	3742446.04510952	3631184.53392885	5214537.70913587	-44.1355233758783
12.76553	5307300.13447069	907388.775168831	5384309.5292391	-9.70204904355491
10.8809	5605026.73594472	492102.280325023	5626587.71947583	-5.01750886830862
9.278505	6681089.58879813	326185.99841311	6689047.42090438	-2.79509095170763
7.923394	6812498.58620902	5191.88111520537	6812500.56460397	-0.0436657438204947
6.75822	5001829.29860693	94374.2576877712	5002719.54369988	-1.08092556051775
5.761429	5253461.57962106	-2604080.07148595	5863453.89572264	26.3670822839962
4.919708	4619728.00404902	-1559722.4480505	4875922.57386716	18.6558209362469
4.191257	4251204.92727134	-2312176.65128269	4839308.23572884	28.5412107446658
3.564097	4280547.67969197	-1961359.44425103	4708504.99709504	24.6173894988036
3.051758	3381638.52672717	-1915145.52324502	3886291.48426246	29.5244636168898
2.604164	2660790.86878138	-2166496.88391924	3431255.86271589	39.1535292965009
2.214424	3435548.8768178	-2243353.17274281	4103124.36353802	33.1438322791532
1.892567	2924310.9810704	-1413060.9481052	3247820.18545807	25.7903716153073
1.607507	3720286.9323568	-265559.878009573	3729752.92852934	4.08293678219011
1.376413	2911917.34144742	-1628939.00500274	3336570.82727784	29.2228357152211
1.17375	3615263.77311127	-1099428.15644777	3778739.7926241	16.9149001348978
1.001604	3117481.91231269	-946311.686729673	3257944.02684238	16.8856678281902
