EC-Lab ASCII FILE
freq/Hz	Re(Z)/Ohm	-Im(Z)/Ohm	|Z|/Ohm	Phase(Z)/deg
6999984	23.9396089763079	87.3499132862257	90.5710341613127	-74.6735321436207
5969734	24.5478996997464	87.5040143070094	90.8820768881858	-74.3293563960856
5091109	24.8440132424402	87.5907993191188	91.0459945266824	-74.164688325765
4341796	23.5990888896659	90.2377961425919	93.2725943088018	-75.3441792428213
3702781	23.2917101162473	97.7409612569422	100.477854612698	-76.5963785040797
3157797	23.1086513361999	107.211736428858	109.673908449863	-77.8364310600814
2693047	22.9261068581081	120.346464002491	122.510725136913	-79.2143372615915
2296687	22.3900230596628	137.014049072539	138.831418547332	-80.7190963189436
1958656	23.5168588590561	157.29865721632	159.0468805499	-81.4970011173927
1670375	24.1113479595836	180.947272026384	182.546630629596	-82.4100093639336
1424531	25.5704063972696	210.085858355842	211.636276579495	-83.0604310529662
1214875	28.5408784863731	242.566985024317	244.240299640663	-83.2893276921209
1036062	29.2214836279956	281.033528758145	282.54864960158	-84.0637947437992
883578.1	28.3424719669907	324.031084494872	325.268257652238	-85.0011536966333
753531.2	32.0184660654779	371.162476755909	372.540959252492	-85.0695648573719
642624.9	43.0739330435395	446.730147258814	448.8019476091	-84.4925390618956
548046.8	49.5104887049015	519.262526977619	521.617542280722	-84.553444475518
467390.6	153.935528570901	692.512418380657	709.414967820548	-77.4677327189147
398593.7	177.236965745266	838.256876283697	856.789082950693	-78.0614888820087
339937.5	205.027620657639	885.335106522676	908.765413114986	-76.9611807322395
289906.2	202.157261379776	1017.60127432712	1037.48730683356	-78.7638778430596
247234.4	233.87639664497	1156.01435599371	1179.4351869311	-78.5627123611892
210843.7	287.365630515621	1330.83787293639	1361.5096215758	-77.815288917441
179812.5	281.894667551885	1524.78158038401	1550.62035052831	-79.5256825274656
153343.8	272.43996273845	1844.49179026299	1864.50355259637	-81.5978989851152
130781.2	277.332071210514	2069.45634323849	2087.95656906267	-82.3671521208579
111531.3	302.279355690509	2449.40770687093	2467.98924700968	-82.9647471011793
95109.37	432.96841742713	2843.38600177098	2876.16160977726	-81.3419587380303
81109.37	431.030551454172	3326.20022494557	3354.01181761706	-82.6163887617398
69171.88	483.503864437677	3703.40388307699	3734.83283536438	-82.5617285880843
59000	382.680966538783	4421.94054397357	4438.46853053937	-85.0538658137853
50312.5	1456.99115344079	5682.10867652498	5865.93404608722	-75.6182249562324
42906.25	1516.00491770267	6705.85703202615	6875.08468634919	-77.26118143377
36593.75	1951.05438007976	7306.79917103758	7562.79890780549	-75.0497362319036
31203.13	2114.10024265266	8847.75626529112	9096.82421320662	-76.5615999659153
26609.38	1902.5289190854	9964.59382737267	10144.5919795953	-79.1906741046526
22703.13	2004.97685925102	11285.9384860126	11462.6497685393	-79.9263519136006
19359.37	2454.73694334134	13421.9685954323	13644.5950631661	-79.6357477199102
16500	2609.17173009412	14967.0468073868	15192.7702296727	-80.1111308025303
14112.02	2921.44663663991	17651.9169288642	17892.0379418963	-80.6025567034139
12011.13	3099.02550823192	20233.5904310114	20469.541783601	-81.2921114098539
10236.38	2843.31708340655	23733.5507135776	23903.2608970147	-83.1684335973483
8750.684	3757.28167125782	27732.8550911761	27986.2183416291	-82.2844743110205
7449.463	3311.67143411997	31767.0796526798	31939.2316336394	-84.0484967706693
6363.206	3055.83397303675	38060.8199435348	38183.2965581148	-85.4096726045616
5414.761	10500.3604426451	-27043.3452236137	29010.3445396468	68.779859079787
4620.567	23812.156041828	-415.979714517875	23815.7891845569	1.00081059089799
3941.215	16559.7116225282	14623.6179360012	22092.4025529011	-41.4472111307025
3361.769	46295.5264477483	-11168.4103846467	47623.6197657638	13.5629824418235
2867.244	4359.92066571599	55538.9820352942	55709.850419186	-85.5113726131973
2442.658	8844.0619292245	41132.9366216561	42072.9830952018	-77.8654800202945
2083.003	62423.7181696754	-21581.559376108	66049.1051811569	19.0716450560631
1777.843	74969.5262123093	-19806.0604918684	77541.6655270293	14.7987550030955
1513.548	22040.3858154635	60682.0323426531	64560.7284355534	-70.0384181725714
1292.065	84514.6336235314	51315.7232996233	98873.7920496794	-31.2653500407712
1101.762	-6763.79540181546	88042.4201804109	88301.8498077002	-94.3930778744177
939.101	98605.8198297688	81388.8284481903	127856.361204556	-39.5361218641995
801.2801	-15197.5170231504	89730.2947575893	91008.188208275	-99.6128952753981
684.3433	139792.694389155	-40704.4821215173	145598.256409067	16.2343695137312
582.9476	106309.115676437	84727.7576195936	135942.712151666	-38.5546451611404
497.0677	-56110.8792347444	101880.169956766	116309.929923957	-118.843937190067
423.5089	-34814.8483313557	124352.168384342	129133.788940861	-105.640640463292
361.5036	-143858.764983415	101531.996701487	176079.784804345	-144.786492125339
308.1262	-12354.1651438272	168652.308134817	169104.188107812	-94.1895632655873
262.7298	-78672.1213086972	-287369.876431116	297944.203755074	105.310502181738
224.2111	13732.6733005962	229579.961073395	229990.31467095	-86.5768449290226
191.2854	412928.319847902	360170.144507715	547934.604060666	-41.0960452980668
163.1722	704481.892256504	329738.326501235	777831.665902809	-25.0823161016625
139.1537	191141.994238364	840734.06406449	862188.510964866	-77.1914524701026
118.6706	-114480.961383017	1021537.39048614	1027932.16248954	-96.3943048612507
101.1982	248986.574102952	1154838.84107061	1181375.07292512	-77.8331079048696
86.24196	769773.954505451	1423940.02534672	1618689.94462169	-61.6045940198047
73.61024	-399175.558871113	-927176.528809956	1009454.03182916	113.293236662398
62.69291	293316.097768272	-1299761.19137448	1332446.4296223	77.2831257173235
53.57697	794223.575822266	599128.285876781	994859.684241731	-37.0293398372549
45.65746	566322.582094448	-1883453.63844712	1966753.38443075	73.264858108512
38.96512	-1343288.49410254	796069.239513724	1561457.72036524	-149.347866428155
33.18414	-1381876.28905573	1096977.66150525	1764353.15855301	-141.55632796373
28.30617	-848380.444214557	-2333818.85877606	2483235.76079769	109.977014239961
24.17237	1376455.81706999	-2848357.72272689	3163506.33521789	64.2080569450996
20.61345	609925.703653841	2136287.25320661	2221650.87090449	-74.0655666272074
17.55618	1845749.36991267	-3978698.16235237	4385981.05372551	65.1130437825087
14.98558	743960.290821889	2821744.5248701	2918170.50186486	-75.2299314584722
12.76553	3146651.89916945	-4727536.29528966	5678997.9395865	56.3522326160609
10.8809	-4519769.59019074	1559563.8040952	4781271.42164685	-160.962809555267
9.278505	4416258.39292217	2012677.61371259	4853267.90624578	-24.5007811283386
7.923394	6311622.44943056	-5458568.84698036	8344612.14205791	40.8546925564459
6.75822	3669295.27381797	5258525.75744998	6412161.95586385	-55.0934271514246
5.761429	9592121.94895219	-1897812.29195964	9778061.92346333	11.1914986686211
4.919708	8849972.19047046	553504.676368927	8867264.24546279	-3.57879408304347
4.191257	-2320397.32742164	8925645.42288069	9222331.04871521	-104.572589837389
3.564097	2254320.00736408	-15808777.0045699	15968700.2938818	81.8843778826806
3.051758	13778239.6608143	-10507020.6041943	17327359.006144	37.328446724625
2.604164	12445197.3071495	6170115.37027539	13890761.6672517	-26.3714253040833
2.214424	4229227.64613212	14616600.7475636	15216155.3585814	-73.862510384613
1.892567	-5047947.11774521	19729960.1358026	20365487.8916247	-104.351370832689
1.607507	-2506206.32809892	-38086852.2689519	38169220.3996357	93.7647723562773
1.376413	23117642.9900848	-25778319.1665488	34625816.3292863	48.1146808855942
1.17375	25153075.9567501	8039473.15318937	26406634.7471027	-17.7250166205892
1.001604	14710842.1812054	26724949.4710724	30506258.4056404	-61.1692606870642
