EC-Lab ASCII FILE
freq/Hz	Re(Z)/Ohm	-Im(Z)/Ohm	|Z|/Ohm	Phase(Z)/deg
6999984	8.18705942343436	2.65457349028464	8.60666616165442	-17.9647765395396
5969734	5.74766488503654	0.131329574223293	5.74916507744801	-1.30893526100565
5091109	3.66618698209742	-0.854926660453547	3.76454865587561	13.126359954044
4341796	2.58010125859352	-1.12860574476715	2.81614513683462	23.6258631160179
3702781	1.53766331165467	-1.06543609213086	1.87071177000197	34.717816097313
3157797	1.15407460848144	-0.850146892452275	1.43340083043364	36.3771477086355
2693047	0.933848700657106	-0.646789086795329	1.13596193532904	34.7067007160875
2296687	0.784919585508302	-0.480164159489091	0.920139324109338	31.4556579724239
1958656	0.711340004775029	-0.366051722945926	0.799999041415063	27.2301056924899
1670375	0.663623499052749	-0.271626893598501	0.717061585793706	22.2597140084639
1424531	0.641352498569814	-0.214443142215161	0.676253568319498	18.4879156543838
1214875	0.628360060014845	-0.168389254684605	0.650531556586686	15.0017596794883
1036062	0.615730378600473	-0.138279729555369	0.631066702288584	12.6573882691515
883578.1	0.611061757688898	-0.111726126600182	0.621191757088683	10.3614718995489
753531.2	0.605831337788206	-0.0892651880380621	0.612372340689647	8.38183969201447
642624.9	0.603676351932847	-0.0721709832554107	0.607975154679041	6.81749302396879
548046.8	0.59982045150034	-0.0598638446676055	0.602800343344675	5.69941401522578
467390.6	0.59941622100601	-0.049058555675122	0.601420441862475	4.67888107110379
398593.7	0.598278861439701	-0.040963203348125	0.599679564496011	3.91683803625507
339937.5	0.597370181475601	-0.034194626753579	0.598348064436586	3.27614631649947
289906.2	0.597303534747436	-0.0287589971600326	0.597995478694808	2.75655094561816
247234.4	0.597321400086721	-0.023584380413724	0.597786816516607	2.26106735762933
210843.7	0.598491200479794	-0.0195994252632287	0.598812036053379	1.87565526462089
179812.5	0.600245953899866	-0.0155763360009111	0.600448022243703	1.48648743326536
153343.8	0.603631686056181	-0.0125439255261826	0.603762008144463	1.19047852869354
130781.2	0.608218169132919	-0.00982932059454929	0.608297589019347	0.925867711294883
111531.3	0.614194496599012	-0.00778003696135149	0.614243769710067	0.725730115708916
95109.37	0.622307492954052	-0.00569071382233614	0.622333511881343	0.523928765277447
81109.37	0.633519731102578	-0.00401899855735463	0.633532479077188	0.363474971427375
69171.88	0.646608170177672	-0.00248679486300736	0.646612952150828	0.220353150880009
59000	0.659965128795812	0.0016962223502243	0.659967308581822	-0.147259549856462
50312.5	0.677524942113599	-0.000174376563024391	0.6775249645535	0.0147463809310426
42906.25	0.664643283011355	-0.00153190910674857	0.664645048426318	0.132058463889625
36593.75	0.628159762760883	0.000197203037632269	0.628159793715617	-0.0179873052400442
31203.13	0.528487276205631	8.5901326007853E-06	0.528487276275444	-0.000931296486403748
26609.38	0.440399675247656	-0.000540537584438428	0.440400006969938	0.0703236365629875
22703.13	0.377299868664163	-0.000739327584915009	0.377300593027989	0.112272225871475
19359.37	0.325286987952168	-0.00129020653345234	0.325289546656349	0.227254714001257
16500	0.257998675392545	-0.0030826709996324	0.258017091226143	0.68456023333979
14112.02	0.218144373753704	-0.00155414549320656	0.218149909852398	0.408190545815887
12011.13	0.204809752205508	-0.000657960760771686	0.204810809067403	0.18406469703806
10236.38	0.197479995883237	-0.000494394967301115	0.197480614745922	0.143440786151915
8750.684	0.187566174319563	-0.000361369002318633	0.187566522429863	0.110387137429715
7449.463	0.182839161253037	-0.000384745723805069	0.182839566059937	0.120566477505348
6363.206	0.179783816153232	-0.000376078987177248	0.179784209501346	0.119853431529308
5414.761	0.17647629027134	-0.000345583195920731	0.176476628638695	0.112198829977919
4620.567	0.173666641636881	-0.000401329387901494	0.173667105355937	0.132405619017695
3941.215	0.172434444434246	-0.000644281021126636	0.172435648070175	0.214077945220398
3361.769	0.184168664348705	-0.00154437848165179	0.184175139562539	0.480452498599803
2867.244	0.305505333863045	-0.00033369352720664	0.305505516104277	0.0625822892014159
2442.658	0.318560526832125	-0.000170551205998984	0.318560572487047	0.0306750602723376
2083.003	0.325358810304462	-0.000109800631355291	0.325358828831974	0.0193359218390672
1777.843	0.329198522116738	-2.54454985772452E-05	0.329198523100147	0.00442869446619755
1513.548	0.332317859308911	-2.21093398349445E-05	0.332317860044386	0.00381192831805103
1292.065	0.333766639103081	-9.10033121230632E-05	0.333766651509358	0.0156220094110292
1101.762	0.335084485946146	-8.65931714463447E-05	0.335084497134932	0.0148064842037518
939.101	0.335940920346379	-4.02595296220567E-05	0.335940922758752	0.00686638924220525
801.2801	0.336569981585893	-8.0152257838002E-05	0.336569991129799	0.0136446690346753
684.3433	0.336974121553528	-8.7756352799836E-05	0.336974132980485	0.0149212304613827
582.9476	0.337256527186673	-3.3678983272388E-05	0.337256528868292	0.00572164936133921
497.0677	0.337485161177079	-6.10070920049558E-05	0.337485166691196	0.010357340873846
423.5089	0.337598234791114	-0.000125278186865125	0.337598258035643	0.0212616960138594
361.5036	0.337537562155362	-9.56407644899287E-05	0.337537575705196	0.0162346731813626
308.1262	0.337550847628897	-0.00014702649191831	0.337550879648944	0.024956231009266
262.7298	0.337569562137796	-0.00011752508410533	0.337569582596016	0.0199475657445253
224.2111	0.337516544004313	-7.60242527565115E-05	0.337516552566392	0.0129056451522037
191.2854	0.337471726714935	-5.41593192626781E-05	0.337471731060827	0.00919514182304677
163.1722	0.337481283501296	-1.5140898680487E-05	0.33748128384094	0.00257054134334453
139.1537	0.337487435101213	-2.22400473943107E-05	0.33748743583401	0.00377572827159687
118.6706	0.337459496605664	-9.80202766760731E-05	0.337459510841409	0.0166424357850013
101.1982	0.337465840464043	-1.93662703210139E-05	0.337465841019732	0.00328805295244008
86.24196	0.337419227440694	-2.03249364473525E-05	0.337419228052845	0.00345129435785081
73.61024	0.33740161684734	1.56451206655025E-05	0.337401617210068	-0.0026567726374273
62.69291	0.337387849697376	-0.000107957907651265	0.337387866969648	0.0183335952018433
53.57697	0.337371700792316	-8.92353229981174E-05	0.337371712593754	0.0151548196248795
45.65746	0.337345410934635	-7.40352744808683E-06	0.337345411015875	0.0012574378143793
38.96512	0.337298922578587	9.24931347009657E-05	0.337298935260187	-0.0157114825003168
33.18414	0.337277576476417	2.21136414022129E-07	0.33727757647649	-3.75660408631099E-05
28.30617	0.337280631320804	-7.70225193334051E-05	0.337280640115363	0.0130842532856799
24.17237	0.33726280925785	-6.84005410936541E-05	0.337262816194034	0.0116202028796718
20.61345	0.337193787922819	2.11750854059988E-05	0.337193788587695	-0.00359805864298916
17.55618	0.337312890608494	-1.38405685651526E-05	0.337312890892446	0.00235095125765607
14.98558	0.337328041435666	-6.39421164617596E-05	0.33732804749593	0.0108606842968685
12.76553	0.337296784657119	4.05823687870225E-05	0.337296787098483	-0.00689362765578577
10.8809	0.337249294340663	-2.52717624287482E-05	0.337249295287532	0.00429345694598164
9.278505	0.337236938242304	-9.93989013625156E-07	0.337236938243768	0.000168876445325834
7.923394	0.337245938917644	-2.36151511597752E-05	0.337245939744453	0.00401205273560771
6.75822	0.337210858350037	4.7370100291345E-05	0.337210861677223	-0.00804869338203565
5.761429	0.337143754702934	-6.38890794247264E-05	0.337143760756456	0.0108576075135086
4.919708	0.337183751400018	-5.42316909283077E-05	0.337183755761255	0.00921529274870152
4.191257	0.337119811308668	5.12716085617766E-05	0.337119815207546	-0.00871395467796205
3.564097	0.337237709975986	-2.68814809645328E-05	0.337237711047357	0.00456709127569581
3.051758	0.337212165843658	-3.5407108937621E-05	0.337212167702522	0.00601602820098389
2.604164	0.337146815290749	-5.99650337179804E-06	0.337146815344076	0.00101906445329307
2.214424	0.33720976012207	-3.00443848212915E-05	0.337209761460503	0.00510488321319269
1.892567	0.337189081719533	2.31489173036992E-05	0.33718908251415	-0.00393350595147322
1.607507	0.337259313796316	-3.7969058418779E-05	0.337259315933617	0.00645042761251822
1.376413	0.3371915720885	-3.41990820906686E-05	0.337191573822792	0.0058111270342892
1.17375	0.337230409873898	-2.44100421909905E-05	0.337230410757345	0.00414729025582361
1.001604	0.337243674739097	-3.51853072005454E-05	0.337243676574573	0.00597778326815891
