EC-Lab ASCII FILE
freq/Hz	Re(Z)/Ohm	-Im(Z)/Ohm	|Z|/Ohm	Phase(Z)/deg
6999984	-15.2366132610681	30.3558813118058	33.9651867930061	-116.653576835061
5969734	-15.7993198970293	32.8063902524593	36.4126042821071	-115.715129262416
5091109	-15.8064167909916	37.0015671440392	40.2362868923735	-113.131318789494
4341796	-14.9500787735501	42.4906406775152	45.043971855522	-109.384117513559
3702781	-13.7151703261943	48.8562850910424	50.7448764898855	-105.680747508952
3157797	-13.6056338189177	56.227412472504	57.8501096366081	-103.602686881792
2693047	-13.7384272805561	65.3280269585689	66.7569883266361	-101.876193157724
2296687	-13.4800197600214	76.1054892083466	77.2900797021993	-100.044217903573
1958656	-13.73412651337	88.8806643073645	89.9355253434574	-98.7840545289618
1670375	-13.4613257967507	103.778656252759	104.648061548385	-97.3906784669832
1424531	-13.2039522611261	121.437833028772	122.153557647896	-96.205400676196
1214875	-12.3506351363836	142.016943676143	142.552974291612	-94.9702755572325
1036062	-12.1647056322279	165.858760083886	166.304264406186	-94.194777181523
883578.1	-11.3850815782621	193.801443855796	194.135570473664	-93.3620403220798
753531.2	-10.4859674735735	226.583166962839	226.825675497212	-92.6496818953937
642624.9	-9.43489835459863	264.826354674918	264.994368689916	-92.0403985760516
548046.8	-8.45162163501067	310.135134793816	310.25027275063	-91.5610047888656
467390.6	-6.48345102466259	361.525443205263	361.583574325427	-91.0274091942602
398593.7	-3.89760724645987	423.012284837623	423.030240604373	-90.5279045884652
339937.5	-1.81899607311303	495.816283078515	495.819619733334	-90.2101994910652
289906.2	-134.229354488419	487.709056551298	505.843496991446	-105.388195258758
247234.4	-142.52267201637	592.789828019784	609.682287952021	-103.518863156364
210843.7	-148.131146057551	714.836912541585	730.023731096674	-101.707342495499
179812.5	-150.59616426045	855.575390795181	868.728066787466	-99.9827968279345
153343.8	-150.774578163999	1019.42084733218	1030.51047418063	-98.4131789481737
130781.2	-147.677845160108	1207.60490750483	1216.60115016421	-96.9720755018606
111531.3	-139.97534829123	1427.10535000061	1433.95354810733	-95.6018469348052
95109.37	-135.80422007352	1679.68182483751	1685.16284639771	-94.6223755840291
81109.37	-123.028829327042	1971.66423668121	1975.49891294662	-93.5705396637279
69171.88	-110.644144686265	2316.28386728463	2318.92498382255	-92.7348234237501
59000	-111.529654676251	2707.16465900111	2709.4610819897	-92.3591349974828
50312.5	-78.9747242183895	3172.46387679354	3173.44671557997	-91.4260159323328
42906.25	-47.4265298129642	3725.46626168772	3725.76812787693	-90.7293565492332
36593.75	-11.5462317671089	4342.84459628958	4342.85994512713	-90.1523307537569
31203.13	-956.519924167736	4718.59614482303	4814.56954911533	-101.459309065987
26609.38	-950.941120900557	5623.32522902422	5703.16365246518	-99.5982848516222
22703.13	-937.734813072281	6669.55531617552	6735.15513519717	-98.003284941537
19359.37	-876.06269919489	7872.12341560741	7920.72048007472	-96.3501298152461
16500	-833.998839272448	9267.43241295211	9304.88353460392	-95.1423347831103
14112.02	-776.608518303557	10851.2629253604	10879.0177803882	-94.0935928349029
12011.13	-656.159461641578	12736.7123852395	12753.6029271503	-92.949109639129
10236.38	-537.656469552349	14956.861591357	14966.5220790356	-92.0587332254957
8750.684	-457.2128877368	17398.5982221975	17404.6046700914	-91.5053132911789
7449.463	-271.006092149205	20375.6971426563	20377.4993154517	-90.7620151435557
6363.206	-131.659587132768	23770.7183565192	23771.0829671651	-90.3173425987546
5414.761	191.418730612389	27832.8656508239	27833.5238780008	-89.6059582003202
4620.567	482.571313783608	32515.1793164555	32518.7601401736	-89.1497119080575
3941.215	376.089121353578	37894.4367467249	37896.3029777146	-89.4313779601438
3361.769	-8648.1373738911	40260.2325632981	41178.5940275836	-102.123252558984
2867.244	-7792.54412620365	48720.1362737379	49339.3901714484	-99.0872064983655
2442.658	-8729.69374073208	57517.631910782	58176.3313851191	-98.6301580651897
2083.003	-8181.90861310426	67835.7613653099	68327.4040818503	-96.877422874105
1777.843	-6596.4408287238	81398.9757041202	81665.8207409122	-94.6330325990185
1513.548	-5549.89374038911	93533.0742648299	93697.5842909506	-93.3957302404335
1292.065	-5092.52499612769	109976.136827403	110093.980227421	-92.6512288814405
1101.762	-2485.75201454957	128628.301872105	128652.318306275	-91.107107623563
939.101	-1474.65785682279	149939.940291045	149947.191738548	-90.5634852675428
801.2801	6272.43167844881	173727.493541914	173840.689746436	-87.932233889184
684.3433	8057.13559013334	201183.360541975	201344.634874833	-87.7066031094615
582.9476	3468.93691517346	243053.883833721	243078.637420028	-89.1823132066005
497.0677	16248.1972207447	272548.495440284	273032.390532124	-86.5883040849252
423.5089	-59761.4819546556	283996.014215758	290215.731509947	-101.883412425942
361.5036	-59588.4399721943	348282.232075159	353343.027888728	-99.7088657060825
308.1262	-49227.5921058965	419012.524027947	421894.360138668	-96.7006653943071
262.7298	-33789.9834071123	494237.575478383	495391.303913788	-93.9111057771537
224.2111	-17491.7552625736	579065.741691793	579329.866918004	-91.7301992257677
191.2854	1947.62255548604	678062.538988236	678065.336094386	-89.8354277972701
163.1722	38063.1543439174	786248.605186767	787169.405450152	-87.2284125336453
139.1537	84769.0205129924	907008.303384317	910960.948255648	-84.660644878987
118.6706	138972.239708546	1028263.74799468	1037612.46082035	-82.3029808478032
101.1982	203043.758429548	1198959.45100937	1216030.64640735	-80.388155896476
86.24196	257312.44790196	1411778.37294158	1435035.84281051	-79.6705835538542
73.61024	301944.672290815	1567930.5298343	1596739.40626242	-79.0996884067858
62.69291	1268170.81465017	578987.309554375	1394088.77757318	-24.539215137236
53.57697	1038164.47735841	1725530.97767982	2013763.30212405	-58.9668109225814
45.65746	609869.400327777	2500576.13088162	2573872.89347999	-76.2936276051326
38.96512	880181.215792529	2653888.01442473	2796040.15810596	-71.6515235489827
33.18414	1245319.54696615	2821500.02741795	3084101.68100461	-66.18487592986
28.30617	970636.517284518	2827732.53995553	2989683.35550934	-71.0549025969129
24.17237	1494064.05077147	3553131.29107354	3854473.9406842	-67.1936254239673
20.61345	2019979.16372022	4123589.07066191	4591764.65485179	-63.9016391162636
17.55618	2140559.08523229	4642079.74160632	5111838.95724448	-65.2445948922708
14.98558	2308759.1753437	4582423.71654613	5131176.86770765	-63.2596972025991
12.76553	2288703.81855933	4895839.07194103	5404387.60521787	-64.9448806696378
10.8809	2925401.06105764	5544849.88412749	6269236.92370497	-62.1843700126975
9.278505	2959265.69161171	6329285.87655524	6986924.44074728	-64.9415002186466
7.923394	3255551.07924822	7403348.37738721	8087532.38179335	-66.2629700773363
6.75822	4271669.38669295	8108155.40151356	9164570.00433208	-62.2181172268307
5.761429	1768337.05135856	9215972.66532446	9384091.2237262	-79.1382484663981
4.919708	5339873.8477119	9655877.41602804	11034048.2771664	-61.0566171845415
4.191257	5079750.25915294	10676547.4949119	11823389.0702486	-64.5555558478464
3.564097	4432489.17993281	11611739.5978814	12428976.4992629	-69.1069033892476
3.051758	8070617.06083036	10280456.9981465	13069914.1478934	-51.866505930936
2.604164	6500467.53721966	15523183.3177675	16829298.8124717	-67.2780794029696
2.214424	7570192.16845435	19140127.9259428	20582815.8056371	-68.4204999506809
1.892567	4182339.41420223	20929134.9163108	21342929.7735978	-78.6992482037689
1.607507	10528190.6246468	20378519.3751739	22937455.171689	-62.6776866743052
1.376413	355764.4142648	43319807.5595069	43321268.3945331	-89.5294683346702
1.17375	12611195.9229564	28917057.6728577	31547400.6387621	-66.4372065428356
1.001604	15508984.8433267	30500545.7439804	34217128.7742145	-63.0474736352826
