EC-Lab ASCII FILE
freq/Hz	Re(Z)/Ohm	-Im(Z)/Ohm	|Z|/Ohm	Phase(Z)/deg
6999984	10.6121603588371	-1.74645427793711	10.7549081830854	9.34545730059934
5969734	6.15139169649729	-1.75562801998543	6.39701880162109	15.9289257131469
5091109	3.60180697701446	-1.12670313369198	3.77392017021311	17.3705219031638
4341796	2.14972518826557	0.605092167363229	2.23326104969118	-15.7205409630579
3702781	1.56192811209014	0.306207873931294	1.59166035616741	-11.0918670376258
3157797	1.27445447452049	0.269048921816345	1.30254425259022	-11.9206275699707
2693047	1.12942148350505	0.240966291702795	1.1548409592406	-12.0436931747869
2296687	1.05577748406788	0.254224993230439	1.08595416249846	-13.5387463270894
1958656	1.00811341794035	0.242041599862479	1.03676265340499	-13.5008050618959
1670375	0.981077593920147	0.228543409539906	1.00734568810129	-13.1132678684253
1424531	0.968410281169518	0.203040910456183	0.989466565374343	-11.8413473998585
1214875	0.961708113740692	0.176195588171933	0.977715388712857	-10.3820811914398
1036062	0.956465448125846	0.146373048993782	0.967600755957906	-8.70077664867405
883578.1	0.94553350559285	0.121266878602446	0.953278168240879	-7.30842045157073
753531.2	0.936761975546177	0.103225261474244	0.94243220097554	-6.28826336776235
642624.9	0.926760745034182	0.0880443879119376	0.930933559809238	-5.42694221687793
548046.8	0.918125211697801	0.0729017168235289	0.921014964412061	-4.53992047113512
467390.6	0.91105110931641	0.0613088634444356	0.913111658300073	-3.84989479338758
398593.7	0.906176935030117	0.0510104814543845	0.907611539591022	-3.22189179696294
339937.5	0.902621774206421	0.0434782009384546	0.903668313723786	-2.75773696825408
289906.2	0.899307659173271	0.0368978734141901	0.900064285987506	-2.34948219386936
247234.4	0.896473656690962	0.0320775301356361	0.897047370588905	-2.04927751936379
210843.7	0.894734200947078	0.0278006472236254	0.895165999315467	-1.77968769872545
179812.5	0.893126256786544	0.0248288637566089	0.893471310696089	-1.5924095678934
153343.8	0.890894031376028	0.0214756398736902	0.89115283663882	-1.38088844683377
130781.2	0.891473221874663	0.0202506040891102	0.891703197418046	-1.30130059838554
111531.3	0.892860873396644	0.0180017191987531	0.89304232886058	-1.15503192173997
95109.37	0.895409777909383	0.016082751513051	0.895554200074993	-1.02899782258725
81109.37	0.894433187416656	0.0142619081390435	0.894546884615941	-0.913514741231862
69171.88	0.893895076803652	0.0126612524228133	0.89398474016435	-0.811491011441893
59000	0.894460599209024	0.0113197616422247	0.894532224428502	-0.725062619877588
50312.5	0.894728807121461	0.0100586518178311	0.894785345638486	-0.644099099763242
42906.25	0.893929112433838	0.00906005827009381	0.893975023539588	-0.580678401420211
36593.75	0.89281252997808	0.00796514456009359	0.892848059422051	-0.511145446614504
31203.13	0.892264359555555	0.00731298933320892	0.892294327644232	-0.469585093507997
26609.38	0.895265204090035	0.00673549011153691	0.895290540819802	-0.431054254743244
22703.13	0.898794927727568	0.00621674457951651	0.898816427320935	-0.396294566890263
19359.37	0.899058547825672	0.00557820391740873	0.899075852627213	-0.355486793847661
16500	0.898257345129834	0.00506091986838402	0.898271602016679	-0.32280980757998
14112.02	0.898231658763453	0.00460416112788761	0.898243458704062	-0.293684472092756
12011.13	0.897364771890201	0.00432076490119905	0.897375173959523	-0.275874079031115
10236.38	0.896680131922165	0.00378265233116582	0.896688110461274	-0.241701271847686
8750.684	0.896755594135906	0.00339339137681463	0.89676201453846	-0.216810552832715
7449.463	0.898022469337466	0.00314240358334548	0.898027967345806	-0.200491339728681
6363.206	0.898726991702587	0.00280964542378715	0.898731383519119	-0.179120357744979
5414.761	0.901904236994634	0.0024588829458255	0.901907588843898	-0.156206457714768
4620.567	0.904551195753692	0.00228160407009801	0.904554073262935	-0.144520295933721
3941.215	0.908729904889853	0.00213258581131715	0.908732407237336	-0.134460131079475
3361.769	0.911215303546934	0.00191417184585705	0.911217314076059	-0.120359926220203
2867.244	0.910066604162739	0.00173890823986056	0.910068265469226	-0.109477681521504
2442.658	0.909362383841352	0.00152764112437723	0.909363666985343	-0.096251294595586
2083.003	0.906818467706787	0.00140108733615225	0.906819550086901	-0.0885252452071444
1777.843	0.903112850180049	0.00129693777477153	0.903113781429518	-0.0822809792684702
1513.548	0.896897558722946	0.00100253815831705	0.896898119033561	-0.0640443056072512
1292.065	0.889538675738949	0.00106958626686329	0.889539318776964	-0.0688927317654277
1101.762	0.881314334896427	0.000852779317379924	0.881314747480431	-0.0554406510344298
939.101	0.876757559848647	0.000817357033575506	0.876757940839017	-0.0534139618031812
801.2801	0.874554688095641	0.000691987780781397	0.874554961861833	-0.0453350391678745
684.3433	0.872977306087677	0.000598312549955505	0.872977511120421	-0.0392688084048812
582.9476	0.871934852341733	0.000513014613499292	0.871935003261248	-0.0337107396399675
497.0677	0.870613396311963	0.000471168702931447	0.870613523808238	-0.0310079945879322
423.5089	0.869878040430727	0.000339941309493288	0.869878106853883	-0.0223907265378985
361.5036	0.869426501014154	0.00038310863922052	0.869426585421647	-0.0252471102226981
308.1262	0.867943428741695	0.00027747761787651	0.867943473095869	-0.0183172028793246
262.7298	0.865785779011741	0.000360790184135592	0.865785854185967	-0.0238762915091137
224.2111	0.8608435950936	0.000199514882823347	0.860843618214053	-0.0132792537416747
191.2854	0.855205461715589	0.000132953491930177	0.855205472050316	-0.00890741960706593
163.1722	0.849969889463128	0.000120879913593767	0.849969898058699	-0.00814841668627817
139.1537	0.842896683079849	8.03346540217803E-05	0.84289668690811	-0.00546073641355033
118.6706	0.835720701220286	0.000107371557698017	0.835720708117716	-0.00736123570112589
101.1982	0.829078692690657	0.000111879941956387	0.829078700239471	-0.00773177323681494
86.24196	0.822341912263705	6.07202795901371E-05	0.822341914505445	-0.00423061951867406
73.61024	0.814261511202338	1.55890447764885E-05	0.814261511351564	-0.00109692827173576
62.69291	0.801757040894842	0.000139766858799735	0.80175705307732	-0.00998812687066373
53.57697	0.78998157010162	5.86416197263142E-05	0.789981572278152	-0.00425315910537671
45.65746	0.781230202762219	7.15423903616618E-05	0.781230206038023	-0.00524695153624215
38.96512	0.771018399583684	6.53331694671719E-05	0.771018402351726	-0.00485502663197645
33.18414	0.759553469990952	-6.23934287863294E-05	0.759553472553602	0.00470655493260861
28.30617	0.748622427953006	1.46402698171952E-05	0.748622428096161	-0.0011204923069761
24.17237	0.740871305216001	3.93625591615812E-05	0.740871306261669	-0.00304412992215022
20.61345	0.735585804670649	8.05529719713569E-05	0.73558580908127	-0.00627438060038633
17.55618	0.731548276047515	1.59284249148998E-05	0.731548276220924	-0.00124753423889046
14.98558	0.72928923707044	6.01350538076533E-05	0.72928923954972	-0.0047244421020148
12.76553	0.727309552045232	-1.54849876668334E-05	0.727309552210076	0.00121987183654154
10.8809	0.726031657241964	7.77725114212311E-05	0.72603166140746	-0.00613752390144138
9.278505	0.725176639506278	2.87179594243916E-05	0.725176640074913	-0.00226898907210481
7.923394	0.722786642178847	-1.39066896561611E-05	0.722786642312632	0.00110239257022792
6.75822	0.720283360970986	-1.10765175250205E-06	0.720283360971837	8.8109449735218E-05
5.761429	0.718167720856797	3.22587007972043E-05	0.718167721581296	-0.0025736152619154
4.919708	0.715660291541152	-7.40349142919777E-05	0.715660295370601	0.00592723693147246
4.191257	0.713661979848461	-5.93228952932252E-05	0.713661982314058	0.00476269104554434
3.564097	0.711624443116976	-1.80183664847945E-05	0.711624443345089	0.00145073200206022
3.051758	0.708829846234353	-7.45788945998821E-05	0.708829850157729	0.0060283238752674
2.604164	0.706594002417924	-1.64253499273762E-06	0.706594002419833	0.0001331886804363
2.214424	0.704741592729116	-9.15223950408335E-05	0.704741598671967	0.00744080807971366
1.892567	0.703025133752646	-3.34222788803684E-05	0.703025134547104	0.00272387917326641
1.607507	0.70024227583156	-1.19202872844369E-05	0.70024227593302	0.000975351211271356
1.376413	0.698660471381047	-6.22319100907921E-05	0.698660474152644	0.00510351728180909
1.17375	0.697024850925216	-5.22149053780635E-05	0.697024852880955	0.00429209044164026
1.001604	0.696602677296758	-3.94509432764618E-05	0.696602678413877	0.00324485193468722
