EC-Lab ASCII FILE
freq/Hz	Re(Z)/Ohm	-Im(Z)/Ohm	|Z|/Ohm	Phase(Z)/deg
6999984	2.7459164060709	1.20545348932425	2.99886228827756	-23.7014076013059
5969734	4.62609482309591	0.835352118936886	4.7009112387799	-10.2358222550767
5091109	5.72965099909545	1.20420548698606	5.85482804412929	-11.8691530416562
4341796	-3.23968752091987	-8.58418724884141	9.17517552727878	110.676595707815
3702781	-0.972093145022069	-6.81479511721673	6.88377785610778	98.1181629794608
3157797	-1.52364999155521	-5.814363067273	6.01068441817023	104.684144720101
2693047	-1.81353051216697	-4.39548876834386	4.75491476592353	112.420507348855
2296687	-2.16875628079305	-5.83787194086459	6.22770042659515	110.379918161497
1958656	-1.64782013119431	-2.74586164418139	3.20235340862868	120.968407398632
1670375	-0.97251184628114	-2.85728947646331	3.01825818038569	108.796606590432
1424531	-2.26548687575547	-3.31941976186384	4.01882798085119	124.313335006606
1214875	1.18029579150358	-2.01305098802043	2.33355360680038	59.6159721044646
1036062	1.54042934540266	-1.84581338534991	2.40415257870929	50.1532074248902
883578.1	2.12460378634151	-1.31840018079367	2.5004240211719	31.8212279640291
753531.2	1.63188803630759	-0.402035818193987	1.68068181466771	13.839915862522
642624.9	1.1712102351676	0.265973406139519	1.20103091872557	-12.7944626920586
548046.8	0.947931369277748	0.5546544059351	1.09827837586106	-30.3327924742603
467390.6	0.77230981665633	0.537850125488043	0.941140377622402	-34.8540310835274
398593.7	0.486894843292075	0.256130614733934	0.550154051360523	-27.7465755785988
339937.5	0.374399590700901	0.134364556614066	0.397779948704176	-19.7420515129898
289906.2	0.423660999021515	0.152788031589573	0.450369653383668	-19.8312037459121
247234.4	0.392633927747134	-0.249209046109014	0.465044675144986	32.4037426951827
210843.7	0.212966206068772	0.0927238748446817	0.232276391166944	-23.5279446288301
179812.5	0.133405117937897	0.141930877083855	0.194785264745094	-46.7735929519992
153343.8	0.143333725590182	-0.0899475767438101	0.16921915805737	32.1098955603719
130781.2	0.0909375290036904	-0.022014189038782	0.0935641956109935	13.6083836175096
111531.3	0.0816493963920805	-0.0771181841779858	0.112311345206532	43.3652274569486
95109.37	0.154326368538438	-0.0754345318969219	0.171776007139441	26.0493256203946
81109.37	0.114632328631124	-0.00351432333528412	0.114686185898298	1.75598672657207
69171.88	0.0490437626711729	-0.0496643523801388	0.0697985569642019	45.3602206629705
59000	0.0167029144405959	-0.0842778314637855	0.0859170543434078	78.7898901269586
50312.5	0.0311034303982114	0.0300236870966177	0.0432301419083027	-43.9880383098337
42906.25	0.0599833859391259	-0.0233109159175416	0.064353751946851	21.237265093475
36593.75	0.109991930389851	0.0542269590736651	0.122632735602133	-26.2436900932368
31203.13	-0.024072749998816	-0.0991879990698859	0.102067411312295	103.641819899199
26609.38	0.0902004739750188	0.0139178361016088	0.0912679114862902	-8.77150255890499
22703.13	0.0937653161202925	0.0789141919653214	0.122553597257192	-40.0844310149838
19359.37	0.0108570932576909	0.0976185769783616	0.0982204818013356	-83.6536715540446
16500	0.0825461976391681	-0.0538888221164284	0.0985793076349223	33.1377990335705
14112.02	0.0464974920742172	0.0477327170021721	0.0666365443401843	-45.7510237158733
12011.13	0.0742992356504405	-0.0408010301653496	0.0847649720155293	28.7731555192906
10236.38	0.0285567836682394	-0.0705375290005312	0.0760988363312831	67.9596699960572
8750.684	0.0820679790978228	0.0275741713848253	0.0865764871126127	-18.5719284558839
7449.463	0.0394113315710532	-0.0576953749877635	0.0698713771954019	55.6632737857279
6363.206	0.0490383511253975	-0.0509713937866725	0.070730777357907	46.1073060616195
5414.761	0.0667254102475258	0.0751040139596212	0.100463392763472	-48.3808312405884
4620.567	0.0961576851626588	0.0670246207917515	0.11721177504039	-34.8775853784852
3941.215	0.0486267793422144	-0.0252272556810393	0.0547811837987546	27.4199896353742
3361.769	-0.000495554585444364	0.0762301979015868	0.0762318086264667	-90.3724611386462
2867.244	0.100976241440221	0.0376735481090552	0.107775217756769	-20.4602025429847
2442.658	0.0579832263445108	-0.0372919060852109	0.0689401247227401	32.7470933834928
2083.003	0.069633292161085	0.00325836582665465	0.0697094851871059	-2.67909965678796
1777.843	0.0832801074995048	-0.161495491881974	0.181704073161087	62.7207158047195
1513.548	0.0225764467859002	-0.235645413523386	0.236724432334485	84.5273748958396
1292.065	0.131062276665651	0.273735585207825	0.303493807142509	-64.4152957795984
1101.762	0.291160207373532	-0.0992647286831996	0.307616242611387	18.8256914633473
939.101	0.159341222497589	0.079395537396325	0.178026055804979	-26.4858678940827
801.2801	0.274335655734313	0.415546259090097	0.497934479074255	-56.5679741442394
684.3433	0.149922962260181	-0.18555887289082	0.23855605194876	51.0633967190791
582.9476	0.271550702248348	-0.2700456760226	0.382967950395427	44.8407828554828
497.0677	0.0444303974313458	0.586690112384563	0.588370077575091	-85.6692224857558
423.5089	0.491228892115308	-0.165408588085626	0.518329842341065	18.6096176196476
361.5036	1.09866085321144	0.387443777995628	1.1649756870797	-19.4252459593281
308.1262	0.977020582272311	-0.854493569045094	1.29797090788783	41.1726554848537
262.7298	0.816723423960318	-0.452829636576158	0.93385857120185	29.0060342151215
224.2111	0.463899188075836	-0.228617685996172	0.517173571489944	26.2348894615036
191.2854	0.914797572094508	0.113586995734362	0.921822435998368	-7.07797682636911
163.1722	0.932102148687461	-0.65123376529316	1.13706632728513	34.9409258627369
139.1537	1.6829615619641	0.577799693400435	1.77938531654678	-18.9485336146234
118.6706	1.07103251073282	0.362228397723439	1.13062816662417	-18.6857866289323
101.1982	1.01782807078421	-0.396328559985626	1.09226842357389	21.275269384026
86.24196	1.48613511421949	-1.21809242530519	1.92154800468322	39.3393395094618
73.61024	2.66184088002987	3.02108925121926	4.02645962781582	-48.617159142346
62.69291	1.57236016461538	-1.01263081365875	1.87022395772284	32.7823302878934
53.57697	1.86658657656293	2.314135724151	2.97310773393713	-51.1102818554546
45.65746	1.44167298323604	1.57814573340539	2.1375137301216	-47.5875711732297
38.96512	1.28503784399529	-0.445488744430392	1.36006708728438	19.1200829080635
33.18414	1.2416999771837	0.510419361754889	1.34251508676524	-22.3458467538059
28.30617	1.14954616201535	-0.452661602980572	1.23545898572845	21.4932397180276
24.17237	3.06996439135665	3.33450419171919	4.5325047786837	-47.3652864670308
20.61345	2.77068170933159	0.303007263232589	2.78720120120459	-6.2411776961585
17.55618	2.92021166947491	-0.991463484925739	3.08393191177732	18.7532581388869
14.98558	1.66021117768402	-0.750065420463203	1.82178464410083	24.312936915205
12.76553	2.27636103460338	-2.63039237993874	3.47861806358507	49.1268452081605
10.8809	2.08786386600809	-0.69680691263787	2.20107142012297	18.4559961756171
9.278505	3.59864105193022	2.21806514054579	4.2272958718715	-31.6480973070744
7.923394	1.42950195934515	-1.08416858296201	1.79412858180607	37.1775525596994
6.75822	2.1250987264427	1.63228722009895	2.6796279902305	-37.5278474964865
5.761429	2.15569028154583	0.165293279097494	2.16201814471246	-4.38472625795701
4.919708	1.36025399565978	-2.68574683713355	3.01056921625816	63.139089586724
4.191257	0.433001843686947	-1.85712876180973	1.90693938932973	76.875580837647
3.564097	1.18417322785313	-1.08879304428816	1.60864431334412	42.5971145072182
3.051758	8.36733486737432	2.18433547767407	8.64775197735248	-14.6308268029206
2.604164	1.49304765998567	-2.32380194523316	2.76210912088174	57.2791694666015
2.214424	1.65821268679662	-1.78985318495549	2.43992699447105	47.1863803955012
1.892567	3.05495575033859	1.74562207696777	3.51851546424399	-29.7439351003146
1.607507	2.66729330913785	0.0615713956513464	2.66800386688887	-1.32237226721706
1.376413	7.0909770679793	-0.041928897138578	7.09110102953156	0.338785589781613
1.17375	1.12377745064264	0.95439084509111	1.47436007941296	-40.3402566705097
1.001604	7.28708333356735	6.11699341068488	9.51415744544504	-40.0110924172071
