EC-Lab ASCII FILE
freq/Hz	Re(Z)/Ohm	-Im(Z)/Ohm	|Z|/Ohm	Phase(Z)/deg
6999984	2.5107282111027	98.4373256629433	98.4693395926996	-88.5389388984481
5969734	17.9169290385379	90.3133942064517	92.0734789136478	-78.7790039288511
5091109	17.6498426622731	88.8339850796596	90.5703806502776	-78.7626173359103
4341796	17.6519885759033	92.2149041142851	93.8891966175588	-79.1634013136043
3702781	18.9650728063143	99.3942184371677	101.18737394203	-79.1974350066351
3157797	19.1363474683742	108.618825202348	110.291654184569	-80.0082275825247
2693047	18.6302809434254	121.51562104518	122.935485218983	-81.2835170429269
2296687	18.6566937167817	138.827403030595	140.075408450809	-82.3460099782175
1958656	20.1634685390242	158.265250136512	159.544523141025	-82.7394600961339
1670375	21.2496079058503	181.861878921691	183.09912299375	-83.3355080904085
1424531	23.1606648958299	209.750940195638	211.025764567673	-83.6989352198599
1214875	24.9506911066416	241.793061888733	243.076987319302	-84.1084854518195
1036062	27.1623497390493	279.951843727425	281.266471606075	-84.4582188899673
883578.1	29.623178184618	324.50727577794	325.856570777049	-84.7841172838377
753531.2	32.1775106839433	377.012472913782	378.383135097721	-85.1217040167288
642624.9	35.3912138553449	438.493598734609	439.919508716518	-85.3856083771661
548046.8	39.635049574857	510.539026314545	512.075223521901	-85.5608188709171
467390.6	139.36304508319	708.498652774317	722.075064877524	-78.8718803874418
398593.7	162.612693076371	804.066906880158	820.345341115176	-78.5668376573141
339937.5	187.068433102281	913.677271874087	932.631093092342	-78.4290413075852
289906.2	208.269936538644	1041.2805538645	1061.90468419825	-78.6893360339131
247234.4	231.561647104287	1187.57117433917	1209.93639937435	-78.9664757194179
210843.7	252.339022859179	1360.37773163626	1383.58323030793	-79.4915342428758
179812.5	272.399255690106	1560.28236904569	1583.8820744157	-80.096921449211
153343.8	293.272688560326	1799.55527740165	1823.29593491554	-80.7439053914727
130781.2	313.494905492227	2079.99204179212	2103.4842404183	-81.4289337313311
111531.3	340.476504692915	2404.55591623944	2428.54141504114	-81.940699633942
95109.37	361.947034635075	2792.04117862701	2815.40398504904	-82.6136385643231
81109.37	392.369464311995	3237.97893855417	3261.66543395317	-83.0907405203286
69171.88	421.364535670509	3757.96565125442	3781.51476367988	-83.6023918313804
59000	452.448202396713	4361.91549652688	4385.31825238412	-84.078061392898
50312.5	1321.89338567056	5704.77989422973	5855.92996582843	-76.9538468724618
42906.25	1672.33911281895	6767.95282192532	6971.5065450784	-76.1204224636645
36593.75	1807.11179892124	7536.76121335495	7750.38209644737	-76.516565483218
31203.13	1888.15267128164	8587.54471029315	8792.66993929329	-77.5996276033538
26609.38	2046.78465303463	9853.43523178021	10063.7723187076	-78.2652326739573
22703.13	2161.82161755161	11339.2101354292	11543.446591098	-79.2060866693416
19359.37	2308.56936053016	13091.368399065	13293.3599609886	-79.9991175535822
16500	2457.8344019525	15160.3311529976	15358.2743371764	-80.791174409571
14112.02	2603.31946745673	17511.1623958072	17703.6177292092	-81.5439836565934
12011.13	2814.68632601013	20360.7222274672	20554.3540092581	-82.1292600443196
10236.38	3020.22559827993	23670.2041485205	23862.110700798	-82.7285738980264
8750.684	3241.3458636951	27430.9722431355	27621.8131412796	-83.2609662812619
7449.463	3573.05226915632	31963.4709346078	32162.5586156581	-83.6216432132968
6363.206	3920.32209780403	37131.640192116	37338.0185428645	-83.97309552483
5414.761	13702.7315062967	50046.0889800693	51888.1091670786	-74.6875696096014
4620.567	15117.7060730783	56545.1202404547	58531.1511925015	-75.031688061357
3941.215	16346.8922233358	64231.1686302916	66278.6836695956	-75.7213000635764
3361.769	17580.3316679951	73384.1659557191	75460.6114113399	-76.5277954560026
2867.244	18816.9192536853	84022.2623923033	86103.5250597836	-77.3768043168274
2442.658	19986.1856336883	96620.6685483901	98666.109718191	-78.3130746498507
2083.003	21227.0849287625	111492.648923509	113495.373908163	-79.2204679099994
1777.843	22576.2134996566	128712.300551072	130677.242583135	-80.0514858960571
1513.548	24045.2319123743	149238.781929201	151163.445347847	-80.8472096819348
1292.065	25655.0068784936	172949.420712161	174841.875712335	-81.5623756018171
1101.762	27477.4444419097	200762.470233601	202634.102281318	-82.2066093466622
939.101	29658.2643241301	233590.215606663	235465.49953207	-82.764039985545
801.2801	32016.6015600459	271512.664605708	273393.836464442	-83.2747745641246
684.3433	111570.394785808	383768.550584086	399657.670275539	-73.7896301530724
582.9476	125359.054392412	432931.373347575	450715.505110238	-73.8511658202694
497.0677	138907.478964608	488892.639488606	508243.347874263	-74.1387333376456
423.5089	148117.717369607	552948.862973625	572443.275148383	-75.0043006787497
361.5036	162633.480785814	630470.387146619	651108.714533385	-75.535547146395
308.1262	171537.278960649	718631.546212153	738820.910156509	-76.5747206994238
262.7298	183776.837155903	826705.387724194	846885.897844117	-77.4669305780015
224.2111	194563.849675377	951593.718584702	971280.441916939	-78.4445111680537
191.2854	197845.607406945	1102490.88821918	1120102.24666168	-79.8263707783502
163.1722	208753.191419053	1276783.51209027	1293736.46144538	-80.714340769244
139.1537	223022.951452046	1466023.11422424	1482890.08639013	-81.3500374429416
118.6706	244751.696881401	1712231.19808696	1729635.53063316	-81.8650692049847
101.1982	266913.666777083	1999276.44576168	2017014.92609495	-82.3956854190554
86.24196	292193.401563775	2293329.63101526	2311868.89343016	-82.7390590256773
73.61024	230048.62058348	2679805.25283826	2689661.4212521	-85.0934571974288
62.69291	413640.998115473	3020177.51214302	3048371.87366902	-82.201338134947
53.57697	338469.140097024	3649623.13187684	3665284.4860295	-84.7014967697799
45.65746	101692.527801178	4296126.81964128	4297330.22010779	-88.644019358075
38.96512	555954.191536056	4843460.82131568	4875263.86882869	-83.4519904101586
33.18414	358588.00773957	5777075.05721038	5788193.29116927	-86.4481586082362
28.30617	678261.564062793	6311157.17469364	6347499.00614186	-83.8659524171406
24.17237	1076429.80507358	7925927.84148188	7998689.47225908	-82.2659104784582
20.61345	348931.885545778	9688007.46760399	9694289.15151086	-87.9372759177812
17.55618	516023.365012536	11709222.3706535	11720587.3845405	-87.476617850496
14.98558	885087.181869413	12447819.6413668	12479246.4974255	-85.932897663075
12.76553	1073109.75986685	14411607.7123215	14451505.1607286	-85.7415297595013
10.8809	1023113.93227828	16791750.4901828	16822890.5555191	-86.5133039095425
9.278505	1510348.48740369	19907215.820552	19964428.2232033	-85.661315668183
7.923394	2243231.66154138	23232265.7975342	23340314.1018843	-84.4848041316614
6.75822	2316132.14855697	27537985.2883043	27635214.8873216	-85.1923497128684
5.761429	-1906386.44771229	27030490.0126463	27097632.7307718	-94.0342344073273
4.919708	2790662.23999682	33644011.5257814	33759551.3489836	-85.2583544508675
4.191257	4811615.04686993	41127104.4348181	41407612.3261375	-83.32708561082
3.564097	7337741.6539105	49024416.1490712	49570513.7287969	-81.487432722214
3.051758	10694591.1010134	44790608.3467147	46049678.3364082	-76.5709964737554
2.604164	6365675.20578894	70129420.2758839	70417735.0463443	-84.8134527229484
2.214424	5330759.1334861	74286853.039361	74477872.7370141	-85.8955408148325
1.892567	-5580062.87074204	96443927.2619022	96605218.3235487	-93.3113335572107
1.607507	8714150.7552505	97980374.0038756	98367119.0658981	-84.9176164501032
1.376413	14694468.8197634	127921915.134614	128763130.536665	-83.4471202688999
1.17375	20491244.9119106	139599326.111026	141095226.597828	-81.6494078908975
1.001604	4068830.0539089	145828028.725857	145884781.043387	-88.4017728022937
