EC-Lab ASCII FILE
freq/Hz	Re(Z)/Ohm	-Im(Z)/Ohm	|Z|/Ohm	Phase(Z)/deg
6999984	25.3724329329674	10.0884730483951	27.3045351798218	-21.6835361905244
5969734	12.6042904515587	24.794754802023	27.8145286402573	-63.0537188752495
5091109	-18.6690592697999	33.6971817252227	38.5231596606767	-118.987520413526
4341796	89.69971121404	-18.7142193816401	91.6311093403672	11.78468187392
3702781	58.8141189347544	-14.6358986397219	60.6078387262213	13.9742171697007
3157797	9.99635726262305	-43.538365943	44.6712040078234	77.0690686850627
2693047	44.7904175041137	-169.668777413387	175.48126831416	75.2119978794846
2296687	57.781364190874	-59.2612048193156	82.7682091409213	45.7243869079777
1958656	-18.5389320897474	-72.4451509165008	74.7796221864141	104.354121030106
1670375	137.249606267797	-26.4547923650422	139.775929471933	10.9099357489379
1424531	50.5326261002351	-73.7614959417676	89.4108750888479	55.5856838411113
1214875	1577.86386112945	-1175.30145192206	1967.48262181612	36.6812737062909
1036062	87.4117679436873	-38.8294808344907	95.6480305961242	23.9514349239451
883578.1	118.918768991247	-26.7862298998297	121.898218734484	12.6939143285911
753531.2	106.697823253351	-103.433928213304	148.603509355056	44.1101184272422
642624.9	444.600585150699	1288.1342104059	1362.70298463545	-70.9578435464178
548046.8	100.81663223864	-258.569680182897	277.528868490878	68.699129326453
467390.6	-62.5773149329345	-308.10591404117	314.396524489952	101.480794983304
398593.7	323.038710206584	107.674381949804	340.511058293568	-18.434120646999
339937.5	452.958506517962	-427.38870986405	622.762007468535	43.3363045474504
289906.2	554.809940535218	-806.032176031345	978.520280277582	55.4594956163116
247234.4	991.299301624732	587.179253021068	1152.15180448588	-30.6396572101765
210843.7	275.438009142981	-916.300209387561	956.80309918203	73.2693271793141
179812.5	1309.29952297294	-696.489409963088	1483.02486123729	28.0110013306296
153343.8	1060.62214262879	-1083.91647227259	1516.50725296595	45.622331665509
130781.2	9768.52086685111	-6317.21430700081	11633.1937371764	32.8903843984771
111531.3	5404.12398835961	-1828.59111839111	5705.11187969374	18.6942549451443
95109.37	8.32122726049816	-45.570245891095	46.3237534499928	79.6516759466148
81109.37	56.5230916516929	35.6716195087493	66.8380455148313	-32.2559482319287
69171.88	58043.9071394391	2907.94354540823	58116.7040675494	-2.86806514832667
59000	38721.296458247	-42129.9856461732	57221.2765494987	47.4141597669555
50312.5	11919.0200771018	-16449.3498336685	20313.6444181926	54.0733216338178
42906.25	17179.6661408546	2625.03359949464	17379.0601043239	-8.68753559402857
36593.75	33.290793346308	21.1858914007011	39.4603461220107	-32.4722226108568
31203.13	31.5107381663778	-23.0316419391273	39.0305412491575	36.1635948792343
26609.38	39.7379102687804	-5.90807227755446	40.1747038640791	8.45655911807748
22703.13	4677.21498535303	-3782.39914031914	6015.22096650637	38.9619895055887
19359.37	91318.2307186977	84393.6629905246	124343.514565704	-42.7432187449766
16500	144223.735453437	130240.110183375	194326.972313986	-42.0833661706362
14112.02	-37566.7591338696	-244441.977458343	247311.83096562	98.7370719897611
12011.13	67452.259850255	-47684.0822284989	82604.9578226426	35.2576683910412
10236.38	28.4590917807307	-6.7980458101547	29.259756181845	13.434542492889
8750.684	50.100195210617	-18.630033004195	53.4519194218442	20.397927760232
7449.463	30739.3817944686	17456.5546072762	35350.2601385467	-29.5917632395058
6363.206	364325.180874579	-24730.3784474873	365163.564772624	3.88327817932087
5414.761	22698.8686543566	-52542.0049985571	57235.486609761	66.6349915737147
4620.567	487756.695431425	-114480.283103223	501011.30641691	13.2086825300484
3941.215	-3172.13954579759	-23249.5122777761	23464.916161207	97.7694035695647
3361.769	381274.324789538	-937489.78252683	1012055.92883295	67.8685697066314
2867.244	144099.125754028	-80619.183411706	165118.172158747	29.2257176929306
2442.658	1958609.41848886	548194.140019457	2033879.95450689	-15.6363734629531
2083.003	1569026.14689456	-229937.946973179	1585785.1396381	8.33724638681944
1777.843	485505.896675775	-1588646.89501894	1661178.77808509	73.006339551349
1513.548	2271062.33517991	-311299.796849959	2292298.34310276	7.80502589092242
1292.065	2731893.42463251	-1801731.77245249	3272534.04312547	33.405553670391
1101.762	2543721.59292447	-3210222.65030993	4095857.54230699	51.6073399314645
939.101	1554427.22802808	-3021973.01450717	3398317.95270022	62.779845049177
801.2801	3834834.80173844	-67556.7970547988	3835429.81652025	1.00925312400925
684.3433	4298352.12630196	-952.660560924328	4298352.2318729	0.0126986870670245
582.9476	4278048.62446278	2319584.47868524	4866433.20996244	-28.4668236341239
497.0677	636743.793942398	2276744.97444605	2364108.78298556	-74.3751357239166
423.5089	1468750.53034625	4233194.18985752	4480754.53126322	-70.8652535667246
361.5036	4522078.79652604	1800868.91107429	4867476.2944327	-21.7143842382143
308.1262	6327552.50085755	2165323.69623859	6687790.91782937	-18.8912321055323
262.7298	5621715.24054506	691201.722522244	5664048.20486146	-7.00945680364942
224.2111	1131868.90067919	8351231.09798431	8427584.9482675	-82.2815522262653
191.2854	4140802.49722795	-1206680.47019952	4313041.04759161	16.2467683204178
163.1722	6279901.23655479	3863234.52371557	7373041.47052695	-31.5987656409137
139.1537	5163499.52888971	7709858.48711876	9279204.99160577	-56.1887161909085
118.6706	14068548.5747214	8016105.03082947	16192035.0439525	-29.6740170605748
101.1982	7644480.86636051	9991120.10967136	12580165.6889737	-52.5794029379496
86.24196	6531911.75988941	11616830.9399752	13327289.0089075	-60.6518225022816
73.61024	3061006.09871439	11564715.4876624	11962959.6106877	-75.1746410312421
62.69291	3849470.05378977	12059691.6508064	12659169.8940947	-72.2968459136385
53.57697	3409001.9728436	11208953.9871118	11715884.2575386	-73.0838034452507
45.65746	2873996.0111609	10824037.975002	11199091.5326402	-75.1299503232219
38.96512	10351745.1544992	11181200.0596169	15237383.7162708	-47.2059583633608
33.18414	6149719.3021647	12611554.6535332	14031049.7923167	-64.0049434067257
28.30617	3983883.96915159	24991046.4188863	25306594.6462694	-80.9425498590446
24.17237	13136762.9158102	11853754.7633679	17694237.533623	-42.0610265462041
20.61345	18046157.21271	5928265.30558396	18994949.8467155	-18.1856460399846
17.55618	6910762.5012864	24745649.9699424	25692524.8036096	-74.3964497538954
14.98558	34447928.9992303	2439776.59722476	34534219.5826166	-4.05121210907372
12.76553	3105319.97559392	32142766.7891278	32292421.2317856	-84.4817674553472
10.8809	34411362.2451092	23785292.4769524	41831590.8109923	-34.6524072354209
9.278505	8076618.56020482	59016650.5385967	59566742.4672685	-82.2072968960164
7.923394	28977975.7882974	28660662.461135	40757289.5749738	-44.6845773717963
6.75822	30666141.6409027	36354584.2598146	47561203.0950003	-49.851401906305
5.761429	-3786969.80222218	43337067.5081718	43502213.2826685	-94.9940533057304
4.919708	45387137.3668882	27073132.275197	52848337.0556831	-30.8158016251336
4.191257	54466589.5145977	28123555.1179059	61298806.887423	-27.3093457555565
3.564097	96733380.8734346	-18892243.0304631	98560965.0009934	11.050889096118
3.051758	71542338.085874	67497520.423363	98357619.9493247	-43.3336746711707
2.604164	131955229.144008	96715527.989392	163603410.272263	-36.2392539560813
2.214424	-33261593.1856735	178266289.647736	181342779.304883	-100.568932652353
1.892567	43020982.2079928	111822014.658289	119812219.211477	-68.9569030384824
1.607507	73545806.1813506	18218062.0606059	75768617.4620395	-13.9127101503934
1.376413	6278509.28125767	57586059.8234882	57927316.2229117	-83.7777169166904
1.17375	-45321387.1672366	127149222.994814	134985010.438002	-109.61822806865
1.001604	10658488.2288511	135044754.889743	135464715.681078	-85.4872510900223
