EC-Lab ASCII FILE
freq/Hz	Re(Z)/Ohm	-Im(Z)/Ohm	|Z|/Ohm	Phase(Z)/deg
6999984	1.46435875324934	1.95913158164939	2.44592377486176	-53.2236137644829
5969734	5.18608577298607	1.45814423865778	5.38717646504172	-15.7041085334935
5091109	5.94270107106184	-3.38964749040154	6.84144766326433	29.6999319416486
4341796	3.63636700834687	-5.59652566052009	6.67414897108638	56.9860270698787
3702781	1.86889421025025	-5.99348055742817	6.27810279952283	72.6814151857303
3157797	1.7553944592666	-7.44650874689533	7.6506144998433	76.7356072482965
2693047	-0.998308950976771	-5.21625315374696	5.31092437581024	100.834498590397
2296687	1.61896577380536	-7.03495787878338	7.21884218784492	77.040077020629
1958656	-0.802645963633814	-9.57109687358358	9.60469343115433	94.7936899647732
1670375	-6.56211241557438	-10.4131205445362	12.3083060909971	122.218200237151
1424531	-5.0666755234587	-11.4573206062494	12.5276253270284	113.856053104555
1214875	-4.4551052139505	-8.15037190177639	9.28851573743809	118.661622019656
1036062	-1.95583576116525	-14.2149366110186	14.3488576681187	97.8341478004144
883578.1	8.27809620229844	-10.1838438643165	13.1239305311818	50.8935261919787
753531.2	-2.15242311989175	-8.02854347320826	8.31206566313329	105.00786587435
642624.9	5.69797648630161	-3.32887986658542	6.5991194264541	30.2943871132527
548046.8	7.90959574840501	-1.90704863292781	8.13624848388608	13.555619934156
467390.6	6.14780975351095	7.85006371708908	9.97091094773806	-51.933582100012
398593.7	0.53932898625665	3.96875638429959	4.00523444923458	-82.2612695203177
339937.5	3.54005606957878	-3.72353814498203	5.13777513062783	46.4470127383526
289906.2	4.5251363806724	-0.387352675244252	4.54168485902576	4.8926046419279
247234.4	2.75671409072641	0.146504988336455	2.76060433412994	-3.04211024592238
210843.7	1.39575819176852	1.72685280454836	2.2203967074524	-51.0525334392834
179812.5	2.37291261181528	0.230255993705242	2.38405790322911	-5.54235425146672
153343.8	1.15083620075042	2.02889405114316	2.33255975951781	-60.4370779206666
130781.2	1.35135255744559	1.07765062381474	1.72843414729143	-38.5709859174575
111531.3	1.65717635510633	1.4433655835844	2.19762091357892	-41.0551762185401
95109.37	2.40480746213497	0.324436155051998	2.42659385737395	-7.68346716510746
81109.37	4.36904642472813	-0.193657213863062	4.37333622968905	2.53796410902898
69171.88	0.543617484320076	1.89147374841195	1.96804291370641	-73.9651271257209
59000	1.98834714471447	2.16119292747683	2.93671231782585	-47.3852311278793
50312.5	1.43666857738863	0.185981412090356	1.44865651101253	-7.37610395590953
42906.25	0.953590550664594	0.974693641753554	1.36358447981473	-45.6270184602731
36593.75	2.0230574373852	-0.554141177091542	2.09757808891778	15.3183188612981
31203.13	0.825255832164145	-6.09601167677169	6.15161812467726	82.2903757763103
26609.38	2.06477344523282	0.564852601595366	2.14064192280439	-15.299858161139
22703.13	1.9606726701844	-0.591637203646426	2.04799216315556	16.7913016793322
19359.37	0.00119400864875178	-2.7178141324501	2.7178143947301	89.9748284288254
16500	1.88200576012757	-1.5259864092979	2.4229280225618	39.0361703513243
14112.02	1.58353021368622	1.21449517098389	1.99563685524204	-37.4865544281914
12011.13	1.72030726195244	0.198950753720565	1.73177321781239	-6.59685843621981
10236.38	3.56051552573979	-1.87398223408646	4.02356561058793	27.7588769824603
8750.684	1.92185751726432	-2.92950922579504	3.50364961442831	56.7337652118385
7449.463	1.02633925979446	-1.22991047170701	1.60189014748515	50.155579470162
6363.206	-0.20278559579938	2.34422070057687	2.3529752847994	-94.9440340902155
5414.761	2.98547717451478	0.782241583478315	3.08625596062144	-14.6823357087029
4620.567	2.02150997243345	2.54204703342128	3.24784631544872	-51.507255663811
3941.215	1.2098375988605	-2.47720333490245	2.75685389131676	63.9696492065457
3361.769	2.18502103426691	-0.859959452428529	2.34815825276109	21.4831270129436
2867.244	0.216928893226678	-1.27105777036356	1.28943631107478	80.3147600029197
2442.658	1.88728530793461	-1.13332698301187	2.20142587519285	30.9850877352829
2083.003	-0.394926395701294	1.46746020635016	1.51967309486049	-105.062697935344
1777.843	3.17307275968232	-1.84133731207966	3.66863923479738	30.1266365299943
1513.548	2.20578831890093	-0.769425041167032	2.336132916119	19.2298387032987
1292.065	2.70191083055428	4.30369936439612	5.08154999536265	-57.8789359569665
1101.762	3.18352427373202	-2.6522477043788	4.14357872941055	39.7982500554719
939.101	6.24515545980123	0.727411889353395	6.28737582572076	-6.64365762892609
801.2801	1.27880780662695	-0.29059537003552	1.31140957575279	12.8024439941448
684.3433	4.3986624181956	0.549621967000158	4.43286762444532	-7.12231230055633
582.9476	6.72654328725054	3.30571507260736	7.49494074269562	-26.1715031406283
497.0677	4.40913777098565	-2.59591209136414	5.1165667658717	30.4877603691094
423.5089	20.9162680030493	2.00509203316809	21.0121550831146	-5.47580119285771
361.5036	4.23645264773298	-2.29878485184509	4.81995257565427	28.4851525539902
308.1262	8.41337683830583	-1.78939119703686	8.60155978177063	12.0069894984308
262.7298	5.90436764376914	0.673706989269207	5.94267939402574	-6.50947664288441
224.2111	7.31016891310221	2.11195170025778	7.60913329639504	-16.1143233964954
191.2854	196.699767431636	50.8051697647241	203.155024014869	-14.4822932241109
163.1722	58.7182759103882	10.6219568383371	59.6712819785529	-10.2537443749084
139.1537	23.4163503523203	-15.5417574309989	28.1046559820009	33.5727828620559
118.6706	25.6330769949137	-20.5833930628459	32.8744689114028	38.7645081423409
101.1982	40.7401993790403	-24.9103706420692	47.7523864426608	31.4434711601214
86.24196	3102.23463912075	-3293.99893132881	4524.85234187327	46.7172597415819
73.61024	3438.1609228866	-3743.95710296749	5083.12554640599	47.4380349182786
62.69291	7388.08305991976	-5071.18768043117	8961.06666588471	34.4657433153452
53.57697	-5281.98432156644	-3081.47755145134	6115.13387207281	149.740972771394
45.65746	-7995.72779935725	-11137.3559551248	13710.301262648	125.675312981411
38.96512	5450.79769106775	-17834.856777877	18649.2174569427	73.0054801146563
33.18414	-6247.81043577922	-27623.2585099998	28321.0089147916	102.744682583583
28.30617	-19301.2507286926	-15533.3834985909	24775.477444565	141.173362973464
24.17237	19185.0212667098	13835.6975549037	23653.5741027624	-35.7980821834086
20.61345	22980.5085487981	-13993.5079598073	26905.7993410821	31.3384651850078
17.55618	14577.1320079807	-29190.1066643994	32627.5206636531	63.4630972198705
14.98558	52352.2503890145	-28683.1038819914	59694.8789185402	28.7177505005015
12.76553	64639.1376836241	-80425.02772918	103181.409205931	51.210492173823
10.8809	24620.5602323749	-88808.4285606238	92158.0651357407	74.5049106645137
9.278505	8354.62794127022	-24152.465562155	25556.6312484282	70.9188824163489
7.923394	13918.5003643903	-27635.3332617995	30942.4675306326	63.2679477948489
6.75822	11892.0716910558	-9339.56999685367	15121.1420478527	38.1447110474582
5.761429	12302.458215783	6747.64467430816	14031.4356643149	-28.7438601872256
4.919708	15454.6961112996	-26179.3707746067	30400.7744316974	59.4450014983976
4.191257	13162.513870073	-13550.7635715507	18891.1345543863	45.8326759312574
3.564097	34977.0188855497	4933.28347940102	35323.20959381	-8.02824451832744
3.051758	31140.1854120757	-4048.66097323577	31402.2738535708	7.407702578311
2.604164	37544.7532267907	-17965.8082661798	41621.8543738472	25.5719142671798
2.214424	23130.1093919216	44380.4175553958	50046.2128724396	-62.4724531920893
1.892567	-15923.1649075586	66052.8462319723	67945.0195085547	-103.553527102969
1.607507	65820.2709350699	32647.207715822	73472.0915559509	-26.3816583303043
1.376413	-65163.9738225857	-36453.4292474537	74667.2350381997	150.77688046499
1.17375	180396.849898284	56928.7489575563	189166.344551816	-17.5143973350991
1.001604	99697.2922217771	-144411.844941936	175483.136044146	55.3800492884388
