EC-Lab ASCII FILE
freq/Hz	Re(Z)/Ohm	-Im(Z)/Ohm	|Z|/Ohm	Phase(Z)/deg
6999984	25.3548547428152	92.7816321398008	96.183678041311	-74.7157018373423
5969734	23.5873559982475	91.7463494110533	94.7299107634075	-75.5818994320211
5091109	21.7714206088766	95.1250818575086	97.5847116802951	-77.1086600687062
4341796	19.8833363708187	104.731731546107	106.602451462811	-79.2503190111257
3702781	25.2121741086457	115.817735416229	118.530171518598	-77.7189747120795
3157797	26.8914412289176	126.085923136268	128.921718978973	-77.9604191269477
2693047	28.3455451343772	144.429690646382	147.184936284847	-78.8963456852939
2296687	34.6288963202943	165.669398624636	169.249845202323	-78.1937848369045
1958656	41.3900513329899	186.629414872619	191.163999866721	-77.4955211719785
1670375	50.2617592409219	213.147163389069	218.993054005827	-76.7315965437306
1424531	61.5850571548044	243.127631111271	250.80622854016	-75.7857578155286
1214875	74.254530748153	276.357754494501	286.159647410097	-74.9604121116427
1036062	91.1703489434369	315.089592867905	328.014457090126	-73.8623384972745
883578.1	111.357366812286	358.202999342984	375.11311878109	-72.7306895561116
753531.2	136.138830670418	406.432440566787	428.62700563705	-71.4811831964903
642624.9	166.542186546099	459.325880224266	488.586291399331	-70.0703892175396
548046.8	276.892336698823	548.768372845799	614.667465511524	-63.2258353969068
467390.6	331.155037000714	635.789276170814	716.862373280082	-62.4869490243061
398593.7	392.617333435324	685.00801556332	789.546928244206	-60.180507420007
339937.5	464.175015193994	737.634998025888	871.529595047119	-57.8188326842572
289906.2	539.102471614182	800.074402214221	964.75412617877	-56.0273025208642
247234.4	631.75534252962	863.362929266174	1069.81790994813	-53.8056529406665
210843.7	733.058005172046	922.546777785962	1178.33212472124	-51.5292572431441
179812.5	845.004750194847	980.956239404967	1294.72320264966	-49.2580869207132
153343.8	969.259509280472	1031.89639421865	1415.72390130706	-46.792792767714
130781.2	1103.03534623289	1074.07553083649	1539.5860550748	-44.2378994747123
111531.3	1249.20449835683	1106.16111461853	1668.56354095642	-41.5246463767144
95109.37	1402.71702149476	1126.1876640028	1798.86455769833	-38.7596437306603
81109.37	1553.49031417177	1123.96518163751	1917.45401138044	-35.8860999598966
69171.88	1699.95093441963	1110.86955371667	2030.73000293216	-33.1634732723703
59000	1846.0803566014	1085.6747713716	2141.65879453808	-30.4596682484141
50312.5	1982.08409050357	1051.74313814086	2243.84067403498	-27.951534041073
42906.25	2118.22301439782	984.876906844374	2335.99042385878	-24.9362748892616
36593.75	2218.97718490359	931.878554900353	2406.71090665369	-22.780389404789
31203.13	2313.02956154769	877.110154001266	2473.74775893696	-20.7669297690301
26609.38	2399.08823701088	819.112475329005	2535.06797072654	-18.851268299322
22703.13	2469.16196742592	765.901764842736	2585.22075165195	-17.2332068379828
19359.37	2532.8038250782	717.816220522151	2632.55680713171	-15.8231405154319
16500	2585.43401149525	676.568977970431	2672.49220948319	-14.6646026649436
14112.02	2631.77256316024	642.28361742625	2709.01367095427	-13.7149308490922
12011.13	2677.47722676473	617.265327251995	2747.70827856075	-12.9821407474317
10236.38	2740.97949899032	601.240667218819	2806.14663797225	-12.3720266392866
8750.684	2801.4383617363	574.393249924052	2859.71755601249	-11.5870572712235
7449.463	2756.18026344942	539.803888008599	2808.54372978904	-11.0812386705261
6363.206	2845.62917782561	612.530904523951	2910.80736681241	-12.1477480399606
5414.761	2846.58010165213	605.059545980511	2910.17444997787	-12.0000051429082
4620.567	2896.60326187146	603.989180551982	2958.90408545263	-11.7783392311279
3941.215	2928.09306496113	630.019576599539	2995.10495041027	-12.1428492508122
3361.769	2968.50013053712	686.667488675488	3046.88451783175	-13.024465139758
2867.244	3022.50305231943	724.306688098701	3108.07736063709	-13.4761220400816
2442.658	3067.93164275855	778.031324501081	3165.04933714217	-14.2302777379226
2083.003	3127.00956879854	829.418831968256	3235.13901435182	-14.8552601008513
1777.843	3177.34079553603	895.389516517619	3301.09329120932	-15.7380849307448
1513.548	3250.32435351101	969.274678519564	3391.76971586309	-16.6050331001352
1292.065	3333.58080213608	1037.23890285443	3491.22120553322	-17.2834552366157
1101.762	3415.19192445131	1128.98501267137	3596.96303006773	-18.2927146631607
939.101	3502.57139467466	1235.21816063341	3713.99653731015	-19.425727243876
801.2801	3607.29691781414	1339.83103862535	3848.08241405187	-20.3761267161272
684.3433	3714.24838565997	1458.86410776024	3990.4793640976	-21.443661680015
582.9476	3836.50173571912	1582.87401396292	4150.20911668977	-22.4201937573021
497.0677	3961.31411050912	1720.12946286375	4318.66354919326	-23.4720296776033
423.5089	4099.23340771432	1858.21849211804	4500.74332698173	-24.3852040819048
361.5036	4241.03252707527	2017.38366605875	4696.40221358766	-25.4396011235502
308.1262	4390.28483004667	2182.82442352776	4902.99126583836	-26.4363013152259
262.7298	4552.11803183168	2373.02001481312	5133.51756268845	-27.5330399379315
224.2111	4702.63808482438	2570.93290247125	5359.52432085628	-28.6654337242281
191.2854	4866.12086217108	2798.45281942489	5613.41878250712	-29.9027360828131
163.1722	5020.70278488587	3059.57213497253	5879.4930141349	-31.3577624035478
139.1537	5196.19185637166	3354.35850219397	6184.83069852879	-32.8439289804479
118.6706	5369.96979854098	3692.60123746725	6517.04530720686	-34.5139347954937
101.1982	5545.66379722195	4090.12061598021	6890.82532103988	-36.4100698635437
86.24196	5728.8252654918	4549.53746721369	7315.5813226372	-38.454790076605
73.61024	5922.52869832963	5081.17303167895	7803.50341579982	-40.6276064639237
62.69291	6126.74041732637	5705.35445296398	8371.85866909233	-42.9603411014414
53.57697	6354.66795273433	6407.5348712368	9024.31758725413	-45.2373441342267
45.65746	6591.48238774015	7246.10081333127	9795.59171591225	-47.7084881863142
38.96512	6861.18090750852	8190.87109669145	10684.857171164	-50.0483733371151
33.18414	7163.09096063162	9306.99273489063	11744.3597474528	-52.4164594705923
28.30617	7510.61163507909	10599.0859380218	12990.3775870664	-54.6782562034949
24.17237	7914.11697279899	12046.9027163807	14413.9207891915	-56.6974053101595
20.61345	8375.59111353438	13745.36568665	16096.1363177891	-58.6444075712613
17.55618	8908.56109652448	15706.0354353573	18056.6334045749	-60.4378227658002
14.98558	9513.96630957446	17929.0895347536	20296.9900843679	-62.0476049869998
12.76553	10233.9821216833	20493.4867362211	22906.7105598906	-63.4634982903271
10.8809	11076.2873502221	23431.7622358916	25917.7858418509	-64.6997120291014
9.278505	12064.4287239964	26748.1044220955	29342.9979826825	-65.722785468087
7.923394	13182.9992752171	30515.5659832521	33241.4084714921	-66.6352207568328
6.75822	14555.3476446243	34826.8230807248	37746.0693443963	-67.3182437444083
5.761429	16087.5784824028	39710.3116711162	42845.2918585538	-67.9459763047536
4.919708	18038.2421846128	45254.0696257618	48716.6193285622	-68.2678066982786
4.191257	20134.8854892711	51531.6400516772	55325.6137795297	-68.6579909567626
3.564097	22661.7668900227	58849.1854315871	63061.7340749448	-68.9391986426129
3.051758	25551.0558103867	66637.2204274428	71367.8891331465	-69.0214180862141
2.604164	28937.1648900865	75736.1006600558	81075.9918537304	-69.0891989933781
2.214424	33011.170494876	86004.4467536963	92122.2136015584	-69.0016510422821
1.892567	37488.3901463448	97427.7957273601	104391.35393344	-68.9542101368453
1.607507	42964.4267481367	110615.159675204	118666.151516626	-68.7731554735839
1.376413	49067.68658464	124820.07817107	134118.19332738	-68.5398470594067
1.17375	56142.7313176231	141146.235914256	151902.159933839	-68.309174251087
1.001604	64316.1395473098	159174.332652905	171677.121311393	-67.998287351449
