EC-Lab ASCII FILE
freq/Hz	Re(Z)/Ohm	-Im(Z)/Ohm	|Z|/Ohm	Phase(Z)/deg
6999984	16.2794597654326	3.62434908608625	16.6780309554861	-12.5512478376035
5969734	16.1293145300283	0.777010276641867	16.1480194506505	-2.75802287419385
5091109	12.2225542148377	-4.57084002639817	13.0492685650028	20.5041713241831
4341796	11.2486506270072	-5.41377595941711	12.4836337284956	25.7006865316354
3702781	5.1629304445797	-5.90006062112259	7.84006161381971	48.8119991701582
3157797	4.00893384585098	-4.82163947982159	6.27054685444449	50.2582993436731
2693047	2.70973226525606	-4.29298518505657	5.07664955935358	57.7398791000882
2296687	2.5728994861424	-3.66258941706962	4.47597732387265	54.9126876149506
1958656	1.67049093175101	-3.20409398821336	3.6134136544779	62.4642025998394
1670375	1.44180799184544	-2.69501796451408	3.05645744521382	61.853658773348
1424531	1.17966323090251	-2.46760961249958	2.7350872998944	64.4494440641882
1214875	0.880822148046473	-2.18065191966276	2.3518270453454	68.0049336618725
1036062	0.88036198516506	-1.80897600624998	2.01182290873523	64.0495195231869
883578.1	0.745209009933484	-1.60346533804064	1.76817350924162	65.0733951030857
753531.2	0.677669046341061	-1.39888513131114	1.55438571370564	64.152823813649
642624.9	0.653670880500151	-1.17699342125526	1.34632801860914	60.953370189859
548046.8	0.582395788380988	-1.04853019572003	1.19941670226014	60.9504481051038
467390.6	0.533389932486303	-0.850117679363172	1.0035959788897	57.8945777047735
398593.7	0.516072212599276	-0.790300287409211	0.943877678990342	56.8551520503149
339937.5	0.505910357821423	-0.673973363239619	0.842724975604452	53.1066959968085
289906.2	0.470985790000472	-0.552433284274589	0.725954645936492	49.5502209117165
247234.4	0.415627755300616	-0.499512303939358	0.649814567983078	50.2372717925918
210843.7	0.450105219069454	-0.446460869976273	0.633973198687083	44.767106212607
179812.5	0.39923985553052	-0.36897323528896	0.543630122972994	42.7437859731938
153343.8	0.401373618005042	-0.337081947343928	0.524142175803123	40.0242417986053
130781.2	0.388801738447708	-0.279811611784216	0.479021220729563	35.7416916772118
111531.3	0.387077635869353	-0.232647532400602	0.451612633262508	31.0073757935135
95109.37	0.378422239008375	-0.213310798905922	0.434401758635936	29.4092876409126
81109.37	0.373832008160012	-0.184841534346962	0.417033287813678	26.3101302791602
69171.88	0.378677359580349	-0.170887027834338	0.415450260489506	24.2883914032616
59000	0.379185813455041	-0.13044164137393	0.400994891401233	18.9834496626586
50312.5	0.371021985004211	-0.0979886134766487	0.383743510339316	14.7942802027155
42906.25	0.407706667090738	-0.103657099678665	0.420677454475553	14.2648901183264
36593.75	0.368814956233972	-0.0913178914548019	0.379951877534008	13.9066482569209
31203.13	0.363441994323535	-0.0820295790759941	0.372584131547833	12.7186603757628
26609.38	0.368242015057186	-0.0602337245686432	0.373135743702996	9.28966267050951
22703.13	0.369458405005086	-0.0724048453636152	0.376486353884216	11.0880511387102
19359.37	0.368583708081801	-0.0655279981055703	0.374363283989034	10.0809001968513
16500	0.357109627670417	-0.0543203927482612	0.361217373949855	8.64903283019578
14112.02	0.359033727930872	-0.0357190811854439	0.360806139848911	5.68147298778684
12011.13	0.353943463880795	-0.0430579104135638	0.356552884258588	6.93606091009316
10236.38	0.353647198362485	-0.0365701071334435	0.355532999376129	5.90388317174293
8750.684	0.357258487435575	-0.0385881415710341	0.359336432211739	6.16472220797624
7449.463	0.352934306484113	-0.0232741443618873	0.353700877139427	3.77288983867979
6363.206	0.361630108165859	-0.0323518095764827	0.363074337725657	5.11213170225889
5414.761	0.348261029669709	-0.0248904422880349	0.349149364747954	4.08801548008615
4620.567	0.350567592645115	-0.0178217789113645	0.351020302570316	2.91023598796389
3941.215	0.348096147949818	-0.0221293720348556	0.348798849373329	3.63754574831398
3361.769	0.352018742889375	-0.0237053071827243	0.352816010030786	3.85254071248549
2867.244	0.351612388066748	-0.0209715041391814	0.352237243101665	3.41329522391994
2442.658	0.347811942447389	-0.0174508757017971	0.348249451358915	2.8723101926308
2083.003	0.348567243059424	-0.0198061537022776	0.349129498407863	3.25214167671467
1777.843	0.346101314396341	-0.016194771118832	0.34648000005551	2.67902975593696
1513.548	0.343838759439249	-0.0154748796543742	0.344186816123219	2.57692695797126
1292.065	0.343652128934787	-0.0149887333854305	0.343978847968754	2.49743020981245
1101.762	0.34244962697268	-0.0129495060899847	0.342694378012978	2.1655701900837
939.101	0.341946456375636	-0.0124863036193045	0.342174351472942	2.09124782377271
801.2801	0.341048099688959	-0.0124890811034092	0.341276696315846	2.09721747104018
684.3433	0.340021440389703	-0.012459663416412	0.340249648254246	2.09859371566409
582.9476	0.338634262577883	-0.0120708946081267	0.338849332725191	2.04149044997017
497.0677	0.33753889779925	-0.0120259924587374	0.337753063675447	2.04049751411121
423.5089	0.336846746722628	-0.0116709833900622	0.337048872763149	1.98437629807814
361.5036	0.334997260150904	-0.0125652934583004	0.335232830892658	2.14808008042954
308.1262	0.333246626430219	-0.0117900491492857	0.333455123346552	2.02624232416835
262.7298	0.331950009982482	-0.0123100626166856	0.332178185269587	2.12378838878937
224.2111	0.331564676024126	-0.0122388051173423	0.331790480179411	2.11395757894052
191.2854	0.329103954283559	-0.00975583205990183	0.329248521612863	1.69795698812342
163.1722	0.328363758277793	-0.0104134705341277	0.328528839097699	1.81642460663365
139.1537	0.32753916696449	-0.0113220227454752	0.327734792316655	1.97975080979805
118.6706	0.326154756665564	-0.013176275909094	0.326420801332277	2.31342538686398
101.1982	0.323588847941129	-0.00997256222306231	0.323742481780133	1.76521822256722
86.24196	0.323152122121813	-0.00847516227212215	0.323263240111477	1.50232570559616
73.61024	0.33368595418448	-0.0230284685515148	0.334479635230361	3.94785969015684
62.69291	0.248441606712504	-0.024582509034851	0.249654825101256	5.65084209110135
53.57697	0.298043136702583	-0.0163745937046983	0.298492610720112	3.14468859885804
45.65746	0.3180904242085	-0.0355005589110593	0.320065317796448	6.36815660271539
38.96512	0.325797810112354	-0.00544663801057412	0.325843334962715	0.957772866116743
33.18414	0.316233896639238	-0.0188789237379097	0.316796924140904	3.41645966982244
28.30617	0.330726647524115	-0.000334986521301349	0.330726817174703	0.0580337491532108
24.17237	0.318089757338193	0.00377528239651912	0.318112160221271	-0.679989176050237
20.61345	0.29940451461844	-0.0137829482612349	0.299721592543272	2.63572388690758
17.55618	0.298194346760205	-0.00647449136074892	0.298264626595454	1.24382892082935
14.98558	0.310026663275871	-0.00931817243578598	0.310166665326101	1.72156571407179
12.76553	0.309131739696844	-0.00790433481726699	0.309232778011809	1.46470357789449
10.8809	0.310472483757552	-0.0097627071814049	0.310625938424488	1.80105386786367
9.278505	0.307902762485779	-0.00697998384836574	0.307981868493743	1.29864092830054
7.923394	0.303050506964692	-0.00814522765734236	0.303159948715438	1.53959431833824
6.75822	0.30004352837313	-0.0105365459119495	0.300228475861887	2.01121364120207
5.761429	0.295957505863677	-0.0127307664942302	0.296231189601262	2.46308941140349
4.919708	0.296104963079783	-0.00494116234356817	0.296146187288955	0.956017323432462
4.191257	0.307876098383929	0.00220920747812848	0.307884024518636	-0.411126725332815
3.564097	0.298180467257347	-0.0214675161256939	0.298952245856118	4.11790726121592
3.051758	0.304035578615112	0.0244432183612099	0.305016563464478	-4.59646051931642
2.604164	0.314885638984265	-0.0172483984455826	0.315357690388972	3.13534079243048
2.214424	0.300909314571929	0.0230050103956979	0.301787418722939	-4.37185189630042
1.892567	0.283454449222502	-0.00850139930503688	0.283581908051581	1.71790680559208
1.607507	0.31498039597671	-0.0210428178427399	0.315682514613033	3.82206566032028
1.376413	0.332052853463851	0.0377718974139791	0.334194275426342	-6.48965230317288
1.17375	0.255473550039316	0.00245042134005932	0.255485301601549	-0.549546109368203
1.001604	0.290467071422391	0.00799683516483323	0.290577130816164	-1.57700903531808
