EC-Lab ASCII FILE
freq/Hz	Re(Z)/Ohm	-Im(Z)/Ohm	|Z|/Ohm	Phase(Z)/deg
6999984	7.613360854739	5.57413276836892	9.43579459419695	-36.2097752775219
5969734	6.45607416973828	2.03687560345826	6.76976778841972	-17.5103579826434
5091109	4.53402908603668	0.103245893754575	4.53520445708943	-1.30447593048615
4341796	3.48203937987689	-0.989381089277172	3.61987198431557	15.8618839215387
3702781	2.15139703532832	-1.12515995711683	2.42785793091742	27.6091344627028
3157797	1.61197095494526	-1.12490181794193	1.96566895981908	34.9089720065025
2693047	1.22620203294729	-1.03522294251244	1.60476103090404	40.172781106993
2296687	0.949866668044821	-0.88359457431791	1.29729952548616	42.9298941242082
1958656	0.772523590710909	-0.748520341423412	1.07567439298772	44.095903344345
1670375	0.657453784883776	-0.631944529865298	0.911920702739374	43.8666170938896
1424531	0.580455969788989	-0.537534732123234	0.791121179783776	42.801414068228
1214875	0.528994177237897	-0.460557281055299	0.701389940535684	41.0437514401052
1036062	0.488531154944635	-0.397705199718238	0.629946120898019	39.1484700791699
883578.1	0.466585478584954	-0.339095838343468	0.576791120257767	36.0081686181492
753531.2	0.449103804654392	-0.289071387747121	0.534094087749618	32.7678745627222
642624.9	0.435684929998573	-0.24668290941424	0.500673362607734	29.5183501572157
548046.8	0.425986499941473	-0.210697755807713	0.475245244515706	26.3175214347174
467390.6	0.417697179755338	-0.180943903606507	0.455205041962327	23.4219703550427
398593.7	0.41117442038425	-0.154390527233774	0.439204780117255	20.5804893024945
339937.5	0.40623672071163	-0.131202525222811	0.42689855455293	17.8989322297232
289906.2	0.402318530886556	-0.111440135314478	0.417467488618725	15.4824540808692
247234.4	0.399678233527745	-0.0933339761380117	0.410431384591371	13.1443164513434
210843.7	0.39868647519798	-0.077532748477237	0.406155429105932	11.0049779879942
179812.5	0.398680562393237	-0.0642723012748322	0.403828081665144	9.15800269876639
153343.8	0.400624237837486	-0.052674877099752	0.404072298753999	7.49039757688223
130781.2	0.40330327753677	-0.0447269133111759	0.405775837681652	6.32832457679789
111531.3	0.403811252282285	-0.038429489273392	0.405635739445628	5.43629288809446
95109.37	0.404095372274947	-0.0329600639656068	0.405437338821481	4.66301128609425
81109.37	0.404148718417221	-0.0282481887566965	0.405134726685231	3.99821637781309
69171.88	0.404064427878594	-0.0241691394241809	0.404786621786542	3.42307217573605
59000	0.403955942819228	-0.0204130358542453	0.404471378186093	2.89285703212198
50312.5	0.403926291735072	-0.0172533515833111	0.404294604583964	2.44585140317918
42906.25	0.404102483690911	-0.0142041235999556	0.404352042720704	2.01310669375718
36593.75	0.404238552500591	-0.0116771828231427	0.40440717590871	1.65463507627579
31203.13	0.404610726660757	-0.0094006282062649	0.404719917893373	1.33095689386151
26609.38	0.404990206982521	-0.00767612332043618	0.40506294649224	1.08584554910454
22703.13	0.405369067526252	-0.00618527283056305	0.405416253382979	0.874172594229204
19359.37	0.405913910254724	-0.0050194949859802	0.405944944380632	0.708478356497527
16500	0.406273251727907	-0.00401615165575253	0.406293101767294	0.566370155585527
14112.02	0.406663313925092	-0.00309268247721836	0.406675073710503	0.435727126632993
12011.13	0.406931822976678	-0.00247834147928086	0.406939369842253	0.348944819038636
10236.38	0.407290181286455	-0.00187107941073924	0.407294479106352	0.26321331604055
8750.684	0.407595902183438	-0.00124342610633821	0.407597798798292	0.174787937377097
7449.463	0.407920768597758	-0.000860618645185287	0.407921676450073	0.120880687560198
6363.206	0.408312624133563	-0.000516107431765779	0.408312950313503	0.0724218653045361
5414.761	0.408625493716458	-0.000203596484077915	0.408625544437138	0.0285474559846327
4620.567	0.408975503777939	-2.70558521972454E-05	0.408975504672882	0.00379041317988607
3941.215	0.409251161486031	0.000159575916700859	0.409251192597088	-0.0223408677505662
3361.769	0.409658241202341	0.000255837217209086	0.409658321089267	-0.0357819992580992
2867.244	0.409994033638377	0.000389193759233945	0.409994218362709	-0.0543889698127333
2442.658	0.410252627858415	0.000434099134115555	0.410252857524227	-0.0606261539930597
2083.003	0.41049896182935	0.000485081101994439	0.410499248436156	-0.0677056205096962
1777.843	0.410750860787592	0.000468284936744076	0.410751127726425	-0.0653211993494798
1513.548	0.41084305823657	0.000561334808920491	0.410843441712223	-0.0782831662529449
1292.065	0.411135728594952	0.000501923791811574	0.411136034974793	-0.0699479481367202
1101.762	0.411348441837306	0.000494494540586649	0.411348739060702	-0.0688769754260617
939.101	0.411495043907923	0.000425337888663648	0.41149526373107	-0.0592232095359024
801.2801	0.411603903548491	0.000401043220981603	0.411604098925194	-0.0558257015910695
684.3433	0.411683629078425	0.000349233488242486	0.411683777206743	-0.0486043134285792
582.9476	0.411937607548388	0.000368736243765303	0.411937772581136	-0.0512869533915832
497.0677	0.412016180923915	0.000373683204347855	0.412016350382198	-0.0519651062379001
423.5089	0.412272362699281	0.000314686359972959	0.41227248279888	-0.0437337023445751
361.5036	0.412481467785809	0.000288637501535359	0.4124815687741	-0.0400932144579832
308.1262	0.412683707058558	0.000292921293727598	0.412683811015743	-0.0406683151152678
262.7298	0.41270742139377	0.000229216115851527	0.41270748504664	-0.0318218524880258
224.2111	0.412908523831606	0.00024806684117526	0.412908598348295	-0.034422106849668
191.2854	0.412983558704131	0.000174653606974812	0.412983595635239	-0.0242307804969612
163.1722	0.413104588443185	0.000189101819473464	0.413104631724593	-0.0262275842496157
139.1537	0.413165417383925	0.000171080529700395	0.413165452803814	-0.0237246181215867
118.6706	0.413248800084111	0.000152070275710489	0.413248828064069	-0.0210841134748365
101.1982	0.413331408974167	0.000127326207231158	0.413331428585503	-0.0176498903944916
86.24196	0.413497732035543	0.000162395040140291	0.413497763924651	-0.0225020579670704
73.61024	0.413667847819241	7.25715714259772E-05	0.413667854185016	-0.0100516507014099
62.69291	0.41379786183607	0.000118768348325164	0.413797878880528	-0.0164450460950008
53.57697	0.413875854760176	0.000174517220966126	0.41387589155413	-0.0241596592458516
45.65746	0.414099684238721	2.97371940637695E-05	0.41409968530646	-0.00411450618374402
38.96512	0.414240749546568	8.15631761582562E-05	0.414240757576381	-0.0112814243945669
33.18414	0.414397687640798	2.0322564039399E-05	0.41439768813912	-0.00280985435521477
28.30617	0.414633298494352	1.81067624987813E-05	0.414633298889708	-0.00250206887612183
24.17237	0.414736660577036	0.000132364495400968	0.414736681699306	-0.0182861256485167
20.61345	0.414900867314168	9.80397075981952E-05	0.414900878897398	-0.013538803622869
17.55618	0.415107149126629	6.6532087599561E-05	0.415107154458407	-0.00918318992344034
14.98558	0.415270146613191	2.44352055668719E-05	0.415270147332096	-0.00337138164233273
12.76553	0.415433675751322	3.41248272565426E-05	0.415433677152874	-0.00470642773597809
10.8809	0.415622992081982	5.26278875929607E-05	0.415622995413961	-0.00725502651464249
9.278505	0.41567699786364	6.5101544526593E-05	0.415677002961602	-0.00897341861548705
7.923394	0.415831924812932	5.34573981383911E-05	0.415831928249048	-0.00736567612403815
6.75822	0.415717754898866	5.94286410539655E-05	0.415717759146656	-0.00819067805324702
5.761429	0.415604193212384	3.16981775942339E-05	0.415604194421195	-0.00436995540599854
4.919708	0.415440360973374	1.61449388595116E-06	0.415440360976511	-0.000222664176146669
4.191257	0.415400099003271	1.63662114270654E-05	0.415400099325674	-0.00225737750942869
3.564097	0.415264504928457	3.18108765186677E-05	0.415264506146875	-0.00438907959128441
3.051758	0.415273056460094	1.90294933161998E-05	0.415273056896098	-0.00262552466519646
2.604164	0.415261557045891	1.43261790566745E-05	0.415261557293011	-0.00197665683770434
2.214424	0.415224347544364	7.27382122840019E-06	0.415224347608075	-0.00100369657931207
1.892567	0.415347130803151	2.04539189979026E-05	0.415347131306782	-0.00282155128860236
1.607507	0.415774747838364	-8.07896486148631E-06	0.415774747916856	0.00111332059425445
1.376413	0.416559590908695	-9.35552435057912E-06	0.416559591013753	0.0012868076309577
1.17375	0.417275043236127	1.27143288438352E-05	0.417275043429829	-0.00174579667218567
1.001604	0.418079131389861	1.6157775950304E-05	0.418079131702091	-0.00221434723309878
