EC-Lab ASCII FILE
freq/Hz	Re(Z)/Ohm	-Im(Z)/Ohm	|Z|/Ohm	Phase(Z)/deg
6999984	24.3125405551887	77.8500426100451	81.558131186495	-72.6564342258626
5969734	23.4036770523905	77.9775399055486	81.413935105079	-73.2937351813866
5091109	25.1507191468158	78.4315823662793	82.3654769067749	-72.2204706395476
4341796	22.4054400422295	84.3612148322746	87.2858425603094	-75.1262260975535
3702781	24.2470524533109	90.5800163804899	93.7691789457678	-75.0140409612669
3157797	25.5379915917257	99.2681685617224	102.500528311505	-75.5727894030785
2693047	23.0792018083878	111.364599170618	113.730925893288	-78.2917606198718
2296687	24.2784429284968	127.341398232391	129.635159176871	-79.2057428946645
1958656	26.3221374587117	143.345318359065	145.742015959218	-79.5948385333379
1670375	29.5674331303991	166.329646846445	168.937220653069	-79.9201639694131
1424531	31.5522928182687	190.033624821898	192.635214187437	-80.5728774896262
1214875	34.9117126018393	218.882742454936	221.649458879076	-80.937679717786
1036062	37.6491035741223	254.277082890511	257.049197398558	-81.5777881665061
883578.1	41.028095473441	294.778562654845	297.620069247748	-82.0763187440494
753531.2	45.6208279563912	341.927059554979	344.957061095059	-82.4003263771959
642624.9	51.7286521632913	396.986276806386	400.342300322146	-82.575995237183
548046.8	52.0090072774385	463.481398608063	466.390334048285	-83.5974070985628
467390.6	173.917588160703	613.124696925301	637.314068141743	-74.1635997059543
398593.7	215.83786675057	707.328717999581	739.526808189106	-73.0306902576421
339937.5	241.215716461871	830.443557978934	864.766745924544	-73.803209252817
289906.2	273.554620100716	938.005482549273	977.080557308834	-73.7415016982814
247234.4	307.938929655846	1062.10094776402	1105.8412217126	-73.8313414805579
210843.7	344.406791790693	1206.73630019723	1254.92172522642	-74.0710670220406
179812.5	383.844723339369	1375.87171182605	1428.41161400998	-74.4118050228049
153343.8	431.472946354332	1568.98568412584	1627.23230684114	-74.6236848154443
130781.2	482.980788121045	1794.38899832882	1858.25249065286	-74.9352019686569
111531.3	547.178247325083	2058.34161603807	2129.82962761343	-75.1131053640451
95109.37	620.18667485647	2358.64886096783	2438.82265878731	-75.2680331518484
81109.37	711.980253313903	2709.23862374981	2801.23005151785	-75.2757680820827
69171.88	819.25515907019	3107.74417259061	3213.91550261266	-75.2318222191961
59000	943.487917919124	3560.95595675843	3683.82637718347	-75.1602597905843
50312.5	1068.20241502446	4078.40892382473	4215.97862297679	-75.3229798044015
42906.25	2562.35553079779	5432.90506652716	6006.83971220362	-64.7497312446163
36593.75	2844.47682900927	5921.85863762267	6569.58584347269	-64.3433895763095
31203.13	3181.02241829332	6610.93319268042	7336.4392796348	-64.3042565589021
26609.38	3586.72498101877	7393.52845689005	8217.59448575476	-64.1211965433578
22703.13	4058.85668888442	8295.35109233473	9235.1051626931	-63.9278232875011
19359.37	4640.69256348024	9312.14802535465	10404.4283031245	-63.5107100126459
16500	5327.392725186	10455.4566102622	11734.4657389009	-62.9996889551687
14112.02	6136.68131712062	11701.3861414543	13212.9215247543	-62.3256614049768
12011.13	7164.35701321967	13081.5297147728	14914.9063386718	-61.2918163594427
10236.38	8362.03103921237	14560.8511313242	16791.1270845449	-60.1320351905389
8750.684	9904.64442938459	15573.6850584197	18456.479826104	-57.544214013051
7449.463	12345.9613280469	16160.8324199541	20337.0417125862	-52.6222200739797
6363.206	15446.1211268039	21258.4521537236	26277.451281204	-53.9983214584352
5414.761	13924.8842713115	23206.7293027926	27063.9000682184	-59.0347064213044
4620.567	20838.3572034876	26941.2265018774	34059.7536157501	-52.2789553293389
3941.215	16800.9564023365	24462.9993912078	29676.7665901702	-55.5190889565832
3361.769	19600.4680913995	23930.0418980153	30932.5921099855	-50.6799962808893
2867.244	22567.8982548128	28142.0862287736	36073.356496829	-51.2729331143364
2442.658	50679.815531968	23801.1954517995	55990.5403375344	-25.1565599727556
2083.003	41925.1423058364	24736.7094421274	48678.7669460604	-30.5414923511367
1777.843	49432.0688580349	35563.9593211025	60896.0149285529	-35.7331717947982
1513.548	50695.9598897376	30380.2603950758	59101.9506515182	-30.9327365815418
1292.065	56027.6322799857	22941.0053424019	60542.4256618564	-22.2670765161313
1101.762	58659.6571205097	26069.5165971673	64191.7056098819	-23.9613127163332
939.101	55497.6818504889	20462.8416191716	59149.9837524017	-20.2396997355286
801.2801	68482.9078971569	23887.2548157104	72529.3707175318	-19.2290823990092
684.3433	66479.0864022338	16504.8145691659	68497.2833975058	-13.9429565923983
582.9476	71638.9365009923	14366.134254517	73065.1971626165	-11.33941918259
497.0677	71794.0148942141	15272.7598906985	73400.5297617773	-12.0095219718853
423.5089	70820.3842760877	16560.4978504511	72730.8525872447	-13.1614421598399
361.5036	68679.9095198712	15699.9150366617	70451.5244960398	-12.876309713093
308.1262	67932.2675049762	15493.306222082	69676.6496472014	-12.8476904712263
262.7298	72689.2662019211	10881.5284394315	73499.2318473595	-8.51391219337008
224.2111	76482.1808063665	14771.8248319693	77895.6403771361	-10.9315477169702
191.2854	68427.6863456047	6628.24588204468	68747.9592576049	-5.53269303712522
163.1722	70175.4867014907	10690.9883902272	70985.1827253482	-8.66220512990584
139.1537	72816.0243660714	10815.2312033542	73614.8261592888	-8.44827414835989
118.6706	73721.3775222539	8463.89139878182	74205.6531632803	-6.54940607162707
101.1982	85146.3036068797	12220.2153746224	86018.7577317709	-8.16733002309544
86.24196	78969.0768448547	16759.6035313219	80727.9344976425	-11.9820944822324
73.61024	85568.2299527087	13417.4325648188	86613.7949397848	-8.91163657643809
62.69291	77368.4287545944	14792.1474265555	78769.8000089101	-10.8238144627518
53.57697	83857.1529581649	20150.3307924971	86244.1762282888	-13.5116339642239
45.65746	87459.9744019482	13069.7927701508	88431.1404735013	-8.49923874423678
38.96512	81703.4903926787	15630.5508606051	83185.1817486294	-10.8302946154147
33.18414	83071.5119010331	19341.6070609744	85293.4572709104	-13.106713231249
28.30617	78264.3586950784	13851.1630218056	79480.5923418323	-10.0362381367209
24.17237	92122.6187007349	24018.7059801782	95202.2852312026	-14.6131395957849
20.61345	79556.6240046653	19239.119979656	81849.8635344695	-13.5947930586091
17.55618	88520.7341227749	25109.1425174501	92012.9849944921	-15.8361294686476
14.98558	89552.493099101	26821.6825181594	93482.8950844456	-16.6733755059384
12.76553	81465.7291061399	31135.7620029865	87212.9617333432	-20.9165863451182
10.8809	87714.3194446869	44343.7049161005	98286.1434858992	-26.8187391843199
9.278505	94214.5625189293	43902.6129547368	103941.441277705	-24.984833062399
7.923394	184248.518622135	34415.3660535135	187435.146210759	-10.5802271857299
6.75822	229446.177320128	55682.3932537291	236106.071936498	-13.6409276202731
5.761429	219342.91852014	40379.5777721385	223028.756455281	-10.4309831392542
4.919708	193943.456273603	82919.2547473654	210925.738209469	-23.1488127262141
4.191257	213233.069729162	113719.941914168	241662.0930454	-28.0715744287309
3.564097	228284.613860726	88588.104329455	244870.817277656	-21.2092359981372
3.051758	205654.983028303	79040.3705387053	220321.020829306	-21.0235059992676
2.604164	189310.821595943	95941.8680330551	212234.373311684	-26.8756854595779
2.214424	188773.306785787	124333.955144396	226040.46928966	-33.3705631378424
1.892567	203787.622655936	154729.809471339	255872.44690821	-37.208308934142
1.607507	231443.972147279	182445.193594638	294707.585428498	-38.248393490065
1.376413	262769.676298289	198683.872672251	329428.571987846	-37.0934423553742
1.17375	289093.554732917	211045.360106532	357931.875376599	-36.1303575975388
1.001604	310909.383122969	232260.817581191	388084.696809071	-36.7610924567306
