EC-Lab ASCII FILE
freq/Hz	Re(Z)/Ohm	-Im(Z)/Ohm	|Z|/Ohm	Phase(Z)/deg
6999984	-0.07231062138503	-0.00265163605594036	0.0723592229011777	177.89990034557
5969734	-0.0445972075085787	0.0104401951117094	0.0458029321281268	-166.824339686794
5091109	-0.0287074976522322	0.0144050299602056	0.0321189244777489	-153.353127895017
4341796	-0.0203636103554473	0.0145273350944626	0.0250143976872377	-144.496059818987
3702781	-0.0161437915782347	0.0138366221969936	0.0212620347178678	-139.40057425955
3157797	-0.012289169630158	0.012915702463875	0.0178280414048808	-133.576057201588
2693047	-0.0104055321986036	0.0114161042857931	0.0154467646256516	-132.348495125521
2296687	-0.00878667923695263	0.00994086416015077	0.0132674983423276	-131.473302093458
1958656	-0.008087134889646	0.00917874471334785	0.0122331968526686	-131.382373691371
1670375	-0.00579614286604289	0.00894276965677083	0.0106568476228968	-122.948778721722
1424531	-0.00571379361724988	0.00718584944787131	0.00918062469486679	-128.489796262653
1214875	-0.00556830435825216	0.00657401796511515	0.0086153192414319	-130.265163286645
1036062	-0.00404640509878129	0.0065894589242203	0.00773268149721878	-121.552938941225
883578.1	-0.00302906385925869	0.00686014510833042	0.00749912119990182	-113.823623693351
753531.2	-0.0029092556844401	0.00569583411632946	0.00639580291427039	-117.056538052376
642624.9	-0.00295990370910426	0.00606466759287758	0.00674842374034624	-116.015015372388
548046.8	-0.00190041533069822	0.00358183541670387	0.00405476551498444	-117.949091705631
467390.6	-0.00242699852097501	0.0048681543570282	0.00543960004638829	-116.49836256836
398593.7	-0.00137466885640638	0.00360507317685784	0.00385827255067258	-110.87260456953
339937.5	-0.00108947317059399	0.00367242482449316	0.00383062082187701	-106.523683017148
289906.2	-0.000413854373865532	0.00353500550654565	0.00355914868670525	-96.6774033078248
247234.4	-0.000109901640368546	0.00269338400143293	0.00269562529846612	-92.3366177561342
210843.7	-0.000507529688054319	0.00262169970661336	0.00267037370716406	-100.956252121862
179812.5	-0.00038661813071439	0.00200893680568898	0.0020458007401135	-100.893341355956
153343.8	-0.000479502174153809	0.0016536211243568	0.00172173899239614	-106.170626423788
130781.2	-0.00047658489774227	0.00265360281325469	0.00269606028405695	-100.181727774404
111531.3	0.000198917447390296	0.00142216064176433	0.00143600454103036	-82.0377013886576
95109.37	1.51032418007118E-05	8.24512525797799E-05	8.38231290567552E-05	-79.619762197426
81109.37	0.000385172365875453	0.00093795575055427	0.00101396190334347	-67.6744516056411
69171.88	0.00112074454906322	-9.756161853241E-06	0.00112078701230386	0.498751280886014
59000	0.00243336092585162	0.00219775526668156	0.00327892872866855	-42.0876175174761
50312.5	0.000156205959256065	0.000488168205803232	0.00051255097196694	-72.2561659101842
42906.25	-0.000132299545840508	0.00048849587602263	0.000506094250827572	-105.153912816329
36593.75	0.000262640166850397	0.000100418907303952	0.000281182883880446	-20.9240577147667
31203.13	0.000752687041835933	-0.000274686966855298	0.000801243229430297	20.0491397024461
26609.38	0.000809994031305768	-0.000306897330584574	0.000866184912285423	20.7511161338844
22703.13	0.000407328113430645	-0.000244675929648864	0.000475165763224271	30.992610671133
19359.37	0.000522930897280844	0.000801115311883133	0.000956683054237169	-56.8653621582241
16500	-5.00452799680394E-05	-0.00430749148488138	0.0043077821930052	90.6656436424147
14112.02	0.000168482740131921	-0.000317432476638187	0.000359374193490592	62.0421045921666
12011.13	4.85401636936251E-06	-0.000766293184106096	0.000766308557620475	89.6370698085958
10236.38	0.000532765547483183	-0.000220428849046005	0.000576565699705422	22.4770598184688
8750.684	0.000211889922922938	0.000170495940594583	0.000271967286995183	-38.821683600717
7449.463	0.000436625824263108	9.55333113067126E-05	0.000446954946255955	-12.3417687381257
6363.206	0.000924367152078813	-4.4382458183679E-05	0.00092543202583265	2.74888190553033
5414.761	0.00109094121257999	-0.000496648297318864	0.00119867103933282	24.4772841291603
4620.567	0.000774929441180075	-7.93279354633949E-05	0.000778979178253532	5.84489143715626
3941.215	0.00102750332352391	0.000447140335581716	0.00112057911793716	-23.5173105321524
3361.769	0.000601953088122191	-0.000494547205569552	0.000779053566089325	39.4055333235333
2867.244	0.000298782188032942	-0.000261733148820811	0.000397209059661797	41.2183545985934
2442.658	0.000568299635456454	-0.000658568916422177	0.000869872113208269	49.2080677051983
2083.003	0.00114635339817638	-0.000675990314686404	0.00133082268505627	30.5273231048631
1777.843	0.000969233942037525	-1.22910782575996E-05	0.000969311871897964	0.726541996904616
1513.548	0.000976287585567748	0.000122669798031401	0.000983964089325809	-7.16164012361411
1292.065	-7.5291157301665E-05	0.000988756219352151	0.000991618686630795	-94.3545178148054
1101.762	0.000821423724814099	-0.000289845055688808	0.000871060900278917	19.4357425461349
939.101	0.000714628276463067	6.44100818695244E-05	0.000717525074242715	-5.15020360182974
801.2801	0.00631251602564123	-0.00301448194611562	0.00699535274145874	25.5263641224669
684.3433	0.000471636513244428	0.00222503634855691	0.00227447307151016	-78.0322680344571
582.9476	0.00127257329158257	0.0014748421910525	0.00194797388867455	-49.2106059082307
497.0677	0.00282058179440099	0.000729400768445548	0.00291336697652652	-14.4990235917287
423.5089	0.00342636043725012	-0.00104863173019474	0.00358323517948851	17.0166402505792
361.5036	0.00393845523420846	0.000626017847680958	0.00398789768894328	-9.03161393873848
308.1262	0.00205920506037649	0.000895188435007385	0.00224537030684275	-23.4958016965232
262.7298	0.00309341269745953	-0.00132713595119466	0.00336607961132193	23.2203006703125
224.2111	0.0020189079375165	0.000477528471489389	0.00207461386798848	-13.3074948313967
191.2854	0.00122837872533432	-0.00219021844597119	0.00251116927623894	60.7142176061714
163.1722	0.000327910812553341	0.00270323527385878	0.00272305094458839	-83.083635843669
139.1537	0.00344451354043243	-0.000173832675470505	0.00344889711781659	2.88906863518058
118.6706	0.00264441330108664	-0.00588118181854069	0.00644835027659769	65.7894204596607
101.1982	0.00640415713417907	-0.000430099023893153	0.00641858347064293	3.84217762484496
86.24196	0.00762689478828926	-0.000301575719179509	0.00763285477564145	2.26435785424677
73.61024	0.00496673056385342	0.00435187792833185	0.00660357887792806	-41.2250295569066
62.69291	0.0146858000132708	-0.000759095344036841	0.0147054053929541	2.95893224392986
53.57697	-0.00372275489995381	0.00816273907730279	0.00897157808243656	-114.516157780325
45.65746	0.00625891376582997	-0.012855254367774	0.014297956720744	64.0396646491106
38.96512	0.0157427429414079	-0.000386051788476413	0.0157474757120826	1.40475557674774
33.18414	0.0311928448938014	-0.0072180525170549	0.0320170869178899	13.0289743176057
28.30617	-0.00414179480320024	-0.013541935423959	0.0141611609417622	107.006228072207
24.17237	0.0229762981758063	0.00783884428307161	0.0242766916518253	-18.8381475658135
20.61345	0.0202731846028621	0.015586884344692	0.0255725043262589	-37.554610355097
17.55618	0.00564053347114359	-0.0286682720098086	0.0292178958494185	78.8691301900251
14.98558	-0.0209281225211391	0.047276636888433	0.0517017089441012	-113.877710909211
12.76553	0.0527028105827273	-0.0194472324270168	0.0561763392576381	20.2539606550494
10.8809	0.0547070104153899	0.00527042356023121	0.0549602979712976	-5.50284079008332
9.278505	-0.045081580644906	-0.0219231721229894	0.0501295759943906	154.066345758395
7.923394	0.0294395183563223	-0.00382943645323908	0.0296875365195841	7.41131221242032
6.75822	0.0152614774667488	-0.0740547686717865	0.0756109876770558	78.3553016393518
5.761429	0.0335226963703303	0.0866776161017787	0.092934279493762	-68.8559478749803
4.919708	0.062788428995851	0.0493764373679098	0.0798775273960965	-38.1812944026773
4.191257	0.0734193816269024	-0.0266920214915248	0.078120865393189	19.9790153979
3.564097	0.0391117956008213	0.156866016289733	0.161668424937373	-75.99975755201
3.051758	0.148067780331269	-0.0832604581177617	0.169871632293942	29.3496198161276
2.604164	0.153270946675023	0.191222869974816	0.245067682683913	-51.2867643155108
2.214424	0.126260978260317	0.00972125688441069	0.126634661395153	-4.40270853835719
1.892567	0.0408972782682609	0.191698720143654	0.196012720695537	-77.9569813801769
1.607507	-0.173493022800663	0.308462205404043	0.353905017092492	-119.355359318
1.376413	0.0816487916681141	-0.223979365823011	0.238397318557364	69.9713248147615
1.17375	0.0724215165566814	0.210562789668359	0.222669181642389	-71.0197229882919
1.001604	0.179201895771151	0.00917279756129456	0.179436505937546	-2.93023851754971
