EC-Lab ASCII FILE
freq/Hz	Re(Z)/Ohm	-Im(Z)/Ohm	|Z|/Ohm	Phase(Z)/deg
6999984	-0.368936098896059	0.453665225249398	0.584744372926521	-129.119190400604
5969734	-0.677069339742819	-0.184491325087215	0.701754900126969	164.757795511316
5091109	-0.289659111171572	-0.421833279046674	0.511708624117255	124.476112316203
4341796	0.212226412715331	-0.436542925073416	0.485396513878779	64.0731826801258
3702781	0.893152265153895	-0.783193856681237	1.18790302040729	41.247111350331
3157797	1.58045647687672	-2.1380655415148	2.65879050229884	53.5282153171083
2693047	1.06564994078122	-4.9516879823053	5.06505909841077	77.8546511179665
2296687	-0.322607829338667	-4.73722044239556	4.74819263840474	93.8958650998032
1958656	-3.70240117198051	-7.50020501050171	8.36426025646247	116.272789084417
1670375	-8.72988114211254	-9.2782819081759	12.7395973218543	133.255716498331
1424531	-16.0995739301939	-9.87639667389907	18.8875485967339	148.472673396092
1214875	2.30988880442809	3.26282469787921	3.99770075142109	-54.7037413662223
1036062	2.69037042373	2.66529041230325	3.7870656184963	-44.7316916912899
883578.1	2.43329017743347	2.61184090377431	3.56967981676548	-47.0268918636486
753531.2	2.60983615127374	2.34934290431485	3.51150349829668	-41.9931596953708
642624.9	2.72080721838128	1.99862942568133	3.3759904473791	-36.2999702936314
548046.8	2.68511379794119	1.7381312707773	3.19858350248169	-32.9158409133148
467390.6	2.69691747776983	1.45455049976046	3.06416073962411	-28.3396785698064
398593.7	2.70881823241955	1.26503940523961	2.98965230638908	-25.0329443284561
339937.5	2.61992120754169	1.16886448170465	2.86883797212694	-24.0437957205202
289906.2	2.63561906406761	1.09054127880387	2.85232679257686	-22.4783260551961
247234.4	2.54947646204987	1.01853279159352	2.74540329971711	-21.7770371731118
210843.7	2.56201458306766	1.08385356020715	2.78184421990612	-22.9306647752959
179812.5	2.5318740037507	1.16383744290686	2.78655765495361	-24.6870267892238
153343.8	2.59813149607813	1.23164475644482	2.87528017365112	-25.3633003339726
130781.2	2.62260104702141	1.24535000461342	2.90326245555382	-25.4008462582876
111531.3	2.73187778624834	1.41535144719011	3.07674762664412	-27.3881045340752
95109.37	2.79245244650037	1.55693233560222	3.19715951488344	-29.1418595900352
81109.37	2.9866937653313	1.72905965174943	3.45108489133152	-30.0674499897573
69171.88	3.15322981604545	1.94627858610226	3.70551731982435	-31.6842681326811
59000	3.45619821150055	2.11522163154579	4.05209435079427	-31.4669738888777
50312.5	3.7690392518254	2.29178650397888	4.41111576153021	-31.3019391255682
42906.25	4.35348190732413	2.47934910992918	5.00998769722094	-29.6619219215196
36593.75	10.1150368670204	5.58994594728674	11.5568796184251	-28.926673830918
31203.13	10.4879098852314	4.63087488913791	11.4647832949246	-23.8235736623837
26609.38	11.0760748673484	3.4576815049949	11.6032321297598	-17.3370955453959
22703.13	11.6586679222959	2.38974268551432	11.9010675078054	-11.5837856822133
19359.37	12.1046472480152	1.25912606806366	12.1699582355142	-5.9385528479263
16500	13.0824158950645	0.558907013821754	13.0943492660588	-2.44630289392174
14112.02	12.4014749780265	-0.747766826663863	12.4239984247293	3.45056326370422
12011.13	12.1188676405422	-1.53794064980471	12.2160637822214	7.23244051835843
10236.38	10.8224926219729	-1.63073409751197	10.9446626375346	8.56887030507903
8750.684	16.2056231558323	11.9092563858423	20.1110071735002	-36.3115784185607
7449.463	15.352114950096	14.7169126086907	21.2667569265462	-43.7898178310303
6363.206	14.8414022110596	18.6283579213962	23.8177022073518	-51.4553113101045
5414.761	14.4143212963571	23.6840041875229	27.7255245719394	-58.6748889259622
4620.567	14.0820144113441	29.5488480426682	32.7328206931514	-64.5190584362966
3941.215	14.3380393941986	37.0682666474575	39.7446319132107	-68.8534841564613
3361.769	14.6620793218171	45.1390534359536	47.460622784927	-72.0051531001374
2867.244	15.3030394655488	54.0508479738881	56.1754144050626	-74.1919611168132
2442.658	16.4616330471846	63.914805319485	66.0006644027757	-75.5570330637124
2083.003	17.6799488704262	74.8507767922075	76.9104633873555	-76.7101679221927
1777.843	19.9645501070901	86.799634607775	89.0660419521479	-77.0468379226116
1513.548	22.1797060746465	100.431492641135	102.851466084272	-77.5464571199657
1292.065	25.3257230050607	115.842637490617	118.578703427351	-77.6679241725334
1101.762	27.4671392733505	134.008707760225	136.79465448411	-78.4167800107694
939.101	29.9066473043169	154.012496938915	156.889313741708	-79.0108799485405
801.2801	26.5092457649921	178.738931645157	180.694066855226	-81.5638079963049
684.3433	34.8669224881073	204.615086252175	207.564534075012	-80.3295423140341
582.9476	38.8644579078357	238.618114376538	241.762384578504	-80.7492911947469
497.0677	41.1228766762629	277.309744386494	280.342264594253	-81.5649539118952
423.5089	45.9702910568136	322.171103767391	325.434306370037	-81.8793358540835
361.5036	48.0322277871932	375.77517885362	378.832522295368	-82.7158542349745
308.1262	52.833679289791	437.483092189818	440.66183590057	-83.1138880152519
262.7298	58.8671088457489	507.823510211662	511.224074186214	-83.3877618413244
224.2111	66.9775177769922	593.010307226264	596.780707097804	-83.5560395457543
191.2854	74.8744393888974	691.375705566128	695.418253945683	-83.8190844694989
163.1722	83.7718675105218	806.95856670822	811.295170804058	-84.0732485474189
139.1537	91.1676229488011	940.118494524051	944.528622763917	-84.461083678943
118.6706	101.434474280041	1102.28789559999	1106.94514649946	-84.7423486605727
101.1982	124.490183229208	1281.73873021561	1287.77015738646	-84.452489312016
86.24196	141.526864779553	1498.51660610799	1505.18499601734	-84.6047241981823
73.61024	168.397979416617	1744.56031990163	1752.66899021089	-84.4864657092673
62.69291	311.505769400786	2020.87439042673	2044.7418287531	-81.2371647573008
53.57697	367.331109773773	2354.27483773864	2382.75935751324	-81.1317978187763
45.65746	430.321420592249	2752.02569077372	2785.46619575595	-81.112890211537
38.96512	515.470178569866	3203.24617295307	3244.4561253827	-80.8582677673808
33.18414	609.278069581746	3758.31874217025	3807.38486809798	-80.7916327758071
28.30617	718.154720628781	4387.14058994909	4445.53132468328	-80.703397275357
24.17237	858.758391171149	5114.42312462368	5186.01869183792	-80.4684272835738
20.61345	1014.03100095891	5942.47297886408	6028.36992689031	-80.3162496931871
17.55618	1182.98531142755	6950.31654928075	7050.27335514441	-80.3404858079211
14.98558	1406.831336881	8116.5151033197	8237.53554364697	-80.1666504128784
12.76553	1687.74430741739	9525.24637589509	9673.6135631274	-79.9522496059405
10.8809	1973.14291399036	11147.7162185083	11320.9924409224	-79.9626201420323
9.278505	42575.4653734135	59946.0585399761	73526.8671047595	-54.6165028123357
7.923394	48762.5145829733	70353.2107075394	85599.982974964	-55.2737828061759
6.75822	56131.8184751384	82709.4865628852	99958.1923247013	-55.8367367582037
5.761429	70643.4206690825	131937.077575434	149659.230664116	-61.8339490251955
4.919708	79698.8115624027	152497.508055709	172067.982285085	-62.4073651865624
4.191257	90516.2396499192	176735.996364443	198566.870477665	-62.8805137337815
3.564097	103784.763098242	206574.573074373	231180.300398233	-63.3246706165669
3.051758	118572.823779345	239807.772183728	267520.620025317	-63.6899312109628
2.604164	136141.452291782	278483.113755632	309979.579455079	-63.9474757398741
2.214424	158297.528280741	325552.498988785	361997.979355735	-64.0690000882213
1.892567	181378.606391689	377182.160822771	418526.679316297	-64.3181221375442
1.607507	211207.842152206	440836.042152434	488820.180278202	-64.4005707642635
1.376413	244291.068165101	512075.457215437	567361.789220639	-64.4960255329324
1.17375	286008.165013534	596065.227855672	661131.171790472	-64.3670527332484
1.001604	333227.743049253	693816.521776121	769689.609275852	-64.3458532948286
