EC-Lab ASCII FILE
freq/Hz	Re(Z)/Ohm	-Im(Z)/Ohm	|Z|/Ohm	Phase(Z)/deg
6999984	1.64923778453533	1.76467025462936	2.4153770673567	-46.9365707968242
5969734	5.74091598287411	1.60061874753509	5.95987388267405	-15.5789459031472
5091109	7.74184985756988	-4.10007231016893	8.7605269342528	27.9056286625271
4341796	3.48348068328673	-5.2883001275429	6.33251576467063	56.6265189717459
3702781	1.64276579752579	-5.73537627570184	5.96600540474143	74.0168652146212
3157797	1.14736981102585	-6.32365370137647	6.42690077861685	79.7160764027875
2693047	0.0631958869159411	-8.32020443387875	8.32044443173913	89.5648198306298
2296687	0.404795254944117	-7.49666466662324	7.50758551880846	86.909217745978
1958656	-0.556585043820078	-8.85644283241034	8.87391495084085	93.5960362856112
1670375	-2.91566162252407	-13.1651242191796	13.4841231974307	102.487653716687
1424531	-3.06954065914567	-14.5279577708539	14.8486914187703	101.930280373584
1214875	-4.72447018431412	-10.0929925808121	11.1440171284327	115.08401625108
1036062	15.8852130894167	0.672903820975074	15.8994589357141	-2.4256214093487
883578.1	-9.93391342100953	-10.8683438767378	14.7242498783177	132.428021667485
753531.2	-1.06630627317937	-13.5360973018773	13.5780314933392	94.5041743908936
642624.9	0.356305780598526	-15.6471692017653	15.6512254420528	88.6955282638573
548046.8	6.74886109096626	1.3948594786714	6.89149903797409	-11.6775101183408
467390.6	7.15255664028085	2.44606915407117	7.5592539842847	-18.8799333778124
398593.7	4.64402269668885	4.93160524433033	6.7740443675302	-46.7202333925387
339937.5	2.1991275419201	-6.32715094100464	6.69843272533863	70.8340846626695
289906.2	6.77792993188304	0.996815630356745	6.85083758108741	-8.36639274985775
247234.4	10.3743441215539	2.64399955003835	10.7059679419015	-14.2979898901512
210843.7	16.6123178296186	10.4457249884916	19.6235132992913	-32.161433114044
179812.5	26.0857476676292	-2.6546142629318	26.2204730747594	5.81069731594285
153343.8	-17.3868723915528	-46.7814564681095	49.9079953598396	110.388168753746
130781.2	-35.0012754918515	-59.2562662410563	68.8214673985337	120.569342294324
111531.3	-30.4160562779051	-121.597551894716	125.34393127028	104.043635200924
95109.37	30.2569667911087	-104.278658439918	108.579568268746	73.8196531415372
81109.37	50.2103126354779	-169.263493899054	176.553691159	73.4775400420646
69171.88	-23.7900264232307	-213.277631762128	214.600357798583	96.3647402390219
59000	-23.6939663636109	-343.852144900002	344.667523266077	93.9418736107522
50312.5	-111.016461487489	-283.773164068562	304.71603726533	111.366207710035
42906.25	-28.9401299139016	-376.212922279033	377.324388304232	94.398807452369
36593.75	14.0618096156177	-431.650463715275	431.879447664829	88.1341442161881
31203.13	-7.14515955692612	-522.97510830528	523.02391648185	90.7827562157394
26609.38	-26.4470382875808	-598.968114251796	599.55170563058	92.5282148428259
22703.13	-117.884637541038	-696.509604689857	706.415187544409	99.6063062607541
19359.37	-133.618761248596	-809.679340173081	820.630615600421	99.3708779027348
16500	-67.169412701087	-906.779248712129	909.263622882573	94.236431213229
14112.02	-92.6363616405883	-1211.86682509628	1215.4022779586	94.3712481824233
12011.13	26.5639113284245	-1325.08085368795	1325.34709046176	88.8515446714714
10236.38	-69.1810469804151	-1556.27680613528	1557.81369700485	92.5452889851208
8750.684	-100.307968591131	-1763.28707826606	1766.13787936926	93.2558712426421
7449.463	-1.02568382630211	-9.15909285406749	9.21634467785184	96.3896639031101
6363.206	6.20853334077085	3.60804193618626	7.18079750840684	-30.1626870344639
5414.761	2.94697125464112	5.97155451262228	6.65913679637989	-63.7335905949518
4620.567	2.20066193208978	1.30639825438404	2.55921654777528	-30.6950106627641
3941.215	14.9866392074143	-14.8549990270767	21.1014300659377	44.7472532250057
3361.769	1.05318680342362	4.70199348242174	4.81850030109391	-77.374856260324
2867.244	2.59956498074073	1.5599995586078	3.0317217405214	-30.9679792155203
2442.658	0.313835047892787	3.77207822593923	3.78511117140444	-85.2439732102097
2083.003	3.27347304701212	1.51764194293002	3.60816613481908	-24.8733010979988
1777.843	2.83364714786059	0.869963546270139	2.96418500273134	-17.0671121027523
1513.548	7.89584839709768	3.74834853027441	8.74039693688796	-25.3948130127048
1292.065	5.02410774219932	0.255650263986656	5.03060788202614	-2.91296670481549
1101.762	9.80754598588782	-1.41528527114007	9.90913672647675	8.21142485500871
939.101	5.02966026724118	-2.44768986591349	5.59362745305408	25.9499231725173
801.2801	4.86361062941999	-5.71076252126676	7.50116770435858	49.5803928692081
684.3433	5.96812048116251	3.35117350265739	6.84462021755659	-29.314749604716
582.9476	36.9519652615149	1.63078736535188	36.9879332231364	-2.52697363260278
497.0677	-2954.74804127998	-27388.1111793115	27547.0355929232	96.1575014045231
423.5089	17695.1570668725	-1929.64814563168	17800.0597074063	6.22348475944486
361.5036	-5445.7348337963	-35938.3934605897	36348.6471881441	98.6164643738861
308.1262	-21028.1446815531	-59260.0595132669	62880.3428923878	109.5369826533
262.7298	-20333.0723618379	-63699.7525230056	66866.2269248377	107.703173934204
224.2111	26321.9633508263	-2827.21875571529	26473.3624712637	6.13058538254234
191.2854	-25235.8127322345	-89919.0486509253	93393.1558228111	105.676794100165
163.1722	-24838.2514875878	-98233.3708102975	101324.892685431	104.189796734462
139.1537	28392.3086109226	17706.0769467536	33460.8480033341	-31.9485850227308
118.6706	-31940.046793206	-136929.390375847	140605.208075139	103.129996700809
101.1982	-33277.4089094563	-151190.794971528	154809.697460623	102.412997315982
86.24196	-17535.681085878	-11918.391419959	21202.5509122128	145.797418859067
73.61024	-40521.0137336551	-210691.791909102	214552.985837698	100.886408566635
62.69291	-42294.5451102265	-230232.926565376	234085.516469813	100.409363906409
53.57697	-52161.104226121	-265978.413648258	271044.8252982	101.095480866079
45.65746	-9684.82537144024	-17650.3633936792	20132.8381110121	118.753753633113
38.96512	-60984.1974081963	-370398.886818594	375385.678589335	99.349563872756
33.18414	-75103.9742055481	-424890.338536992	431477.006019495	100.024107084963
28.30617	-10240.2561392621	-27386.0393449661	29237.9547301402	110.50190087608
24.17237	-291131.243115259	-756654.773758033	810730.440632801	111.044778386966
20.61345	-353929.364630779	-838377.335748157	910023.380053571	112.887525247666
17.55618	-13082.5402719793	-65988.9488560706	67273.2802165694	101.213682059214
14.98558	-358369.179249182	-1109525.74420184	1165965.62800212	107.900099528391
12.76553	-401698.871161042	-1298373.19567009	1359093.42516496	107.191350735814
10.8809	-461946.154947203	-1546037.45262004	1613575.54981921	106.635810857655
9.278505	-470371.576239996	-1742734.38569576	1805096.27411418	105.104466558609
7.923394	-516465.457784401	-1980357.62007379	2046595.4344884	104.616822179173
6.75822	-481959.9780665	-2121212.11375611	2175276.13235734	102.800832447506
5.761429	-945714.653126442	-2461209.63299355	2636651.10749949	111.019167173524
4.919708	-757975.252785718	-3020460.60117977	3114114.4370615	104.087294584913
4.191257	-1121320.51142607	-3386499.29918944	3567315.12383689	108.320478662678
3.564097	-935351.776419728	-3962783.13765766	4071674.48867852	103.280684600928
3.051758	-1099975.24885303	-4179142.52259981	4321478.65577179	104.746138753534
2.604164	-1343780.0261983	-5600744.60651518	5759694.86224907	103.491876844213
2.214424	-1207438.13734907	-5844325.24494203	5967750.36543853	101.67307961935
1.892567	-2100260.18591078	-8070811.06714208	8339609.35116419	104.586512711811
1.607507	-1285663.3507546	-7890652.34120493	7994706.03719964	99.2541663998667
1.376413	-3745294.93406922	-9076204.67654767	9818590.80895778	112.42348672939
1.17375	-2000921.21340327	-10528883.32951	10717325.6864145	100.760243260148
1.001604	-2175508.65781752	-12297092.6506724	12488047.308505	100.032529564552
