EC-Lab ASCII FILE
freq/Hz	Re(Z)/Ohm	-Im(Z)/Ohm	|Z|/Ohm	Phase(Z)/deg
6999984	21.5011440344161	91.8470416557576	94.3301556009698	-76.8244730023213
5969734	19.5818634616872	92.6524957973736	94.699178212456	-78.0663017274879
5091109	16.6865459508875	98.6503531983647	100.051651670191	-80.3993858692606
4341796	16.4383218886137	108.848661178451	110.082920868112	-81.4120887721543
3702781	20.2401430162793	119.744306479285	121.442835620403	-80.4060894754636
3157797	20.4970457342663	132.930936858975	134.501906521943	-81.2344145598842
2693047	21.6159928982187	151.184227487576	152.721713551122	-81.8631211484813
2296687	24.4468242409768	173.864946899473	175.575245908488	-81.9962192442902
1958656	28.6062513438229	199.305125676974	201.347586866742	-81.8321241317647
1670375	33.773510111885	230.035291541926	232.501366318688	-81.6475744259531
1424531	40.9647186281031	265.56558460692	268.706508852865	-81.2309768131134
1214875	50.3032558912715	306.421400637607	310.522933648991	-80.677270399899
1036062	61.3606727351158	354.428777613832	359.701112813599	-80.177994977222
883578.1	76.5421841998411	409.778141906279	416.865483754945	-79.4196853353664
753531.2	96.0420098165607	473.757682736375	483.394672706831	-78.5400805282815
642624.9	182.580255313719	616.618357672692	643.08144791262	-73.5060160444826
548046.8	230.677627121971	697.090623852917	734.266644699508	-71.6898544254769
467390.6	287.659389137587	784.373848359036	835.458112743286	-69.8601137067266
398593.7	356.339374336699	879.5341763842	948.977406016868	-67.9448876849428
339937.5	439.732795769386	981.709947997717	1075.69482367112	-65.8711815370258
289906.2	537.340299929379	1091.39680074769	1216.50383255068	-63.7870475572375
247234.4	655.95906033013	1203.57744710358	1370.72278743937	-61.4092727074446
210843.7	796.062513934955	1318.4614035496	1540.14804442379	-58.8772003234229
179812.5	962.020826753776	1425.15285112829	1719.46058989066	-55.9794720041267
153343.8	1155.89161297682	1531.43319327133	1918.69045090743	-52.955309088179
130781.2	1372.46574041291	1615.64144655491	2119.89610416011	-49.652545444349
111531.3	1610.23324130733	1674.00050148058	2322.74164950998	-46.1123251719049
95109.37	1858.54334080242	1702.10620406656	2520.18826272223	-42.4843277652467
81109.37	2115.21140617488	1698.47497434438	2712.73598628514	-38.7638091338309
69171.88	2359.64815774197	1659.16639202194	2884.57493311409	-35.1126413139377
59000	2587.11316923748	1599.55298240519	3041.66472412121	-31.7275550941032
50312.5	2800.65901051681	1507.17564425124	3180.45111828701	-28.2869320751867
42906.25	3003.57029255108	1371.87481458842	3302.04103687362	-24.5484569464714
36593.75	3146.07137784517	1256.45872569247	3387.69149183708	-21.7704768063576
31203.13	3251.82087139467	1152.99200066378	3450.17818862051	-19.5228836971964
26609.38	3377.6907198626	1028.57582691628	3530.83033163057	-16.9365636691317
22703.13	3462.72492930941	916.406565408192	3581.93591919008	-14.8234322953318
19359.37	3530.3525682304	822.486216039305	3624.89625114784	-13.1145856713541
16500	3587.23057073979	734.84178219388	3661.72303874938	-11.5768414337363
14112.02	3629.25520350503	658.257788120656	3688.46806246032	-10.2802895095568
12011.13	3663.12027287867	587.731870713205	3709.9702000726	-9.11517410358036
10236.38	3691.21339762473	530.829142205518	3729.18703272161	-8.18353326954174
8750.684	3713.64953588	485.416263984751	3745.23988880321	-7.44699029432312
7449.463	3736.7386157147	439.463464752106	3762.49167693768	-6.70752523434933
6363.206	3749.97004820906	418.225872927808	3773.21987740594	-6.36377347558264
5414.761	3768.8872930701	397.767072831683	3789.81926641553	-6.02467413411241
4620.567	3777.83330416583	378.021149467198	3796.69915367402	-5.71416424070362
3941.215	3803.96638965519	368.414422331795	3821.76523091208	-5.53184735141961
3361.769	3833.88746251097	335.693035318413	3848.55594855526	-5.00402430660022
2867.244	3850.25103131816	346.730855528057	3865.83177212121	-5.14583880934643
2442.658	3864.56562083816	365.153590677078	3881.77853342364	-5.3977162127061
2083.003	3878.9915826419	387.715170349111	3898.31999090961	-5.70790238496064
1777.843	3898.85038250023	427.58076469614	3922.22635953871	-6.25852685819506
1513.548	3907.67630227599	456.014684558804	3934.19413297089	-6.65614810885995
1292.065	3940.49698560993	495.194921726581	3971.4902120117	-7.16270582511306
1101.762	3962.61880229318	553.690172624777	4001.11491706358	-7.95434442191146
939.101	3988.54820589766	619.692568468205	4036.40132669983	-8.83131935271665
801.2801	4020.63293848091	681.685226224419	4078.01225766307	-9.62280325091037
684.3433	4058.6590701642	754.972730999338	4128.28018336677	-10.5374558863234
582.9476	4094.502542016	853.25638364028	4182.46309281963	-11.7714408192746
497.0677	4137.77076900905	955.36332071597	4246.62995932483	-13.0010999208725
423.5089	4184.93510750927	1074.54701492238	4320.68665160322	-14.4004920397001
361.5036	4239.78987418848	1208.83128997965	4408.75166741165	-15.9136907653744
308.1262	4302.29688324857	1359.92096059957	4512.11075780376	-17.5413206218923
262.7298	4365.93834217666	1539.64291504904	4629.46194644139	-19.425137097347
224.2111	4445.42553578421	1726.04742448093	4768.75748028347	-21.2199445793282
191.2854	4528.31351950135	1950.44085887777	4930.50128028363	-23.3025716801154
163.1722	4627.98630399085	2193.32312698495	5121.41812092061	-25.35749054193
139.1537	4741.11561678473	2480.47328534355	5350.7873262748	-27.617820502877
118.6706	4859.51912943184	2804.71577244592	5610.82496015701	-29.9917851833323
101.1982	5004.72733057644	3170.277793257	5924.35287097563	-32.3524858908303
86.24196	5164.81020589488	3578.38317424809	6283.31843890295	-34.7157362605167
73.61024	5356.59465251371	4039.16226264676	6708.79557411971	-37.018270292653
62.69291	5563.33499080585	4569.918128818	7199.64220805619	-39.4008809062368
53.57697	5803.15301383817	5157.33672537646	7763.67870284029	-41.6279048305529
45.65746	6087.2186278555	5828.86646846011	8427.92471077249	-43.7579671071989
38.96512	6404.60906487638	6577.51306868613	9180.56073683048	-45.7630558295711
33.18414	6776.59088462439	7430.4484222234	10056.5276200534	-47.6350922927579
28.30617	7202.43714428005	8325.74639019285	11008.7762158704	-49.1375709780854
24.17237	7673.26600746675	9446.09684071836	12169.9530297193	-50.9123077485031
20.61345	8222.17271785932	10633.5775715233	13441.6180637568	-52.2878247160075
17.55618	8877.26916303566	11990.3255556267	14918.9079601323	-53.4848882486405
14.98558	9594.46502111174	13471.6426697545	16539.0119191833	-54.5416401468239
12.76553	10442.0699641111	15150.2028226015	18400.1486597623	-55.4239779625915
10.8809	11396.8096351571	17018.5358319636	20482.1344523426	-56.1909507263095
9.278505	12501.347870205	19076.3787038407	22807.716304449	-56.7619203578912
7.923394	13633.8747402179	21305.4098639494	25294.3280184081	-57.3837858304144
6.75822	15087.1834544615	23906.2479407137	28268.919243428	-57.7440616919927
5.761429	16749.0298873778	26619.2994109	31450.2321660018	-57.8216401774534
4.919708	18481.7457050082	29743.7023250202	35018.0346722085	-58.1445591907891
4.191257	20555.2825826565	33210.710291059	39057.2774280224	-58.2451705796141
3.564097	22815.6745191289	36992.679595187	43462.7811741839	-58.3352968407882
3.051758	25317.0492349801	41131.6027815919	48298.6721282176	-58.3871495212475
2.604164	28092.2560234264	45646.7105176014	53598.4797318304	-58.3907018595773
2.214424	31345.7558315245	50890.1706688834	59769.2720330241	-58.3690440549214
1.892567	34727.5920722062	56452.0216726964	66278.4761598224	-58.4014161703463
1.607507	38760.556694114	62843.9878677497	73835.9503653843	-58.3347811787726
1.376413	42985.2005487407	69698.2458347586	81887.5627837213	-58.336500052158
1.17375	47649.1931325172	77379.0758204105	90873.3568269642	-58.3756903653449
1.001604	52914.2509181936	85828.6047166392	100828.901302348	-58.3457246726596
