EC-Lab ASCII FILE
freq/Hz	Re(Z)/Ohm	-Im(Z)/Ohm	|Z|/Ohm	Phase(Z)/deg
6999984	1.84725472852465	1.698526110915	2.50945033453876	-42.5981229129377
5969734	5.16211431324626	2.81014981746389	5.87744554884298	-28.5629716817248
5091109	5.29399364395248	-2.64049496132298	5.91595996800023	26.5087289101084
4341796	4.51859888795286	-6.85917343619319	8.21376869274921	56.6244162166378
3702781	1.39896333338796	-4.68970277862963	4.89391566744365	73.3898774994096
3157797	1.68587944177968	-6.62345285555426	6.83464097242608	75.7196384859705
2693047	0.528929600004129	-6.83439661560918	6.85483359544276	85.5745698580002
2296687	-1.76350267712985	-7.74228267283194	7.94058453001275	102.831657576884
1958656	-1.46423540376791	-7.93301605352188	8.06701487683538	100.457664248539
1670375	2.38434652716908	-13.6418962501301	13.848698193727	80.0859206595445
1424531	2.9408353987183	-12.6264365376938	12.9643901701069	76.8889307542735
1214875	7.26752038026717	-9.34732476421655	11.8401576309327	52.135028331202
1036062	4.00452471443604	-0.226306689588802	4.01091422325157	3.23450145211818
883578.1	-0.902660983594459	-9.88620148733768	9.92732475038172	95.2169338880363
753531.2	5.11571276917943	-7.37789830848322	8.97796750868843	55.2632002756998
642624.9	9.41523333048264	-1.7232556663654	9.57163668131484	10.3719570271998
548046.8	0.704364783597621	-6.36968544953799	6.40851172070618	83.6898251909174
467390.6	11.9924140495249	-5.85620506685221	13.3459032111081	26.0274500917765
398593.7	9.17055633364785	5.85954319274744	10.8827087573031	-32.5766155211296
339937.5	6.68352473034109	-7.91420897368755	10.3587743724959	49.8190126021463
289906.2	14.5400458384743	-11.5135864975366	18.5465793886956	38.374066052849
247234.4	1.07697511591141	-29.5097920664504	29.5294379087281	87.9098885351739
210843.7	34.0150945767856	-71.8306041273806	79.477432950317	64.6602925327964
179812.5	-5.5439698205718	-102.769043433265	102.918472052202	93.0878800171097
153343.8	8.11453360247209	-107.812890791291	108.117829595125	85.6957504316704
130781.2	-5.9954089885806	-128.512131980013	128.651906301418	92.6710532211521
111531.3	-0.0453330120987813	-169.994623218997	169.994629263547	90.0152792491617
95109.37	-11.5521779265676	-188.02739101025	188.381932745602	93.5157648985134
81109.37	-16.4874665060526	-240.793552378728	241.357352112911	93.9170072424435
69171.88	-33.8429357375652	-262.710288282783	264.881180662123	97.3405446599092
59000	-18.042830398167	-298.350721817621	298.895796119437	93.4607609501809
50312.5	-23.7603538563255	-331.157453966766	332.008755506731	94.1039060752152
42906.25	-31.9352005605363	-425.045673637677	426.243688179601	94.2967636690562
36593.75	-48.0935536994141	-491.862226544054	494.207891284946	95.5845436093923
31203.13	-37.0226300697326	-559.066558663156	560.291078059203	93.7887219921137
26609.38	-60.0809576783238	-636.732594886476	639.560879718585	95.3903682126224
22703.13	-69.9564663821469	-746.146972816823	749.419249974528	95.3562199280326
19359.37	-53.17703376872	-863.609567971364	865.245215422845	93.5235571245272
16500	-456.223669789463	-1166.37940293141	1252.43001738971	111.362712667484
14112.02	-92.389408443105	-1171.56924473686	1175.20649164552	94.5089872363727
12011.13	-130.511542147395	-1371.44694619437	1377.64291050314	95.4360902446739
10236.38	-162.943358949408	-1570.39237579183	1578.82321751702	95.9237919198892
8750.684	-164.320341168127	-1845.09337137349	1852.39594137107	95.0892215955017
7449.463	45.546167716304	32.2350068524642	55.7991851232624	-35.2887055148034
6363.206	8.33245137483206	24.5387019130347	25.9148150194192	-71.2443797397627
5414.761	0.493447172700513	-3.11301061745661	3.15187645961	80.9929128492366
4620.567	5.20794699254106	0.107325770677273	5.20905276400316	-1.18058870419178
3941.215	4.29596388423993	3.10839305558015	5.30258550922781	-35.888042286822
3361.769	7.86079667064893	5.26366773215572	9.46035529416431	-33.8066585044503
2867.244	10.3446146439613	2.92832226953924	10.751098708799	-15.805596547745
2442.658	13.2022733683354	2.47948062449674	13.4330877410785	-10.6366520693944
2083.003	4.72070950729826	3.41306069787992	5.82529669456489	-35.8668313892463
1777.843	57.2204695106279	-33.9311550508765	66.5244722948128	30.6675086885978
1513.548	-0.0250601114700463	-6.41630334368286	6.41635228204802	90.2237785908098
1292.065	11.3691248383057	-0.276507048181622	11.3724867877116	1.39320875830247
1101.762	-17.9517083364516	22.243854359181	28.5841370160003	-128.904961481005
939.101	3155.11784324433	-5490.62907212155	6332.59632476168	60.1167372174089
801.2801	2815.35505765042	-7683.64813462385	8183.19453253718	69.8767294827854
684.3433	99.4435464919067	21.828448657856	101.811100130077	-12.3804147414073
582.9476	-4137.06694094457	-20989.7820926448	21393.6036041283	101.150026448175
497.0677	5.61888405562894	5.03383075695318	7.54395851793002	-41.8564405062967
423.5089	6125.53277586637	-2462.97845881865	6602.15227610041	21.9042681810986
361.5036	-5522.4420993988	-35621.0401661292	36046.5791616653	98.8125878271593
308.1262	-21217.715730737	-59808.5279488321	63460.6293400609	109.532685469837
262.7298	-19988.0421416931	-63619.0469536291	66685.1180095391	107.441847883845
224.2111	-14182.5145414293	-190528.64131949	191055.769035559	94.2571149896332
191.2854	-69281.8508615256	-174594.330473563	187838.108732787	111.643977649114
163.1722	-193596.449618795	-119408.876421218	227460.02961659	148.334017609671
139.1537	-185290.864290245	-140800.947870312	232717.879224189	142.769107728683
118.6706	36335.8950821654	-322865.518799566	324903.740361872	83.5788432660005
101.1982	-35563.0939868377	-158634.214588467	162571.669401579	102.635820602508
86.24196	-36986.5101456171	-175627.162518064	179479.53127557	101.892522454885
73.61024	-43354.8706225091	-209960.49133287	214389.95481933	101.667063562501
62.69291	-46132.440940603	-234147.187325757	238648.501859328	101.145843856271
53.57697	-216008.368157714	-351523.181936855	412587.157523317	121.570414153976
45.65746	-223859.144071313	-407934.425257317	465320.762156986	118.756331943191
38.96512	1673352.1281214	755013.461462193	1835797.55737868	-24.284810417042
33.18414	-247637.760370595	-548013.082123231	601367.440538285	114.317398721195
28.30617	-261971.118600849	-633560.327932549	685585.557105005	112.46462509908
24.17237	444458.186547378	2744810.58328586	2780562.5721618	-80.802117903458
20.61345	-301553.201085183	-844760.375541216	896969.578731217	109.644985197682
17.55618	-324449.520873708	-980070.118937609	1032378.28804637	108.316983620128
14.98558	-353924.634659201	-1125727.14989493	1180052.65265123	107.452963265071
12.76553	-384596.543737805	-1295491.11319233	1351374.01403733	106.534741102594
10.8809	4905944.05492001	435630.134691622	4925247.27138206	-5.07434971933237
9.278505	4936768.1200713	-405379.039132371	4953383.85719502	4.69426842564982
7.923394	2894791.62476478	-51469.0569634588	2895249.14551979	1.01860494114137
6.75822	1042449.25030648	3073429.17168107	3245407.11048779	-71.2640321921357
5.761429	2670883.6359969	2069384.80492287	3378753.1528482	-37.7683121535249
4.919708	2829317.3729118	-2974545.44227206	4105235.36289967	46.4333935315623
4.191257	8615759.47799935	3601134.67537866	9338066.30587673	-22.6834965120545
3.564097	9633256.49963458	7504702.21382381	12211477.6381044	-37.9200542959874
3.051758	1200045.17694859	-16334685.3682723	16378707.3515332	85.7982525812193
2.604164	29936322.0969405	15052054.0361246	33507427.7048863	-26.6933588300114
2.214424	3441700.93290177	-1544327.51368907	3772300.72781505	24.1662769083853
1.892567	8427779.14888004	-8739102.68512803	12140814.5164774	46.0389521966604
1.607507	57558168.5121655	6675950.60421798	57944034.023744	-6.61595511953152
1.376413	355128531.738205	-131961550.385782	378853698.457271	20.3844689816243
1.17375	167247646.021971	-35699154.8039488	171015217.90065	12.0490159527036
1.001604	182727942.988824	14023070.0972326	183265238.503866	-4.38844188925843
