EC-Lab ASCII FILE
freq/Hz	Re(Z)/Ohm	-Im(Z)/Ohm	|Z|/Ohm	Phase(Z)/deg
6999984	22.9567783598039	-4.16407101726096	23.3313771581952	10.2809541405992
5969734	11.5211610941209	-3.0834731195927	11.9266491285664	14.9832359539717
5091109	10.5497838519911	-6.06042517247051	12.1666220700261	29.8756294495254
4341796	10.3543560232097	-6.85985714004015	12.420560721527	33.5248434833373
3702781	5.53591909795672	-5.40145412662477	7.734475220799	44.2956364317277
3157797	3.64377306695529	-5.80511684124947	6.85393782463971	57.8842071686817
2693047	2.47569859125833	-4.04450523085272	4.74205715667299	58.5286128008653
2296687	1.30144694737854	-5.45999105682164	5.61295523743181	76.5931126446475
1958656	1.61280126582875	-4.05543606142064	4.36436588421843	68.3128411809758
1670375	2.28168021266359	-2.22029395646512	3.18367238358097	44.2187970618227
1424531	33.775929218318	-21.4166211102193	39.9935626612523	32.377942405668
1214875	2.46272681277564	-11.294985818565	11.5603515515726	77.6998952175017
1036062	87.7385422819344	71.6527705068172	113.279174268978	-39.2372212416357
883578.1	73.2567406209536	-97.3356029087912	121.822697556833	53.0341423512111
753531.2	63.7481554067927	-49.2735514994572	80.5711498933598	37.7019006154913
642624.9	109.207544345673	-52.2325065086863	121.055865112732	25.5611655789431
548046.8	-61.1540837871343	-87.5229656328899	106.771210899848	124.942786440337
467390.6	58.5824229548471	-104.88931827907	120.140207126127	60.8159176148071
398593.7	-110.273354570447	133.226695258335	172.943820524691	-129.614970780731
339937.5	-13.7087241899544	-93.6457823027973	94.643867535193	98.3283238987148
289906.2	104.811355825137	69.4212006018548	125.7168381837	-33.5182716574271
247234.4	127.575470776103	72.9422084228253	146.95600196434	-29.7590783748399
210843.7	-28.9595344523333	-79.9435874862448	85.0272416103613	109.912900262685
179812.5	71.4467906266477	-62.3866423887669	94.8511309336474	41.1271454471865
153343.8	118.023949711977	-46.0935905616505	126.705452907444	21.3328516424367
130781.2	-40.3257520128292	-104.893023512373	112.377545163469	111.02907934338
111531.3	11.9236829608372	60.9106714987643	62.0667714464103	-78.9240195467987
95109.37	-9.82733117966493	-0.954502739466666	9.87357653509932	174.452413292268
81109.37	2.78671814329855	2.65609940021543	3.84976129571874	-43.6252586226907
69171.88	2.77847300930259	-0.0649744839084559	2.77923261836467	1.33961543206152
59000	0.645240643428182	-1.78102840508572	1.89430664562361	70.0852861202131
50312.5	1.38104234273626	0.328202689519212	1.41950518063094	-13.3682741943042
42906.25	-0.00112739770907033	-1.30838167343427	1.3083821591585	90.0493702379719
36593.75	-0.786046769260719	-2.06007944589059	2.20494826398401	110.884923162125
31203.13	2.42648366649382	-1.19271458669603	2.70377348701381	26.1759779410083
26609.38	2.36140004354185	0.305837843607639	2.38112304432636	-7.37961045761573
22703.13	0.712526665142218	1.46407666015522	1.62825511371834	-64.0490611569508
19359.37	1.89251489832504	0.430749175087871	1.94091666287379	-12.8224631395066
16500	1.56485874413175	-1.21958791000804	1.98398023158584	37.9314160490648
14112.02	1.82294211055352	-0.318452270313297	1.85054850973894	9.90908734282544
12011.13	1.32984368264656	-1.18549723632749	1.78154088294798	41.7156017506756
10236.38	0.318259893499174	-0.0724704724308934	0.326406692922285	12.8280036413856
8750.684	0.334396043136553	-0.0581701947610064	0.339417862264079	9.86819534498695
7449.463	0.34354124875619	-0.032719189542254	0.34509583445945	5.44049324169057
6363.206	0.371542815724626	0.00405689603590307	0.371564963797759	-0.625590844107131
5414.761	0.53069429153758	0.0198232139590465	0.531064394289657	-2.13919522390044
4620.567	0.315226520762594	-0.0234977598449013	0.316101097925677	4.26308388030396
3941.215	0.330541108316887	-0.00801593337286475	0.330638290999688	1.3892043562723
3361.769	0.325666183003017	-0.0321640518367054	0.327250651614796	5.64046066881138
2867.244	0.321738473351891	-0.0230072240974377	0.322560037195365	4.09020647069473
2442.658	0.320407516586381	-0.0213474400016115	0.321117875366156	3.81174955521895
2083.003	0.318714148505956	-0.0208352739714701	0.319394453770479	3.7402702054874
1777.843	0.317499488722254	-0.0193645184218509	0.318089468408815	3.49018673298429
1513.548	0.315340041037792	-0.0179900174182275	0.315852785658801	3.26516099669343
1292.065	0.315026390649152	-0.0188641992690572	0.315590691908831	3.4268554160573
1101.762	0.31415323494764	-0.0162145224363509	0.314571400107998	2.9546092773656
939.101	0.311748533570205	-0.0160097007496291	0.312159348252244	2.93981550709532
801.2801	0.312704986057749	-0.0162747482120365	0.313128209739624	2.97927396453039
684.3433	0.309797491690244	-0.0127296788228052	0.310058914692835	2.35297838233524
582.9476	0.308177774999537	-0.0156383266702814	0.308574299423513	2.90495389005058
497.0677	0.308023136615429	-0.0148564295956183	0.308381202719519	2.7613236840516
423.5089	0.308040361794955	-0.0157767745648411	0.308444113431326	2.93193218079211
361.5036	0.305397719623043	-0.013833022829559	0.305710843235169	2.59344590416268
308.1262	0.302038336397215	-0.0123523372271532	0.302290815091314	2.34189680561962
262.7298	0.305259611830895	-0.021907861938723	0.30604474350963	4.10496357166612
224.2111	0.30215345427127	-0.013258796456545	0.302444219008294	2.51258437053586
191.2854	0.292921526685137	-0.00610962650703228	0.292985235688774	1.19487655272896
163.1722	0.292911764086682	-0.00494666317675943	0.292953530473617	0.967513148633967
139.1537	0.291052197952134	-0.00701139456661493	0.291136637314058	1.37997801689731
118.6706	0.297701892663471	-0.0141688023077115	0.298038876414215	2.72487497391435
101.1982	0.289079883269374	-0.0180593784732069	0.289643436075933	3.57473238523379
86.24196	0.294738962683484	-0.0192293867041195	0.295365579302587	3.73280628429023
73.61024	0.304870443164255	0.0124927072822676	0.305126293279372	-2.34650224037688
62.69291	0.387010426910229	-0.0517765510852803	0.39045855321599	7.6201209512778
53.57697	0.326260635275267	0.000830896933932098	0.326261693307589	-0.145916422193116
45.65746	0.287352211637451	-0.00216137880975393	0.287360340150296	0.430953872537538
38.96512	0.31347540389426	-0.00770611887841414	0.313570108771288	1.40820993929459
33.18414	0.239220387440583	0.062153181617695	0.247162723225863	-14.5643178620618
28.30617	0.270151872317373	-0.0728506291779976	0.279802159191476	15.0917083237459
24.17237	0.335651806779682	0.0923073478393999	0.348113173924241	-15.3767433676676
20.61345	0.380867602935298	-0.0489548242279907	0.384000918984413	7.32435440785332
17.55618	0.356587374817025	0.0165091205833068	0.356969336135937	-2.65076116424079
14.98558	0.497212217905225	-0.076681997411513	0.503090566758364	8.76730277826668
12.76553	0.208274933022364	-0.247220263071681	0.323258884175983	49.8869653966488
10.8809	0.967602221478687	-0.362836959673243	1.0333947543487	20.5553249961323
9.278505	2.37192823672708	0.1416454965871	2.37615382643604	-3.41749901526281
7.923394	2.16809201670496	-0.439567820028539	2.2122031690838	11.4610294746065
6.75822	2.07954566861981	-0.28771278457994	2.09935438511133	7.87707533366012
5.761429	1.8421435042973	-0.0541140435905301	1.84293814875553	1.68261317836982
4.919708	2.09486532545839	-1.61601077740447	2.64574215759875	37.6471373094327
4.191257	1.08853690934999	0.436401903680037	1.17275710381681	-21.8461874494062
3.564097	1.33085754981328	-0.373628576760489	1.38230970888115	15.6817001541259
3.051758	0.955977788470458	-1.00242700321705	1.38519075539349	46.3586798350773
2.604164	1.22733771929189	1.68117097833184	2.08151236738624	-53.8687126755986
2.214424	15.8076159054909	-5.88869352727485	16.8688301928053	20.4314973574487
1.892567	1.33749656870134	-2.41154344270391	2.7576147024804	60.9862579672995
1.607507	2.44360362679807	2.31694894474596	3.36741014690223	-43.4760031170592
1.376413	3.86532884551436	-3.64578585075061	5.31342841802717	43.3257735831759
1.17375	5.25219190422823	-1.44200339977582	5.44654877916333	15.3524213092643
1.001604	3.16240294648036	0.931537597231408	3.2967491094961	-16.4132011007474
