EC-Lab ASCII FILE
freq/Hz	Re(Z)/Ohm	-Im(Z)/Ohm	|Z|/Ohm	Phase(Z)/deg
6999984	6.74111470066831	1.79700536705311	6.9765217477468	-14.9264558364743
5969734	4.37461256162329	-0.0227575304083086	4.37467175562951	0.298060379957289
5091109	2.36707510657127	-0.833410384449122	2.50950541522767	19.3963746160315
4341796	1.34796139068523	-1.02190611773895	1.6915354043739	37.1662137249337
3702781	0.647921068341612	-0.722843157504732	0.970723411251808	48.1285120867687
3157797	0.351544849276304	-0.544300157585247	0.647955586903936	57.142965939543
2693047	0.223544216914906	-0.370697574783256	0.432884174885484	58.908483819037
2296687	0.161430138875356	-0.206486112251588	0.262099607573327	51.981825146362
1958656	0.139733705000388	-0.104003749555387	0.174190379282884	36.6602977214112
1670375	0.138526990647561	-0.0387440886963862	0.143843079592947	15.6255732085149
1424531	0.142494962065454	-0.00248315192702123	0.142516596428374	0.998349164210113
1214875	0.149485372910784	0.0182122951571569	0.150590718203904	-6.94629966589215
1036062	0.154210143585174	0.0265546401343598	0.156479766414784	-9.77038571978017
883578.1	0.158042623658865	0.0289868676375524	0.160678901503634	-10.3932023022433
753531.2	0.160402205148167	0.0281405065447046	0.162851943571415	-9.95054656888111
642624.9	0.161337037299656	0.026169826378354	0.163445707858309	-9.21347074291301
548046.8	0.161133165970597	0.0228366671178921	0.162743388623813	-8.06654674693193
467390.6	0.161044234076543	0.0198108142944039	0.162258169878462	-7.01299195324537
398593.7	0.160250971102655	0.0171361831208168	0.161164582062233	-6.10363917743734
339937.5	0.159269141631638	0.0151845762605837	0.159991346116883	-5.4460669751216
289906.2	0.159311503861332	0.0135782895297501	0.15988910284667	-4.87160688465194
247234.4	0.15896298340172	0.0123782738732258	0.15944419636994	-4.45257477414081
210843.7	0.158859565820339	0.0113009881364506	0.159261024690559	-4.06906547396999
179812.5	0.159191700095549	0.0104162121170669	0.15953211229774	-3.74363404070261
153343.8	0.159348281202662	0.00934625159714044	0.15962213863108	-3.35672251714431
130781.2	0.159914487637247	0.00966188600363268	0.160206102871989	-3.4575550676782
111531.3	0.161059658330011	0.00892538250995556	0.161306776033522	-3.17189435384424
95109.37	0.161972981491401	0.00806132276273753	0.162173461632595	-2.8492343174319
81109.37	0.162787183598537	0.00727987152575477	0.162949880863335	-2.56057130475145
69171.88	0.163623029034915	0.00665758245543716	0.163758416683576	-2.32999647221475
59000	0.164244149929816	0.00602984303551292	0.164354798509812	-2.10253738416797
50312.5	0.164521692647143	0.00538353174488574	0.164609749910293	-1.87418219012961
42906.25	0.164836038531626	0.00482606481992794	0.164906672091961	-1.67702512099391
36593.75	0.16508532130592	0.00428662913447283	0.16514096554161	-1.48741619785127
31203.13	0.165313762295355	0.00387493829472878	0.16535917014497	-1.34276154331459
26609.38	0.165496415324564	0.00346298819192648	0.165532642619207	-1.19873083981681
22703.13	0.165739973580553	0.00314440315195074	0.165769798557109	-1.08687973792475
19359.37	0.165905499771807	0.0027759857799952	0.16592872250332	-0.958602509004092
16500	0.166030785220953	0.00248587910460992	0.166049393964594	-0.857791157908619
14112.02	0.166189023726333	0.00219517222205404	0.166203520986157	-0.756769531302333
12011.13	0.166294426859873	0.00196779226256005	0.16630606907459	-0.677959759539883
10236.38	0.166408533365915	0.00169964270006394	0.166417212938754	-0.585180130816554
8750.684	0.166463816545839	0.00149655635420826	0.166470543640394	-0.515091235062232
7449.463	0.166556922710231	0.00130908925068443	0.166562067162269	-0.450318986576267
6363.206	0.166591696448361	0.00113049494423389	0.166595532186076	-0.388804461521857
5414.761	0.166605167039624	0.000994746130095032	0.166608136668544	-0.342090696822825
4620.567	0.166648455828266	0.00087198033789473	0.166650737111047	-0.299794780498929
3941.215	0.166692730015112	0.000766633938465265	0.166694492912893	-0.2635062693612
3361.769	0.166721466339824	0.000702785326330513	0.166722947567862	-0.241518956677275
2867.244	0.166716633166344	0.000592721807362289	0.166717686804557	-0.203700820113886
2442.658	0.166772330485797	0.000532339420436806	0.166773180100766	-0.182888242797318
2083.003	0.166767898660519	0.00045334814225167	0.16676851485872	-0.155754623197528
1777.843	0.1668026152164	0.000413401445528154	0.166803127500012	-0.142000828621192
1513.548	0.166801469616592	0.000349817722555459	0.166801836436815	-0.120161109865293
1292.065	0.166820200614795	0.000297452910806461	0.166820465804992	-0.10216255746373
1101.762	0.166803645146918	0.000277206729369827	0.166803875488161	-0.0952183089867447
939.101	0.166815708209117	0.000211168948319702	0.166815841866515	-0.0725296386658002
801.2801	0.166838973801157	0.00017864890567923	0.166839069448539	-0.0613515185616954
684.3433	0.166838077929116	0.000142699595884924	0.166838138955865	-0.0490060943528367
582.9476	0.166831210873505	9.29776126467483E-05	0.166831236782433	-0.0319318202776453
497.0677	0.166826051617682	5.02549982789668E-05	0.166826059187138	-0.017259889482502
423.5089	0.166820848722382	3.9868648851895E-05	0.166820853486502	-0.0136931641824552
361.5036	0.166794385036357	1.32980459869589E-05	0.166794385566465	-0.00456803092647983
308.1262	0.166765717738364	1.86557807429214E-05	0.166765718781859	-0.0064095757217254
262.7298	0.166737990624309	2.70000328883459E-06	0.16673799064617	-0.000927795714275498
224.2111	0.166750213932507	1.26146903931056E-05	0.166750214409659	-0.00433443832523617
191.2854	0.166724503219212	1.35717197117423E-05	0.166724503771595	-0.00466399505462849
163.1722	0.16672348748011	1.22618739753134E-05	0.166723487931017	-0.00421388514035167
139.1537	0.166719926508997	9.42451907166221E-06	0.166719926775377	-0.00323887598488401
118.6706	0.166726284223261	-2.77459546631164E-06	0.166726284246348	0.000953494590260501
101.1982	0.166705623516133	2.47814577599926E-06	0.166705623534552	-0.000851724680773774
86.24196	0.166721327761577	1.02451756530399E-05	0.166721328076364	-0.00352087721728047
73.61024	0.166701768788449	1.52023878092963E-06	0.166701768795381	-0.000522509548818908
62.69291	0.166691186791854	-9.0850830832951E-06	0.166691187039434	0.00312276207699618
53.57697	0.166680429962029	2.12448543654041E-05	0.166680431315949	-0.00730283984264616
45.65746	0.166708401641016	1.97082506629746E-05	0.16670840280597	-0.00677350132445864
38.96512	0.166691767702815	3.42703777041641E-05	0.166691771225661	-0.011779513794608
33.18414	0.166705290895854	1.26366294928019E-05	0.166705291374796	-0.00434314671076436
28.30617	0.166684611708696	1.44914501666212E-05	0.166684612338634	-0.0049812572556529
24.17237	0.166688119025698	8.10330121504516E-06	0.166688119222663	-0.0027853512421482
20.61345	0.166683438194107	1.34163683043952E-05	0.16668343873405	-0.00461174359554374
17.55618	0.166702913796791	1.36285867021483E-05	0.166702914353885	-0.00468414426140986
14.98558	0.166695100009235	1.28748127613842E-05	0.166695100506432	-0.00442527963773857
12.76553	0.166662282289967	3.16095021626954E-05	0.166662285287528	-0.0108668321340102
10.8809	0.166700249062925	1.41092757003407E-07	0.166700249062985	-4.84943456389597E-05
9.278505	0.166686614621187	-7.21302487394922E-07	0.166686614622748	0.000247935854799623
7.923394	0.166646386952999	5.98159208414881E-06	0.16664638706035	-0.00205657012618022
6.75822	0.166686559661998	6.07642518592209E-06	0.166686559772754	-0.00208867180552581
5.761429	0.166662285363978	-8.30884824633366E-06	0.166662285571094	0.00285644671015701
4.919708	0.166666599987684	1.00374176630915E-05	0.166666600289934	-0.00345061139215901
4.191257	0.16667693202259	1.27760502141059E-05	0.166676932512243	-0.00439181202700939
3.564097	0.166677187177857	5.01039791989728E-06	0.166677187253164	-0.00172233920709522
3.051758	0.166678913282524	2.10817322999025E-06	0.166678913295857	-0.000724683321817212
2.604164	0.166672352795064	7.1766448400262E-06	0.166672352949571	-0.0024670645925861
2.214424	0.166676125584903	7.47087397430447E-07	0.166676125586578	-0.000256815153638104
1.892567	0.166673714074776	1.11266721319715E-07	0.166673714074814	-3.82490638506853E-05
1.607507	0.166668270703862	-6.22278489178566E-06	0.16666827082003	0.00213921527742327
1.376413	0.166677165737923	5.99263081448386E-06	0.166677165845651	-0.0020599849546392
1.17375	0.166677242862296	1.06381183698685E-05	0.166677243201783	-0.00365688364685744
1.001604	0.166683151342924	4.76884329705888E-07	0.166683151343606	-0.000163924542989857
