EC-Lab ASCII FILE
freq/Hz	Re(Z)/Ohm	-Im(Z)/Ohm	|Z|/Ohm	Phase(Z)/deg
6999984	24.1806893078963	91.6591752574832	94.7950955708523	-75.2214516831043
5969734	23.4260480913861	89.0690638357954	92.0981968431789	-75.2643662219596
5091109	21.6316298813033	93.3032460327569	95.7779887634464	-76.9470286746998
4341796	22.4176264972211	101.3730485332	103.822179454505	-77.530299710143
3702781	26.7105143762022	111.04404954497	114.211350213484	-76.475026043071
3157797	29.1796329061124	122.6605277723	126.083528067367	-76.6186665623103
2693047	32.9563685936812	138.925841744503	142.781342392139	-76.6548201991831
2296687	39.4079751351789	158.177887771387	163.012983176409	-76.0102999754404
1958656	48.0636245068324	179.543975089163	185.865948983539	-75.0134107076923
1670375	59.3582098092945	204.69426774502	213.127052059175	-73.8286485789208
1424531	74.233494974197	232.657254815969	244.21304222868	-72.3037787029596
1214875	93.0639087022626	263.334735110764	279.295674543662	-70.53631849654
1036062	116.505262282746	296.945560214745	318.98298053473	-68.5776622738853
883578.1	146.280069414114	333.59027117323	364.253109429731	-66.3224430964709
753531.2	183.144165053116	371.143447149017	413.871047011818	-63.7355386514552
642624.9	228.179821291001	408.204770559632	467.650687535082	-60.7955203173004
548046.8	280.892682270138	443.251001897213	524.759134875988	-57.6371477674213
467390.6	424.688520987223	494.148508340356	651.569710893097	-49.3230832529928
398593.7	496.290474032744	505.152005747572	708.154491284522	-45.5069838021932
339937.5	570.079389485348	506.815574286183	762.792590849583	-41.6379373215456
289906.2	641.990574912862	501.048347821627	814.371748731333	-37.9706350101415
247234.4	711.050044008302	484.914043159056	860.65893031855	-34.2927730865732
210843.7	773.143556841469	464.049022474749	901.716393743203	-30.9726316328168
179812.5	830.870448738648	437.693499238273	939.106650952173	-27.7797727532487
153343.8	881.054529435528	407.075421143246	970.550092647366	-24.7984498916429
130781.2	924.265454427098	376.449551646153	997.988424372708	-22.1608673296479
111531.3	960.420958347097	345.958360589172	1020.83084029329	-19.8097980426861
95109.37	989.4499409957	316.989815934741	1038.98687630919	-17.7638860774109
81109.37	1012.8327548331	289.251237196768	1053.32638222094	-15.9386201590406
69171.88	1035.19078120968	266.519973267062	1068.94941398168	-14.437803051319
59000	1052.24159985819	246.107797473286	1080.63936280763	-13.1642152755683
50312.5	1068.38228667168	231.187281095599	1093.10944987873	-12.2099827156677
42906.25	1082.1283632035	210.324773168368	1102.37847614048	-10.998996308613
36593.75	1090.60278994172	202.250324933596	1109.19774583453	-10.5060463399943
31203.13	1095.88529607737	192.464595108071	1112.65772029349	-9.96097440075249
26609.38	1110.54511352392	191.642876263847	1126.95937867987	-9.7909033384238
22703.13	1119.91064505204	190.150263743513	1135.93880808018	-9.63638235065497
19359.37	1129.44265196188	192.266430787256	1145.69065828362	-9.66092213302043
16500	1138.91371605137	197.724049967232	1155.94950259316	-9.84881791235563
14112.02	1147.73389850913	205.50684791451	1165.98720675946	-10.1514885972114
12011.13	1158.80706127588	215.449275630553	1178.66542989627	-10.5323622915247
10236.38	1168.45337143213	229.178768174264	1190.71667032632	-11.0970408465158
8750.684	1181.0342851076	245.602765745194	1206.3012480891	-11.7475484792176
7449.463	1192.99301711018	266.377968915732	1222.37046806495	-12.586845705415
6363.206	1207.63909258487	290.077746255675	1241.98924182619	-13.5066950680298
5414.761	1223.41591736787	316.75134354574	1263.75548287914	-14.5155591536962
4620.567	1237.8126006068	351.219052981606	1286.67589446537	-15.8408506408794
3941.215	1254.97434617272	387.842633915508	1313.53816778735	-17.1734645286845
3361.769	1272.711838339	430.744833341482	1343.6281237376	-18.6982083539307
2867.244	1295.67795780973	477.738576619443	1380.94732627438	-20.2397914087758
2442.658	1318.86269915187	534.061903694851	1422.89175139654	-22.0450553705181
2083.003	1345.29368822698	597.298585648103	1471.93094539131	-23.9408008272675
1777.843	1373.7346393849	669.332176026246	1528.1205519559	-25.9769839691814
1513.548	1407.80394252859	751.375623657199	1595.76855102026	-28.0898116753499
1292.065	1441.06233971686	845.741938920658	1670.90995993186	-30.4081536130539
1101.762	1478.78765473804	951.009799835975	1758.19013965774	-32.7451109495217
939.101	1521.27193727427	1064.74990780101	1856.86851265793	-34.9884699005769
801.2801	1570.69834786165	1209.55027518083	1982.44928514334	-37.5988484264591
684.3433	1626.25446264429	1366.10360811615	2123.89798375026	-40.0312891794854
582.9476	1683.5906440675	1543.78669968038	2284.24053700605	-42.5196047766929
497.0677	1752.32446361375	1749.59589489745	2476.23238433335	-44.9553572257751
423.5089	1827.50100486947	1983.36950106932	2696.94540185204	-47.3421504312634
361.5036	1919.89177543846	2248.22320010186	2956.43230716898	-49.5040118655392
308.1262	2018.67566690075	2554.0611821363	3255.49995703159	-51.6779054135128
262.7298	2133.64219725646	2903.00009799236	3602.75430675713	-53.6849192740766
224.2111	2257.87202272098	3292.63421773516	3992.42109036441	-55.5602330558515
191.2854	2410.96275771009	3742.10800365428	4451.52936978725	-57.2071544013315
163.1722	2573.1902349999	4254.23987852257	4971.90757451408	-58.8322231365051
139.1537	2771.9101046899	4829.79517601515	5568.69886694739	-60.147676938346
118.6706	2991.73097799414	5489.57153438547	6251.86771099845	-61.4103040314758
101.1982	3258.49107764386	6235.64518904454	7035.69719549804	-62.4102872713176
86.24196	3565.52010514864	7088.37497554581	7934.60732577002	-63.2971686424006
73.61024	3916.19505936258	8045.29602266773	8947.81380200376	-64.0446493819283
62.69291	4321.67618150555	9141.53495646599	10111.6045402341	-64.6974774937003
53.57697	4789.5586866327	10344.9083362952	11399.8684597257	-65.1564739833797
45.65746	5335.52282589683	11714.5447779227	12872.3876254416	-65.5125672530535
38.96512	5966.91109921288	13263.4386883472	14543.8245969022	-65.7781331910966
33.18414	6706.15225773154	15026.7311601858	16455.2461988382	-65.9496767549588
28.30617	7570.43832770722	17007.7712870627	18616.5469576571	-66.0053682526455
24.17237	8552.57857892866	19151.8913794216	20974.7835211216	-65.9360976552142
20.61345	9691.86006192505	21609.9902929381	23683.8306006612	-65.8442525206547
17.55618	11016.7790947916	24361.1076654795	26736.3607903642	-65.666177237928
14.98558	12532.766171089	27392.0744665859	30123.0139840318	-65.414362286968
12.76553	14273.9130371474	30792.8873096036	33940.3373915757	-65.1301179248036
10.8809	16264.6536573062	34563.1296801729	38198.8074667335	-64.7993493896746
9.278505	18550.010348755	38736.7344290666	42949.2430453314	-64.411456962371
7.923394	21140.5840866992	43277.848401925	48165.303464494	-63.9651801357436
6.75822	24098.4348736003	48365.3397404708	54036.4751956335	-63.5148353087708
5.761429	27516.0361883087	53953.1775763941	60564.6565094382	-62.9784895167489
4.919708	31324.264133821	59911.1582682453	67605.8903392901	-62.3973957209272
4.191257	35522.2631771751	66829.4018656174	75683.552605204	-62.0077271244587
3.564097	40507.3071538423	74258.3434237402	84588.0813170146	-61.3879013816862
3.051758	45770.5475207785	82077.7897518731	93977.1599427463	-60.8538474208447
2.604164	51845.2805075601	90898.5630603645	104644.550155976	-60.301115035882
2.214424	58469.85563151	100799.752512529	116530.314185437	-59.8837152821292
1.892567	66045.2476038022	110888.242145319	129066.560259141	-59.2218917329736
1.607507	74340.6587131436	122739.771013607	143497.682651591	-58.7976737814588
1.376413	83202.6247934259	134737.036518799	158356.388511432	-58.303898753615
1.17375	93452.5672285991	148523.875521133	175478.556870727	-57.8215255858944
1.001604	104384.311682755	163760.435161957	194199.805998657	-57.4857150221682
