EC-Lab ASCII FILE
freq/Hz	Re(Z)/Ohm	-Im(Z)/Ohm	|Z|/Ohm	Phase(Z)/deg
6999984	153.812354217512	-49.0847539884181	161.454493229631	17.6989756888005
5969734	42.4768448451615	268.724429396024	272.060841177518	-81.0176646259862
5091109	372.054303176832	85.4699049586033	381.745345965122	-12.9377594366208
4341796	374.805403976403	38.0612732071655	376.732997450535	-5.79847612617271
3702781	-61.345361456921	-432.526272847844	436.854930241068	98.0724409474093
3157797	209.975893889548	-161.605386978782	264.964482743021	37.5832410561197
2693047	156.019890309177	-309.730609892853	346.807233022447	63.2643381607396
2296687	11.4134349873259	-4.72084318106659	12.3512290299442	22.47104376162
1958656	-2.83853770618587	-26.4582986624342	26.6101271026654	96.1234677114923
1670375	17.0276272281037	-8.49477015395929	19.0289571177155	26.5137652091276
1424531	98.4672160602211	233.570349589833	253.477614092777	-67.1409706025948
1214875	101.781280250074	270.263905074142	288.794057063627	-69.3636457772458
1036062	104.095805368546	315.23762520379	331.979964816329	-71.7260653581292
883578.1	106.893646713327	363.693809214844	379.077087897537	-73.6213524486424
753531.2	111.42711104647	423.05753252223	437.485630506832	-75.2442554033505
642624.9	113.544674886737	490.816028182774	503.778489731596	-76.974416057307
548046.8	561.707354221858	1165.54337039658	1293.83403111154	-64.2693061333991
467390.6	661.062306570035	1264.74367372337	1427.08792069409	-62.4046149891458
398593.7	759.849502343949	1365.61869159399	1562.78139131589	-60.9078200451461
339937.5	855.50116023885	1470.32462980055	1701.09868972031	-59.8072254164793
289906.2	941.203432341945	1587.23741226976	1845.31474387462	-59.3328163621109
247234.4	1022.1930626925	1718.89295428775	1999.86790706705	-59.2608528630425
210843.7	1087.23449717158	1879.47351584362	2171.28983523562	-59.9515534850727
179812.5	1144.25276357441	2067.86548121903	2363.34128626504	-61.0420640565452
153343.8	1195.77456475011	2302.83962506546	2594.79231316785	-62.5589125233745
130781.2	1237.98555138754	2582.6552896612	2864.03850718864	-64.389455383038
111531.3	1280.14681090078	2929.68808845835	3197.16251590597	-66.3967557224993
95109.37	1308.68964564983	3329.24642633508	3577.22662909354	-68.5407637918789
81109.37	1345.82562875414	3816.09405435392	4046.45776632931	-70.5737326405621
69171.88	1378.16563374182	4387.75002464748	4599.0967366235	-72.5628129221382
59000	6109.90105613687	8782.45387546538	10698.7095946408	-55.1738933441728
50312.5	6652.49259972214	9345.79373611601	11471.6833266693	-54.556101601573
42906.25	7143.1129352391	10029.1695533551	12312.9324019717	-54.5402478593817
36593.75	7555.24941123526	10835.0854581347	13209.1207334574	-55.1121342234356
31203.13	7897.3920435103	11834.0403899218	14227.2032753876	-56.2830193144091
26609.38	8198.68458712119	13084.3330635808	15440.7966335229	-57.9286113978043
22703.13	8445.554413128	14605.0647699265	16871.1382626915	-59.9608354013538
19359.37	8707.0924160874	16448.99365366	18611.3634793487	-62.1059893863236
16500	8916.15952418012	18693.1476048983	20710.6655624377	-64.5000362374983
14112.02	9128.47326651898	21312.0401653367	23184.7380875108	-66.813353335339
12011.13	9360.41374192211	24469.7206043198	26198.9421899709	-69.06662445625
10236.38	9610.62383755282	28220.0667317093	29811.6798736513	-71.1932146086575
8750.684	9877.57812256252	32539.5173955497	34005.6869053194	-73.1139983210541
7449.463	10151.2690000546	37764.1895463282	39104.7602524612	-74.9541668716758
6363.206	59274.3255550194	84172.2991391631	102948.635796572	-54.8467057952633
5414.761	65472.1642784149	88889.2510432194	110398.837160199	-53.6261681817638
4620.567	70943.0701161683	94202.5179537608	117928.086503327	-53.0169249694674
3941.215	75632.7558840001	100585.723679009	125848.327643393	-53.0596389730944
3361.769	79716.2625823585	108499.866760766	134636.189812411	-53.6947913368867
2867.244	83060.7459456037	118363.654245949	144599.59254263	-54.9410490258096
2442.658	85944.9513694596	130800.74526263	156509.966542576	-56.6923747407183
2083.003	88565.0224858798	145964.154590627	170731.653870279	-58.7523528198639
1777.843	90827.1411639657	164518.238769125	187925.039469767	-61.0978128500114
1513.548	92982.9769264092	186918.867990973	208769.004426241	-63.5519056781158
1292.065	95233.8373499623	213359.692881913	233648.972441702	-65.946239008188
1101.762	97766.4933038716	244867.07725076	263662.990831602	-68.2349762166176
939.101	100208.539207779	282942.307877521	300163.456998374	-70.4975865495892
801.2801	504834.832027092	753142.944572669	906687.654370242	-56.1658895523505
684.3433	574443.392989832	792680.723919102	978942.256633445	-54.0697406475982
582.9476	635829.611756702	820611.960568344	1038115.25613224	-52.2306263393196
497.0677	0.00103842775021371	0.000897513119615381	0.0013725385212429	-40.8368563802835
423.5089	0.00251060305652631	0.000892171374894549	0.00266441315670458	-19.5632485738633
361.5036	0.00152290819531473	-0.000645693610224745	0.00165413711935917	22.9763237819899
308.1262	0.0038586932761754	-0.00219698488773181	0.00444029913367593	29.6554474984346
262.7298	0.00300484088336084	0.00196952567422184	0.00359278445161072	-33.2428737636195
224.2111	0.00401063822332253	-0.00433748584394553	0.00590753776160623	47.2421120002336
191.2854	0.00540187366273034	-0.0102766868792528	0.0116099324839685	62.271631484896
163.1722	0.00804618920428934	-0.000395285015400298	0.00805589293341355	2.81250772276402
139.1537	0.00921549582279555	-0.00690550402501962	0.0115157001133029	36.8455464357329
118.6706	0.00890084104713579	-0.00326576140828776	0.00948104260734224	20.1483301559391
101.1982	-0.00626960477831735	-0.0240036772478354	0.0248089593795175	104.638250800711
86.24196	0.0249084779641157	-0.0123136393119375	0.0277859314688806	26.3057356928715
73.61024	0.017148483075956	0.00806606498432101	0.018950775080129	-25.1907025277674
62.69291	0.0145655712251102	0.00702330523735153	0.016170426140667	-25.7426843380185
53.57697	0.027739571409234	-0.0143762761681464	0.0312435775549281	27.3958451938874
45.65746	0.0166148124609663	0.0292590848250405	0.0336473778757275	-60.4098624253979
38.96512	0.0304928368665779	-0.0316262151685278	0.0439321133802797	46.0452604619848
33.18414	0.0405301500605827	-0.0331750936641753	0.0523763296113822	39.301312300599
28.30617	0.0481288676554245	-0.0333443927410515	0.05855114370414	34.7147908801547
24.17237	0.0682057662395227	0.0260290176275072	0.073003673243019	-20.8880988835443
20.61345	0.0753829398844754	-0.100470116723253	0.12560585965635	53.1190260485597
17.55618	0.0832096754265516	0.0507313135635727	0.0974552013002774	-31.3698460834471
14.98558	0.0969537129875827	0.0220805875337287	0.0994362851675042	-12.8299173204213
12.76553	0.0199909757894475	0.133634448812007	0.135121445456682	-81.4919590887955
10.8809	0.216079840919701	-0.0431350377956256	0.220343207604667	11.289296834672
9.278505	-0.0356883926332834	-0.152908973101754	0.157018519365648	103.137445152145
7.923394	0.157690762811559	0.0225054885753929	0.159288648974459	-8.12235283617767
6.75822	0.315753793836318	0.102644281594213	0.332018533919449	-18.008149444631
5.761429	0.244702898801191	-0.0921115065211188	0.261465176104383	20.6274317346496
4.919708	0.307982794812404	0.187061617069999	0.360340742188976	-31.2735261485077
4.191257	0.435718227615706	0.102673342397731	0.447651861512597	-13.2593835653396
3.564097	0.423950842559047	-0.436284919267119	0.608341061976292	45.8214516880508
3.051758	0.516048275305016	0.447900932548305	0.683316228274233	-40.9561461932297
2.604164	0.868415823929321	0.231343266674308	0.898702258974785	-14.9169848441207
2.214424	0.79443689852846	0.014729713476811	0.79457343914998	-1.06220359160406
1.892567	-0.137369898838103	-0.889964917828601	0.900504327625614	98.7746007253422
1.607507	0.57071315265289	0.322870438226606	0.655712454122721	-29.4982106907169
1.376413	0.810809064361096	0.217358105609215	0.8394378386302	-15.0067558714618
1.17375	1.41633095153342	0.0626934310021588	1.41771782473185	-2.53452464338481
1.001604	0.666618542700843	-0.926317938153605	1.14124721424315	54.259573024281
