EC-Lab ASCII FILE
freq/Hz	Re(Z)/Ohm	-Im(Z)/Ohm	|Z|/Ohm	Phase(Z)/deg
6999984	-0.0725379537242526	-0.00253504705489354	0.0725822374556774	177.998449086333
5969734	-0.0446044451320819	0.0105319814880715	0.0458309847112844	-166.714675564806
5091109	-0.0285394549158093	0.0143797399900983	0.031957431202685	-153.25853256304
4341796	-0.0205488295693465	0.0144926430745562	0.0251453991806957	-144.805514324137
3702781	-0.0159334095654643	0.0139842598062097	0.0211998363840008	-138.727578033389
3157797	-0.0134507007465936	0.0121858819647827	0.0181498504080345	-137.824481956704
2693047	-0.00996043190044793	0.0108916032757466	0.0147593097927957	-132.443090457497
2296687	-0.00868517953308163	0.00975041916350136	0.0130576803983646	-131.693031407891
1958656	-0.00759763827289328	0.00898269267757094	0.0117649001298532	-130.224827057868
1670375	-0.00630789261377111	0.0084920912769291	0.0105785218004485	-126.604822412452
1424531	-0.00630940127742948	0.00744446801121965	0.00975851671360465	-130.28223742894
1214875	-0.00589569458733645	0.00616590131321395	0.008530976126531	-133.716661044513
1036062	-0.00456376210087293	0.00646338519507754	0.00791222299314874	-125.225712999572
883578.1	-0.00350452247357313	0.00635694010544796	0.00725895070048225	-118.867543051226
753531.2	-0.00298430828514644	0.00522732490801332	0.00601922101560743	-119.722281490002
642624.9	-0.000363879986664264	0.00295390290387833	0.00297623100753883	-97.0226676751707
548046.8	-0.00200922258521299	0.00486610592765394	0.00526459516924889	-112.435805321985
467390.6	-0.00148153886920978	0.00478523106812268	0.00500933067348382	-107.202867187496
398593.7	-0.00144741491852468	0.00406577643631813	0.0043157326117923	-109.595710827301
339937.5	-0.000983955145657924	0.00347864905913418	0.00361513028883909	-105.79384937771
289906.2	-0.000676386593524993	0.00302660253922848	0.00310126131668466	-102.597489726014
247234.4	0.000454659097817781	0.00292815729679661	0.00296324485151188	-81.174082104057
210843.7	-0.000474513302973234	0.00208366329309659	0.00213701090163263	-102.829193858365
179812.5	-0.000376492786045752	0.00172390102584533	0.00176453437621801	-102.319719786935
153343.8	-0.000688420782095906	0.00154293824009163	0.00168955070535293	-114.045243768507
130781.2	0.000193594715104563	0.00163489468181562	0.00164631696047432	-83.2468142237222
111531.3	-4.06937002357692E-05	0.00115662372237638	0.00115733936786177	-92.0150165457273
95109.37	0.000892829708608334	0.00139190163442025	0.00165364296281737	-57.3220209800993
81109.37	0.000397919039934675	-0.00030421616405698	0.000500886251374578	37.3985538404373
69171.88	9.06447633151914E-06	0.00101510848759171	0.0010151489576963	-89.4883872607593
59000	-0.00214890818486714	0.00190401482710717	0.00287107625270262	-138.457829503442
50312.5	0.000111431144664214	0.000423580142715745	0.000437992051645082	-75.2611576583069
42906.25	9.11082368154611E-05	0.000558076919644502	0.000565464905237732	-80.7280344605476
36593.75	0.000232184936007822	0.000110566417172277	0.000257166827400561	-25.4637799425047
31203.13	0.000494637050789593	-5.19932723789809E-05	0.000497362154155804	6.0005526109374
26609.38	-0.00028714220550769	0.000854255889553972	0.000901223485613567	-108.5791118114
22703.13	0.000718524351504943	-8.67819260166721E-05	0.000723746051035004	6.88671205519854
19359.37	0.000307214728846627	0.000654747702935446	0.000723239548226968	-64.8635206627293
16500	-0.000486244818635902	-0.00324300878111619	0.00327925905930699	98.5271975494047
14112.02	0.000279638914580295	0.000639770616242846	0.000698215127274823	-66.3902240036349
12011.13	0.00104553941506547	-0.000785949288659445	0.0013080018932707	36.9327907191974
10236.38	0.000117141646059369	-0.000141756710895691	0.000183894345550544	50.4311377921522
8750.684	0.000305130824877651	-0.00050107368211406	0.000586668266738416	58.6605076853044
7449.463	0.000360990408900352	-6.33631687435478E-05	0.000366509162874909	9.95547973549718
6363.206	0.000724912601735466	0.000683338035394775	0.000996217421435739	-43.3089973789344
5414.761	0.000790551599265706	0.000377110588795913	0.000875890533847447	-25.5021738443565
4620.567	0.000749243900815194	3.32779089781114E-05	0.000749982561220408	-2.5431390638346
3941.215	0.000756239886770558	-0.000464738583234346	0.000887626451323648	31.5723293682463
3361.769	0.000560831399163551	0.000473237970259788	0.000733816076945272	-40.1581764127951
2867.244	0.000705904448347902	6.51137596391968E-05	0.000708901186267668	-5.27014143004227
2442.658	0.000691868395920195	0.00114206097957895	0.00133528467315027	-58.792230682405
2083.003	0.000746175573321476	0.000774244866320035	0.00107528279965996	-46.0576478095155
1777.843	0.00123839129953417	-0.000604638415792561	0.00137811488077521	26.0237144069522
1513.548	0.000390686048242467	-0.000504847005506412	0.00063836203463247	52.2647803534873
1292.065	0.000682941073897341	0.00025921955735968	0.000730481546196618	-20.784937832531
1101.762	0.000801503245432958	0.000150128995059924	0.00081544231408314	-10.6090985290265
939.101	0.000635208272958855	0.000486970493928594	0.000800393535701302	-37.4749004666384
801.2801	0.00509024881429574	0.00382268927440007	0.00636581387412894	-36.9059189986058
684.3433	-0.000360714371300712	-0.0017918370402809	0.00182778413292858	101.382074355203
582.9476	0.0011872568535961	-0.00157008990414778	0.00196844129796083	52.904476272595
497.0677	0.00177009156750782	0.00279516627744448	0.0033085009711235	-57.6551959379679
423.5089	0.00066839114527444	0.0024095109630054	0.00250049791120179	-74.4961444102482
361.5036	0.00281456567714936	-0.00101043025538875	0.00299044298591232	19.7481592430859
308.1262	0.001619158426403	-0.00120544732690452	0.00201860775479861	36.6673164544015
262.7298	0.00216076881097698	0.000890618912495027	0.00233711871794838	-22.400323580967
224.2111	0.00481269950678924	-0.000172789361101342	0.00481580031832293	2.0561954117822
191.2854	0.00169220758292806	0.00181236305275278	0.00247956172310806	-46.9636373230661
163.1722	0.0016551289459074	-0.00190129217164673	0.00252078633555994	48.9595014249367
139.1537	0.00429981174153445	-0.000172497702396474	0.00430327043886038	2.29733157535655
118.6706	0.00550684787148451	-0.00294596949597151	0.00624532703313991	28.1452109645611
101.1982	0.00697195572152507	0.00521748947038889	0.00870806310016901	-36.8094844721074
86.24196	-0.00216875645660692	-0.00531216472904336	0.00573782177107014	112.208341077318
73.61024	0.00687603470932385	0.00123025562105132	0.00698522599612602	-10.1439885796732
62.69291	0.0129264719694917	0.0023469173195993	0.0131377965611852	-10.2904709695763
53.57697	0.00688416441274472	-0.0017051418502436	0.00709219489235547	13.9116329897385
45.65746	0.0125690284268709	-0.0100790666089202	0.0161111160166681	38.726022567242
38.96512	0.00794191760700083	0.0140939237190526	0.0161775381648403	-60.5987666104525
33.18414	-0.000264926913495491	-0.0145183743785905	0.0145207913305855	91.0454000690274
28.30617	0.0179106709285036	0.0137884631701841	0.0226034034982492	-37.590741073658
24.17237	0.0116982103758405	0.0101895646980565	0.0155137150526011	-41.0570440609522
20.61345	0.0201899846284828	0.00403127897153357	0.0205885086746151	-11.2916001250084
17.55618	0.0379362822024646	-0.00135682675249702	0.0379605385391373	2.04836422463835
14.98558	0.0694937097509895	-0.00938675777702547	0.0701247953046518	7.69258292362799
12.76553	0.0473818105992865	-0.0198230778550766	0.0513613706136731	22.7029197813094
10.8809	0.0439358662189111	-0.0190464882760108	0.0478866271108571	23.4370506042105
9.278505	0.0418085925578498	0.00128156528147239	0.041828229955844	-1.75574665725591
7.923394	0.0303975881468825	-0.0372883691037877	0.04810858380339	50.8129797851392
6.75822	0.0487742808356861	-0.0470461763000076	0.0677663129843271	43.9667930347903
5.761429	0.103465526143448	0.0140406159449621	0.104413859215405	-7.72802036325684
4.919708	0.0765758810925572	0.0326817102076547	0.0832583914521448	-23.1122351005729
4.191257	0.0992984469906384	0.0505884446238906	0.111442237523378	-26.9969577064953
3.564097	0.213152994467598	0.0506319199333179	0.219083980168879	-13.3622753261892
3.051758	0.186133209640466	-0.109572675121872	0.215990145294699	30.4844200251637
2.604164	-0.0242778061808973	0.140707520903938	0.142786618112096	-99.7894808678574
2.214424	0.0894720884619602	-0.0213505738418948	0.0919842465703939	13.4213988410687
1.892567	0.210118174549795	-0.0209682725294865	0.211161823559584	5.69883647376828
1.607507	0.313425930909401	0.0401728535285946	0.315989987700646	-7.30396856950256
1.376413	0.214124206856625	-0.0770589363107092	0.227568134033122	19.7927697370148
1.17375	0.195028769875525	-0.11918079218782	0.228561331606369	31.4288263588779
1.001604	-0.0759044394591097	0.253529750960961	0.264648481106408	-106.667208944828
