EC-Lab ASCII FILE
freq/Hz	Re(Z)/Ohm	-Im(Z)/Ohm	|Z|/Ohm	Phase(Z)/deg
6999984	2.49755817139882	2.28641287915511	3.38607156945735	-42.4728342318764
5969734	6.34295891206612	6.7907383678802	9.2923223868503	-46.9526823700232
5091109	15.0186580805452	1.73559748982307	15.1186106897098	-6.59201694285095
4341796	3.70073583783855	-9.48474399192521	10.1811499514458	68.6853783393699
3702781	3.09887227689105	-7.93627696105803	8.51982989214599	68.6708825071531
3157797	0.858806276165384	-10.5686907441693	10.6035264070908	85.3543821773314
2693047	0.147189299691912	-8.68734897065263	8.68859579148685	89.0293334753005
2296687	-2.21689510331537	-9.16415172182415	9.42848347719378	103.599134543462
1958656	9.43675170790829	-13.9845867099967	16.8707127367556	55.9886565175827
1670375	-1.03358875357706	-13.993977238507	14.0320955193219	94.2241699164132
1424531	-0.958057759148042	-14.1297501455924	14.1621931157124	93.8789628448469
1214875	12.0388729554755	-6.34195478736136	13.6071618114511	27.7798014011385
1036062	10.4939981312114	5.70312075663249	11.9436000913711	-28.5225323205445
883578.1	13.7853783059355	-2.95976402596212	14.099533968438	12.1176219190926
753531.2	11.1715589335437	-3.29858715027326	11.6483649579496	16.4501053123318
642624.9	10.4183714745255	-1.93988777039827	10.5974350077246	10.547614428031
548046.8	5.79094716663218	-3.07534070187015	6.55688870725319	27.9709859582177
467390.6	0.311113149983556	-6.47744729504067	6.48491440592105	87.2501849298603
398593.7	4.79215205318238	-4.69272167251199	6.70718704051735	44.3993876292699
339937.5	6.69581838079128	-2.66478717257475	7.2065993688883	21.7014583103561
289906.2	0.883090620044557	-6.60916441092395	6.66790096310934	82.3894401790885
247234.4	6.18287212141139	-3.06156548487308	6.89935438196157	26.3431784847833
210843.7	4.70124199421683	1.12130090515485	4.83311411080774	-13.4150733870105
179812.5	0.131272355098684	-4.80215529497115	4.80394919917276	88.4341449177186
153343.8	3.44181969303817	-6.09258705653643	6.99755241787159	60.5370590559169
130781.2	7.12649440405062	-0.700552658778591	7.16084467913434	5.61428394602524
111531.3	15.0872635877661	-1.19706845469871	15.134678571148	4.53651423704307
95109.37	9.46786317932091	1.06532096953112	9.52760945623105	-6.41990042119365
81109.37	12.5229002807947	2.23861828256238	12.7214167158281	-10.1352509732974
69171.88	22.9524060456585	-7.57782025501872	24.170980598688	18.2708276753867
59000	7.93407230961066	12.6749066926353	14.9533529043202	-57.9547955690418
50312.5	28.8524498219204	-2.41502446603997	28.9533452971847	4.78465137191612
42906.25	-6.86455797652706	47.7399801791365	48.2309844780039	-98.182506139854
36593.75	91.689792797026	21.9309078488101	94.2760988916839	-13.4516223647619
31203.13	-34.3059126019506	100.943074675239	106.613319826106	-108.770537010754
26609.38	119.216908415557	-72.9343287467129	139.757245114151	31.4573940345431
22703.13	18.075594415665	-133.08356353284	134.30548014165	82.2653375206631
19359.37	322.651522856678	159.559194571052	359.948804379034	-26.3135393780412
16500	317.925121226403	199.813937977169	375.502320254838	-32.1491030622927
14112.02	161.63452706143	-620.472981877848	641.180506237332	75.3988394164768
12011.13	483.012536034764	-175.756813453826	513.995688155238	19.9952472922361
10236.38	478.742358275339	-556.160224291883	733.831343492107	49.2781519026987
8750.684	2049.10433769906	41.5287552647869	2049.52512165403	-1.1610422490109
7449.463	79.3286168077535	-472.3339682275	478.949273917571	80.4661354523933
6363.206	1454.4899975603	-1752.07423424288	2277.12653914989	50.3021306150006
5414.761	-515.857528922295	-3389.77662747876	3428.80366517932	98.6529044896564
4620.567	589.873977023954	-1325.35191803621	1450.692598524	66.0076027880465
3941.215	338.495681972458	-1188.19020153196	1235.46561333392	74.0986262919864
3361.769	-563.845599046363	-5150.16991844166	5180.9431620493	96.2479141445947
2867.244	22.8249482529992	-0.8980442414521	22.8426081306776	2.25313189216677
2442.658	3264.62360966233	-2083.25680406911	3872.68979192305	32.5432006225176
2083.003	6277.29879938296	-4515.43068683207	7732.6317967636	35.728485000034
1777.843	1039.99308724296	-3473.60241233972	3625.94806092496	73.3323525367784
1513.548	451.344277316228	228.912168170262	506.075525393709	-26.8931492131735
1292.065	267.946812321959	-880.8694554956	920.720637250309	73.0810532478341
1101.762	794.837599861449	94.4188129149306	800.425963088263	-6.7744237865088
939.101	9674.00337648408	11451.093647567	14990.4598679819	-49.8085274744954
801.2801	-7945.44678289387	-16818.8044195611	18601.1372416647	115.286728718997
684.3433	12.4495811895859	4.59125838168069	13.2692021359027	-20.2433781245734
582.9476	-4726.15345789851	-24182.1775624996	24639.6882726195	101.058467792513
497.0677	-15920.1243039101	-26782.3007900019	31156.7327147454	120.728395378252
423.5089	-8525.1599329186	-25239.5874913205	26640.4791363418	108.663393903064
361.5036	6717.3079181153	-21794.8488667425	22806.526758604	72.8703766665645
308.1262	11736.3353570349	-21903.9765294532	24850.0655012341	61.8172186575777
262.7298	-21.3523077322573	75.1576888383192	78.1319348090819	-105.859854115709
224.2111	2200.10511522017	4277.94461247028	4810.53766489584	-62.7836838664044
191.2854	-17445.6704368583	-66393.9031416365	68647.6641363163	104.722246413477
163.1722	38532.4481126456	-69613.3655088972	79566.1373640134	61.034558309429
139.1537	-29301.7564034106	-88121.9610774098	92865.8869146972	108.392671344865
118.6706	57552.945581881	68804.127047532	89701.4461640607	-50.0883543320593
101.1982	31662.1197408456	-17226.1004749399	36044.8105010467	28.5488540016528
86.24196	16665.0999121689	-130562.472982142	131621.74936649	82.7260528837278
73.61024	217608.93454628	38522.6445214917	220992.403795462	-10.0388909313123
62.69291	314166.401156543	45314.8833879877	317417.65274181	-8.2076490631388
53.57697	275099.036046157	-112027.472246475	297034.735631137	22.1574295828771
45.65746	722925.105095999	-120753.843696746	732940.787748642	9.48285830944967
38.96512	-28242.0170282933	-866340.437341289	866800.648879846	91.867136138804
33.18414	160542.816620341	-517803.785198601	542120.61013615	72.774177052762
28.30617	149727.648614572	-290056.817525622	326422.006232332	62.6971672393396
24.17237	891520.296600045	-63172.3516492267	893755.663066101	4.05315443599921
20.61345	1453547.08619362	-989874.826066602	1758593.55823406	34.2551125706992
17.55618	288115.540232518	-307537.636862062	421414.241109833	46.8675465712447
14.98558	594847.851083604	-533721.344386056	799188.613152139	41.8997274677189
12.76553	-375010.139505561	-1555421.04122648	1599989.7562866	103.555245976355
10.8809	-407035.536568006	-1792963.41312831	1838585.25199294	102.790404615635
9.278505	-438424.234945927	-2083337.24104176	2128969.20355824	101.884099975297
7.923394	-490767.844169752	-2411746.61437639	2461173.46175092	101.502109013283
6.75822	-555216.633343656	-2785437.15832961	2840233.38353467	101.272925895231
5.761429	-605774.048175662	-3218360.58555724	3274875.12068956	100.659746462882
4.919708	-668791.174755352	-3713531.31591593	3773273.9722579	100.20928704435
4.191257	-718622.969576082	-4335099.27298518	4394258.14888464	99.4122454555433
3.564097	-834413.496184692	-4994653.01087035	5063872.48868012	99.4843235461707
3.051758	-937736.984409877	-5682226.63835357	5759084.14780901	99.3710497900733
2.604164	-1043962.00831489	-6618599.05987869	6700426.12004878	98.9635049103968
2.214424	-1143389.76429549	-7600488.36079864	7686010.89484859	98.5552151855866
1.892567	-1310847.50526417	-8905694.28540269	9001650.50905174	98.373358381412
1.607507	-1518647.73961809	-10343300.9868992	10454193.7165253	98.3527319007873
1.376413	-1628980.7325417	-11879480.9217205	11990648.2392118	97.8080209249565
1.17375	-1763897.18771536	-13828877.0032636	13940917.2029756	97.2689249355179
1.001604	-2072164.74657062	-16127834.1384414	16260408.9965169	97.3214651653314
