EC-Lab ASCII FILE
freq/Hz	Re(Z)/Ohm	-Im(Z)/Ohm	|Z|/Ohm	Phase(Z)/deg
6999984	-0.0723545076333073	-0.00263006106255765	0.0724022927541049	177.918234995015
5969734	-0.0445704399924749	0.0104546637267372	0.0457801716331641	-166.799072248029
5091109	-0.0286430158977397	0.0144252760998651	0.0320704061445363	-153.26913228225
4341796	-0.0203588612551113	0.014491377610182	0.024989662995842	-144.55685064105
3702781	-0.0160725403299625	0.013943584019033	0.0212779248977456	-139.057028765589
3157797	-0.0124241290608352	0.0128825460973171	0.0178974572738641	-133.962230755507
2693047	-0.0100544760053136	0.0111235491478463	0.0149941933222825	-132.110144682746
2296687	-0.00863791189617837	0.00981304201519535	0.0130732289629658	-131.355788449677
1958656	-0.00749676360537364	0.00889930320529713	0.0116361102648036	-130.110751160858
1670375	-0.00650396068137732	0.00838178803186846	0.0106092353709434	-127.810153726069
1424531	-0.00571398051510348	0.00741871322960513	0.00936412725832474	-127.603888919822
1214875	-0.00505366325908166	0.00630367076630111	0.00807934263824175	-128.719208563823
1036062	-0.00428781433580484	0.00631553270390706	0.00763356437795956	-124.173819783492
883578.1	-0.0035860594602242	0.00524987307929936	0.00635775037265664	-124.336024135293
753531.2	-0.0031532143774448	0.00550300793673538	0.00634238577050444	-119.812636934294
642624.9	-0.00310722549812351	0.00702759491660437	0.00768387536390801	-113.852443470446
548046.8	-0.0033307623845124	0.00448973065655779	0.00559031836575678	-126.570330353185
467390.6	-0.00193025599168705	0.00424678661538699	0.00466487778511654	-114.442819182549
398593.7	-0.00132957817803574	0.00375296134377502	0.00398151943099345	-109.507933693087
339937.5	-0.000971939359291543	0.00350971997469029	0.00364181279294804	-105.478894477727
289906.2	-0.000816800668959002	0.00318703285703306	0.00329003674213833	-104.374862102289
247234.4	-0.00134511602085741	0.0027148241089445	0.00302978663474403	-116.357071176081
210843.7	-0.000364398471577761	0.00233559651903708	0.00236385222588603	-98.8677636628304
179812.5	-0.000270142479410068	0.00207215648462762	0.00208969123460049	-97.4276342447691
153343.8	-0.000188153175306863	0.00192063063469808	0.00192982477243888	-95.5950860328227
130781.2	0.00101330607119363	0.00117328272382029	0.00155028434292971	-49.1844561144609
111531.3	2.47368089914893E-05	0.00128692140982879	0.00128715912955423	-88.8988136895697
95109.37	-0.0001060274002326	0.00129047063990447	0.00129481901517376	-94.6969746889551
81109.37	-0.000110112563676159	0.00121676032926498	0.00122173257120876	-95.1709826728669
69171.88	2.97177219797811E-05	0.00100578068124317	0.00100621961905026	-88.3075785407742
59000	0.00445790844344212	-0.00336253855527029	0.00558387081027057	37.026744338443
50312.5	8.38202918911604E-05	0.000655884567872407	0.000661218880330783	-82.7172293336828
42906.25	9.4420593335277E-05	0.000338846324483323	0.00035175571077332	-74.4293375313359
36593.75	6.8544009024003E-05	0.000451075051533772	0.000456253200853734	-81.3596058381203
31203.13	0.000138999594778672	0.000300633432556775	0.000331211938371043	-65.1862677887265
26609.38	0.000625102491029173	0.000706671451439309	0.000943471072460739	-48.5048937919681
22703.13	0.00106219301122106	-0.000267624710187736	0.00109538896223667	14.1416125191261
19359.37	0.000867645447377095	0.000425946592846897	0.000966560459729281	-26.1474561019666
16500	0.000286737107396583	0.00821844187956733	0.00822344241158071	-88.0017909655129
14112.02	0.000132192250177541	0.000105724570136009	0.00016927042192139	-38.6520823637804
12011.13	0.00034406521903937	0.00099660263425088	0.00105432333064786	-70.9533744756158
10236.38	0.000158477113868004	-2.4500860205257E-05	0.000160359869576929	8.78845638006291
8750.684	0.000151255390989813	-9.52481488016888E-05	0.000178746757043673	32.1993342721919
7449.463	0.000126493387167686	1.50952147792951E-05	0.00012739090433146	-6.80526610462069
6363.206	0.000550512531808518	-0.000788539094942	0.000961695352973161	55.0794756291132
5414.761	0.000761682305988484	0.000144833167397501	0.00077532998241673	-10.7662092860293
4620.567	0.00115950675543785	-0.000475275428086666	0.0012531331327712	22.2884535714677
3941.215	0.000951056660609376	-0.000129615810609724	0.000959848441187187	7.76080500829422
3361.769	0.000576638496237098	0.000209460395745742	0.000613502740603939	-19.9632418698001
2867.244	4.83498927707932E-05	2.70098986929831E-05	5.53827297842243E-05	-29.1892145518028
2442.658	3.25643019007268E-05	-0.000726861213378704	0.000727590308671469	87.4347919314514
2083.003	0.000726701987797515	-0.000356904909932669	0.000809615275178839	26.1570244971453
1777.843	0.000825879496701721	-0.000202983548967214	0.000850458267185176	13.808380265478
1513.548	0.000450858524121221	0.000473941171055514	0.000654135798129286	-46.429783897453
1292.065	8.75146561790065E-05	-0.000326926975369266	0.000338437678561691	75.0139263697079
1101.762	0.000700502639182029	-1.42679399942028E-05	0.000700647929856833	1.16684745739116
939.101	0.000529780459069868	0.000241473339702418	0.000582217063129654	-24.503445382086
801.2801	0.00680626096304486	-0.000967512869923399	0.00687468322546833	8.09041616867708
684.3433	0.000409278838923725	-6.86248203623922E-05	0.000414992209517869	9.51838742232573
582.9476	0.000199573904835962	-0.000392887101616389	0.00044066996506229	63.0709076091035
497.0677	0.00113830291571112	0.000186701355601016	0.00115351242910499	-9.31456341628589
423.5089	0.000510963797351752	-0.000996210132059691	0.00111960646185278	62.8463654491917
361.5036	0.000554276992559044	0.000797396880898833	0.000971115219810444	-55.1965251770804
308.1262	0.00285479694115676	-0.00149291173206053	0.00322159137926615	27.6072494315569
262.7298	0.0011006204139431	0.00128507589878351	0.00169197676143099	-49.4211564387854
224.2111	0.00307388369290521	0.00247862450421492	0.00394871376405067	-38.8809503550454
191.2854	0.00130728251243722	-0.0047376084973456	0.00491466396017524	74.5738374872679
163.1722	0.00340117291734083	-0.00216642509350589	0.0040325395099645	32.4956737734115
139.1537	0.00519483266978976	0.00371774734506166	0.00638810862374991	-35.5898807798139
118.6706	0.00413048003121891	-0.00398778230344653	0.00574136508053438	43.9929943947616
101.1982	0.00832508429116712	0.00113461453477401	0.00840204609589581	-7.760948247743
86.24196	0.00930257306107659	-0.0107161739472542	0.0141906395072413	49.0391712063496
73.61024	0.00592805239955958	0.00609397577793997	0.0085016672502541	-45.7907239614979
62.69291	0.0121788554447852	-0.00122919761441206	0.0122407290109801	5.76327932881783
53.57697	0.0138178939117621	-0.00254469845705576	0.014050255598887	10.434655798721
45.65746	0.0247588054355594	-0.0133583451846233	0.0281326115507863	28.3485995226766
38.96512	0.0138854754987985	-0.011612398540156	0.0181012217732161	39.9056796420589
33.18414	0.0175927069156526	0.0159153692950365	0.0237234549848339	-42.1342963890454
28.30617	0.00466403238714896	-0.0169825596276961	0.0176113750064164	74.6431080846992
24.17237	0.0302388767733677	0.0347328142739209	0.0460516889581869	-48.9567111204744
20.61345	0.0538579395807747	0.0316018063004828	0.0624447901536998	-30.4028021872474
17.55618	0.0489236852517209	-0.0677294867907922	0.0835512439138613	54.1579303114248
14.98558	0.0689639597689313	-0.0149277269201755	0.0705610712646436	12.2136439159786
12.76553	0.0432744105988064	0.0400035246515201	0.0589317961479103	-42.7507645991385
10.8809	0.0843212994786487	0.046765329263527	0.0964213543095826	-29.0131331622032
9.278505	0.117389689607554	0.0544132098783148	0.129387544359646	-24.8689638074897
7.923394	0.0774633853380921	-0.0236415726343323	0.0809907403637116	16.9720182974944
6.75822	0.13429068238671	-0.0996481596314524	0.167223631983711	36.5766458833221
5.761429	0.122623507097996	-0.139689597576053	0.185875517925228	48.7224172188895
4.919708	0.137947429423568	-0.0137378075863625	0.138629797092292	5.68717850151076
4.191257	0.213080424626368	-0.121000068270054	0.245039351697459	29.5905542985581
3.564097	0.227957399067487	-0.265805637897204	0.350167407003498	49.3833011172611
3.051758	0.358003400919715	-0.132162095142874	0.381619253265131	20.2623487571701
2.604164	0.541799799413759	0.122749891523873	0.555530879892299	-12.7654022726896
2.214424	0.339081513598373	-0.00139878360354651	0.339084398726531	0.236355976689572
1.892567	0.320936014543338	-0.2178022707467	0.387863061625338	34.1626601008769
1.607507	0.568152240209814	0.140643280349498	0.585301204819277	-13.9037834679452
1.376413	0.116467771547869	0.272010868463904	0.29589635748318	-66.8206871951166
1.17375	0.355373004054261	-0.205256312873388	0.410390211853216	30.0098677313466
1.001604	0.416941259122884	-0.196728440015165	0.461022876514579	25.2596866463012
