EC-Lab ASCII FILE
freq/Hz	Re(Z)/Ohm	-Im(Z)/Ohm	|Z|/Ohm	Phase(Z)/deg
6999984	-0.342626917257894	0.42963682127559	0.549527981658297	-128.571671931577
5969734	-0.653963238716417	-0.23902108082009	0.696275085486239	159.922833861325
5091109	-0.264813476805833	-0.472370985977795	0.541535341313591	119.275202522462
4341796	0.210523463905735	-0.487421117904451	0.530942063726443	66.6398617149734
3702781	0.878847217234668	-0.892520921454571	1.25258374030451	45.4422739488112
3157797	1.58910998979631	-2.22823206276237	2.73683917780945	54.5046442619923
2693047	1.05896808192305	-4.92753898265121	5.04004502202898	77.8711523024663
2296687	-0.35124447913537	-4.79256385468468	4.80541787832788	94.1916832094293
1958656	-3.74979887911794	-7.54322136241559	8.42384592429355	116.432357830361
1670375	-8.77458220191764	-9.27726633523541	12.7695326254762	133.404914708183
1424531	-16.2833636586407	-10.2031240058094	19.2159223436573	147.928821856954
1214875	2.19062991546035	3.24266263774632	3.91327489562715	-55.9584100755777
1036062	2.41671027157281	2.84763271888165	3.73490302931292	-49.6796177001689
883578.1	2.21484898507163	2.55479926607939	3.38120619256392	-49.0767858855999
753531.2	2.37029453740697	2.48420110952833	3.43359161034668	-46.3441496253927
642624.9	2.54864948399118	1.99920923347714	3.23920541977022	-38.11131333758
548046.8	2.5419206357769	1.68484170226339	3.04959867528077	-33.5373053153814
467390.6	2.52645217316546	1.39872735288093	2.88780172293559	-28.9703618627967
398593.7	2.53826758704896	1.26749256485127	2.83713583485469	-26.5354058250497
339937.5	2.4896992480349	1.17408894093937	2.752650938078	-25.2475628593562
289906.2	2.46515582400001	1.14152975331415	2.71663089401241	-24.8472487070542
247234.4	2.45376519415678	1.04873717919028	2.66848520683013	-23.1418226411135
210843.7	2.45446552916301	1.07037969298796	2.67770680265977	-23.5617663274766
179812.5	2.42576931886084	1.07955147632654	2.65514372084929	-23.9907226399572
153343.8	2.50158813336797	1.17684554462526	2.76458109392938	-25.1941402745382
130781.2	2.50179889234018	1.3006262179481	2.81968548893817	-27.468857205721
111531.3	2.5629705833442	1.44645607321993	2.94296676550084	-29.4389496659665
95109.37	2.77811448822926	1.59334553694833	3.20260364544576	-29.8357745052961
81109.37	2.83502659490342	1.79765383898958	3.35692346034932	-32.3782575324553
69171.88	3.06202931151164	1.91234633423326	3.61013739442307	-31.9862455386048
59000	3.27868862291987	2.13544183110978	3.91278812359137	-33.0765899523167
50312.5	3.59147464143459	2.23839904419576	4.23191686840895	-31.9333672636921
42906.25	9.3810470243328	7.49826370385825	12.0094963193858	-38.6353176186948
36593.75	9.88453550401366	6.28674989845662	11.7144042279516	-32.4571251729551
31203.13	10.368208308368	4.91081451089652	11.4723948104196	-25.3441807323491
26609.38	10.8935468594319	3.68929273916727	11.5013148854343	-18.7095815661641
22703.13	11.4533182257341	2.53336085107248	11.7301498533344	-12.4724432224612
19359.37	11.9432003497796	1.38290746126497	12.0229974482821	-6.60488557492959
16500	14.0149121430531	-0.155859535677999	14.015778771526	0.637158861990822
14112.02	12.2269906741564	-0.614517593060907	12.2424234863073	2.87721356544153
12011.13	11.8719033069183	-1.41087340552454	11.9554444457425	6.77732295295216
10236.38	10.637256602637	-1.51465606433203	10.7445526209127	8.10396089095397
8750.684	15.9643057393698	12.0722829182753	20.0149712115445	-37.0967425922741
7449.463	15.1120434169364	14.9370098071055	21.2482497682265	-44.666259911086
6363.206	14.5942760481292	18.8497135911208	23.839139997833	-52.2513903298151
5414.761	14.2044802534783	23.8323597487986	27.7443441167315	-59.2043592244426
4620.567	13.7084549430172	29.8551058249504	32.8519265910497	-65.3370129846254
3941.215	13.9490994893692	36.9825174035429	39.5257380711313	-69.3344822254736
3361.769	14.4088869880674	45.0066251432675	47.2568760184325	-72.2475142474778
2867.244	14.8161352175661	54.0531158971935	56.0469196386441	-74.6715267913377
2442.658	16.100393345593	63.9003742085307	65.8974998757394	-75.8580650892741
2083.003	17.6610214414087	74.6895140735918	76.7491706202951	-76.696245047771
1777.843	19.8138843528258	86.5422439004713	88.7814732501991	-77.1043628852427
1513.548	21.8163980506831	100.673222239939	103.009965052309	-77.7727754490423
1292.065	24.2630946371748	115.829841461693	118.343778604595	-78.1692049474933
1101.762	27.7934085092728	133.420430344014	136.284572823725	-78.2327459669734
939.101	29.8296495290044	154.036571340245	156.898289669715	-79.0401580918717
801.2801	35.5533746554327	177.899371048512	181.417277757235	-78.6982741755172
684.3433	38.2932800722344	203.393724171156	206.967104465668	-79.3376377791036
582.9476	36.2899977111765	239.004213378101	241.743620280581	-81.3662521485438
497.0677	41.3577296795254	278.180244964936	281.237818390409	-81.5436398819163
423.5089	46.0387870073226	322.487406433387	325.757113839802	-81.8752678537381
361.5036	45.2358936381026	374.879157266347	377.598554851531	-83.1195030016441
308.1262	53.5792700562208	436.34909289571	439.626283393824	-82.9996975266823
262.7298	59.2190759825436	509.84349675809	513.271166291993	-83.3746984035954
224.2111	65.2716773152931	595.340911463776	598.908334156465	-83.7432248574236
191.2854	72.2584517535565	693.27756536404	697.033045476979	-84.049699982039
163.1722	81.691070336546	808.210749717792	812.3287800713	-84.2283482225608
139.1537	79.8819549783644	942.925652463627	946.303287960642	-85.1576284704835
118.6706	104.663886227134	1098.55620098968	1103.53081325944	-84.5576270674225
101.1982	122.021085138649	1282.57186518716	1288.3631997958	-84.5653619976568
86.24196	138.389565258794	1501.90352576388	1508.26584940271	-84.7354731670311
73.61024	160.381981972357	1746.60258711281	1753.95067702901	-84.7535213375777
62.69291	310.405194264684	2025.23335911437	2048.8829989768	-81.2861526487845
53.57697	369.203165183728	2357.203664722	2385.94218164659	-81.0982224919816
45.65746	437.011414725788	2754.03542035645	2788.49243735366	-80.9834590456169
38.96512	506.032907421578	3201.22914823836	3240.97784054819	-81.0173208513092
33.18414	618.068822461548	3749.23953291132	3799.84291049566	-80.6388822276252
28.30617	747.93117481889	4383.45858987779	4446.80899650967	-80.3171091298798
24.17237	856.607239041172	5102.23658881031	5173.64418666112	-80.4695731991641
20.61345	1008.52352591783	5945.83529832412	6030.76090531923	-80.3732016980231
17.55618	1195.89093673138	6973.26461656256	7075.06710534675	-80.2686369004117
14.98558	1403.46854141551	8136.80734334615	8256.95813780564	-80.2136902478587
12.76553	1660.30227157224	9499.82440208922	9643.82016130111	-80.0864363215601
10.8809	2014.96157188099	11086.9610433344	11268.5746797265	-79.6994033309492
9.278505	42647.1879834031	58510.919211588	72403.80038283	-53.9126012427056
7.923394	48682.0731063108	70312.7260708653	85520.8962151633	-55.3026255015828
6.75822	55993.6340993776	82397.9045138251	99622.7972299735	-55.8018665467921
5.761429	70782.949133465	131838.810524885	149638.55735955	-61.7690902027867
4.919708	79775.9124880409	152173.559241365	171816.728945364	-62.3345422508013
4.191257	90359.527463417	176820.314650311	198570.561454731	-62.9318507522252
3.564097	103394.476031418	205898.331087664	230400.825559496	-63.3359005893515
3.051758	118234.912971994	239120.752931877	266754.998319062	-63.6895874362857
2.604164	135755.578561117	278168.802106668	309527.800974197	-63.9860930952659
2.214424	157573.140419524	324770.178914583	360977.788366378	-64.1181025712641
1.892567	181668.13450673	376642.756552479	418166.327145796	-64.2503412303803
1.607507	210953.784477458	440865.681178689	488737.197301895	-64.4289321751225
1.376413	242877.809617935	510403.481206377	565244.499338467	-64.5523472841937
1.17375	284520.170493114	594295.295207501	658891.967869697	-64.4171292445428
1.001604	332648.153820405	692423.447078854	768182.936744032	-64.3398372379797
