EC-Lab ASCII FILE
freq/Hz	Re(Z)/Ohm	-Im(Z)/Ohm	|Z|/Ohm	Phase(Z)/deg
6999984	3.55677958208798	3.10445545931642	4.72105122768621	-41.1153539757627
5969734	3.89620213887197	3.13357357947215	4.99996744838568	-38.8084540052275
5091109	5.77641063807708	8.86020301794731	10.5768670871356	-56.8976540595577
4341796	-0.205284155777713	-0.331941218923474	0.390290350167372	121.734108196045
3702781	-0.397717699829561	-0.22357967871776	0.456253483814922	150.657189581587
3157797	-0.635964691855574	-0.0420223644416289	0.637351526553613	176.21958701979
2693047	-1.04024794290653	0.155559330442536	1.05181485443447	-171.494977041141
2296687	-1.55912473885863	0.40712331408801	1.61140291181162	-165.365531844611
1958656	-2.18832850549891	0.737607406126643	2.30929563580585	-161.372875449242
1670375	-2.89431338038424	1.19499521581767	3.1313038034816	-157.565399013259
1424531	-3.60583901067549	1.77763699063092	4.02020748735293	-153.757235027922
1214875	-4.24873653951483	2.69177295844778	5.02965245738105	-147.643832649656
1036062	-3.59661461600848	2.88498368873248	4.6107231081836	-141.265551882701
883578.1	-3.87276070139001	3.49932216078034	5.21953360322158	-137.899883202543
753531.2	-4.06540323834036	4.2213999326766	5.86069286705166	-133.921550752052
642624.9	-4.22341461460833	5.0426330113619	6.57764233553057	-129.947572780804
548046.8	-4.29946744661568	6.01305849979403	7.39204253548728	-125.565591563644
467390.6	-4.31654595105902	7.14783985686547	8.35010081178656	-121.12757507412
398593.7	-4.21413699418923	8.36345986634219	9.36517012881831	-116.742385293306
339937.5	-3.77492422734401	9.26797879042639	10.0072715453305	-112.161473129676
289906.2	-2.94722222544877	9.11699033658898	9.5815255384326	-107.91430888171
247234.4	-1.47774688241636	6.60063525581915	6.76403146273389	-102.619262122229
210843.7	-0.718106327910889	5.81979912947526	5.86393541963302	-97.0341841268528
179812.5	0.814868431544896	4.4645293095991	4.5382851956436	-79.6562023131964
153343.8	-56.3420050881462	9.89533317147206	57.2043630847082	-170.038747509037
130781.2	29.8795096212141	194.741573032585	197.020469399527	-81.277042619842
111531.3	-52.0339104391845	-2.34679163009897	52.0868051098181	177.417641769409
95109.37	23.8514053048237	149.372812223646	151.265087071061	-80.9277675479302
81109.37	32.4317668962596	211.38594054604	213.859382222402	-81.2774436902985
69171.88	39.2381993936533	266.364401060153	269.238983885674	-81.6200151560073
59000	74.2485244584438	468.166482875156	474.017614727502	-80.988271891096
50312.5	180.521368498896	595.633036973366	622.387884858654	-73.1392657598194
42906.25	174.448446874756	631.853466606954	655.49299300621	-74.5657014865771
36593.75	186.503163541384	682.33331012431	707.362832014902	-74.7126651610281
31203.13	204.974495395944	689.396779946282	719.223514606637	-73.4415009967509
26609.38	220.043230552669	677.924456431217	712.741602503752	-72.0174143969532
22703.13	237.880440202644	701.395080610298	740.636322992149	-71.2654645866235
19359.37	255.95223296069	702.747417287268	747.907399389449	-69.9875395203637
16500	271.547268571352	686.425202114912	738.185259380773	-68.4164319503355
14112.02	287.620046025639	676.203196736195	734.830629568502	-66.9577386997119
12011.13	300.990253150871	656.037239338952	721.789437364734	-65.3543163100383
10236.38	302.158084623019	497.230110731366	581.839575072871	-58.7136781686926
8750.684	304.672229039004	440.923805919662	535.946797522174	-55.3560652751346
7449.463	306.558582017264	401.25272366047	504.957337260666	-52.6200371047803
6363.206	311.119749437137	385.760987519168	495.587568429224	-51.1135076078412
5414.761	315.108334287258	376.176863718925	490.71610441751	-50.0484363624725
4620.567	314.315925685491	349.32278923977	469.915856533677	-48.0195469732907
3941.215	319.043906611941	345.077116049764	469.965137395777	-47.2448163610266
3361.769	322.35420464312	342.056043744626	470.015500077736	-46.6985011033693
2867.244	450.474591346254	342.406139314445	565.835065799918	-37.2384980803674
2442.658	407.35373608645	309.879767184231	511.822758788374	-37.2607632202862
2083.003	453.274812024051	731.489169157656	860.543119088402	-58.2151475911492
1777.843	494.603671364522	671.541139420658	834.026554530286	-53.6276005762517
1513.548	549.529121076378	817.238393947532	984.815133643324	-56.0822434438393
1292.065	611.287133038397	966.6267800632	1143.69545376103	-57.6910630959431
1101.762	659.025389150155	1105.40996850129	1286.95208224958	-59.197369139342
939.101	776.372076172311	1352.98166463475	1559.90800545991	-60.1518022344709
801.2801	921.256462775509	1629.85054578301	1872.19824585828	-60.5231361814952
684.3433	1154.48530476759	2054.64468915075	2356.77769795534	-60.6687820530175
582.9476	1287.86385097642	2361.5746603399	2689.91229875833	-61.3945476921097
497.0677	1670.09507551594	2951.90235523069	3391.59919154358	-60.5001605739105
423.5089	2131.60880660978	3735.73178180089	4301.09847015546	-60.2909163871287
361.5036	2551.43217649332	4466.2481892833	5143.6542496091	-60.2619820184746
308.1262	3456.44336441895	5784.52597201031	6738.52665293369	-59.140302542947
262.7298	4802.41541829603	7661.3104636928	9042.06126228838	-57.9188711152871
224.2111	6442.81454956239	9941.51346648253	11846.6682794913	-57.0538652728222
191.2854	9841.02761275929	14689.9249393286	17681.6209437426	-56.1812047142143
163.1722	16508.7155979585	22441.9343042006	27859.9731875021	-53.6610899593771
139.1537	23455.732916006	32998.6592468469	40485.5890251892	-54.594455396379
118.6706	33290.4858340767	48301.1183400685	58662.2065726322	-55.4242988189568
101.1982	45519.557252302	73252.2555100067	86243.3941223843	-58.1428403174037
86.24196	68582.1174724757	126285.595455126	143706.50109325	-61.4948726020371
73.61024	88682.8164277515	138874.673509342	164775.049300204	-57.4384460040699
62.69291	144735.595315835	267562.118479925	304200.394143227	-61.5891814551156
53.57697	170890.165072526	272825.349991379	321927.19691948	-57.9381224972035
45.65746	169885.722373939	316629.102547047	359325.96238828	-61.7844454716962
38.96512	188384.016541492	371344.731486386	416395.78202835	-63.1012170764659
33.18414	204390.271455788	410959.691212184	458980.66502521	-63.5566039320359
28.30617	229762.326118726	454589.906485857	509355.190002328	-63.1867023794994
24.17237	248161.227528651	486790.572457892	546396.427772372	-62.9879433203685
20.61345	261595.673508457	497196.558735556	561815.551953505	-62.2492861308858
17.55618	282770.614109361	805606.766020798	853792.411340294	-70.6587595773595
14.98558	243355.458492757	1016137.56803593	1044871.97127313	-76.531863456348
12.76553	427910.518679427	805219.391961029	911858.366845743	-62.0128837446149
10.8809	355278.432890886	937598.457752598	1002653.29643773	-69.2471061617162
9.278505	411769.670119673	1087590.91024027	1162930.88757145	-69.2629770926413
7.923394	466079.717755941	1283452.0110972	1365459.39818542	-70.0417413277831
6.75822	427598.38477789	819731.372699129	924553.893535611	-62.4519985988031
5.761429	568076.168612266	1073725.70835449	1214741.71333932	-62.1180215000214
4.919708	785907.450027055	1440023.15371564	1640523.4540369	-61.376041155327
4.191257	761841.347130186	1423987.72584152	1614974.69997039	-61.8529712239939
3.564097	930331.341489247	1705990.51201238	1943172.67169787	-61.3949487625663
3.051758	987920.185402979	1896763.71270627	2138620.78792991	-62.4874646863217
2.604164	1145933.00634488	2041048.76650294	2340735.46610329	-60.6882626180519
2.214424	1276413.97671161	2135961.34176394	2488285.25162505	-59.138182599105
1.892567	1603072.25074512	2691675.53274653	3132883.30690681	-59.223381423241
1.607507	1820841.43348747	3574508.86728199	4011555.45495538	-63.0058768993561
1.376413	2087443.65775974	4051886.42753466	4557982.51926891	-62.7434622291862
1.17375	2032705.51588393	1904573.67627591	2785550.6821216	-43.136067257208
1.001604	2407685.00425937	4834951.20323484	5401268.3896838	-63.5278414507203
