EC-Lab ASCII FILE
freq/Hz	Re(Z)/Ohm	-Im(Z)/Ohm	|Z|/Ohm	Phase(Z)/deg
6999984	7.61318164500287	5.46535842606643	9.37180225384552	-35.6738477446903
5969734	6.43890193262138	2.06708999088828	6.76256749528948	-17.7982635451187
5091109	4.50683435403077	-0.0372225163337502	4.5069880641504	0.473202347955997
4341796	3.478804906941	-1.15157209789865	3.66445110176347	18.3158449693501
3702781	2.07026344810797	-1.16411644342722	2.37511217386244	29.3492015569372
3157797	1.54777929005037	-1.18839792950702	1.9513867811291	37.5173566392576
2693047	1.1635348634429	-1.08211037052295	1.5889544463075	42.9234311602791
2296687	0.887775577961771	-0.921849665697948	1.27982509858682	46.0787154676425
1958656	0.707798340703006	-0.768953877982778	1.04511652822385	47.3713884675489
1670375	0.59125236334336	-0.650817238246571	0.87928518397503	47.7455814739709
1424531	0.51710286049487	-0.547212754032706	0.752885892089921	46.6204871699843
1214875	0.459303061284631	-0.467629864969198	0.65546700352996	45.5146843549598
1036062	0.420757385244971	-0.403926497418748	0.583260998657687	43.8308186908498
883578.1	0.400259716974335	-0.343758425898182	0.527615102521119	40.6572513002438
753531.2	0.382640304983287	-0.293607454752579	0.482305857816376	37.4997381870573
642624.9	0.370408978327353	-0.249531959092643	0.446619535884992	33.9668116673453
548046.8	0.360450803954155	-0.213309203045999	0.418838391477329	30.6163893941162
467390.6	0.351497030871374	-0.182890243600928	0.396230998176314	27.4887732186797
398593.7	0.34565699621071	-0.155640457508722	0.37908140424312	24.2408129879539
339937.5	0.341377218516953	-0.132487299864314	0.366184775690782	21.2110580039257
289906.2	0.337262827391083	-0.112183052209239	0.355431079033346	18.3985686158111
247234.4	0.334594641365267	-0.0940112523851411	0.347550988497191	15.6938010227591
210843.7	0.333776249973229	-0.0782189540205236	0.342818887773496	13.1890071593636
179812.5	0.333598909505115	-0.0647500252277176	0.339824658007615	10.9842712932782
153343.8	0.335460640827327	-0.0531702493924938	0.339648225322525	9.00641525490863
130781.2	0.33787442560746	-0.0453753337374317	0.340907683092292	7.64885478470361
111531.3	0.338834207233436	-0.0389831935010383	0.341069361519106	6.5630768446189
95109.37	0.338854862350839	-0.033548805640485	0.340511585850921	5.65422311505042
81109.37	0.338836394478858	-0.02886838759095	0.340063944024552	4.86976024167824
69171.88	0.338527041641573	-0.0248490288335133	0.339437817805506	4.19817463760918
59000	0.338305207722023	-0.0211329527319299	0.33896462243575	3.57445793844992
50312.5	0.338080984834745	-0.0180236620165192	0.338561079717259	3.05164483659116
42906.25	0.337998435095628	-0.0150345291595288	0.338332645770612	2.54689823992845
36593.75	0.338027085616613	-0.0125581382767012	0.338260280623425	2.1276329355947
31203.13	0.338160048371212	-0.0104073968013513	0.338320162305768	1.76280950799649
26609.38	0.338368819987164	-0.00870209409262488	0.338480700751317	1.47319538537612
22703.13	0.338595148467617	-0.00728282137953356	0.338673462280489	1.23218126181213
19359.37	0.338812385650316	-0.00616499214166909	0.338868469761005	1.04243253696748
16500	0.338967440273483	-0.00521991456136903	0.339007629816182	0.882254163929525
14112.02	0.339066647300045	-0.00444320055330292	0.33909575836694	0.750772955018494
12011.13	0.339006333549002	-0.00371698725835185	0.339026710128592	0.628186342919074
10236.38	0.339093604384098	-0.00312659741649241	0.339108018403582	0.528278202491845
8750.684	0.33913595064509	-0.00266749050515228	0.339146441121744	0.450653479337064
7449.463	0.339170902832229	-0.00230705130120602	0.339178749059748	0.389721709656081
6363.206	0.339191804148436	-0.00195400146675625	0.339197432365286	0.330063395970557
5414.761	0.339225665646644	-0.00167007334629206	0.33922977666825	0.28207588879717
4620.567	0.339254757921876	-0.00139977510994562	0.339257645666224	0.236402730045655
3941.215	0.339261526550797	-0.0012120977051067	0.339263691806866	0.204702808706011
3361.769	0.339262644237158	-0.0010171121154294	0.339264168888853	0.171772689684441
2867.244	0.339282095895033	-0.000855263101052955	0.339283173867933	0.144431029109239
2442.658	0.339293553800491	-0.000710674120395957	0.339294298078043	0.120009849007378
2083.003	0.339217527155747	-0.000587174592550104	0.339218035345502	0.0991770462806421
1777.843	0.339268852378092	-0.000532955164441449	0.339269270985681	0.0900054816708649
1513.548	0.339234707819323	-0.00035907430533737	0.339234897856365	0.0606466085863459
1292.065	0.339313424090867	-0.000382565529050345	0.339313639756277	0.0645992152318354
1101.762	0.339224564908157	-0.000332058585956056	0.339224727430111	0.0560854119004464
939.101	0.339281269039366	-0.000261916879336755	0.339281370136078	0.0442309380375015
801.2801	0.339343566576828	-0.000240783813150629	0.339343652001811	0.0406546500718539
684.3433	0.339344619948845	-0.000162894253047199	0.339344659045585	0.0275034638565469
582.9476	0.339373735582776	-0.000155131274826626	0.339373771038836	0.0261904966915369
497.0677	0.339317171390157	-0.000134786695626953	0.339317198160763	0.0227595566593581
423.5089	0.339348900615271	-7.98707197286057E-05	0.339348910014641	0.0134853982267848
361.5036	0.339382590407633	-9.32243273385923E-05	0.339382603211435	0.0157384630828896
308.1262	0.339357845508414	-5.52493581408449E-05	0.339357850005866	0.00932807376109508
262.7298	0.339302780258875	-6.19638815830542E-05	0.339302785916834	0.0104634240096145
224.2111	0.339406388247393	-2.06717225930898E-05	0.339406388876904	0.00348962924504963
191.2854	0.339366855157002	-3.39301799661441E-05	0.339366856853186	0.00572847959121497
163.1722	0.339440871251045	-6.82433991311679E-06	0.339440871319646	0.00115191159358769
139.1537	0.339430313827955	9.54932539926364E-06	0.339430313962283	-0.00161192451039556
118.6706	0.339441036898717	-2.67065860290031E-06	0.339441036909223	0.000450792478898163
101.1982	0.339415186083284	-6.91486146305723E-06	0.339415186153722	0.00116727946756869
86.24196	0.339419831471476	2.13148764221698E-05	0.339419832140741	-0.00359805864298916
73.61024	0.339455470998766	-1.48511123597513E-06	0.339455471002014	0.000250667946749924
62.69291	0.339451040981768	2.5974946459591E-05	0.339451041975575	-0.00438429883144184
53.57697	0.339437962792715	1.01423418380518E-05	0.339437962944241	-0.00171198700565279
45.65746	0.339458175222874	-1.27874369848507E-06	0.339458175225283	0.000215834003566694
38.96512	0.339460489868398	-3.41599431568118E-05	0.339460491587157	0.00576568002197943
33.18414	0.339404820550242	-2.34568068392384E-05	0.339404821360811	0.00395980242243855
28.30617	0.339456640035839	-1.07681043616063E-05	0.33945664020663	0.0018175132264444
24.17237	0.339470406822324	5.64447974207806E-05	0.33947041151495	-0.00952674687655669
20.61345	0.339472269880317	1.87975029670592E-05	0.339472270400752	-0.00317262315615964
17.55618	0.339490365075968	6.88300419748312E-06	0.339490365145743	-0.00116164442765358
14.98558	0.339503413215566	-4.22931963490797E-06	0.339503413241909	0.000713754724832886
12.76553	0.339473793127223	2.68305726904979E-05	0.339473794187511	-0.00452841605156669
10.8809	0.339525717874206	3.74967111458954E-05	0.339525719944746	-0.00632765994575554
9.278505	0.339544724056298	2.05622580539644E-06	0.339544724062524	-0.000346973615040268
7.923394	0.3395433385577	-8.74297273055557E-06	0.339543338670262	0.00147532105879605
6.75822	0.339518351332284	2.14510852177835E-05	0.339518352009934	-0.00362000063471149
5.761429	0.339566490951302	1.33056039492298E-05	0.339566491211986	-0.00224508298106077
4.919708	0.339575850063843	3.04454573392654E-05	0.339575851428672	-0.00513698546549607
4.191257	0.339561233191848	1.90898303406599E-05	0.339561233728455	-0.00322111773098172
3.564097	0.339547778982201	2.02386265484788E-05	0.339547779585359	-0.00341509488435444
3.051758	0.339495196449518	-3.57954909587731E-05	0.33949519833661	0.00604111802283267
2.604164	0.339623534464289	7.21789342593301E-05	0.33962354213425	-0.0121768600255312
2.214424	0.339498659602756	9.87502127679939E-07	0.339498659604192	-0.000166656634940159
1.892567	0.339580476155593	8.17719294994053E-06	0.339580476254047	-0.00137969841349329
1.607507	0.339554638824411	2.86989510134468E-05	0.33955464003722	-0.00484260433402021
1.376413	0.339549718400779	-6.10400386151151E-05	0.339549723887289	0.010299924773196
1.17375	0.339609230122473	-1.55460743775177E-06	0.339609230126031	0.000262279222947148
1.001604	0.339606574389447	1.83879504433653E-05	0.339606574887254	-0.00310227196032671
