EC-Lab ASCII FILE
freq/Hz	Re(Z)/Ohm	-Im(Z)/Ohm	|Z|/Ohm	Phase(Z)/deg
6999984	10.1851684807491	-2.29333183724173	10.4401641700191	12.6893192070741
5969734	5.70774351940943	-2.02507159175157	6.0563397390734	19.5343657714108
5091109	3.20348239951635	-1.31065532238427	3.46123054102226	22.2511654781605
4341796	1.95383923960103	0.26159528839113	1.97127366672239	-7.62585625880706
3702781	1.28746024701046	0.0224519516606576	1.28765600133172	-0.999076820609929
3157797	1.00228017659917	0.044127905437384	1.00325112730659	-2.52096273237406
2693047	0.841641831737177	0.067957332765381	0.844380940101383	-4.61626251367394
2296687	0.748741081208986	0.106613758434276	0.756293395566484	-8.10390932475241
1958656	0.710145965039082	0.131157292831926	0.72215616533011	-10.464077181501
1670375	0.685354655136327	0.139170379393701	0.699342117863367	-11.4785963606053
1424531	0.668583406707978	0.133866350019389	0.681853335690864	-11.3222648262038
1214875	0.659227102033881	0.120746575788667	0.670194082054353	-10.379462774316
1036062	0.658265127513177	0.101738361450298	0.666080830147912	-8.78584942209507
883578.1	0.647176734145453	0.0877081687452725	0.653092985786728	-7.71794776521844
753531.2	0.639507734827628	0.0748490671627631	0.643873066496417	-6.67562294431644
642624.9	0.631920442066264	0.0644253933491956	0.63519609287953	-5.82129130557482
548046.8	0.625994798232318	0.0537101946512169	0.628294733722472	-4.90395321697605
467390.6	0.620723307183548	0.0449562756203694	0.622349171123844	-4.14244990837035
398593.7	0.615992848000724	0.0375841343158876	0.617138360451137	-3.49151141140663
339937.5	0.612008651268035	0.0320353719071445	0.612846517718873	-2.99639222457551
289906.2	0.609186593379033	0.0273866836361598	0.609801882576086	-2.57406446082679
247234.4	0.60734202097047	0.0238830209908709	0.607811425631458	-2.25192982671259
210843.7	0.606215724162336	0.0209820786852948	0.606578726834054	-1.98230562860654
179812.5	0.605765312744584	0.0186546271435827	0.606052480597522	-1.76387406357984
153343.8	0.605378410238071	0.0162587718596108	0.60559670346259	-1.5384346517609
130781.2	0.60523891359928	0.0155420342966129	0.605438434000447	-1.4709849142025
111531.3	0.604960285769364	0.0141013037613955	0.605124610411708	-1.33529246549726
95109.37	0.604504583786585	0.0125935854238624	0.604635750028743	-1.19346478472176
81109.37	0.60380405716835	0.0111092312332884	0.603906246425349	-1.05405097513714
69171.88	0.603092597078553	0.00985627282166478	0.603173131666928	-0.936294970208469
59000	0.602658237540683	0.008696491846126	0.602720980426327	-0.826733407665758
50312.5	0.601789875802486	0.00781150276778855	0.601840572073587	-0.743683175261545
42906.25	0.601280583743624	0.00695244820625374	0.601320777059245	-0.662466407801751
36593.75	0.600334889260607	0.00610805393615379	0.600365961382249	-0.58293069851287
31203.13	0.599916812922586	0.00540287210064124	0.599941141658187	-0.515993872772681
26609.38	0.599212460826104	0.00503696735132711	0.599233630772984	-0.481615774811257
22703.13	0.598581739498228	0.00455298970177522	0.598599054940741	-0.435800236047652
19359.37	0.597762278036866	0.00404566725386538	0.597775968459215	-0.387773080194842
16500	0.597046085033778	0.00364240304218402	0.597057195546694	-0.349540408666675
14112.02	0.596217091089043	0.00309842621515137	0.596225141998969	-0.297752529733965
12011.13	0.59541318245018	0.00291742171352665	0.595420329838431	-0.280737172908847
10236.38	0.594726290721762	0.00245386530549475	0.594731353075154	-0.236403417595009
8750.684	0.594292062067102	0.00215652836261581	0.594295974789117	-0.207910283738933
7449.463	0.59317401306759	0.0019180396013858	0.59317711406849	-0.185266361421788
6363.206	0.591151907880605	0.00161686834429292	0.591154119036756	-0.156710144912468
5414.761	0.588137426036115	0.00140070309630448	0.588139093985046	-0.136454883643223
4620.567	0.584981808662306	0.00120898713515871	0.584983057973234	-0.118413531294364
3941.215	0.582159736101248	0.00109048251748352	0.582160757428389	-0.107324448831623
3361.769	0.579845661374511	0.00108883894180842	0.579846683688961	-0.107590358544343
2867.244	0.577623663739093	0.000894941939512638	0.577624357028378	-0.0887712159885941
2442.658	0.575176813662082	0.000778963010159549	0.575177341137354	-0.0775957314903469
2083.003	0.573226450717926	0.000634569392105522	0.573226801956245	-0.0634271727661158
1777.843	0.571388630950411	0.000590078962839907	0.571388935640661	-0.0591699244609553
1513.548	0.569586244978156	0.000523291675304275	0.569586485358012	-0.0526389046049739
1292.065	0.567855513196868	0.000392034334347031	0.567855648522578	-0.0395556769137473
1101.762	0.566455783386106	0.00034480535989589	0.566455888328741	-0.03487631341218
939.101	0.564964987796571	0.000365887365760003	0.564965106276081	-0.0371063682832323
801.2801	0.562810996649602	0.000220572676017421	0.562811039872197	-0.0224549321884209
684.3433	0.560630934472179	0.000415071205197789	0.560631088124137	-0.0424197496921575
582.9476	0.558305408224558	0.000195399419564324	0.558305442418148	-0.0200527550661333
497.0677	0.556736660703632	8.35309876414485E-05	0.556736666969993	-0.00859647541164843
423.5089	0.555169820999341	0.000135087809700401	0.555169837434597	-0.0139416101415798
361.5036	0.553487969151646	9.15880904385353E-05	0.553487976729388	-0.00948098473745959
308.1262	0.550616262117558	0.000115624020704833	0.550616274257513	-0.0120315521991081
262.7298	0.547049004146161	0.00015060527518649	0.547049024877346	-0.0157738088492712
224.2111	0.544214085845665	8.17579902099833E-05	0.54421409198697	-0.00860761944076372
191.2854	0.541555364420565	7.34545663256099E-05	0.541555369402117	-0.00777138753877029
163.1722	0.538731501560165	8.92040786871298E-05	0.538731508945447	-0.00948713257460134
139.1537	0.536545128786189	6.3756477554461E-05	0.53654513257421	-0.00680833142882464
118.6706	0.535645058181953	-9.58127063249282E-06	0.535645058267645	0.00102486966167333
101.1982	0.534698349921417	4.70090000933889E-05	0.534698351987858	-0.00503726502604253
86.24196	0.534002163345051	1.27821321053067E-05	0.53400216349803	-0.0013714592803993
73.61024	0.533379054378884	6.53768044016736E-05	0.533379058385534	-0.00702280099069801
62.69291	0.533173218656576	2.58304616655695E-05	0.533173219282276	-0.00277578914950526
53.57697	0.532453879387058	-2.84519712463001E-05	0.532453880147231	0.00306163206391808
45.65746	0.530350192372336	4.28238794734478E-05	0.530350194101274	-0.00462642907679074
38.96512	0.528328899091294	8.62211637815436E-05	0.528328906126768	-0.00935044203341698
33.18414	0.526554048123239	5.18230230748353E-05	0.526554050673429	-0.00563900421009616
28.30617	0.525191921272069	5.0931410904737E-06	0.525191921296765	-0.00055563590588531
24.17237	0.524161403360016	5.40385249031332E-05	0.524161406145572	-0.00590691984805712
20.61345	0.524115508347089	7.8895893650709E-06	0.52411550840647	-0.000862481963377355
17.55618	0.524609655818465	1.49169608014248E-05	0.524609656030543	-0.00162917111298679
14.98558	0.524255639509124	2.39828973108662E-06	0.52425563951461	-0.000262108538819979
12.76553	0.523739129498906	-8.91565833884274E-06	0.523739129574792	0.000975351211271356
10.8809	0.522981505277648	-2.95979343287174E-06	0.522981505286023	0.000324263229618888
9.278505	0.522503917896033	1.3516350802795E-05	0.522503918070856	-0.00148215128867181
7.923394	0.522634415709753	-1.8304585766634E-05	0.5226344160303	0.00200670961997455
6.75822	0.522622919550575	-7.22697606596743E-07	0.522622919551075	7.92302081925166E-05
5.761429	0.521629899370315	-4.77317701565977E-05	0.521629901554164	0.00524285316913357
4.919708	0.520041434792469	4.62392190752931E-05	0.520041436848137	-0.00509442501455816
4.191257	0.517568261909884	-1.73867637911662E-05	0.517568262201923	0.00192474743442329
3.564097	0.516004062515837	-2.18984435802655E-05	0.516004062980506	0.00243154751182374
3.051758	0.51301428889159	-2.05270355466583E-05	0.51301428930226	0.00229255310734516
2.604164	0.510096602311145	-1.28183807530877E-05	0.510096602472203	0.00143980397803369
2.214424	0.508737457854906	-1.12074251498617E-05	0.508737457978356	0.00126221914717966
1.892567	0.504674436601383	6.8512330898923E-05	0.504674441251846	-0.00777821719568825
1.607507	0.498963755074389	-7.27334980249766E-05	0.498963760375538	0.00835195421342045
1.376413	0.494718940485715	-6.84759783937926E-05	0.494718945224729	0.00793053229594583
1.17375	0.489516212476621	3.56652261185123E-05	0.489516213775872	-0.0041744622062999
1.001604	0.482825956177051	-8.73317251670589E-05	0.482825964075166	0.0103634428743642
