EC-Lab ASCII FILE
freq/Hz	Re(Z)/Ohm	-Im(Z)/Ohm	|Z|/Ohm	Phase(Z)/deg
6999984	21.89938223324	4.29961861124068	22.3174743732277	-11.1078869375777
5969734	15.5894795435296	-4.76361044690466	16.3010385229895	16.9913556230801
5091109	11.6889041035379	-4.94861949972723	12.6932783036844	22.9458768047567
4341796	9.34923202765383	-6.64047511897652	11.4675214982425	35.3850197201649
3702781	6.80421102066694	-5.76608373832515	8.9188008886365	40.2788986202292
3157797	4.535706840528	-5.02089645934242	6.76624251698457	47.9064164566421
2693047	3.1294515745311	-3.93929913621212	5.03105802410355	51.5357259366511
2296687	2.78407501746732	-3.96511403002544	4.84491516685177	54.9256765681662
1958656	2.00047373689667	-3.24092782178271	3.80860976184467	58.3148995432815
1670375	1.51382505587162	-2.84736466824793	3.22477159714782	62.002284025405
1424531	1.35023876005759	-2.439686374696	2.7884071288173	61.0377668730817
1214875	1.26338378539945	-1.98798880398354	2.35546982022147	57.5636945780855
1036062	0.966165333919902	-1.84782724562244	2.08517169128424	62.396478988455
883578.1	0.86083378308096	-1.59924694806917	1.81621188273892	61.7075545355897
753531.2	0.786456840737803	-1.38339999990664	1.59132332418179	60.381959380775
642624.9	0.729929759407047	-1.21858762927899	1.42047642145155	59.0785376926319
548046.8	0.684097409106029	-1.03863146439106	1.24368186606089	56.6289941494209
467390.6	0.644705557329565	-0.901117205766385	1.10799705513139	54.4181219053496
398593.7	0.610106996076381	-0.782975513013467	0.992613318790377	52.0737103879671
339937.5	0.581217419051088	-0.680639191839571	0.895032623805653	49.5050317304146
289906.2	0.557356409780683	-0.590774188036323	0.812194748058364	46.6671946894434
247234.4	0.539325753258966	-0.512987008678678	0.744330530880905	43.5662210514805
210843.7	0.522430120288362	-0.444776932048455	0.686119340834339	40.4097965581048
179812.5	0.508159837857935	-0.384213031213457	0.637060494902984	37.0924511383886
153343.8	0.49870500312542	-0.333326023129017	0.599844077938034	33.758100331313
130781.2	0.489857851717216	-0.288430281489121	0.568465251505226	30.4897485326585
111531.3	0.482322284388945	-0.251131577418728	0.543784750792986	27.5047186341182
95109.37	0.475094793201011	-0.218484697784367	0.522925066995872	24.6965665365128
81109.37	0.468110933807661	-0.189764943162883	0.505112442931168	22.0668736033567
69171.88	0.461417633832357	-0.163771827120631	0.489619693404872	19.541395963557
59000	0.450836088597128	-0.138511135071148	0.471633876349288	17.0786170952785
50312.5	0.446889809384322	-0.105251445831884	0.459116944341262	13.2527773619617
42906.25	0.474736884786904	-0.110714808050092	0.48747602864012	13.1274829513225
36593.75	0.458996445717525	-0.0997873237847461	0.469718263610692	12.2654278415025
31203.13	0.452920230981841	-0.0873448667841168	0.46126549988719	10.9153903071476
26609.38	0.449577954508576	-0.0780780659968674	0.456307485770206	9.85227284786027
22703.13	0.443976873613376	-0.068003555526775	0.449154703713309	8.7082652070564
19359.37	0.441318547138624	-0.0596052228371857	0.445325546805948	7.69191829258564
16500	0.439176824885434	-0.0525189173397896	0.44230591245765	6.8193264889132
14112.02	0.437110463912105	-0.0468416765382843	0.439613125739408	6.11659375318525
12011.13	0.43482082773707	-0.0413877061417821	0.436786096909722	5.43722394451155
10236.38	0.432843160020424	-0.036937795014577	0.434416392274745	4.87766648629325
8750.684	0.430867957991262	-0.0332456171586712	0.432148664563274	4.4121795307107
7449.463	0.428715611440087	-0.0297268864409884	0.429744997958001	3.96650660159937
6363.206	0.42707339747278	-0.0269674834883555	0.427923979223691	3.61313602736803
5414.761	0.425572389024696	-0.0245695046804278	0.426281032724222	3.30418056845743
4620.567	0.424033729609165	-0.02244443543927	0.424627314863807	3.0298827536165
3941.215	0.422780434952374	-0.0204020124962919	0.423272416172396	2.76276524586415
3361.769	0.421887208401694	-0.0187509208261781	0.422303698355584	2.54485564538881
2867.244	0.420879218139215	-0.0172906984933276	0.421234239486611	2.35252116201473
2442.658	0.420036753070217	-0.0158721136257545	0.420336529367505	2.16403122544598
2083.003	0.419711851585998	-0.014877872735109	0.419975462924763	2.03016078252925
1777.843	0.419765428203855	-0.0142092739930795	0.420005854938448	1.93875109589408
1513.548	0.419703559910379	-0.0144554002901722	0.419952422065874	1.97259743172584
1292.065	0.418971038938538	-0.0157621529956285	0.419267428899856	2.15451439646885
1101.762	0.417077105708752	-0.0147928162229191	0.417339357739231	2.03130497924613
939.101	0.415717177036203	-0.0142575474370445	0.415961595513179	1.96426146876448
801.2801	0.414193208863692	-0.0142177960845372	0.414437160489143	1.96599065539019
684.3433	0.412915973927268	-0.0137787655460034	0.413145804655301	1.91121760904907
582.9476	0.411008723177002	-0.0135732497152168	0.411232785214678	1.89146202427296
497.0677	0.409692235295804	-0.0132469810264665	0.409906343166324	1.8519554383831
423.5089	0.408882998725477	-0.0127090624361141	0.409080465085713	1.7803168063845
361.5036	0.404272494540972	-0.01353739091242	0.404499086272264	1.91787881637526
308.1262	0.408420363949542	-0.0119184983144673	0.408594229389927	1.67152759094963
262.7298	0.410018752914183	-0.0148734625232164	0.410288432238506	2.07749798260516
224.2111	0.407697368550261	-0.0120246130393334	0.407874656777732	1.68939012317063
191.2854	0.408946397332159	-0.0134363981862902	0.409167071851062	1.88184091697712
163.1722	0.405533938910482	-0.00939125290779103	0.405642664471365	1.3266041334919
139.1537	0.403108692611686	-0.00668741666447728	0.403164159618322	0.950427547183166
118.6706	0.412355247585138	-0.00773715407740315	0.412427828552121	1.07493299493848
101.1982	0.397513619826253	-0.0122326859323055	0.397701793499211	1.76260668093701
86.24196	0.3904831276908	-0.0080375040692751	0.390565838858	1.17918037393135
73.61024	0.375820949805703	-0.0187899564967898	0.376290378269245	2.86223931346578
62.69291	0.311089164013547	0.0554700216227975	0.315995872228548	-10.1101038556691
53.57697	0.377549150490904	0.0344324694993901	0.379116019171216	-5.21095775459423
45.65746	0.337432875423981	-0.0295175348356207	0.338721464155533	4.99932318789117
38.96512	0.410198119682464	0.00093765915799411	0.410199191364057	-0.130970417036672
33.18414	0.396407054249917	-0.0122841963268196	0.396597345097635	1.77496194283121
28.30617	0.410537287265546	-0.026607809293768	0.4113986384892	3.70827681516509
24.17237	0.385311673993297	0.0152582729246506	0.385613668077469	-2.26771767875742
20.61345	0.329393133771995	-0.0435114432508308	0.332254544393159	7.52496412066247
17.55618	0.338881911596486	-0.0288006909038676	0.340103557470117	4.85774588967214
14.98558	0.402099631353712	-0.0177086849529292	0.402489392478303	2.52170757750773
12.76553	0.363490892757948	-0.0818489458166051	0.372592108141409	12.6899093536031
10.8809	0.313889206274359	-0.00916985771100777	0.314023120336683	1.67334444011799
9.278505	0.512411932250764	-0.0274454909195413	0.513146415055953	3.06591148568991
7.923394	0.278568670611509	0.0225519135995444	0.279480040527521	-4.62836567413828
6.75822	0.273170169568618	0.0926404582920035	0.288451375546556	-18.7333879625517
5.761429	0.274809713212582	0.0714327879695811	0.283941933629199	-14.5707521781011
4.919708	0.330796289662178	-0.18345835943327	0.378263340677114	29.0125831227199
4.191257	0.375593323743879	0.0153548004934043	0.37590705598481	-2.34103106639118
3.564097	0.317130024365366	-0.0412019736724605	0.319795332968579	7.40248293279736
3.051758	0.294130479816073	0.0566302350677365	0.299532506884746	-10.8980526042669
2.604164	0.169804709779022	0.075556067150694	0.185855747143902	-23.9870843579582
2.214424	0.139798622770929	-0.114639254531307	0.180792183481871	39.3528269359592
1.892567	0.202722576263322	-0.0366772337230807	0.206013743231892	10.255205417286
1.607507	0.2723430031399	-0.0179140748591024	0.272931539836123	3.76335868575779
1.376413	0.333051870488448	-0.0251385255129124	0.333999242365633	4.31646120145615
1.17375	0.19267439143714	0.00684989576868892	0.192796115592909	-2.03610292782255
1.001604	0.35197960530857	0.128530333488708	0.374712808934916	-20.0603811343865
