EC-Lab ASCII FILE
freq/Hz	Re(Z)/Ohm	-Im(Z)/Ohm	|Z|/Ohm	Phase(Z)/deg
6999984	22.2390194966098	90.4790057567239	93.1720154922918	-76.1908962724656
5969734	22.1045756464018	84.5835701469867	87.4242106245045	-75.3542060042361
5091109	20.05542727703	84.2929678038095	86.6459726960135	-76.6167185058069
4341796	19.2462907665459	89.427474969373	91.4750949038495	-77.8542500475099
3702781	21.0905558698906	97.4664444996222	99.7222109176232	-77.7901360702348
3157797	21.1639149918498	106.634579854409	108.714511076068	-78.774305674931
2693047	20.1361438809991	119.390558940364	121.076710619709	-80.4267159560883
2296687	20.2517351693192	137.583653161782	139.066151146531	-81.6264322833127
1958656	21.8182135036428	156.842154633446	158.35244207322	-82.0804440401744
1670375	23.0000424215906	180.787948347437	182.245121249022	-82.7497160406667
1424531	24.6710047173619	208.686337595194	210.139586876579	-83.2577577176092
1214875	26.8072169630859	240.922284002923	242.409104223606	-83.6508640608485
1036062	29.0911254197726	278.674471703463	280.188784139182	-84.0404180657579
883578.1	30.9889107993241	323.404212028753	324.885513605127	-84.5265727549264
753531.2	33.9987807366735	375.63866841107	377.174132592921	-84.8282923298423
642624.9	37.1272586154001	437.355379513193	438.928423916046	-85.1477735964072
548046.8	40.6996803579809	509.435952699976	511.059149105634	-85.4322471416897
467390.6	141.088169428537	705.856454402468	719.818870115475	-78.6965553021317
398593.7	165.033841222694	801.085496209578	817.90839400636	-78.3591977523587
339937.5	188.663263368807	910.778245241725	930.11334736717	-78.2969745358075
289906.2	210.664288650908	1037.97433732209	1059.13651974239	-78.5272462736706
247234.4	233.534986029915	1184.84423389976	1207.64003258649	-78.8498215123293
210843.7	252.132699849156	1357.57711253492	1380.79198824873	-79.4787572840443
179812.5	276.600377413126	1556.68375294679	1581.06675237751	-79.9245184486561
153343.8	294.749445963314	1795.41615241157	1819.44947614273	-80.677041216781
130781.2	317.206801835206	2075.02790625354	2099.13338472367	-81.3085552985741
111531.3	339.477986338649	2402.4363403669	2426.30288148946	-81.9570289311032
95109.37	366.177651113787	2785.32044781026	2809.28746645215	-82.5104488654201
81109.37	394.774728361603	3230.77175777874	3254.80156645742	-83.0334447408155
69171.88	424.576841694118	3746.48312988395	3770.46433970778	-83.5344390368779
59000	454.569939453535	4356.05155320278	4379.70535127823	-84.0425380095999
50312.5	1315.95308193506	5690.03593320128	5840.22614587621	-76.9779683956369
42906.25	1683.24992917725	6786.48764118029	6992.1201954749	-76.0700594734726
36593.75	1823.45395315806	7530.77860043974	7748.39406897512	-76.3887385991243
31203.13	1936.26069237742	8589.52283241193	8805.05581795889	-77.2966475212886
26609.38	2059.90800723751	9829.55467476101	10043.0755300554	-78.1642202146757
22703.13	2172.78431618666	11305.6086222862	11512.5052879457	-79.1211743241032
19359.37	2315.24405521787	13047.4209507135	13251.2470545356	-79.9376964779441
16500	2460.66313941653	15111.2888897561	15310.320538622	-80.7513538428094
14112.02	2639.95710006515	17461.2158992837	17659.6555507627	-81.4025776727551
12011.13	2836.40625554976	20311.7598307425	20508.8465757654	-82.0504210517095
10236.38	3055.00288845363	23614.8508101444	23811.640460788	-82.6287073543351
8750.684	3261.70420909569	27386.5641413372	27580.112578001	-83.2081395725509
7449.463	3586.15194585473	31935.7306040989	32136.4493215466	-83.5929380277607
6363.206	3924.59157007799	37119.8191757204	37326.7115432114	-83.9646730452416
5414.761	13666.1008865221	49880.1859317889	51718.4228494105	-74.6781731017612
4620.567	15160.4609465655	56414.4104620459	58415.9677133961	-74.9580629846826
3941.215	16287.5370804359	64142.5715711674	66178.1939305457	-75.752182488734
3361.769	17634.6987844344	73130.3127188213	75226.4929367994	-76.4424820403076
2867.244	18777.7465540002	83774.2761993379	85852.9738469741	-77.366147301838
2442.658	19940.3435123128	96351.4482156028	98393.1850924291	-78.3074596634584
2083.003	21162.4740797204	111117.000947293	113114.270579337	-79.2170301632286
1777.843	22402.5179927181	128369.181504142	130309.322661341	-80.1006456748793
1513.548	23991.0602425547	148987.943611221	150907.184431564	-80.852366302091
1292.065	25551.4196618625	172553.056101392	174434.607279252	-81.5769287298134
1101.762	27444.9794556006	200325.457525945	202196.725567694	-82.1989317122075
939.101	29559.6319778871	232794.75086196	234663.946680248	-82.7634670277499
801.2801	31832.9203240006	270760.461397229	272625.31480476	-83.2945989038361
684.3433	111411.733645581	384332.255040815	400154.790873072	-73.8339770864155
582.9476	124581.558180583	432816.137820575	450389.135966467	-73.9420942223567
497.0677	137328.498230276	488217.521675849	507164.139995614	-74.2894785335445
423.5089	148368.730883065	555706.508536297	575172.151562863	-75.0512259221709
361.5036	163147.186708707	627738.50827813	648592.81471985	-75.4313261234607
308.1262	170937.475740633	716928.228312066	737024.901318305	-76.5893311231996
262.7298	183644.139694762	825375.91087213	845559.320386351	-77.456158971453
224.2111	193709.354803307	947858.786603695	967450.04702059	-78.4497823797689
191.2854	197554.156392315	1092862.77687592	1110574.93839399	-79.7534332510301
163.1722	209363.598131981	1257013.7113126	1274329.85786674	-80.543828529413
139.1537	231433.715685569	1467810.06183107	1485943.45194175	-81.0397807968783
118.6706	250490.257181207	1703084.47071393	1721407.00687828	-81.6329067063977
101.1982	254088.637582167	1988089.16628388	2004260.35455568	-82.7167709674467
86.24196	272023.812691159	2312011.49039947	2327959.21064141	-83.2896141710185
73.61024	263839.613868946	2615630.57271383	2628903.69446311	-84.2400365615815
62.69291	188012.179461472	2950396.62672223	2956381.03677448	-86.3537924593781
53.57697	249087.680087746	3668699.23428452	3677145.46136148	-86.1158430870603
45.65746	266269.910874469	4004234.56253863	4013077.88327937	-86.1955988121425
38.96512	394993.887457608	5024428.98207546	5039931.22642053	-85.5049554858918
33.18414	491218.561520115	5671752.10240853	5692984.0669334	-85.0500842923375
28.30617	786601.197247434	7086570.7526732	7130093.0201614	-83.6661620339785
24.17237	82857.4569038505	7994198.91837316	7994628.30309722	-89.4061678171581
20.61345	649812.167373657	8476328.84464895	8501200.29969266	-85.6161665939267
17.55618	740129.940460951	9662572.75581123	9690877.39010829	-85.6198335238155
14.98558	714031.380942679	12384534.6553397	12405101.3475215	-86.7002600380937
12.76553	863062.322116194	14377356.6656762	14403237.8743087	-86.5646982237658
10.8809	1019903.67888907	16814402.3345212	16845305.8559755	-86.5288883615701
9.278505	1850672.13096881	19398427.7820542	19486507.8388077	-84.5502932076448
7.923394	1716935.77718326	23183262.367849	23246752.9448629	-85.7644480713066
6.75822	-986019.01114201	25794273.1465824	25813112.1845243	-92.1891384196675
5.761429	-901836.136497917	28542567.5007554	28556811.2357152	-91.8097257677319
4.919708	516714.989299012	37663673.0307652	37667217.3188909	-89.2139977726712
4.191257	3340204.9107789	40383472.7977227	40521375.1500416	-85.2717043674941
3.564097	6743165.57280322	48239107.7410631	48708128.66038	-82.0423996425777
3.051758	4297833.02921573	41738300.7068891	41958993.2510984	-84.1209186359738
2.604164	3563631.99943832	65762680.4029607	65859164.9416341	-86.8982169563114
2.214424	2663493.54594952	77621677.9368298	77667361.7654047	-88.0347360387329
1.892567	-18755272.068631	108052202.981971	109667856.729423	-99.847063126268
1.607507	-3970825.78752459	92902911.3122279	92987732.4582256	-92.4474277937125
1.376413	13702471.7677127	170463114.38394	171012955.936143	-85.4042295055078
1.17375	12715728.3369658	135611750.763344	136206595.626786	-84.6432842577946
1.001604	48405806.8082558	159407840.711672	166595263.477435	-73.1085552220003
