EC-Lab ASCII FILE
freq/Hz	Re(Z)/Ohm	-Im(Z)/Ohm	|Z|/Ohm	Phase(Z)/deg
6999984	18.106890748327	-21.9536319675663	28.4573619497521	50.4849098812252
5969734	12.0629288637471	-16.7154032461889	20.6135624881903	54.183318071327
5091109	7.485230092221	-13.0896031021412	15.0786729822314	60.2371156501659
4341796	9.81324626332911	-6.11753784698141	11.5639124665484	31.9392458106702
3702781	3.94986145595725	-8.23085377709063	9.12953226737842	64.3643598316113
3157797	4.22515591132021	-5.50556022508319	6.93996656094121	52.4961292520053
2693047	3.09599758232813	-5.06008111622569	5.93208411374666	58.5397281820909
2296687	2.19906515353609	-4.17748994660997	4.72094374077091	62.2373113129676
1958656	1.61794439081126	-3.58093072164884	3.92947946743664	65.6854859156239
1670375	1.22305319956814	-2.97204224925225	3.21385971385097	67.6318808414629
1424531	3.93640477495985	-5.41807502545196	6.69707544632379	54.0003955656535
1214875	6.78966056713966	-20.8517852898402	21.9293511164961	71.9639574346675
1036062	20.4025661233316	1.36515728973184	20.4481871774157	-3.82801525406491
883578.1	10.9278759741003	-3.85284965475621	11.5871879145664	19.4211607702488
753531.2	-0.375283943141326	13.6807410737116	13.685887416018	-91.5713180291779
642624.9	5.69179592463758	1.24283265465811	5.82590541076711	-12.317492516346
548046.8	11.3906811525286	-2.55131849954852	11.6729106569317	12.6249072917455
467390.6	0.143208357262791	0.632843282153282	0.648844552536619	-77.2490920242928
398593.7	1.00529888179952	-1.98953510109852	2.229097521476	63.1928330279073
339937.5	1.00690484179733	-1.07293044932612	1.47140650723247	46.8182779304414
289906.2	1.8408277225227	-2.00701231698783	2.72337018132845	47.4730139916713
247234.4	0.154718679582825	-1.87414885621743	1.8805243431216	85.2806998048776
210843.7	0.462203659154579	-2.41505980302522	2.45889122872975	79.1655212574463
179812.5	0.609828528825587	-1.27520157970237	1.41351685644176	64.4418810212925
153343.8	1.41404393152405	-0.865645565844424	1.65796938631149	31.4740212697578
130781.2	0.671539106936091	-1.89368266504287	2.00922841111418	70.4744390546659
111531.3	0.573491113219223	-0.721237710523807	0.921453141523239	51.510086075319
95109.37	1.21893646809341	-1.79993182016073	2.17383547456452	55.8936486559941
81109.37	1.52808684757536	-0.214813389823221	1.5431118579611	8.00201451046635
69171.88	1.32744000067474	-0.148968740052047	1.33577267560916	6.40308983948451
59000	1.38445551791265	-0.0962063419301469	1.38779419991091	3.97511529247121
50312.5	1.28111445173855	-0.0923508084889196	1.2844387530287	4.12310914503791
42906.25	1.21768324400751	-0.0992622701829984	1.22172234203134	4.66029374727195
36593.75	1.06247178863556	-0.0996333956357952	1.06713312907639	5.35725049546719
31203.13	1.0084989764952	-0.0856861348216273	1.01213255025838	4.85641662758743
26609.38	0.997798198360739	-0.0811344780931999	1.00109142848563	4.64869364375173
22703.13	0.947206600527574	-0.0977001661447565	0.952231939470482	5.88898053949158
19359.37	0.718809432528252	-0.193589193718305	0.744421773066916	15.0732132461191
16500	0.790374717580139	-0.121117882599768	0.799600985289122	8.71229310035617
14112.02	0.77565295396608	-0.116654061658989	0.784375978149411	8.55287905301693
12011.13	0.847376192418004	-0.088840119578055	0.852020526937866	5.98510566878068
10236.38	0.792860389242076	-0.0590469509132476	0.795056060439292	4.25914479546244
8750.684	0.795872066724554	-0.0490102112785534	0.797379675814465	3.52385373302618
7449.463	0.847798972452747	-0.0537384208596276	0.849500391741181	3.62688701445117
6363.206	0.71524796635492	0.0057513992372698	0.715271089844987	-0.460712670163058
5414.761	0.737332203876624	0.00755685053222489	0.737370927595823	-0.5871986611288
4620.567	0.709577469926836	-0.0437002055471339	0.710921861945905	3.5241803189694
3941.215	0.689861424019631	-0.052275999207896	0.691839261999185	4.33345111895516
3361.769	0.683792761125067	-0.0404284040723087	0.684986858284797	3.38360340506067
2867.244	0.677903657728611	-0.0382628036850863	0.678982629606733	3.23050850924392
2442.658	0.676983640291423	-0.0369755086173409	0.677992652954099	3.12627602715372
2083.003	0.678287185715378	-0.0382044513426927	0.679362264486396	3.22377224444656
1777.843	0.689183996406537	-0.0373370384761547	0.690194635841989	3.10100858838845
1513.548	0.69260100122931	-0.0213911168394642	0.692931256896008	1.76902896486263
1292.065	0.685865885564567	-0.0301577111418535	0.686528586821105	2.51768942449048
1101.762	0.686431905848829	-0.026998315865531	0.686962641216268	2.25236126393232
939.101	0.688914613171399	-0.0224801480799494	0.689281293303971	1.8689699930673
801.2801	0.695785157328292	-0.0242515947913309	0.696207673764287	1.99623652443735
684.3433	0.662739545803794	-0.017164237332	0.662961776134498	1.48356706738358
582.9476	0.662266258576018	-0.0133025520802269	0.662399845365414	1.15071181996469
497.0677	0.628690972590523	0.0170118315753103	0.628921093166992	-1.54999579415104
423.5089	0.64940958142123	-0.0167806778639477	0.649626350751931	1.4801877623079
361.5036	0.635237106903322	-0.022636682101012	0.635640308164488	2.04087222850922
308.1262	0.632886232071164	-0.00878824074806589	0.632947245764354	0.795556482201509
262.7298	0.635103241467575	-0.0164332533182562	0.63531581055192	1.48219368754865
224.2111	0.626800219825434	-0.0333705655625533	0.627687908294541	3.04752469708637
191.2854	0.628803043882721	0.0147702745934332	0.628976493207608	-1.34560226806285
163.1722	0.642630289942916	-0.0455159556297437	0.644240166218317	4.05135649443809
139.1537	0.62545129359638	-0.0226881508441189	0.625862662930223	2.07748480457588
118.6706	0.587004852351549	0.00433300570455291	0.587020844282977	-0.422923983630338
101.1982	0.649940642429584	-0.0175912520147919	0.65017866069968	1.55038540545173
86.24196	0.604665320272608	0.00449041005277562	0.604681993549351	-0.425486308185943
73.61024	0.571884776878288	0.0131889825288133	0.572036840846177	-1.32113868908415
62.69291	0.590520910151826	0.0474023538536344	0.592420398431221	-4.58941199252072
53.57697	0.574830892671601	-0.0335899004471832	0.575811459230955	3.34424177749297
45.65746	0.574359666070282	-0.0369676821177819	0.575548117475444	3.68266560172274
38.96512	0.712286853594388	-0.107579284332698	0.720365090923297	8.5886774560567
33.18414	0.57192733468115	0.0374873633913366	0.573154585229429	-3.75012622547924
28.30617	0.622209608401298	0.272116973264979	0.679111510670958	-23.6216690649576
24.17237	0.713903344873729	0.191214391353956	0.739067608059481	-14.9943513351973
20.61345	0.563090065074288	0.207059236330009	0.599953288794163	-20.1894627960516
17.55618	0.717952568261075	0.407267092892865	0.825422543444314	-29.5645878512828
14.98558	1.18903026228827	0.0419337687686369	1.18976947582313	-2.01982462390509
12.76553	0.492785783544283	0.479166994784453	0.687341863525071	-44.1972366599919
10.8809	0.570812176501312	-0.174166898980461	0.596791965045304	16.9680591591301
9.278505	0.622070032046539	-0.0446989885546516	0.623673892629948	4.10993799124345
7.923394	0.643516873776898	-0.073114218880933	0.647657051098929	6.48195747998427
6.75822	0.570065910912105	0.0618427964833557	0.573410563436819	-6.19143922996319
5.761429	0.721389409737335	-0.0480293460157273	0.722986513401101	3.80907097752671
4.919708	0.408453551019336	-0.101556089275727	0.420889466023188	13.962643422239
4.191257	0.576669281455451	0.249083878643478	0.628164181384473	-23.3612253696029
3.564097	0.660376571408149	-0.112395458425376	0.669873088830588	9.65912877512167
3.051758	0.632766282728888	-0.00257928861370536	0.632771539568814	0.233548368901872
2.604164	0.774155840203445	0.0800145830166647	0.778279897219781	-5.90097827572162
2.214424	0.826032959490257	-0.0623314344888143	0.82838134810585	4.31529122163849
1.892567	0.630357966929539	-0.00828588337938543	0.630412422414818	0.753094007046569
1.607507	0.550517722289539	-0.041557166034308	0.552084015892206	4.31692357839682
1.376413	0.553099842057239	-0.0196342700144767	0.553448226885536	2.03306625150836
1.17375	0.544387735744847	-0.00325686134870508	0.544397477928807	0.342774407359755
1.001604	0.574357044347426	-0.0084925566561941	0.574419827225758	0.847124975594464
