EC-Lab ASCII FILE
freq/Hz	Re(Z)/Ohm	-Im(Z)/Ohm	|Z|/Ohm	Phase(Z)/deg
6999984	1.45951612583013	1.22707774402988	1.9068054728922	-40.0552044378542
5969734	-0.525649967627187	-0.0509897298645542	0.52811726067051	174.459460673148
5091109	-0.123927070324482	-0.24149638383821	0.271437694814374	117.165228146113
4341796	7.35691847436331	-8.54306462110706	11.274227359728	49.2663890791646
3702781	5.08375437277109	-6.24889097702227	8.0556313821686	50.8700922181579
3157797	6.32497262503814	-8.22318754558299	10.3742995964698	52.4338430100966
2693047	1.23812347717971	-9.26514695537894	9.34750757418849	82.3885234466162
2296687	-1.87343482200297	-12.7448979429996	12.8818547426126	98.362300295966
1958656	0.0942507940461027	-14.841681404307	14.8419806669841	89.6361530761236
1670375	14.7675986183789	-5.25253840909042	15.6738996006902	19.5794518203096
1424531	1.3429534420397	-13.9876839428453	14.0520043421719	84.5158584441575
1214875	9.11867418043745	0.636864606452182	9.14088701034687	-3.99515277248253
1036062	4.06453028011697	-12.3495431607343	13.0012161999109	71.7823871093905
883578.1	1.01082870627736	-9.21055460837621	9.26585618641443	83.7370369132361
753531.2	1.2946011791572	-6.85805772371166	6.97917960471261	79.3100212133783
642624.9	7.93298433746398	-1.63315631944532	8.09934812575635	11.6329053539899
548046.8	2.71189169335309	1.26229846875009	2.99127965604794	-24.9604651673721
467390.6	3.11569135207777	0.25941932052931	3.12647261067102	-4.75959420866166
398593.7	2.76273543454601	-0.473723914254782	2.80305573049003	9.72983749661876
339937.5	3.30752902430245	0.236304150727879	3.31595957427927	-4.08651433066291
289906.2	2.13958380096238	2.59288193030356	3.36167451515392	-50.4713708885263
247234.4	-1.37042828576725	-1.0880417920494	1.7498310283216	141.552431850723
210843.7	-1.38788120736107	-1.35546023372666	1.93997079641947	135.677093436333
179812.5	-1.61152749618589	-1.94408697540241	2.52517227905195	129.656624812437
153343.8	-1.84226624100665	-2.4617380349989	3.07475186896651	126.809712119991
130781.2	-2.22945928075189	-2.74645676241941	3.53744447763778	129.068254452617
111531.3	-2.36071294700723	-2.89557453957047	3.73594934820807	129.189778800964
95109.37	-2.7212557868476	-3.74650238924275	4.63049816003129	125.992617008355
81109.37	0.694353333593267	11.0905000417607	11.1122147985074	-86.4175053661967
69171.88	-4.64554557584546	33.4492415756008	33.7702954633233	-97.9068561446165
59000	9.25671197468542	14.1882974640855	16.940912062568	-56.8788152072538
50312.5	43.6404685099816	-1.31388191247581	43.6602425262461	1.72448092333342
42906.25	46.8602174382057	-0.176095153055676	46.8605483094132	0.21530974718415
36593.75	52.3844220256805	1.7180247094751	52.412587036579	-1.87842666147594
31203.13	56.578021569335	2.38699986302241	56.6283523779936	-2.41584904119495
26609.38	59.8820016678442	3.4548734097407	59.9815827902618	-3.30200160996255
22703.13	62.8827255704665	4.77717081557525	63.0639242052997	-4.34438831030641
19359.37	65.382791667468	6.2793598367739	65.6836342340405	-5.48585832103564
16500	66.9931668585874	8.85632418435762	67.5760229948535	-7.53068796903583
14112.02	68.9493228224876	10.4105297724692	69.7308270983722	-8.58612779386837
12011.13	70.1353472515354	13.3208948209783	71.3891670558287	-10.7541657131757
10236.38	70.8298479633624	17.1000484719959	72.8647995966341	-13.5728716933674
8750.684	86.4937871504212	29.9031719194442	91.5170743985307	-19.0716106785954
7449.463	98.6161827481691	170.901547897557	197.313178915148	-60.0135475185059
6363.206	123.444188631077	98.1805216495575	157.727240951474	-38.4967535055204
5414.761	118.161915446912	259.084444849372	284.757770438298	-65.4834609970608
4620.567	108.78525409244	214.60626225567	240.603572931297	-63.1192652470125
3941.215	145.951488030613	155.108564027174	212.980054213821	-46.7421776760922
3361.769	292.526263712818	862.570393526325	910.823417985034	-71.2664959106548
2867.244	180.443048225797	436.492947298398	472.319581104001	-67.5401502984624
2442.658	378.414916711741	1104.04853893672	1167.09940687084	-71.0807429934733
2083.003	507.255181166461	850.143688775795	989.975813030568	-59.1767426587173
1777.843	370.411824042422	698.036804435046	790.228004905119	-62.0474330996613
1513.548	417.081459117041	1026.54530333369	1108.03980223441	-67.8882794547839
1292.065	533.225411403784	1281.60613454162	1388.10792932735	-67.4097451042907
1101.762	618.886586415044	1257.83867525433	1401.84832981676	-63.8017152767928
939.101	731.779743502708	1481.80108313451	1652.64516547851	-63.7177769598062
801.2801	874.076767777602	1772.51759372328	1976.31698267943	-63.7508366245852
684.3433	1081.36919844423	2125.4349484208	2384.70817151962	-63.0341237186561
582.9476	1292.46789464565	2516.69164459139	2829.17127311972	-62.8168581227424
497.0677	1603.83914059255	3012.55063588614	3412.88167428562	-61.969797318421
423.5089	2009.45618407441	3702.75470329706	4212.87390607688	-61.5116602654344
361.5036	2415.62731269998	4467.24814547774	5078.53928872628	-61.5980623009402
308.1262	3127.37153151576	5562.36353700848	6381.24915780419	-60.653655967226
262.7298	4354.58239155848	7251.78721270176	8458.77092627386	-59.0158561098446
224.2111	6047.45152150707	9616.10193166095	11359.6252695708	-57.8347036151824
191.2854	8937.07263436871	13674.6176309967	16336.0470930378	-56.8332994400086
163.1722	13762.0174557864	20532.1323652957	24717.6371022675	-56.1673448651501
139.1537	24921.5963244889	34061.3452017893	42204.9902300218	-53.8082598986344
118.6706	38231.8507365012	53903.2879398213	66085.0880415649	-54.6531606520681
101.1982	57451.687506588	99829.0860365878	115180.479319436	-60.0795522565049
86.24196	97237.2861084038	165524.40734826	191972.443954127	-59.5679009454531
73.61024	83573.6487958821	207263.139602679	223478.329622845	-68.0394830169189
62.69291	104128.901598876	212541.48701822	236678.498922282	-63.8987170315085
53.57697	149963.914974273	304719.945884316	339622.468653285	-63.7965013608571
45.65746	161688.544061944	333629.437492239	370744.9080463	-64.1435418973679
38.96512	179810.615839553	376875.684927923	417572.915139968	-64.4937909975313
33.18414	175494.939468991	504269.234440038	533934.391645609	-70.8111663508643
28.30617	194207.251221734	566775.924431778	599125.533542511	-71.08584231785
24.17237	212937.511967505	638646.967922199	673210.467565032	-71.5605951468954
20.61345	314420.833007106	763087.779203793	825326.250036348	-67.6064988111386
17.55618	209911.969794647	930764.920940716	954141.694465159	-77.2909179433373
14.98558	299858.749997278	863703.905530611	914275.509011786	-70.8541381854991
12.76553	344582.537278392	1020219.295498	1076840.06978922	-71.337428085692
10.8809	357209.688822142	971746.563592809	1035321.27653345	-69.8167980974147
9.278505	399650.87423359	1121399.67162261	1190486.47400588	-70.3846565681689
7.923394	463356.756245777	1312213.96973283	1391619.55502235	-70.5513299907725
6.75822	463071.831509777	2944495.04537291	2980685.59116245	-81.0624699255655
5.761429	454897.085996778	995953.023383392	1094921.81622017	-65.4516618394311
4.919708	579894.647607185	3999219.78317873	4041044.00823495	-81.7495036177068
4.191257	716831.994364228	1451098.00277445	1618497.30361227	-63.7109587620441
3.564097	1052022.42210563	2840009.93302417	3028598.28902562	-69.6739024233091
3.051758	589540.228338138	3403251.21450071	3453936.37894932	-80.1722653992707
2.604164	1248222.62476901	2339346.86376088	2651528.51577597	-61.9166268350329
2.214424	1351839.00767358	2606238.56771175	2935974.82524903	-62.5845237368169
1.892567	1579256.91164244	3282270.66082544	3642437.7940997	-64.3055743618309
1.607507	1884663.17975579	5379377.09596678	5699969.58252755	-70.6921057210361
1.376413	1376651.17232676	7222945.79832558	7352966.37118774	-79.2091806414353
1.17375	2626064.04241212	4557391.25236108	5259850.50946766	-60.0485552397884
1.001604	2886490.36530962	5192320.8462938	5940708.91391612	-60.9296497371405
