EC-Lab ASCII FILE
freq/Hz	Re(Z)/Ohm	-Im(Z)/Ohm	|Z|/Ohm	Phase(Z)/deg
6999984	3.38559193941624	4.86957143537275	5.9308480628354	-55.1908643540646
5969734	14.3262046368337	35.2772848675	38.0752802605467	-67.8977905541831
5091109	16.1570596515733	78.3973176459305	80.0449248276331	-78.3548432731157
4341796	14.3033811484069	82.3241692318338	83.557498478522	-80.1435602137346
3702781	15.4758115500116	89.8127477190651	91.1363286290374	-80.2232586430374
3157797	16.1389810363529	97.7039093827809	99.0278779817604	-80.620432986622
2693047	16.0359356151265	108.556330329309	109.734352349748	-81.5970395484225
2296687	16.6155673375658	123.484704452883	124.597549381058	-82.3365561745979
1958656	18.4297524781021	140.751724309982	141.953174225296	-82.5402426707669
1670375	19.4733261071583	161.731642007282	162.899768127666	-83.134342608538
1424531	22.1127263957137	186.619069763512	187.924585587012	-83.2424597444792
1214875	25.0542421089608	214.975331110711	216.430376873983	-83.3524676411443
1036062	28.3829905022675	248.612708024721	250.227641840858	-83.4869981314411
883578.1	32.5289123875204	287.470623032128	289.305183582311	-83.5441220236156
753531.2	37.3540703324816	333.292066860213	335.378783470805	-83.6051993245765
642624.9	43.4808543386356	386.968929677128	389.404079626138	-83.5889846189743
548046.8	51.9018388505513	447.498201924322	450.497992894052	-83.3842667987741
467390.6	61.1769906503229	520.724268539689	524.305624641987	-83.2993544535357
398593.7	193.562336102007	697.653591510029	724.007535668041	-74.4934515086111
339937.5	224.033371336421	787.497422317288	818.744857467048	-74.1195965472882
289906.2	254.544500625311	889.418431829454	925.125964221389	-74.0292983987756
247234.4	288.238055945099	1008.46413147556	1048.8475014833	-74.0490654427076
210843.7	324.823223082181	1144.47406292177	1189.67684980172	-74.1550626348068
179812.5	364.658742977722	1305.15398409097	1355.13944707495	-74.3896888519129
153343.8	410.65334543518	1490.50298973907	1546.03859348278	-74.5964120243961
130781.2	465.554484369282	1704.486132048	1766.92216927071	-74.723150288679
111531.3	531.673480799273	1951.34282520733	2022.4775676564	-74.7588455593157
95109.37	607.995877447042	2233.09806488558	2314.38673397259	-74.7695025743051
81109.37	695.026000342261	2562.84753466602	2655.41872914526	-74.8267410580387
69171.88	807.425196370501	2930.82786781512	3040.01438129751	-74.5974433484273
59000	929.812111510423	3349.42142550548	3476.08608183782	-74.4851436205817
50312.5	1010.65223010763	3848.50528503491	3978.99621250928	-75.285852139277
42906.25	1343.17118344712	4470.16261564706	4667.59709469137	-73.275801602399
36593.75	2574.76076449227	5255.44275603175	5852.27063252337	-63.8987170315085
31203.13	2875.62666815107	5860.96008571628	6528.40576717938	-63.8655427751704
26609.38	3231.14627620191	6576.82882125872	7327.68610151614	-63.835462490926
22703.13	3647.95349220387	7390.97446531481	8242.21258086795	-63.7304966228581
19359.37	4167.07335278401	8301.04648759854	9288.26534487224	-63.3436355195857
16500	4785.27167205496	9326.75441205142	10482.7082778303	-62.839031589414
14112.02	5523.10776697719	10432.5092678825	11804.31993086	-62.1026662311119
12011.13	6435.54651011016	11672.0883257043	13328.687285957	-61.1293255287436
10236.38	7493.68940402982	13012.0481462607	15015.6177976358	-60.0621916353125
8750.684	8764.96960601671	14295.2801547397	16768.4145612187	-58.4859847409076
7449.463	10359.6261587237	15848.7787751696	18934.245240114	-56.8291798734616
6363.206	12111.7400352775	17241.7622173674	21070.6575844794	-54.9132892206355
5414.761	14215.3753343392	18765.1360549488	23541.6062972958	-52.8545487303273
4620.567	16550.4710283114	20095.9137091462	26033.8978845739	-50.5260196030259
3941.215	19203.6966604589	21224.9012466036	28623.0396421308	-47.8620867120328
3361.769	22126.7272932308	22199.2951117881	31343.2730289813	-45.0938010178126
2867.244	26219.6442163742	22494.3662637161	34546.5809659864	-40.6269647511932
2442.658	32342.0790927003	21694.260738928	38944.2040494741	-33.8527243111788
2083.003	35263.4450660825	20672.9410849645	40876.4119148321	-30.3806573684655
1777.843	37860.1199226768	20425.2528689839	43018.3639312493	-28.3465311450362
1513.548	40267.2170574583	19822.9728450755	44882.0567929887	-26.2103611382941
1292.065	42598.4902168619	19097.5321386984	46683.4778325769	-24.1473979490358
1101.762	44870.1667799126	18541.8898754719	48550.319741597	-22.452090317757
939.101	46875.654523454	17615.3062931001	50076.2019606315	-20.5956153882859
801.2801	48636.6021823025	16870.4809958856	51479.4347373016	-19.130023725809
684.3433	50134.4239394751	16094.8592789696	52654.5815570957	-17.7984010549896
582.9476	51558.5629196577	15449.4355774629	53823.5122414218	-16.6807552023397
497.0677	52774.882581497	14892.3257465651	54835.8422715709	-15.7583160704908
423.5089	54054.2092160257	14468.5059998004	55957.0835537034	-14.9848918019996
361.5036	55063.175469959	14319.54960901	56894.6640190483	-14.5772609786538
308.1262	55958.7210597917	14030.833233354	57690.9242764385	-14.0758942600246
262.7298	56972.9180030495	14114.8954564464	58695.3461488099	-13.9147097730984
224.2111	57844.7352133832	14336.8598464201	59594.9573551514	-13.920284652445
191.2854	58619.301926601	14735.3297036628	60442.9689859595	-14.1102774573104
163.1722	59465.1646435	15351.4193514989	61414.7529685184	-14.4753260573221
139.1537	60457.9774767947	15963.3043362907	62529.9458333178	-14.7908023488991
118.6706	61219.1408635558	16822.9894249363	63488.5515763544	-15.3655706906625
101.1982	62010.8111324372	17975.6853581024	64563.6582095244	-16.1658093839658
86.24196	62876.0743858529	19237.4622604931	65753.1800325977	-17.0119305375032
73.61024	63666.6564611285	20790.199999923	66975.1861585778	-18.0843299130716
62.69291	64631.3592884702	22519.1659316954	68442.13203674	-19.2096018339747
53.57697	65538.4772290055	24725.1757035382	70047.314802694	-20.6695842396373
45.65746	66637.9312645818	27272.725285066	72002.8848567737	-22.2576800082912
38.96512	67589.3752824453	30009.2348221084	73951.8615430313	-23.9409039596706
33.18414	68746.5123968582	33226.2855459673	76354.8886314002	-25.7952188382541
28.30617	69904.1832276685	37013.5446807789	79098.6556305697	-27.9007585212685
24.17237	71441.4132537649	41407.5356991538	82573.9640587268	-30.0966364598413
20.61345	73035.2992402691	46319.8974135945	86485.1885094873	-32.3833797751438
17.55618	75786.0651912903	53753.5474426047	92913.7855210025	-35.3473190972453
14.98558	64724.8988571078	59933.8552871178	88212.1280870154	-42.7990191046444
12.76553	69417.0693548682	57856.218206756	90366.3184101596	-39.8097894254658
10.8809	47574.6490060028	32297.3390738279	57501.8724851128	-34.1716841861502
9.278505	46257.7571096422	37598.5865756461	59610.6853282279	-39.1044210838802
7.923394	45603.9533671402	44165.4140759474	63484.6781768026	-44.0819231741439
6.75822	44612.5598270757	52451.0272354607	68857.7573870908	-49.6169590356934
5.761429	44083.4385428427	62292.3470749482	76313.0792057718	-54.7134816487395
4.919708	28869.1309935153	149363.031701763	152127.387289281	-79.0606699809374
4.191257	27669.01504071	165488.837988968	167785.964527018	-80.5081905545559
3.564097	27675.9231643639	155503.177709983	157946.810670245	-79.9083610388334
3.051758	32766.3394874095	182969.706772402	185880.463200904	-79.8470545547545
2.604164	40632.7874776362	193833.359053529	198046.445310632	-78.1606678763459
2.214424	46420.1914086876	196528.761102324	201936.594283537	-76.7102825137517
1.892567	62184.9745068866	183856.974902287	194088.532053397	-71.3131919709579
1.607507	72278.5796654774	200640.514161337	213262.300938033	-70.1889914811317
1.376413	83627.149429796	217796.160276423	233299.523259064	-68.994718252961
1.17375	95771.8968947449	235375.777039841	254114.172473569	-67.8591159030117
1.001604	114127.016536429	248054.783821978	273049.723824205	-65.2934108964159
