EC-Lab ASCII FILE
freq/Hz	Re(Z)/Ohm	-Im(Z)/Ohm	|Z|/Ohm	Phase(Z)/deg
6999984	7.48670662755872	5.59981628399484	9.34926299456943	-36.7953094962558
5969734	6.62916939431653	1.99609884457217	6.92317105493179	-16.7574914398415
5091109	4.46590030869156	-0.0270831547383599	4.46598242992983	0.347462176152176
4341796	3.48265895687516	-1.05628414510863	3.63931993717379	16.8724554214345
3702781	2.10014356821186	-1.15630115267861	2.39742265001137	28.8363871415613
3157797	1.57798135160283	-1.16589558443793	1.96197289986843	36.4589374338904
2693047	1.20046961857719	-1.05774883467655	1.5999874694467	41.3836815703784
2296687	0.917353740280072	-0.906905249438546	1.28996706014729	44.6718405200106
1958656	0.746059026376549	-0.764592074838636	1.06827202141775	45.7028838019264
1670375	0.62570777002713	-0.638357359046317	0.893873778181748	45.5733437740253
1424531	0.555923960223064	-0.545172116290699	0.778629620507064	44.4405431876942
1214875	0.501330690448711	-0.464825140648996	0.683662835442399	42.8361467697689
1036062	0.460101244229344	-0.401945721483418	0.610944774885763	41.1405526595926
883578.1	0.437766598546046	-0.342393830063573	0.555763555541543	38.0303085645044
753531.2	0.422023858457381	-0.291684010162312	0.513014326205052	34.6504935563851
642624.9	0.409510284681384	-0.248518293839663	0.479019848892304	31.2521834706391
548046.8	0.399694301596909	-0.212372115201112	0.45261180943943	27.9833331987028
467390.6	0.391274144934986	-0.181690004453669	0.431400874144894	24.9080223403837
398593.7	0.384818170575448	-0.155248638962882	0.414954412321235	21.9708114994251
339937.5	0.380366213645303	-0.131974028080855	0.402610979197973	19.1350199177825
289906.2	0.376469777018162	-0.111886649070119	0.392744338276498	16.5519256421045
247234.4	0.373807838949106	-0.0937342939041638	0.385380874348369	14.0769656911015
210843.7	0.372764938859951	-0.0779714295438263	0.380832303604055	11.8142522257267
179812.5	0.372701915951635	-0.0645873582098324	0.378256850558645	9.83142864327341
153343.8	0.374755740936114	-0.0529398284609664	0.378476539302045	8.04067770248177
130781.2	0.377158313154282	-0.0451705736663562	0.379853621684368	6.82953086724448
111531.3	0.377738318154144	-0.0387705934167254	0.379722788249278	5.86024670606577
95109.37	0.377893228547742	-0.0333256234457561	0.379359841522906	5.03975853836694
81109.37	0.37772275781299	-0.0286740302000589	0.378809558720163	4.34116255791983
69171.88	0.377490377892751	-0.0246056074411885	0.378291450232703	3.72938228850653
59000	0.377273931550318	-0.0209368108473491	0.37785442894836	3.1763703001398
50312.5	0.37708755517067	-0.0178479826902378	0.3775097015319	2.70985202052602
42906.25	0.37707891233663	-0.0148235081403045	0.377370166444781	2.25121935904662
36593.75	0.37705248489988	-0.0123841806706717	0.377255807510047	1.88118717213288
31203.13	0.377250610841469	-0.0102052046089431	0.377388618775622	1.54956034622675
26609.38	0.377479928516869	-0.00842564483675479	0.377573950272017	1.27867392209802
22703.13	0.377695058325513	-0.00702486908791831	0.377760381550547	1.06553935188731
19359.37	0.377929597944828	-0.00590129466695976	0.377975668901433	0.894589372300896
16500	0.378151582798724	-0.00494133836590329	0.378183865861603	0.748646135682968
14112.02	0.378221384440088	-0.00413432862477598	0.378243979887261	0.626273809798927
12011.13	0.378274591898278	-0.00353978965402277	0.378291153725016	0.536142506596251
10236.38	0.378272383240172	-0.00286432679746216	0.378283227608894	0.433842668444808
8750.684	0.378376647063298	-0.00236846177137542	0.378384059725071	0.358640238960502
7449.463	0.378493946138731	-0.00188820387111585	0.378498655978496	0.28583076770756
6363.206	0.3785686949584	-0.00162700627607387	0.378572191202588	0.246243337472806
5414.761	0.378622702015083	-0.00126626442767503	0.378624819454302	0.19161908827108
4620.567	0.378567979299061	-0.00109012130920033	0.378569548848085	0.1649880099534
3941.215	0.378686167099718	-0.000789213788437722	0.378686989492747	0.119409045463404
3361.769	0.378772857708279	-0.000635428805875424	0.378773390705134	0.0961192278238084
2867.244	0.378820610082234	-0.000417683985730714	0.37882084034935	0.0631737535333294
2442.658	0.378862505138325	-0.000272126262429902	0.378862602868626	0.0411539369536868
2083.003	0.378899722272799	-0.00018427509059824	0.378899767083213	0.0278653783774192
1777.843	0.378974054620967	-0.000126157397753606	0.378974075619355	0.0190733009040911
1513.548	0.379088348520969	-3.96967672841598E-05	0.37908835059942	0.00599980776580373
1292.065	0.37914175813157	-9.80802215130931E-05	0.379141770817762	0.0148218509318172
1101.762	0.379183881480465	5.78444636501655E-05	0.379183885892549	-0.00874046543514276
939.101	0.379241384116049	0.000121325390779936	0.379241403523016	-0.0183298365987072
801.2801	0.3792653180251	-5.58774251946587E-05	0.37926532214133	0.00844142730270808
684.3433	0.379299390901006	0.000130760208218497	0.379299413440235	-0.0197522272434313
582.9476	0.379305844208118	0.00014250748820927	0.379305870978577	-0.0215263681377421
497.0677	0.379357609601178	0.000142927159113732	0.379357636525868	-0.0215868151851284
423.5089	0.37943681258666	0.000127311110475836	0.379436833944786	-0.0192242523647962
361.5036	0.379441001316142	8.68381101952868E-05	0.37944101125294	-0.013112597507805
308.1262	0.379461587064135	7.48011765881006E-05	0.379461594436708	-0.0112944018886266
262.7298	0.379425743408521	9.76720046810912E-05	0.379425755979914	-0.0147491139397254
224.2111	0.379518969062416	9.43118699735771E-05	0.37951898078084	-0.0142382132033852
191.2854	0.37942184140102	5.68955955787956E-05	0.379421845666864	-0.00859169694363704
163.1722	0.379520071007381	8.38204626775118E-05	0.379520080263637	-0.0126542942970578
139.1537	0.37950764812439	0.000129923765297406	0.379507670363974	-0.0196151069839006
118.6706	0.379509250561109	0.000106429539066537	0.379509265484653	-0.0160680226770709
101.1982	0.379528056951829	4.21950186784176E-05	0.3795280592974	-0.00637000725639366
86.24196	0.379483240838903	8.97362138921729E-05	0.379483251448842	-0.0135487043335688
73.61024	0.379523579174033	3.83432293820516E-05	0.379523581110939	-0.00578858687462876
62.69291	0.379511817741294	8.04770002055794E-05	0.379511826274029	-0.0121497992288672
53.57697	0.379511838942005	4.61699304572873E-05	0.379511841750432	-0.00697038108202149
45.65746	0.379536018222367	2.31316728198844E-05	0.379536018927273	-0.00349201962497091
38.96512	0.37951208475639	3.55122096495456E-05	0.379512086417888	-0.00536135688398489
33.18414	0.379510086111358	7.01466716632037E-05	0.379510092594131	-0.0105902539471447
28.30617	0.379452316345105	-1.42730988860527E-05	0.379452316613546	0.00215518074638459
24.17237	0.379616544830751	-2.00021893700807E-05	0.379616545357713	0.00301894384339186
20.61345	0.379580594853796	2.55671178891739E-05	0.379580595714848	-0.00385922770291246
17.55618	0.379521523120942	1.71898846857401E-05	0.379521523510238	-0.00259513040008036
14.98558	0.379603846952771	4.92163982408907E-05	0.379603850143274	-0.00742851240543015
12.76553	0.379531786368213	-3.76891422922513E-05	0.37953178823956	0.00568971785045878
10.8809	0.379570547917898	1.06876590174803E-05	0.379570548068365	-0.00161329101473694
9.278505	0.379573409122637	3.49834478783221E-05	0.379573410734765	-0.00528067525910575
7.923394	0.379526414434769	2.33454288341558E-05	0.379526415152781	-0.00352437798940872
6.75822	0.379537517210051	-4.22469662561749E-06	0.379537517233564	0.000637769062042637
5.761429	0.379576804786479	4.27784958689542E-05	0.379576807197058	-0.00645726299901413
4.919708	0.379542558178811	-3.39970920612756E-05	0.379542559701436	0.0051322041326957
4.191257	0.379599113966238	2.88762678275877E-06	0.379599113977221	-0.000435851458474536
3.564097	0.379553375597249	-5.97251148365427E-07	0.379553375597719	9.01585186979444E-05
3.051758	0.379645448073994	-2.25200137238088E-05	0.379645448741921	0.00339870198887795
2.604164	0.379558031913389	-2.22614467432665E-06	0.379558031919917	0.000336045304534841
2.214424	0.37956416749181	2.85240726411886E-05	0.379564168563595	-0.00430575147434956
1.892567	0.379529342893737	2.44540737586562E-05	0.379529343681557	-0.00369171776192801
1.607507	0.379553861163005	6.42498148729991E-06	0.379553861217385	-0.000969886912779194
1.376413	0.379561099726207	-1.35741639017352E-06	0.379561099728634	0.000204905693061267
1.17375	0.379571808770917	-4.18096069947221E-06	0.379571808793943	0.000631109573589831
1.001604	0.379560614871312	2.28860096356524E-05	0.37956061556128	-0.00345470975926758
