EC-Lab ASCII FILE
freq/Hz	Re(Z)/Ohm	-Im(Z)/Ohm	|Z|/Ohm	Phase(Z)/deg
6999984	10.8472015929959	-1.32655049032119	10.9280153093992	6.97232340894699
5969734	7.29021793007347	-1.30005344258214	7.4052289918364	10.111181016324
5091109	5.06584493736383	-1.01224303298082	5.16598692286701	11.2998621764142
4341796	3.96481295697612	-0.824408925584602	4.04961626088069	11.746213487555
3702781	3.36291150445119	-0.537276868329019	3.40556019180569	9.07716981302934
3157797	2.83537166911548	0.974808730931668	2.99826359146812	-18.9731135040345
2693047	2.79261323265911	0.771856614592048	2.89731794953751	-15.4503856330757
2296687	2.75484821252334	0.631734668000849	2.82635407633176	-12.915614617839
1958656	2.7424468307112	0.52142109187934	2.79157564367053	-10.7651493141084
1670375	2.73627898883716	0.426420629807581	2.76930627744156	-8.85770405918243
1424531	2.72752059577249	0.344857482810654	2.74923539985459	-7.2060271640029
1214875	2.72719375964017	0.265516848857275	2.74008850215597	-5.56073416457672
1036062	2.72418384146556	0.197520764373525	2.73133521459025	-4.14705362425422
883578.1	2.7110916947834	0.154419870353966	2.71548590014452	-3.25996255061821
753531.2	2.68817871873742	0.133256201982875	2.69147952606733	-2.83789662858186
642624.9	2.67620984955455	0.114901389318324	2.67867532338656	-2.45844845326293
548046.8	2.66922616420131	0.0949812030781749	2.67091552554457	-2.03794154938713
467390.6	2.66513737914436	0.0803808895554578	2.66634925265206	-1.72752447514115
398593.7	2.66220308950043	0.0685324664656019	2.66308505097105	-1.47462606099056
339937.5	2.65672247733513	0.0582257872222909	2.65736045049884	-1.25551611393443
289906.2	2.65452529272907	0.0487463055104904	2.65497283075351	-1.05203129890931
247234.4	2.65096290292059	0.0406716390972229	2.65127488105025	-0.878975126467991
210843.7	2.64913208134076	0.0341031808097192	2.649351583186	-0.737547370233489
179812.5	2.64724768499277	0.0288086717934058	2.64740443553116	-0.623496683365928
153343.8	2.64510209721303	0.0243571561972149	2.64521424004536	-0.527587501869814
130781.2	2.64389329497402	0.020872881912364	2.64397568680347	-0.452326573394626
111531.3	2.64344960603329	0.0176152704812247	2.643508297205	-0.381798734673453
95109.37	2.64261990305431	0.0152870025782983	2.64266411873825	-0.331440385439595
81109.37	2.64206044496346	0.0136723304115788	2.64209582102153	-0.296495804106125
69171.88	2.64148244896487	0.0115092601612093	2.64150752246874	-0.249643097141774
59000	2.64137106478065	0.0102315683990124	2.64139088111782	-0.221938811578034
50312.5	2.64165584035933	0.00969234216997836	2.6416736210973	-0.210219590132207
42906.25	2.64223822161977	0.00870198146332891	2.64225255118994	-0.188697977544165
36593.75	2.64266521110627	0.00846363202788276	2.64267876425767	-0.18349987524362
31203.13	2.64257424927755	0.00769865448145295	2.64258546356132	-0.166920252821699
26609.38	2.64300842739546	0.00721046996832729	2.64301826292604	-0.156309933892569
22703.13	2.64393479010855	0.00634166954312557	2.64394239557501	-0.137427823275135
19359.37	2.64345215630626	0.0053029148853918	2.64345747527485	-0.114938427675337
16500	2.64446564238262	0.00502028076217762	2.64447040765463	-0.108770766193872
14112.02	2.64437359423676	0.00488874894198605	2.64437811323624	-0.105924655642339
12011.13	2.64469948537248	0.00439408760782126	2.6447031356913	-0.0951951041960419
10236.38	2.6451003059137	0.00338322532653917	2.64510246957625	-0.0732843386735465
8750.684	2.64501815595137	0.00235572679505936	2.64501920498909	-0.0510292025978657
7449.463	2.64482618374849	0.00242609365571907	2.64482729647364	-0.0525572867670575
6363.206	2.64526886517546	0.00172619054703569	2.64526942839486	-0.0373887963691862
5414.761	2.64506797164164	0.00142019452842294	2.64506835290828	-0.0307633473389893
4620.567	2.64580545189889	0.00147994175250739	2.6458058658045	-0.0320486177241827
3941.215	2.64545383576039	0.00137450836131119	2.64545419283959	-0.0297693801559964
3361.769	2.64513567756271	0.000820159787929597	2.64513580471348	-0.0177653242014767
2867.244	2.64513773188307	0.000888144439407843	2.64513788098694	-0.0192379116786321
2442.658	2.64515472209694	0.0012974447920222	2.64515504029437	-0.0281034996370756
2083.003	2.64477005705572	0.000832373961304466	2.64477018803996	-0.0180323855593651
1777.843	2.64476207670515	0.00105000921314596	2.64476228513965	-0.0227472609850746
1513.548	2.64520044309082	0.000637886131415599	2.64520052000346	-0.0138167912859105
1292.065	2.64523172720733	0.000781970728863117	2.64523184278855	-0.0169375033199157
1101.762	2.64517123091047	0.000580205357466179	2.64517129454307	-0.012567548486875
939.101	2.64501489909407	0.000685173403336324	2.64501498783886	-0.0148420878011412
801.2801	2.64507845797204	0.000524121509783204	2.6450785098993	-0.0113531415217834
684.3433	2.64527527876405	0.00116364132758924	2.64527553470359	-0.0252040810922837
582.9476	2.64488029736175	0.000485963170129052	2.64488034200653	-0.0105273718291291
497.0677	2.64506452273544	0.000601335856126381	2.64506459109007	-0.0130257714835309
423.5089	2.64542164450841	0.000988524010889036	2.64542182920102	-0.0214099144658818
361.5036	2.64526408276371	0.00036314555893282	2.64526410769027	-0.00786564482564726
308.1262	2.64532718590191	0.000816813308580352	2.64532731200804	-0.0176915558853536
262.7298	2.6461347507406	0.000443230221028976	2.64613478786135	-0.0095971003642208
224.2111	2.64632792378796	0.000318952908683663	2.64632794300912	-0.00690566549906147
191.2854	2.64655478623976	0.000290964351615321	2.64655480223419	-0.00629914383629188
163.1722	2.64640001036168	0.000517373855017171	2.64640006093523	-0.0112013821905871
139.1537	2.64632717911524	0.000432441885475537	2.64632721444836	-0.00936282365136976
118.6706	2.64657080838413	0.000377956250400604	2.64657083537206	-0.00818239881310738
101.1982	2.6462687101658	0.000444538216742439	2.64626874750408	-0.00962493465390826
86.24196	2.64635645649991	0.000303703278079316	2.64635647392683	-0.00657542408510396
73.61024	2.64637716654979	6.2652900038457E-05	2.64637716729144	-0.00135647586109884
62.69291	2.64653424335072	0.000293564959573736	2.64653425963246	-0.006355494235443
53.57697	2.64647117868151	0.000312875351497639	2.64647119717613	-0.00677371331884284
45.65746	2.64653019860085	0.000394024681734745	2.64653022793274	-0.00853039618913599
38.96512	2.64641640178706	0.000314925405790712	2.64641642052523	-0.00681823786910246
33.18414	2.64637818798137	0.000242693284094096	2.64637819910979	-0.00525446473180969
28.30617	2.64661526757618	0.00030021509890377	2.64661528460342	-0.00649926653497517
24.17237	2.64657548446101	0.000175518530934596	2.64657549028112	-0.00379980510406385
20.61345	2.64655432753606	4.12902702754905E-05	2.64655432785815	-0.000893901249988944
17.55618	2.64646942950425	0.000151671783175682	2.64646943385048	-0.00328367784671647
14.98558	2.6464110577376	-2.12946826707495E-05	2.64641105782327	0.000461037766416015
12.76553	2.64646085996003	0.000219512893095316	2.64646086906387	-0.00475244598720961
10.8809	2.64648081794316	7.93918310109093E-05	2.646480819134	-0.00171881723552855
9.278505	2.64640815168232	-0.000150229869055674	2.6464081559464	0.00325253587167772
7.923394	2.64677317119239	4.18852913085429E-05	2.64677317152381	-0.000906708002625708
6.75822	2.64654323988823	0.000118215052485842	2.64654324252843	-0.0025592718364721
5.761429	2.64634554754432	0.000168460456433652	2.64634555290623	-0.00364732155421451
4.919708	2.6463335084694	9.48995308678592E-05	2.64633351017099	-0.00205467019813156
4.191257	2.64662092280093	0.00026237131039986	2.64662093580595	-0.00567998558935068
3.564097	2.64647421340078	0.000106633697454969	2.64647421554906	-0.00230860394701795
3.051758	2.64653355189695	-2.81418351291504E-05	2.64653355204658	0.000609252952578975
2.604164	2.64653691707634	8.57965188879729E-05	2.64653691846704	-0.0018574380715247
2.214424	2.64646153385275	0.000129000920702132	2.64646153699681	-0.00279286443771575
1.892567	2.64638686527338	0.000104989709203043	2.646386867356	-0.00227308686625559
1.607507	2.64643710937131	-5.35053743764775E-05	2.6464371099122	0.00115839976765975
1.376413	2.64630324711782	-3.69092880785367E-05	2.64630324737522	0.000799132311800921
1.17375	2.64627986884302	-4.25872435029345E-05	2.6462798691857	0.000922075303648912
1.001604	2.64634609242519	-0.000108473038339275	2.64634609464833	0.00234853910533857
