EC-Lab ASCII FILE
freq/Hz	Re(Z)/Ohm	-Im(Z)/Ohm	|Z|/Ohm	Phase(Z)/deg
6999984	-0.378319181125963	0.414116829459029	0.560908326956391	-132.413468539488
5969734	-0.662022702530847	-0.207654649112781	0.693825995451597	162.585082256401
5091109	-0.295268090907003	-0.424164001696453	0.516815582043551	124.842461530409
4341796	0.190069764836238	-0.424655639425394	0.465251467059152	65.887396242628
3702781	0.832572533766525	-0.742776569132624	1.11574820440583	41.7376319778984
3157797	1.5049985679951	-1.97013654848092	2.47920525760326	52.6235837135321
2693047	1.19688353847527	-4.58516366734183	4.73880323087852	75.3703061182793
2296687	-0.203261063791003	-4.47318377066786	4.47779947141671	92.6017253279412
1958656	-3.21771416658778	-7.15130246746439	7.84186275313602	114.225267107738
1670375	-7.81034098145385	-8.84035674011778	11.7963271207238	131.46018135995
1424531	-14.0471876299618	-9.97016027761344	17.2257823123553	144.634314534952
1214875	-1.34756156293405	1.70608239111116	2.17408355201837	-128.303699570795
1036062	2.25638228898644	2.66930830686169	3.49520641323693	-49.7919632646381
883578.1	2.2883735227641	1.88782837552143	2.96657198717841	-39.5214426854883
753531.2	2.16601872117789	1.14182103641527	2.44854903559098	-27.7960447546304
642624.9	1.24092721591612	5.59221621286367	5.7282442795866	-77.488645678437
548046.8	0.787236904121627	6.80206696391599	6.84747084147193	-83.3982469689753
467390.6	0.571984106809397	7.6928294725951	7.71406450017566	-85.7477177036888
398593.7	0.545057896850686	8.42917864975578	8.44678286807575	-86.3002209055334
339937.5	0.667280320343621	8.91410532550139	8.93904563027005	-85.7190125181527
289906.2	0.976629588936513	9.28293970847021	9.33417243171987	-83.9941803716909
247234.4	1.42260492461367	9.4392843612257	9.54588361670177	-81.4293920975672
210843.7	1.7661678875652	9.21686905358964	9.38456307763366	-79.1522859323788
179812.5	2.01654891331507	9.01813906359252	9.24084961949309	-77.3954254451692
153343.8	2.95939594554188	9.47058402051085	9.92219663441746	-72.6468658306839
130781.2	5.67487685619861	36.1048184831623	36.5480799090064	-81.0674546583831
111531.3	12.8949557678086	65.6733748473326	66.9273639708901	-78.8913036566967
95109.37	13.5899127034997	67.0496404825702	68.4130105764296	-78.542257767903
81109.37	14.2577988788489	70.8249181909081	72.2457878745781	-78.6178881968603
69171.88	14.6308342552613	84.1784031553089	85.4404170681689	-80.1400651711843
59000	17.8996804202041	152.642408533229	153.688332159506	-83.3117303419105
50312.5	20.8980353732072	79.3079223657146	82.0150866147566	-75.237838276045
42906.25	20.5999307375676	53.2478551340653	57.0937056318031	-68.85010370547
36593.75	20.3559769345891	39.3592343731616	44.3115687761446	-62.6527057144375
31203.13	19.9220112615391	30.2096375269447	36.187134899219	-56.5967939213345
26609.38	19.7416571718174	23.3889898025581	30.6068272101788	-49.8337032400134
22703.13	11.9956511539521	4.82670814319158	12.9303038675379	-21.9184488865281
19359.37	12.5195004557588	3.5554781047888	13.0145809081728	-15.8542922307532
16500	12.4003301030399	2.59278798682745	12.6684938413765	-11.8098461802822
14112.02	12.7219558014002	1.10223058692402	12.7696151735098	-4.95174248075232
12011.13	12.4086013406414	0.0635592980317348	12.4087641211901	-0.293477691624494
10236.38	11.078624226054	-0.127234175910989	11.0793548222643	0.657993326295164
8750.684	16.8030859908544	14.3048236478371	22.0674347945512	-40.4084558368642
7449.463	16.2260547345523	17.9503168630813	24.1970809754753	-47.8882307762247
6363.206	15.7667886956752	22.3911761449925	27.3853317476738	-54.8486366630329
5414.761	15.3914771993758	27.7068895214386	31.6949411946467	-60.9473541330101
4620.567	15.0453621857772	33.5176328924114	36.7395514127714	-65.8256886880925
3941.215	15.2409604006646	40.6545979028338	43.4175448934613	-69.4495321507359
3361.769	15.374759020379	48.5220267523363	50.899609969912	-72.4185994451038
2867.244	15.9797054753833	57.1122503498003	59.3056500436363	-74.3686613008316
2442.658	17.0001745929964	66.7213135624812	68.8530291250523	-75.7055437242103
2083.003	18.6800584297711	77.1956822166249	79.4236610578346	-76.3968745998152
1777.843	20.8569669313862	88.7529047539636	91.1706705681332	-76.7754278150581
1513.548	22.8749058663661	101.98722946263	104.521080609886	-77.3582404842652
1292.065	25.7903120932602	116.797246761953	119.610773131187	-77.5481759933511
1101.762	28.9572697227987	133.950732501905	137.044964181818	-77.8015952261374
939.101	29.9402704869182	155.086337281089	157.949966154139	-79.0731604608713
801.2801	30.2611832928359	178.960875591871	181.501333898382	-80.4024225455748
684.3433	35.7545774728995	205.712493558638	208.796599149456	-80.1400078754048
582.9476	38.4904077376788	238.945729199026	242.025975858516	-80.8491577384383
497.0677	41.2354519475764	277.207223742046	280.257394892791	-81.5391135153348
423.5089	44.7561875756965	321.519408559887	324.61954101226	-82.0752301242387
361.5036	49.2855827330596	373.839341466418	377.074159673376	-82.4896504974568
308.1262	56.5588029823015	434.098821799942	437.767844048519	-82.5767400823167
262.7298	58.535744082891	506.714713456777	510.084536296604	-83.4103936742321
224.2111	63.7760538390704	590.174509845198	593.61042537535	-83.8323770903459
191.2854	73.8292221081843	685.882606655653	689.844695674217	-83.8562694304029
163.1722	84.4634268719068	802.060587901065	806.495664677218	-83.9884507937395
139.1537	92.8557844332544	938.646937492509	943.228641405032	-84.3503882329237
118.6706	101.20517976712	1092.74227105473	1097.41886231354	-84.7086014464395
101.1982	123.353618436546	1276.15077276688	1282.09863505695	-84.4789026663715
86.24196	142.821845922107	1492.28289956991	1499.10184177772	-84.5330471780114
73.61024	167.332031947288	1739.7568093845	1747.78538863195	-84.5061181616402
62.69291	308.805867597996	2021.16863837972	2044.6231263078	-81.3131962567147
53.57697	363.564768278786	2347.39317682567	2375.38082575012	-81.1959690918309
45.65746	430.527432769948	2747.54659854854	2781.07284722338	-81.0944409705338
38.96512	521.975408831722	3195.87557855142	3238.22158614978	-80.7239091644227
33.18414	621.364715762233	3733.76816898468	3785.11807606018	-80.5515634596473
28.30617	719.905827168853	4364.78546299332	4423.7559311008	-80.6342412694847
24.17237	859.879530348744	5085.09690279372	5157.28642965611	-80.4021933624567
20.61345	1011.11672853152	5959.46104395633	6044.62843962715	-80.3705660921655
17.55618	1173.50950948969	6945.05882245078	7043.50527906129	-80.4092980391163
14.98558	1441.05114489216	8093.01154961723	8220.30804437601	-79.9036627849134
12.76553	1697.73365175358	9482.84111851187	9633.61693400957	-79.8497474563916
10.8809	1976.00563031255	11149.7265595524	11323.4712259013	-79.9501296620985
9.278505	42394.1889517288	59832.0102525252	73328.9622709416	-54.6803818769148
7.923394	48716.3559398184	70644.4910738765	85813.3291228239	-55.4099003895651
6.75822	56122.0959734078	82880.6073404359	100094.379110757	-55.8963472872091
5.761429	70846.196215115	132071.309056547	149873.327160174	-61.7898312749704
4.919708	79925.8906826368	152726.947803654	172376.531427085	-62.3757952120507
4.191257	90769.1361951159	176988.050621061	198906.526158019	-62.8487718719312
3.564097	103579.625762027	206771.038986421	231263.921605869	-63.3919358617153
3.051758	118900.564504508	239458.451985064	267353.126906296	-63.5937888929398
2.604164	136835.435506632	278741.063921532	310516.532774661	-63.8533387741341
2.214424	158058.124487292	325184.995661681	361562.791393041	-64.0776517509278
1.892567	182582.829389051	378371.846116962	420121.105779833	-64.2404290605245
1.607507	212180.732652951	441644.234803857	489969.686250719	-64.3388059139485
1.376413	246120.792712761	512551.471127426	568581.089344736	-64.3502650698511
1.17375	286616.560448223	595981.810387431	661319.416799363	-64.3164032641588
1.001604	334208.040823928	694735.752639882	770942.786818498	-64.3097569537353
