EC-Lab ASCII FILE
freq/Hz	Re(Z)/Ohm	-Im(Z)/Ohm	|Z|/Ohm	Phase(Z)/deg
6999984	4.32883951965787	11.0670378978973	11.8835255467578	-68.6371925887994
5969734	1.78924809721051	0.489153131105854	1.85490688150163	-15.2901751744012
5091109	3.96084634648157	33.1355019663276	33.3713918550146	-83.1835023873603
4341796	27.6555875602951	72.2351635607486	77.3482409493148	-69.0504097506478
3702781	33.2459961978394	76.5040787153551	83.4156479521199	-66.5119202393206
3157797	38.8790355866472	80.2527577264508	89.1744612030159	-64.1517924896178
2693047	45.1352208373124	85.3251286031815	96.5275387191781	-62.1220895003668
2296687	53.4927648039038	92.2124305929169	106.604916594964	-59.8818245214053
1958656	64.214789886828	97.9355976226001	117.11071907347	-56.7477912186633
1670375	76.6839448100354	103.343702006161	128.687016190317	-53.4235416575158
1424531	90.9875502428017	107.287436302159	140.674547404554	-49.6996311159528
1214875	106.281937721397	108.935539376972	152.193304797441	-45.7064132219444
1036062	121.818596240057	108.601022390837	163.199119036326	-41.7169367423383
883578.1	136.896852589159	106.540320128043	173.469271232123	-37.8919277978244
753531.2	151.362328174405	102.374302698429	182.732187212231	-34.0725567580146
642624.9	164.477041393775	96.9458436943422	190.921957237133	-30.5158925968503
548046.8	176.488921109916	90.3061209085918	198.251191038287	-27.0979873545107
467390.6	186.175336711078	83.2364981394085	203.935211824724	-24.0887786370159
398593.7	194.313918814425	76.5284414705184	208.840851843995	-21.4964654704142
339937.5	201.222952609136	69.2568967420973	212.807881440242	-18.9924336408863
289906.2	206.736441462419	62.8021553790956	216.064960020834	-16.8976712939982
247234.4	211.257711235144	57.2008273341097	218.864696111589	-15.1503276357657
210843.7	215.087260557076	52.6882683887615	221.446569808055	-13.7642625152529
179812.5	217.735611943576	47.8096418039469	222.922763660119	-12.3842764769465
153343.8	220.169017735462	44.4676119010888	224.614703166966	-11.4184415216945
130781.2	222.140981393043	41.52848023164	225.989447285961	-10.5890163583072
111531.3	224.62408297245	39.8587622977038	228.133074285863	-10.0621988544182
95109.37	227.500541899154	39.0906882554796	230.834526171229	-9.74974205042161
81109.37	230.555760865984	38.627552375077	233.76921668813	-9.51105929212601
69171.88	230.324507570875	38.0644887835799	233.448675503035	-9.38414341092658
59000	229.627198177437	39.0020457094101	232.915885487313	-9.63965966924312
50312.5	229.533878763452	43.6181324644682	233.641483859102	-10.7595801643397
42906.25	237.830833555286	40.8193355448266	241.308357799566	-9.73889022978183
36593.75	239.621933610756	42.2581062050425	243.319581224764	-10.0014595985564
31203.13	240.666410537663	44.7791907269225	244.796848597447	-10.5401144104928
26609.38	242.400635127144	48.1434257722262	247.13530171776	-11.2333876130231
22703.13	244.394739274809	52.3207562738729	249.932491129648	-12.0836512514193
19359.37	246.609665863852	57.48730377652	253.221478932919	-13.1219138015538
16500	249.421940549826	63.2099714306294	257.306830293916	-14.2208353934588
14112.02	251.912502314313	70.3380956843694	261.548000425853	-15.6006037078031
12011.13	256.548405801694	77.8502808371387	268.100262487399	-16.8805570446577
10236.38	257.88621345607	85.7780787895534	271.777809785009	-18.3981503566207
8750.684	262.872965740067	97.4575666462366	280.357224650238	-20.3417664371532
7449.463	267.978306268009	108.998563063483	289.297527435295	-22.1337377780485
6363.206	273.968320321365	123.749198445766	300.620200012706	-24.3082959570644
5414.761	273.585973784302	98.1093964703543	290.645383117094	-19.7281057202563
4620.567	291.349594093488	106.065198242293	310.055498671797	-20.0039276028323
3941.215	347.88491733099	217.342398403342	410.19706709106	-31.9952352464104
3361.769	416.040606112168	355.373514832399	547.156395355581	-40.5032860815363
2867.244	492.946278185435	458.219985740022	673.024210937808	-42.9091072154008
2442.658	559.262573738409	576.810084741961	803.420500264051	-45.8849067638615
2083.003	527.922692128691	679.968297621612	860.847985787757	-52.1744822049747
1777.843	496.017852784865	684.913268119637	845.659443941608	-54.0877429815212
1513.548	554.096944019662	811.995075234305	983.035821105565	-55.6907814894721
1292.065	615.175571539792	944.55065600384	1127.21645018896	-56.9242393012518
1101.762	654.838483362687	1105.41481670994	1284.81724626292	-59.3578546177582
939.101	761.4070685663	1340.1070539706	1541.30712064938	-60.3961114383147
801.2801	899.95106626092	1624.64327104737	1857.25003158531	-61.0162809557643
684.3433	1096.70276043149	1948.6043529546	2236.02680419794	-60.6285604157993
582.9476	1358.98070342311	2336.36025305885	2702.85178734417	-59.814903050934
497.0677	2095.15587282265	2829.22915880533	3520.54197027355	-53.478591442472
423.5089	2667.82982329757	3408.02101648033	4328.03918822919	-51.9458376672498
361.5036	3732.82013420628	4072.85208154041	5524.67829221248	-47.494350939962
308.1262	5690.70815288192	5266.03936571791	7753.40763036276	-42.7804037058806
262.7298	6574.72152339002	5907.55062631997	8838.89798066826	-41.9404819556865
224.2111	7703.80720148555	6587.30634164939	10136.1358631579	-40.5328105967193
191.2854	8667.51993987575	7385.72749488679	11387.4875427756	-40.434829084174
163.1722	9825.02426774427	8639.70283236837	13083.4080763919	-41.327004585284
139.1537	10954.1015699054	9521.43610903429	14513.7895389945	-40.9975595826618
118.6706	12129.5122992522	10771.0986941751	16221.6409680825	-41.6053188342688
101.1982	13593.4516162689	12234.5148456346	18288.3919564268	-41.9881635033973
86.24196	15517.3540386569	14332.3650186739	21123.5641734422	-42.7266373463855
73.61024	21875.1863511008	12984.8524137714	25438.7533126687	-30.6928678006103
62.69291	23706.4950232149	13518.358563301	27289.9967851169	-29.6934575185636
53.57697	29192.4618873047	18476.6755539262	34548.3338319924	-32.3307937087067
45.65746	29093.3069359839	15380.6403625739	32908.7314619419	-27.8638829575739
38.96512	30546.0458480407	15976.0973324221	34471.6782725418	-27.6103262149167
33.18414	32981.5053238652	17004.5385113027	37107.0616380565	-27.2746359723275
28.30617	34053.5834724053	16422.8550991879	37806.8342620881	-25.746391374953
24.17237	5612.80515806415	65.7859866971215	5613.19067362202	-0.671515703218047
20.61345	5559.37884056101	128.332750964627	5560.8598604755	-1.32238143454178
17.55618	5478.17643387492	391.989150220248	5492.18285698436	-4.09280540725344
14.98558	5447.32481697	654.30933283091	5486.4805079948	-6.8493093703324
12.76553	5468.41096894109	962.124129480359	5552.40500736064	-9.97861577126456
10.8809	5526.66653711093	1308.30390835427	5679.41036807843	-13.3182148717436
9.278505	5635.77674476007	1557.85418524993	5847.12657459022	-15.4519841853241
7.923394	5762.93922211923	1839.2686627271	6049.32869759366	-17.7007232100756
6.75822	5963.29377734803	2103.67187744391	6323.47278343997	-19.4313193119565
5.761429	6143.76077612532	2334.78933135674	6572.44533610385	-20.8080967866102
4.919708	6417.42084924025	2504.75676546775	6888.91114839058	-21.3209914160775
4.191257	6647.69537052791	2750.59341459971	7194.27674417502	-22.4781312495457
3.564097	17968.9862948158	15541.4663073721	23757.5597115205	-40.8566921791509
3.051758	11424.4350857629	9631.53480138892	14942.6965323926	-40.1330464839007
2.604164	14808.1277936199	13650.3189944016	20139.8077796462	-42.6702525697667
2.214424	26165.0958142125	40133.4610712178	47909.3616793406	-56.8975738454664
1.892567	37557.2864087933	53969.0567943151	65751.112946171	-55.1657859913717
1.607507	43306.5863763086	61233.3409118841	74999.8830852402	-54.7305729797683
1.376413	49188.2211352524	68609.360131313	84419.9348263116	-54.362063714674
1.17375	55522.0822174296	76496.2489796318	94521.8372743189	-54.0273131228688
1.001604	62549.6378868164	84270.0291916283	104947.10581874	-53.4152566877982
