EC-Lab ASCII FILE
freq/Hz	Re(Z)/Ohm	-Im(Z)/Ohm	|Z|/Ohm	Phase(Z)/deg
6999984	16.6527683351642	94.9748347371074	96.423720767068	-80.0549236428279
5969734	15.2669520855387	95.8354789880776	97.0439017087441	-80.948623211673
5091109	12.5053909817005	101.590993226388	102.357777957169	-82.9824514970489
4341796	11.6187609079566	112.291958601076	112.891450391525	-84.0926718166739
3702781	14.8194573874964	123.880412061448	124.763667827513	-83.1782884714246
3157797	14.4171472065424	137.551622076953	138.305107894018	-84.016525725701
2693047	13.9515295926759	156.455403545545	157.076218685626	-84.9042665334767
2296687	14.9001030796019	180.32180614375	180.936361306198	-85.2763453256346
1958656	16.5101615872849	207.205021001955	207.861747717224	-85.4442792553875
1670375	17.9371671332395	239.76184876863	240.431874113473	-85.7215335324513
1424531	20.4752566836703	277.71918608344	278.472947438545	-85.7834129743254
1214875	23.5253695570739	322.533682621188	323.390506103661	-85.8282755696841
1036062	26.3214118322479	374.074395390678	374.999293342993	-85.9750673567967
883578.1	29.5869911892884	435.193804199944	436.198392089716	-86.1106864669041
753531.2	33.9130006861045	506.754417329586	507.887911943752	-86.1713626974085
642624.9	91.177851873453	675.001516167583	681.131740194797	-82.3071634397077
548046.8	112.257713084141	774.595260163052	782.687428807916	-81.7538580969498
467390.6	135.632310439032	887.942611688313	898.24172987392	-81.3152589047772
398593.7	159.287854358849	1017.81674927925	1030.20558902562	-81.1053844644208
339937.5	185.11889613051	1168.35087791012	1182.92551735852	-80.9966370749049
289906.2	213.059033933441	1349.90444980132	1366.61485998582	-81.0308426552742
247234.4	222.733659914299	1545.25592414325	1561.22584988804	-81.7978612556159
210843.7	296.826862985289	1798.55085775151	1822.87996711478	-80.6285689873129
179812.5	309.154134138635	2052.36147631796	2075.51533555622	-81.4337465768102
153343.8	368.020275906583	2378.77126726919	2407.0711799745	-81.2054801912301
130781.2	421.299692229387	2754.24321781227	2786.27872502689	-81.3032267910794
111531.3	493.750820513543	3188.2057065261	3226.21225276382	-81.1966566411851
95109.37	583.088813605434	3697.397012146	3743.09193448117	-81.0381192192724
81109.37	698.732347406297	4291.55766808088	4348.06785961025	-80.7524997583997
69171.88	838.510741683736	4969.79125823089	5040.032283062	-80.4231636177585
59000	1725.2937406981	6218.08621715786	6453.00199098843	-74.4925920719184
50312.5	1926.60364470739	7091.0435583126	7348.10862397164	-74.7999266332265
42906.25	2533.76200017383	8213.40821597152	8595.34899790074	-72.8554797638911
36593.75	2934.16521601029	9227.87220737857	9683.12712869942	-72.3610171866932
31203.13	3433.38010120032	10489.7765353804	11037.3688296412	-71.876352187792
26609.38	4106.84015834076	11977.9725489471	12662.4627331926	-71.074898823963
22703.13	4922.53549066005	13651.2709752414	14511.6696109123	-70.1711151979236
19359.37	5936.3031841347	15485.9243973336	16584.7384644407	-69.0264028190318
16500	7271.75945861883	17537.6088590608	18985.4209886802	-67.47924488484
14112.02	8881.56192124358	19727.7678471538	21634.8553587049	-65.76243414751
12011.13	11001.5972895364	22044.0315715611	24636.8518859273	-63.4774211647488
10236.38	13548.583432318	24533.6959446113	28026.1725843027	-61.0905935817928
8750.684	16544.148886536	26858.0993828745	31544.6725270723	-58.3676116604336
7449.463	20101.3890425574	29111.6330520254	35377.2952668237	-55.3751791471802
6363.206	-26229.6543241629	111175.29687069	114227.585986271	-103.275069614536
5414.761	21820.4710740716	22618.491139117	31428.1577459563	-46.0287879253748
4620.567	39713.4422815228	32407.294778138	51258.0749997986	-39.2154201975309
3941.215	44330.2054747534	31967.1835055134	54654.0752250829	-35.7959450508327
3361.769	48736.6654883583	31280.2581118132	57911.2865550903	-32.6932353507505
2867.244	52929.4824648073	29776.2857447891	60730.2009444039	-29.3605919579044
2442.658	56795.72637179	28355.0514762133	63480.4180698107	-26.5304898471675
2083.003	60219.3800564395	26507.368951285	65795.2455964825	-23.7581361526018
1777.843	62913.0637168642	24248.8221041631	67424.4685532008	-21.0783495194175
1513.548	65827.3720747243	22515.3972174767	69571.4454796287	-18.8825861724038
1292.065	67989.3168526418	20179.8702526922	70920.9022045293	-16.5313851051491
1101.762	69791.8749152201	18230.9464322208	72133.7175805894	-14.639604516342
939.101	71245.931196259	16472.9825980168	73125.5213157256	-13.0187527505405
801.2801	72598.1013974132	14868.4727588539	74105.0322764242	-11.5744178222629
684.3433	73301.6586966251	13708.0256379157	74572.4019632348	-10.5924426459221
582.9476	74435.1747621546	12162.3005924372	75422.2566459881	-9.27981352601121
497.0677	74949.5462624618	10995.7406584884	75751.8369254346	-8.34624182420299
423.5089	75616.3732182066	10343.2501606411	76320.5000151383	-7.78891431772334
361.5036	76152.7131316969	9076.22109754676	76691.6782104165	-6.79670611516144
308.1262	76522.6943366154	9195.38212426811	77073.197682115	-6.85211686352854
262.7298	77427.0192178471	8633.86117809314	77906.9115278192	-6.36274788112935
224.2111	77871.9058313023	8271.59318517849	78309.9800256666	-6.06325138245857
191.2854	78182.0081869509	8349.48308545199	78626.5875638687	-6.09582403311176
163.1722	78450.0868686757	8781.39873397311	78940.0347949492	-6.38688086346026
139.1537	79300.9712559596	8633.85785413383	79769.5903435884	-6.21357831916704
118.6706	80197.6950486629	10035.3581167274	80823.1322311211	-7.13250521973171
101.1982	80320.3479372792	9580.53888505232	80889.7089752064	-6.80205181139001
86.24196	80704.8200859549	10201.9487454167	81347.0819594068	-7.20458331035917
73.61024	81465.3610347665	11183.5781857236	82229.4197326057	-7.81671422994309
62.69291	81534.0702278624	12323.5785059751	82460.1430699397	-8.59499145095904
53.57697	82737.3670431862	13371.5017521539	83810.9119646527	-9.18041107813396
45.65746	83247.6451159177	14817.4855370937	84556.0659857574	-10.0925426992484
38.96512	84052.149423706	16359.2350185631	85629.3664179385	-11.0138932112864
33.18414	85345.7529554156	18285.5697752991	87282.6420861225	-12.0929560860122
28.30617	86435.7110669321	19703.1372095523	88652.951239903	-12.8412332368751
24.17237	87538.415099814	22902.5875691302	90484.8199177576	-14.661606095675
20.61345	88750.9253961005	25858.3384912462	92441.226886017	-16.2439321793319
17.55618	90389.4926319021	28842.7163496595	94879.7273640665	-17.6975547534686
14.98558	91984.0540784981	32190.9993208588	97454.2284459304	-19.2881486181092
12.76553	94056.2105678359	36746.2419546279	100979.488234835	-21.3397844317578
10.8809	95950.2394376742	41357.3287409073	104483.860422223	-23.317439934899
9.278505	97937.1408856482	46497.2250968626	108414.369465323	-25.3967782579421
7.923394	101039.132032127	52707.7292627688	113960.56741629	-27.5490942153511
6.75822	103689.789424522	59091.8153881204	119345.779467752	-29.6784001877076
5.761429	106582.664370342	66864.2010173031	125820.052940552	-32.1019371765976
4.919708	110618.746398531	75263.7440856828	133795.135294889	-34.2309280221667
4.191257	114005.367067743	85157.5967442269	142299.121583737	-36.7583078818463
3.564097	119194.052896239	97152.4179648091	153771.95635824	-39.1827100370069
3.051758	123681.981095979	108731.304958391	164680.688381427	-41.3193498691411
2.604164	129942.882764289	124187.830128769	179743.622788642	-43.7026995982806
2.214424	136151.685327966	139887.450692981	195207.019031147	-45.7753629630105
1.892567	144296.805747823	159103.8589391	214792.00655131	-47.7940250555492
1.607507	153626.434827322	180456.365582861	236992.787563522	-49.5915254391675
1.376413	164021.461261005	203433.178534054	261319.914822165	-51.1219128986958
1.17375	176545.993766359	230184.59933082	290092.119307026	-52.5126705435507
1.001604	190176.28265702	260509.783129902	322540.486747991	-53.869961723592
