EC-Lab ASCII FILE
freq/Hz	Re(Z)/Ohm	-Im(Z)/Ohm	|Z|/Ohm	Phase(Z)/deg
6999984	6.70836551775197	2.67054533917488	7.22038643899011	-21.7070962150602
5969734	21.5694834702047	19.3833599993605	28.9992631291942	-41.9443666095375
5091109	34.7197195767217	32.4674438113717	47.535185232949	-43.0800262552663
4341796	44.5743455178334	17.3205119278164	47.8212548119016	-21.2349216960929
3702781	-31.8500974919392	-57.4260214829361	65.6671657192898	119.013991063661
3157797	23.8466246376754	-35.6435454824272	42.885007183957	56.2162640016984
2693047	76.4206156393716	-114.018777660563	137.260308006027	56.1681928426869
2296687	93.977315165177	58.1713511545139	110.524394867363	-31.7572400374689
1958656	-17.7225690300993	-93.0677061406568	94.7401043872672	100.781557290126
1670375	-10.3382051753045	-107.280270275333	107.777246562506	95.5043868138535
1424531	15.9767212813411	-71.9375783469768	73.690371157493	77.4783324381246
1214875	753.091976889903	-166.017475924488	771.173993316865	12.4318892697219
1036062	87.804756076528	-10.5530198474671	88.4366520033386	6.85335445236602
883578.1	57.0194963084758	-91.4027465304509	107.72968501106	58.0429737737124
753531.2	84.9278977268283	-127.241975410307	152.981267214701	56.278796615459
642624.9	450.267691085025	-696.477843417051	829.35057726266	57.1176354754202
548046.8	143.612729284223	-159.856711411922	214.892494508063	48.0639798503031
467390.6	-44.7707690830203	-151.82611632342	158.289580712496	106.429832530306
398593.7	329.693588954846	236.402944398176	405.689801101844	-35.6419741025472
339937.5	-38.0400061945841	-308.470469602787	310.807131012543	97.0301161265074
289906.2	33.0503183396664	38.805859919587	50.9727211992052	-49.5795047846257
247234.4	1482.85707585193	64.5689337998273	1484.26219200524	-2.49328944382704
210843.7	1516.1910123196	109.951659681642	1520.17254063658	-4.14773429811484
179812.5	701.351302533875	-1835.75125326829	1965.165721623	69.0905740920864
153343.8	1429.94616617224	1254.31699808086	1902.11912608681	-41.256519317327
130781.2	4271.62062364678	-5518.17465550802	6978.32317115334	52.2565354908154
111531.3	4284.30291724533	-3846.96637317808	5757.98591202511	41.9213394357512
95109.37	1891.12769938288	62.3775122209	1892.15615883152	-1.88917592267039
81109.37	7214.68597921536	349.036987654853	7223.12401924804	-2.76973470448412
69171.88	-4863.51550243591	-55727.4532784424	55939.278078497	94.987750769984
59000	54946.8945256366	-20498.1151299512	58645.8348213423	20.4581914611238
50312.5	-2321.69078002674	29724.9001199618	29815.4311593806	-94.4660726975174
42906.25	15784.4542381752	-12013.9683700392	19836.4420094267	37.275728877895
36593.75	32.4455257438485	4.79408716365711	32.7977958486157	-8.40509604891883
31203.13	55.8252804281469	-54.5030246907666	78.0194952260238	44.3133580163311
26609.38	152.579330481447	-474.627636387951	498.549742065303	72.1788739036211
22703.13	29.9329940003758	46.551264348908	55.3444156379706	-57.258520067665
19359.37	39.2783283912392	34.7586992332401	52.4495400704036	-41.5066841498371
16500	13.3539387000932	64.5891733813725	65.9552044716324	-78.3185750446839
14112.02	25470.0895394237	-27830.0399851601	37725.8079664554	47.5352085603327
12011.13	4448.94009363736	670.064553355221	4499.11707587579	-8.56506586531936
10236.38	26.8655682959397	2.08049195274588	26.9460053928081	-4.4281948470002
8750.684	16.4397159763016	7.68330268347205	18.1465534332918	-25.0496116707165
7449.463	34753.8665169561	-27767.3150762144	44484.323355764	38.6238240853245
6363.206	288483.733264912	-308492.266492347	422362.809494451	46.9196341644001
5414.761	598581.545952128	7735.10371861888	598631.521876335	-0.74035715526081
4620.567	445.49669350364	-1631.26884028296	1691.00719489918	74.7250983451825
3941.215	506.571945798753	273.039005978347	575.469751642933	-28.3243805966764
3361.769	13272.5826010581	1291.16897094015	13335.2377636632	-5.55630233603138
2867.244	10504.9646564112	-23288.2477238107	25547.9307279087	65.7206082284655
2442.658	32.6609312337767	-2.83304906293887	32.7835720453173	4.95749726884662
2083.003	-18.9422581393085	-29.6264062777595	35.1643724862404	122.5936594803
1777.843	40079.4510497126	7890.02349692658	40848.6825641704	-11.1368155766538
1513.548	56.8447843479691	-17.1379476413769	59.3720368264867	16.7773616161767
1292.065	-4.09055544090922	39.1586219031174	39.3716943141448	-95.9635551908713
1101.762	1482915.3505042	475538.254817566	1557297.19981638	-17.7799002477848
939.101	499060.624158982	362800.98984844	616997.621406242	-36.0159436554291
801.2801	1673849.90798491	106483.09812379	1677233.48542985	-3.64000488317069
684.3433	3486855.11950438	4001731.95337726	5307731.83677308	-48.9331740142504
582.9476	4806848.02495891	-623541.160711714	4847121.98259473	7.39109826140811
497.0677	908602.731073853	2172581.55633105	2354924.52996369	-67.3046646446636
423.5089	2873133.29712718	1425571.07889778	3207358.39033474	-26.3893646126488
361.5036	3277872.90799231	-550636.496082766	3323800.73887835	9.53585117592132
308.1262	1292357.93846828	4640636.88901296	4817229.47105387	-74.4381610813809
262.7298	11952604.2650707	-2626031.8042546	12237679.1817053	12.3912264550014
224.2111	6011535.1332299	834608.084224099	6069194.7828612	-7.90410175285644
191.2854	802459.919926287	3346291.03916624	3441163.41400585	-76.5147893140531
163.1722	4737814.10080455	2778223.13395243	5492304.27378263	-30.387080225349
139.1537	464799.871351653	6317218.36164774	6334294.4949811	-85.7919500454728
118.6706	2798490.22093587	5946286.33749674	6571899.93260504	-64.7970002627146
101.1982	8407.87269053451	11250595.0311064	11250598.1728208	-89.9571813287354
86.24196	1309777.87706117	9780715.61934272	9868024.93479285	-82.3726525156911
73.61024	5859276.22960451	8576501.2944438	10386890.4099545	-55.6599735488279
62.69291	3011996.87517678	12169267.6603478	12536474.8061511	-76.0981917012135
53.57697	4373924.26047729	10264325.467389	11157400.7159769	-66.9197515978948
45.65746	4763186.90562045	13805542.8587037	14604141.9851143	-70.9645471526208
38.96512	3117645.9956776	12779088.5437615	13153889.9403812	-76.2896741963462
33.18414	16792177.2957275	-4852199.60997438	17479160.7174424	16.1169647319309
28.30617	4060762.96327735	13008263.7627054	13627351.9791645	-72.6633097194042
24.17237	207510.37695919	14633732.115185	14635203.3185584	-89.1875844183157
20.61345	13192886.2016208	-6697936.77430404	14795763.0205911	26.9165889165723
17.55618	12998978.5275616	8788924.36598203	15691355.3994217	-34.0635785093649
14.98558	17159665.3722075	12958262.2468568	21502806.238825	-37.0585778735405
12.76553	5448961.37288359	169687.527480627	5451602.87439941	-1.78368637117767
10.8809	-2323913.41191597	42358002.9450439	42421704.197715	-93.1403056553642
9.278505	29577468.6316489	23176444.2917199	37576245.4306357	-38.0816971491497
7.923394	14326566.1055762	11482871.9759162	18360469.6343184	-38.712489304121
6.75822	15790130.0397764	-5215667.78401693	16629233.2086083	18.2790037831232
5.761429	15787012.2166507	6276544.9049863	16988960.2587383	-21.6816053227549
4.919708	-2294464.46711658	-5169712.31955303	5656013.84879837	113.933001336441
4.191257	-334559.502949654	-9534580.5331867	9540448.41738777	92.009630742453
3.564097	11761746.7958805	-8625473.88246703	14585523.2126765	36.2544487968082
3.051758	7761618.03171438	4638584.93832431	9042078.5608334	-30.8638555954112
2.604164	-1498523.85389444	-7830599.18398282	7972694.48310187	100.833581857924
2.214424	9748342.21440321	-4054135.56692772	10557755.0229272	22.5814240808519
1.892567	-1417847.59246466	-11636937.600799	11722994.8613973	96.9466934715363
1.607507	5317442.02708952	-14349529.2810404	15303077.4780399	69.6670269297675
1.376413	8444648.0607332	-22013061.6261718	23577255.2055426	69.0121934657125
1.17375	12642609.8109042	-20802986.444069	24343373.3862604	58.7116728164096
1.001604	19305315.950214	-22575803.7626086	29704581.1191709	49.4651538678735
