EC-Lab ASCII FILE
freq/Hz	Re(Z)/Ohm	-Im(Z)/Ohm	|Z|/Ohm	Phase(Z)/deg
6999984	19.1791777118075	92.2550472916857	94.2275681979125	-78.2558934618966
5969734	15.5747725538136	91.2780825090316	92.597310363901	-80.3168799467617
5091109	11.389633341458	95.9628240066989	96.6363665448651	-83.2313443632537
4341796	8.55343874106801	104.88661260172	105.234798509621	-85.3378809928317
3702781	9.0841844183441	117.258005654085	117.609363132873	-85.5700434914187
3157797	9.21007734778294	131.658861314218	131.980609512567	-85.998444034838
2693047	8.62387868264308	149.104824323056	149.35400871735	-86.6898322062224
2296687	8.74935023277189	171.446432022135	171.669537724712	-87.0785840702186
1958656	9.32304780212302	197.903205808646	198.122684439869	-87.3028397512328
1670375	10.337703807036	230.010159424778	230.242353963414	-87.4265986349811
1424531	12.4346980180283	266.879106344387	267.168634233097	-87.3323470776821
1214875	14.8537315820381	310.09936099933	310.454903382285	-87.257633381197
1036062	17.3721770742126	360.909434531616	361.327292728115	-87.2442261687909
883578.1	20.6886262905972	420.346652951023	420.855471515959	-87.1822894311373
753531.2	24.9116338895459	489.729661286659	490.36285610453	-87.0879805780588
642624.9	83.9528579143159	647.054905805972	652.478454417889	-82.6073933243562
548046.8	103.350362219867	743.547979731126	750.696273823986	-82.0868038717003
467390.6	124.150999219024	854.986155262827	863.953005838971	-81.7379298702452
398593.7	145.998599370277	979.906673282222	990.723311203039	-81.5257063029287
339937.5	170.112976614402	1126.16768424623	1138.94340414839	-81.4101407156509
289906.2	196.248778759039	1294.69212786722	1309.48130537467	-81.3807479807606
247234.4	226.527394118598	1492.95493505091	1510.04274720255	-81.3722682053927
210843.7	257.806093499546	1723.20148389706	1742.37979096135	-81.4911569478823
179812.5	293.732513396937	1989.47386281761	2011.04078533005	-81.601336731886
153343.8	340.137787290593	2304.64178508994	2329.60672044134	-81.6044307039797
130781.2	395.930125598141	2668.35041797836	2697.56457151288	-81.5600264748571
111531.3	466.259998698465	3097.68541244408	3132.5793367216	-81.4401637041157
95109.37	549.824226880971	3589.06829028697	3630.93897949397	-81.290335240689
81109.37	658.557826357262	4157.76342776572	4209.59560194594	-80.9995591596601
69171.88	797.92950042217	4816.84091541859	4882.48378308567	-80.5941342238255
59000	1594.65222422156	5972.86948974484	6182.07777836381	-75.051684288407
50312.5	1763.75457523902	6910.15172943711	7131.69174358506	-75.6814794968148
42906.25	2368.17887422503	7841.97261230816	8191.75229316152	-73.1963323562144
36593.75	2750.0974289462	8888.10326386189	9303.83875063239	-72.807236717541
31203.13	3229.82863882741	10137.0457449844	10639.1489073185	-72.32726997256
26609.38	3852.6055281913	11553.8968922685	12179.2899116912	-71.5592200481871
22703.13	4614.07977658079	13156.053862937	13941.7174490502	-70.6732554095763
19359.37	5616.81198132231	14941.1311295922	15962.0166728767	-69.39727839982
16500	6829.43113048027	16937.3222978366	18262.3661168745	-68.039826791596
14112.02	8328.51987951773	19036.5709782264	20778.7217603147	-66.3705715512619
12011.13	10268.6907184202	21339.7827220409	23681.8989038988	-64.3031679390913
10236.38	12599.8158460607	23731.1955810301	26868.6621002935	-62.0344269577118
8750.684	15354.5204991534	26090.7872888804	30273.5937924873	-59.5230383500944
7449.463	18645.6141734792	28307.1171410021	33896.1916554156	-56.6275044591535
6363.206	22385.6471513643	30405.1095708593	37756.9581190189	-53.6377820362711
5414.761	32405.7467567723	31853.8102018779	45440.0445338835	-44.5078886469339
4620.567	36673.6090121498	32304.3989208221	48872.5668203712	-41.375608595045
3941.215	41185.536944585	32306.1813217444	52344.4152227074	-38.1108492417659
3361.769	45552.6804834	31855.3481955186	55586.0585747943	-34.965396890167
2867.244	49688.7905234259	30989.1637315116	58560.2610347609	-31.9503497327398
2442.658	53564.5478773481	29693.5976919888	61244.3510309187	-29.0018688119509
2083.003	57086.1470583365	28184.3098549058	63664.6173943059	-26.27626274389
1777.843	60197.8279168756	26493.7933032633	65770.0507032327	-23.7548760227475
1513.548	62986.6787411361	24676.5470439551	67648.0130739374	-21.3939575912874
1292.065	65330.5660342831	22910.6818241916	69231.3671684242	-19.3251846099865
1101.762	67370.9033816368	21190.481704411	70624.8903526428	-17.46016687979
939.101	68944.1989952337	19535.6406170527	71658.5223781026	-15.820310103924
801.2801	70550.2854960293	18212.1633518908	72863.0611320112	-14.4745869417664
684.3433	71871.3945616039	17132.5170548138	73885.1845559259	-13.4077968230123
582.9476	72935.9038195604	15985.7606976593	74667.1990304913	-12.3623493821268
497.0677	73944.522865113	15127.1311907059	75475.9733942534	-11.561703888789
423.5089	74844.219195481	14498.0556669965	76235.495440802	-10.9629744520332
361.5036	75669.4522536181	14109.4840933461	76973.6548810239	-10.5621962039171
308.1262	76440.5205181341	13850.6485080788	77685.2215107714	-10.2702856664539
262.7298	77245.8880566039	13851.0469080205	78477.8868350923	-10.1657380575763
224.2111	78041.5537435737	14002.3216040331	79287.7614831815	-10.1718572468283
191.2854	78738.7530199592	14422.0038386721	80048.6440975786	-10.3793997489586
163.1722	79745.8181526493	14821.5430216069	81111.4890159018	-10.5288443306625
139.1537	80752.2602034343	15597.8410958385	82244.8793227529	-10.9324300719747
118.6706	81918.1014633559	16529.2886473325	83569.0895639501	-11.4078647207964
101.1982	82820.221052028	17611.399041139	84672.0165774562	-12.0049096616345
86.24196	83957.4787044555	19019.343073522	86084.8049388359	-12.7640901993387
73.61024	85260.0264517459	20612.8195507136	87716.3635838985	-13.5912693681691
62.69291	86514.3587911333	22313.8223241059	89345.6263269373	-14.4625548280686
53.57697	87979.8282355385	24384.1448526544	91296.4221453946	-15.4910369886403
45.65746	89755.1007325625	26799.8469749255	93670.7526680119	-16.6250235976073
38.96512	91309.9644875852	29457.960350043	95944.1558548971	-17.880477259142
33.18414	93307.3543409221	32509.7137323275	98808.6224024011	-19.2091205494268
28.30617	94863.5939472143	36002.5541916337	101465.68565236	-20.7827147562859
24.17237	97803.1484364011	39602.4909832418	105516.885549899	-22.0440297760649
20.61345	100575.399586321	43909.9163584501	109742.843760102	-23.5854581323053
17.55618	103439.956112429	48728.8089001648	114342.998637302	-25.2243294207637
14.98558	106428.339809125	54286.2630670223	119473.804125877	-27.0249180468977
12.76553	109841.119542021	60403.8157968042	125354.26799698	-28.8072694264127
10.8809	114036.758513652	66847.1312509495	132185.17787098	-30.3783769964409
9.278505	118262.244351951	74579.2374217647	139814.237807072	-32.2365937176092
7.923394	122718.204260108	83369.8229098794	148358.636515877	-34.1906147117013
6.75822	127576.083762235	92884.7588733781	157807.590372182	-36.0573685040171
5.761429	132960.011805607	103704.383843924	168620.769680948	-37.953045205831
4.919708	139041.946841505	116495.624087219	181394.303694869	-39.957795883104
4.191257	145806.989305693	129966.501801157	195322.732217273	-41.7125306968937
3.564097	152712.403579759	146374.473161017	211533.83795571	-43.7860305800044
3.051758	161168.485003939	163436.385714726	229535.907286763	-45.4002990607399
2.604164	169589.519348804	183615.167649763	249950.264780833	-47.2740028311106
2.214424	179846.777416576	206282.002906212	273673.396716097	-48.9164837536782
1.892567	191031.709237109	231611.198846476	300228.015623381	-50.4843655713199
1.607507	203325.617620326	260133.209642715	330167.523447883	-51.988064656751
1.376413	218179.457639009	291190.167776696	363859.848768001	-53.1569558545974
1.17375	234270.760294062	328243.447704429	403269.822934531	-54.4841552912384
1.001604	254177.528557834	369059.978228485	448119.943267178	-55.4441919136037
