EC-Lab ASCII FILE
freq/Hz	Re(Z)/Ohm	-Im(Z)/Ohm	|Z|/Ohm	Phase(Z)/deg
6999984	3.64546560520751	1.11798496306669	3.81304469635411	-17.0496368900008
5969734	5.33253486410693	1.2617420361058	5.47977381308685	-13.312049845868
5091109	8.01525984158494	-4.03903678193328	8.97542246659923	26.7443749920898
4341796	5.73613997799878	-6.66493875230757	8.793447015773	49.2832626862312
3702781	3.37833655906153	-4.89332401964834	5.9462406499871	55.3789148320044
3157797	24.1437174102212	-1.06024492953058	24.166985945608	2.51446596393507
2693047	22.1408234064969	18.1865652062253	28.6525254579411	-39.3998266638938
2296687	-1.80443554704655	-7.61761605481574	7.828413760273	103.326406632979
1958656	6.54056661827795	-10.8633140306187	12.6803234744216	58.9487627520348
1670375	14.3141950557212	-8.99085323469475	16.9035979004783	32.1332378609456
1424531	4.75287234526745	-24.5774707111666	25.0328157043642	79.0550549945451
1214875	180.865062905116	-116.032086718381	214.885123095792	32.6817761948479
1036062	18.6258146051878	3.42435612717457	18.9379825903538	-10.4174957127568
883578.1	21.4293617589042	18.0150903544205	27.9957322796158	-40.0528667700501
753531.2	13.3739149807576	-11.826954747652	17.8532478982269	41.4872952580498
642624.9	17.8569157387396	-3.47583611018231	18.1920553089884	11.0148500508043
548046.8	22.9154056942456	-8.37902538063872	24.3992599162608	20.0849552942197
467390.6	10.494038002454	-12.4030460874603	16.2468577221755	49.7659223328494
398593.7	5.06176857689031	4.87902855661185	7.03039264779913	-43.9468598330977
339937.5	5.75977922632044	-8.4419919036217	10.2197007801974	55.6951703461828
289906.2	12.5790966547768	0.13341173090759	12.5798041057943	-0.607646378921429
247234.4	13.7203783668213	7.069641193779	15.4346561068757	-27.2605011035216
210843.7	11.6924335312971	15.6193528097579	19.5109503633086	-53.1819769215107
179812.5	187.630129548085	-49.4715949505082	194.042531990227	14.7707602852254
153343.8	15.1211621409905	-7.43145576474545	16.8486224741815	26.1722995519635
130781.2	12.1158242473338	2.48631835352265	12.3683053061988	-11.5968090128966
111531.3	-0.860064631470661	-31.7094139383307	31.7210756987008	91.5536709290879
95109.37	25.5496891422003	6.49534350955665	26.3623994084417	-14.2637957689377
81109.37	1085.68352905011	3575.94186793785	3737.120411242	-73.111305419417
69171.88	1330.99511088149	4534.52992736036	4725.83428056012	-73.6417497461491
59000	6182.38756205225	8882.13692662237	10821.9347785268	-55.1602569486487
50312.5	6745.57373211271	9425.33699768403	11590.5022537973	-54.4092639778369
42906.25	7227.69645129261	10116.4682357361	12433.1221162139	-54.4561433846345
36593.75	7658.06155437119	10915.904176233	13334.2742867859	-54.9483886151652
31203.13	7973.5868191402	11921.7168795609	14342.4342466255	-56.2242567629405
26609.38	8337.51295628183	12976.6283321849	15424.2343462433	-57.2791637370235
22703.13	8588.82732063553	14705.8285122849	17030.2480010253	-59.7132603380778
19359.37	8743.36923941805	16518.6445601925	18689.8936263099	-62.10759366815
16500	8998.80269638346	18741.7714682684	20790.200762312	-64.352155830575
14112.02	9208.34696906442	21284.4733137715	23190.9995072944	-66.6051404725884
12011.13	9547.22981018471	24428.1582086976	26227.5525071944	-68.653006223945
10236.38	9744.04371185603	28288.2105950066	29919.3791133105	-70.9934242254954
8750.684	9853.82721997754	32564.1146871834	34022.3379008733	-73.1643040154666
7449.463	6196.77691677395	43378.2836148314	43818.6664964261	-81.8700539378024
6363.206	11.2352953706684	5.29573375914866	12.4208155172657	-25.2367511457621
5414.761	19.3142323268099	7.28413178004317	20.6421449021903	-20.6633676475602
4620.567	31.824687194971	-13.5426306534361	34.5863204182396	23.051621895426
3941.215	8.13291404807712	16.1673814640824	18.097748874337	-63.2955643605743
3361.769	16.6739263668809	-4.69456307233419	17.3222037549583	15.7246261521371
2867.244	17.5973725912561	-9.78570661356657	20.13523220731	29.0779576071443
2442.658	7.27161379793292	-4.21393542822092	8.40438094207442	30.0924997045604
2083.003	14.9076884035933	15.0869516023054	21.2097921297908	-45.3424245938537
1777.843	13.8506666371571	6.6137641638469	15.3487081771934	-25.5247140040169
1513.548	-2.590646143435	-20.4922489440447	20.6553555821534	97.2051547329198
1292.065	23.8246249724331	-20.5448776973523	31.4595733390688	40.7724444649549
1101.762	57594.10250252	302456.542895188	307891.281109387	-79.218749036614
939.101	111541.374105821	120641.113070289	164303.853577002	-47.2443981018361
801.2801	530514.860092286	904455.702515985	1048563.84383233	-59.6059453430498
684.3433	780438.350485891	702481.392217279	1050030.53542298	-41.9907360838974
582.9476	714223.193612989	930498.095229144	1173005.31777132	-52.4912075445451
497.0677	384466.925154392	925152.996694538	1001859.71264971	-67.4336374443476
423.5089	807783.643099126	902102.286039056	1210909.96714677	-48.1572802976622
361.5036	606983.849275406	1067751.59603966	1228219.38762032	-60.3831052963653
308.1262	751794.09445876	988766.171257507	1242116.29966211	-52.7529805019845
262.7298	1153574.49443411	1277085.32082615	1720953.52374157	-47.9089088230509
224.2111	497752.631995808	1497600.815862	1578152.68156452	-71.6149115458738
191.2854	911208.864560664	1260675.17239302	1555507.46868734	-54.1408103325062
163.1722	823162.378505294	1445804.87445044	1663715.13077544	-60.3451754903276
139.1537	460456.573985043	2157272.23500308	2205865.76029486	-77.9513663937846
118.6706	1871252.78372078	1070910.53876463	2156023.27506452	-29.7823347317443
101.1982	1009295.20445601	2674806.03436657	2858892.11605156	-69.3268045910189
86.24196	1314906.21318226	2623855.42045264	2934892.77775254	-63.3829404243317
73.61024	1310920.06219783	3502212.53392798	3739519.2260871	-69.4785238151695
62.69291	1527282.25718658	3900748.5299199	4189084.64784244	-68.6178839111035
53.57697	1531691.72701477	3840407.12183259	4134586.60666674	-68.2561183592579
45.65746	2363519.74932119	3923709.82816765	4580581.23179698	-58.9365587509985
38.96512	972459.300186671	5168687.7155743	5259373.51703112	-79.3446851599837
33.18414	1963735.27369207	7311182.68251293	7570313.62905259	-74.9655687317989
28.30617	1421022.82296011	6709274.4447981	6858109.75699532	-78.0414926549587
24.17237	2669837.95292065	12821069.3788289	13096100.7445575	-78.2369285588778
20.61345	4330438.60267369	10156250.1639331	11040929.122312	-66.907490301079
17.55618	12439907.647492	4128852.3007233	13107201.2115218	-18.3612003084127
14.98558	7106308.01014457	12251619.0811967	14163395.907966	-59.8849757892785
12.76553	-2085331.98948121	15951209.9711409	16086942.1907888	-97.4481461338348
10.8809	-575519.344181603	37549690.4549806	37554100.6519978	-90.8780963928492
9.278505	23853132.9654894	18732484.8675852	30329489.636056	-38.1434677290427
7.923394	-10036231.0675322	27466773.6091748	29242940.7983971	-110.072067938173
6.75822	29819282.381219	-9231010.73712119	31215399.4201536	17.200702942265
5.761429	42652513.0332788	55289358.2361599	69829435.0701797	-52.3519100453929
4.919708	64111215.4959955	19573528.4158098	67032611.2203492	-16.9777364162898
4.191257	2057770.08674209	45231009.0716876	45277793.667238	-87.3951432520284
3.564097	-15375241.7232251	95911790.5286833	97136345.5173481	-99.1073746127541
3.051758	-16009684.6248019	75132995.368583	76819769.557329	-102.028943705906
2.604164	-1268055.21091869	112235611.440332	112242774.553212	-90.6473089929705
2.214424	3294106.42395368	81421647.4555605	81488255.6661383	-87.6832264314202
1.892567	13306011.4109104	93878054.4077699	94816343.7338494	-81.9327928163692
1.607507	136106720.508221	-67584775.7957834	151962960.246467	26.4070289014727
1.376413	-74893083.2742247	157962057.181037	174817005.55491	-115.366599035638
1.17375	75146662.3760497	87459203.885842	115308860.069837	-49.3301822000745
1.001604	22670160.217497	194705228.216343	196020565.39829	-83.3587701768908
