EC-Lab ASCII FILE
freq/Hz	Re(Z)/Ohm	-Im(Z)/Ohm	|Z|/Ohm	Phase(Z)/deg
6999984	22.5579461624474	3.32522805582147	22.8017121438522	-8.3854837035915
5969734	18.5227429345091	-4.28006209199958	19.010811064478	13.0110120907283
5091109	10.9269723363613	-6.3679770347291	12.6471283679119	30.2326050742038
4341796	8.70009568607451	-6.89658787871663	11.1020083460477	38.4039515314431
3702781	4.69716762030027	-5.82824950362556	7.48544427069689	51.1335783194047
3157797	4.48029429594229	-5.55788896953703	7.13884912124878	51.1272127583008
2693047	3.29582438193576	-4.72130033527498	5.7578759288847	55.0820482096133
2296687	2.4194217025926	-3.66875896928762	4.39470064392383	56.596507442437
1958656	1.79869681348389	-3.46213562998224	3.90149885905784	62.5465939307792
1670375	1.50359962644509	-2.76397444721101	3.14648479759259	61.4538488239057
1424531	1.20294204968984	-2.42360676314231	2.70572343695012	63.6027843303234
1214875	0.838741085108563	-2.36993917660068	2.5139805704571	70.5107072830977
1036062	0.835738968953905	-1.90289807798266	2.07833604583528	66.2892688401328
883578.1	0.70394388450409	-1.58437746961884	1.73372113062237	66.0442720869349
753531.2	0.736934861982129	-1.39839988076119	1.5806945363724	62.2114709164072
642624.9	0.678384645030941	-1.17439300369629	1.35624653132996	59.9872487557094
548046.8	0.589702411365205	-1.041641119105	1.1969816853153	60.4845761218829
467390.6	0.551138193940752	-0.906732134297486	1.06109211296096	58.7075475202847
398593.7	0.519831268850119	-0.786735675003602	0.942962125643283	56.5454855507806
339937.5	0.493297542702157	-0.686206255669971	0.845116258840515	54.2885303112469
289906.2	0.473194926574213	-0.593694855178566	0.759201567175064	51.4439667457609
247234.4	0.454081513608349	-0.516404054597029	0.687650469791958	48.6743689781898
210843.7	0.438503611341606	-0.447323585108993	0.626405465297352	45.5704617963158
179812.5	0.425377180565391	-0.386058703168513	0.574445008715295	42.2258779630191
153343.8	0.416941090614506	-0.335913002706175	0.535422654012597	38.8570236375207
130781.2	0.40832826704452	-0.292606959799205	0.502345306129673	35.6252838419751
111531.3	0.401368731495845	-0.255576690417081	0.475832221804211	32.4874690177852
95109.37	0.394051272382367	-0.222564875882774	0.452561077914215	29.4582812619742
81109.37	0.386573932654408	-0.194711509907568	0.432841746482914	26.7337122475224
69171.88	0.379322927733193	-0.169080190740535	0.415299884908408	24.0245443386038
59000	0.369639430908897	-0.142303820420488	0.396085453139748	21.0557119569319
50312.5	0.365751557055921	-0.10888003021661	0.381613760848322	16.5776629062618
42906.25	0.392025560998895	-0.115972738676276	0.408819907285071	16.4797730669637
36593.75	0.377123708746485	-0.104120696572444	0.39123319280633	15.4343829218577
31203.13	0.370896049093039	-0.0913808126733162	0.3819873455465	13.8407867583706
26609.38	0.366827826107702	-0.0810026841635717	0.375664862408778	12.4521891644034
22703.13	0.36326360410048	-0.0718685332156231	0.370304647730264	11.1909543587157
19359.37	0.360461412406948	-0.0636100944787567	0.366030974036362	10.007865266706
16500	0.357798240032184	-0.0567100811924164	0.362264563377346	9.00631212250551
14112.02	0.355414834780111	-0.0511170939271427	0.359071945539233	8.18436978792263
12011.13	0.35323868944155	-0.0455608248873901	0.356164793996829	7.34944995928005
10236.38	0.351069119272855	-0.0411863832655989	0.353476795099082	6.6911844780322
8750.684	0.349314017028829	-0.036576949217427	0.351223797181898	5.97770305406759
7449.463	0.349535219310633	-0.038483038675456	0.351647286075449	6.28283172786451
6363.206	0.348981174056931	-0.0265283256936731	0.349988016809524	4.34706402320967
5414.761	0.337621307812177	-0.0356424054640218	0.339497464727009	6.02634717087419
4620.567	0.352292556585673	-0.0196328326028734	0.352839189350732	3.18972422747091
3941.215	0.343320806250476	-0.0126576067174985	0.343554058355147	2.11143369985297
3361.769	0.345267471119372	-0.0093841280447175	0.345394974590433	1.55687587135498
2867.244	0.322206562434629	-0.026970263330327	0.323333363543027	4.7847825792512
2442.658	0.349812192256492	-0.0175188555355452	0.350250596217292	2.86702007330836
2083.003	0.331799266102371	-0.00937067325095882	0.33193156298136	1.61771711370433
1777.843	0.339234525372525	-0.0327882349842415	0.340815392196574	5.52069415497959
1513.548	0.319859550440102	0.000251141008217008	0.319859649033057	-0.0449863599720697
1292.065	0.31098247826511	-0.00989453257032988	0.311139845668624	1.82236560601136
1101.762	0.35668391873166	-0.0217897797819286	0.35734886649424	3.49584812895798
939.101	0.338653757122154	-0.0373701578546683	0.340709400972491	6.29706399949556
801.2801	0.352037513791405	-0.0115375601263784	0.352226527124383	1.87712089066083
684.3433	0.335537016819544	0.00184219793197623	0.335542073888476	-0.314567695105464
582.9476	0.322628138435695	-0.0308575377819245	0.324100452558223	5.46339493771974
497.0677	0.32230778098393	-0.0297508442379486	0.323677954787866	5.27378257683033
423.5089	0.321760459907666	0.00142107750314056	0.321763598036296	-0.253049159346488
361.5036	0.313801878949543	-0.0231655187468459	0.314655780959248	4.22203718386079
308.1262	0.333143684912213	-0.0164365246100466	0.333548908165122	2.82454843082869
262.7298	0.313667755150685	-0.0134027333782684	0.31395396777757	2.44670740212511
224.2111	0.325730403005155	-0.0105896604008891	0.325902495156614	1.86205897614243
191.2854	0.322151624846804	-0.0149547591915346	0.322498549165593	2.65784750625097
163.1722	0.317704605236575	-0.0124187077276176	0.317947229096515	2.23848651796543
139.1537	0.31164876386994	-0.0121410256625422	0.311885165607152	2.23096644690434
118.6706	0.309931291321579	-0.00974472782278633	0.310084448272728	1.80087625094718
101.1982	0.311291351099696	-0.00799319336107207	0.311393956925277	1.4708909491241
86.24196	0.312543735531884	-0.0137931417914841	0.312847946102742	2.52693066076814
73.61024	0.291132199650399	-0.00786385812591939	0.291238386786331	1.54725705589032
62.69291	0.255360408953048	-0.0455731550588397	0.259395163645517	10.1188185437331
53.57697	0.304555591016012	-0.00865877024995817	0.304678654193815	1.62852825434065
45.65746	0.287516351251895	0.00457997939683822	0.287552827230891	-0.912613478620122
38.96512	0.313999255976573	-0.0158937166932473	0.314401245201361	2.89767045055888
33.18414	0.299354828228213	-0.00546193967527698	0.299404652549955	1.04528586678723
28.30617	0.307400694523199	-0.0253728012528267	0.30844605044766	4.7184879246078
24.17237	0.313104471021641	-0.00148921092571302	0.31310801254986	0.272512421055523
20.61345	0.296329629052025	0.00300273977936881	0.296344842202954	-0.58056438281898
17.55618	0.299619979357236	0.00711563394469416	0.299704461555822	-1.36045390707043
14.98558	0.299764542859105	-0.00859447187518085	0.299887722493505	1.64226262564773
12.76553	0.301428175069166	-0.0078702537312887	0.301530903257564	1.49564616362053
10.8809	0.296228788090021	-0.00648840927227183	0.296299838589506	1.25477012288517
9.278505	0.298030804635539	-0.00907615542201086	0.298168974088438	1.74433219206131
7.923394	0.295461556863231	-0.00410876118479595	0.295490124204715	0.796717867652239
6.75822	0.293044679553097	-0.0101865732681885	0.293221674658142	1.99086619102359
5.761429	0.288585970341139	-0.0143150689631318	0.28894079579934	2.83978223268563
4.919708	0.296947845397275	0.00184961078911189	0.296953605713343	-0.356875872726176
4.191257	0.290642694095459	-0.00809953198669142	0.29075552969715	1.59628620033525
3.564097	0.2923584029797	-0.0118641596045452	0.292599032937505	2.32383774887489
3.051758	0.306811087276067	0.018517874416605	0.307369411211382	-3.45395116314683
2.604164	0.30352188739383	-0.0130007000780091	0.303800188165891	2.45264095305148
2.214424	0.296338506338104	-0.00979868250967164	0.296500462929864	1.89384323686952
1.892567	0.294067700043462	0.00305554099537092	0.29408357407313	-0.595316327170213
1.607507	0.292371174952057	0.00948344452193224	0.292524938531481	-1.85781278592272
1.376413	0.264232107021963	-0.00753009478205056	0.264339381683269	1.63237509297716
1.17375	0.334856382627604	0.0284697759902325	0.336064465737421	-4.85964925546756
1.001604	0.21086868966811	-0.110535229661322	0.238083265431712	27.6630727095365
