EC-Lab ASCII FILE
freq/Hz	Re(Z)/Ohm	-Im(Z)/Ohm	|Z|/Ohm	Phase(Z)/deg
6999984	3.71190375224107	3.09693008931096	4.83417060559316	-39.8390503800631
5969734	4.3464334290374	2.00120998326144	4.78501044410135	-24.7225616316778
5091109	4.61828167158243	5.81603920171226	7.42663029872418	-51.548331008144
4341796	9.78310796808077	-27.2023760203014	28.9081037542242	70.2193009484941
3702781	-4.44977712645555	-8.00337321414481	9.15721023456477	119.073521378576
3157797	-4.60334712757451	-8.2062943134625	9.40925454731221	119.290385904033
2693047	-3.44833490282499	-5.02062657483799	6.090788520874	124.482586739288
2296687	-3.83867697016919	-4.45726580606528	5.88240251489356	130.735618932227
1958656	-2.97366123186841	-3.99915546848845	4.98356354259261	126.633470302209
1670375	-1.7066201454983	-4.32560694151036	4.65009975521636	111.531162259253
1424531	-0.795714763645133	-3.72503680225672	3.80907615613678	102.05787807456
1214875	-0.202148156658895	-3.47457886275002	3.48045430234471	93.3296682066549
1036062	1.41610794418792	-3.19294247774031	3.49288467827819	66.082144597193
883578.1	1.50903479361303	-2.07572024888997	2.56628146546449	53.9830979698185
753531.2	1.96870003862852	-1.1213950952676	2.26568020730777	29.6663566148539
642624.9	1.54652272507654	-0.460615037169449	1.6136600483512	16.5855926421464
548046.8	1.0418561755096	-0.288952895249399	1.08118364125642	15.5010522908991
467390.6	0.725309214581025	-0.570894121195309	0.923034969202959	38.2064415203056
398593.7	0.439931567046072	-0.848547641539057	0.955810066720951	62.5954099349244
339937.5	0.266490760515623	-1.52021089787235	1.54339188136068	80.0571581782289
289906.2	0.629302850931003	-3.49295369788614	3.54918971228172	79.7869512820452
247234.4	2.38064251046175	-8.48576737962778	8.81338225562539	74.3287834382905
210843.7	-7.92488528203436	-16.1131637198314	17.9565545635987	116.189194542107
179812.5	-42.7974457281548	21.8112265673031	48.0348932050919	-152.994857385721
153343.8	-1.96929094095629	42.950014325466	42.9951373688685	-92.6252165975416
130781.2	-20.4618139612251	72.9354759393835	75.7513661994829	-105.671293705332
111531.3	-4.14587529225807	118.749272215017	118.821622331691	-91.9995466852587
95109.37	26.7474559471127	103.450947681296	106.852819222522	-75.5035188056472
81109.37	32.3369003169241	74.1776105234185	80.9196701987264	-66.445743613983
69171.88	28.9072679562873	55.7404696657988	62.7903662934087	-62.5885344413828
59000	34.6872027054951	37.4620697029919	51.05495762376	-47.2025148870121
50312.5	39.4809739912138	17.538489219414	43.2012258089328	-23.9520537183639
42906.25	5.56149098846806	9.78863006517649	11.2582174684845	-60.3965698045508
36593.75	7.88619142217034	10.6321822358018	13.2376476098441	-53.4346226612737
31203.13	10.1103066820781	9.14454016250695	13.6323481465731	-42.1286183772957
26609.38	11.1479183311834	8.11339417157581	13.7877934457293	-36.0469234834118
22703.13	12.3684281902964	6.56292759959462	14.0017868351164	-27.9512876692211
19359.37	13.0252516915713	5.04324971797528	13.9675176515599	-21.1659146592474
16500	12.9687886681121	3.2990122159399	13.3818145675044	-14.272241166838
14112.02	13.1306013231042	2.17052139770626	13.3087886091938	-9.38625762519061
12011.13	12.4465201774176	0.761986714146362	12.4698231053772	-3.50332465522664
10236.38	11.4831796457388	-0.660101537396499	11.5021367065421	3.28998210133629
8750.684	20.2472414082931	-19.3134722681641	27.9814402005837	43.6478732668646
7449.463	19.8572721630354	-21.0238551307388	28.9190895830964	46.6345475542769
6363.206	19.679889689929	-23.8793910800082	30.9438746209933	50.5068025985772
5414.761	19.7083074511017	-28.0027710721419	34.2428469947512	54.8621756557319
4620.567	20.263529056813	-33.4900741028347	39.1432711107499	58.8235141780192
3941.215	20.3560878546638	-40.2573744905628	45.1112681446688	63.1766183223051
3361.769	20.8365722450942	-48.8559032141125	53.1136707617894	66.9022190893638
2867.244	21.5356230071616	-59.2070491533869	63.0020454251936	70.0119475224363
2442.658	22.5204469079971	-71.8812124053035	75.326484225618	72.6041804749467
2083.003	22.9993401866914	-86.9055655096175	89.8974246881943	75.1766463835251
1777.843	23.6326520912918	-104.176122477444	106.823062768784	77.2186106695918
1513.548	22.8394657136325	-124.42628473127	126.505104743292	79.5986773505652
1292.065	22.8407613393894	-148.485698240993	150.232163535903	81.2550410405089
1101.762	22.279078534869	-175.304363553794	176.714394493951	82.7572217877829
939.101	20.8381006571407	-207.374195683117	208.418529584624	84.261866253576
801.2801	18.6540983374981	-248.074412865058	248.77477706377	85.6997038404568
684.3433	19.6400603871121	-286.589409976397	287.261591380799	86.079632154408
582.9476	13.5545145531157	-334.089017386765	334.363868268126	87.6766947125557
497.0677	9.60976727360598	-392.408048722093	392.525698940762	88.5971514104333
423.5089	5.74727513887794	-459.194966153836	459.230931136552	89.2829245954254
361.5036	1.17009641598253	-532.508198383971	532.509483926592	89.8741024484414
308.1262	-5.47176195985727	-625.280154507382	625.304095460537	90.5013766425506
262.7298	-11.4899091649815	-729.056176315104	729.14671105054	90.9029054653783
224.2111	-18.001330655731	-851.496254846676	851.686515053099	91.2110994633792
191.2854	-27.6611977496226	-990.342772484825	990.728998704426	91.599908623155
163.1722	-36.7914168851437	-1155.02178005905	1155.60759809167	91.8244507830667
139.1537	-51.0845019229949	-1347.06435380503	1348.03264041672	92.171777798475
118.6706	-48.6168822657998	-1563.10826267468	1563.86413798741	91.7814789484319
101.1982	-77.0579400374009	-1823.90907260486	1825.53614898559	92.419238270192
86.24196	-99.9356638310636	-2132.55536684321	2134.89567182032	92.6830280390703
73.61024	-121.60205221042	-2467.4984390392	2470.49298840589	92.8213400508149
62.69291	-147.713409118715	-2887.60930240124	2891.38491635888	92.9283685669453
53.57697	-170.747833030631	-3353.81049920682	3358.15420835234	92.9145029883031
45.65746	-203.021835480716	-3910.79159512544	3916.05780935187	92.9717414720367
38.96512	-242.833357521714	-4551.00136334373	4557.47533714465	93.0543046903151
33.18414	-279.493024210255	-5338.2746028464	5345.58622472569	92.9970662065815
28.30617	-307.998111580484	-6224.32153422178	6231.93721070055	92.832856502497
24.17237	-378.484679704758	-7220.97900110975	7230.89125815339	93.0003893617932
20.61345	-443.088851972359	-8449.9833161421	8461.59238995959	93.0016498689425
17.55618	-533.729498655569	-9857.32074678018	9871.759695345	93.0992818772328
14.98558	-626.781299442999	-11491.5785611398	11508.6590280614	93.12197100592
12.76553	-766.789934388772	-13419.5564076641	13441.4456433063	93.2703097790794
10.8809	-908.969601737188	-15663.332678624	15689.6850299211	93.3212457270665
9.278505	-1066.82304135558	-18245.5954061725	18276.757456598	93.3462839827137
7.923394	-1175.87887805173	-21277.1630801151	21309.6306836524	93.1632239671694
6.75822	-1446.03252680683	-24763.4136230939	24805.5974396308	93.3419295034707
5.761429	-1727.63570871494	-28947.1628083474	28998.6716901826	93.4154972843655
4.919708	-2035.33579459897	-33712.7587440986	33774.1423863667	93.4549167806705
4.191257	-2381.20615570317	-39367.0561567174	39439.0067471545	93.461448499535
3.564097	-2865.86492287351	-46051.4368776222	46140.5247071355	93.5610285643288
3.051758	-3362.93236645068	-53497.6781161683	53603.2730150173	93.5969530180835
2.604164	1480.47191395233	-85398.3915833859	85411.2233966785	89.0068162339519
2.214424	1464.08407109166	-98995.4685707081	99006.2944448547	89.1526912885922
1.892567	1432.06120632348	-114519.285273678	114528.238870999	89.2835548490001
1.607507	1310.55424804512	-133353.869837518	133360.309511783	89.4369356507566
1.376413	921.897987796943	-154050.240622204	154052.999099851	89.6571233314254
1.17375	744.394934979285	-178496.951479335	178498.503666656	89.7610578754621
1.001604	100.650192404692	-206959.981489516	206960.005963959	89.9721355271883
