EC-Lab ASCII FILE
freq/Hz	Re(Z)/Ohm	-Im(Z)/Ohm	|Z|/Ohm	Phase(Z)/deg
6999984	5.84987182372123	4.46809166335616	7.36103548871491	-37.37234102131
5969734	4.34266144212254	1.95759388379035	4.76349474805538	-24.2649975364864
5091109	2.75563558740121	0.485915277852646	2.79814959353546	-10.000451192837
4341796	1.80820049798263	-0.134291539006806	1.81318042630992	4.24744843503264
3702781	1.05185233243539	-0.216035632092214	1.0738085134619	11.6063430306076
3157797	0.758485341603479	-0.1601424014454	0.775206812513955	11.9220198574129
2693047	0.596581057623216	-0.0932164980073356	0.603819736192506	8.88072550339078
2296687	0.501167122599781	-0.0123164906456563	0.501318442426337	1.40779569080871
1958656	0.453981914795262	0.0349560542212481	0.455325712746262	-4.40301736260876
1670375	0.43088936514877	0.0655953196969069	0.4358536347955	-8.65581665049013
1424531	0.416967903201505	0.0746219984339263	0.423592581321407	-10.1464351094584
1214875	0.412040026374465	0.0752103245193743	0.418847915416777	-10.3444092164099
1036062	0.408405952785037	0.0695744308149929	0.414289782270193	-9.66787211107536
883578.1	0.401879687889653	0.0619197875115057	0.406621868108142	-8.75899489023729
753531.2	0.397821487817583	0.0542061152951606	0.40149749576403	-7.75918926731195
642624.9	0.392851942166322	0.0473161012860707	0.39569111931501	-6.86777007049152
548046.8	0.389015108842944	0.0401697305769891	0.391083574396466	-5.89547215131041
467390.6	0.384893309732068	0.0341311645874889	0.386403670107576	-5.06755959650227
398593.7	0.38194753231546	0.0287110287819382	0.383025117473498	-4.29884389517146
339937.5	0.379314784570383	0.0248527601265261	0.380128090884616	-3.74866976676402
289906.2	0.377826757242544	0.0217696349973059	0.378453399372144	-3.29762421240775
247234.4	0.377006554708848	0.0189010126629212	0.377480053212246	-2.87008883525908
210843.7	0.37637497061263	0.0169157759810277	0.376754909696873	-2.57336659823232
179812.5	0.376393447281379	0.015375781550113	0.376707368941247	-2.33924859469052
153343.8	0.376253503776108	0.0134250035710322	0.376492934627836	-2.04348892675958
130781.2	0.376923643021745	0.0130777134505752	0.377150446450589	-1.98713279803052
111531.3	0.378165888393823	0.0118408491118498	0.378351218912241	-1.79341691341238
95109.37	0.379082904955454	0.0105028239169227	0.379228372013086	-1.58702376461917
81109.37	0.379522050635668	0.00917784981238017	0.37963300679193	-1.38529391932053
69171.88	0.379899964797313	0.00825278585301406	0.379989594235599	-1.24447349834887
59000	0.380279048784658	0.00729966820912644	0.380349102931146	-1.09968935535049
50312.5	0.380360032642364	0.00647325337309874	0.38041511200389	-0.975008582509868
42906.25	0.380727417621068	0.00583325752299184	0.380772101685164	-0.877779936507348
36593.75	0.380904071030708	0.0051409363307074	0.380938762210047	-0.773255245941632
31203.13	0.381065192478068	0.00462704473434413	0.381093283149049	-0.695673895691943
26609.38	0.38126202890352	0.00416308165779355	0.381284757015696	-0.625600011431853
22703.13	0.381343052576019	0.00382129968491388	0.381362198020829	-0.574120899454939
19359.37	0.381765203701429	0.00339613043524751	0.381780309155837	-0.509681883222622
16500	0.382016193849633	0.0029944704325047	0.382027929890645	-0.449109243487627
14112.02	0.382211587804358	0.00260477063417635	0.382220463452684	-0.390464492141689
12011.13	0.382325494180053	0.00242813177403319	0.382333204579375	-0.36387798994047
10236.38	0.382460121933648	0.00205316394964734	0.382465632902755	-0.307578469441561
8750.684	0.382516324182038	0.00175415450825295	0.382520346287327	-0.262746813803754
7449.463	0.382709169085683	0.00153140704962524	0.382712233028689	-0.229267285552434
6363.206	0.382794530993877	0.00132555194211767	0.382796826066745	-0.198404684734594
5414.761	0.382782865798182	0.00112263990830833	0.382784512054802	-0.168038723733574
4620.567	0.382878800127712	0.000965365850770888	0.382880017131297	-0.14446156775972
3941.215	0.382930600779362	0.00082663893298974	0.382931493018227	-0.123685201375804
3361.769	0.382958912418079	0.00077515815018733	0.38295969692723	-0.115973877002697
2867.244	0.382943502448444	0.000676704379932687	0.382944100354477	-0.101248002231142
2442.658	0.382969885691698	0.000566847545708138	0.382970305197221	-0.0848054886095961
2083.003	0.382845892831395	0.000459660313641467	0.382846168774708	-0.0687916047145872
1777.843	0.382720689934439	0.000397657656122187	0.382720896523178	-0.0595319191959189
1513.548	0.382583385610671	0.000348044580479372	0.38258354392257	-0.0521232254006223
1292.065	0.382404461908772	0.00026790224668139	0.382404555751302	-0.0401398704112407
1101.762	0.382277530304947	0.000254960877651797	0.38227761532831	-0.0382135461969652
939.101	0.382209551160143	0.000188199998201438	0.382209597494984	-0.0282124418322417
801.2801	0.382212959383339	0.000163271677970565	0.382212994256096	-0.0244753016951891
684.3433	0.382245850587807	0.000137864043540595	0.382245875449416	-0.0206647828533141
582.9476	0.382243286615209	7.25722143524781E-05	0.382243293504442	-0.0108781022138404
497.0677	0.382189087586523	3.75418456231742E-05	0.382189089430362	-0.00562807618606963
423.5089	0.382186281634368	5.53840667671952E-05	0.382186285647326	-0.00830294913320291
361.5036	0.382117621116706	3.87191761007648E-07	0.382117621116903	-5.80566101692365E-05
308.1262	0.38209626480464	3.42645590574568E-05	0.382096266340981	-0.00513801048699156
262.7298	0.382274652695321	-2.45113360820196E-05	0.382274653481151	0.00367378819364498
224.2111	0.382344386427502	2.93426223558226E-05	0.382344387553437	-0.00439710501112081
191.2854	0.382429481644042	3.70867721745794E-05	0.382429483442319	-0.0055563590588531
163.1722	0.382456773785948	3.17012530682867E-05	0.382456775099782	-0.00474915892833894
139.1537	0.382508972839447	3.76097473401387E-05	0.382508974688414	-0.00563354048456179
118.6706	0.382578924340332	6.69624448130944E-06	0.382578924398934	-0.00100284287219732
101.1982	0.382645788982516	1.83155358529881E-05	0.382645789420857	-0.00274249170724124
86.24196	0.38266473028079	2.26626222275662E-05	0.382664730951867	-0.00339323826334359
73.61024	0.382732699823395	2.50847872528726E-05	0.382732700645439	-0.0037552381549274
62.69291	0.38275184842448	2.0171952517638E-05	0.382751848956036	-0.00301962680908366
53.57697	0.382830695578107	2.42058527789941E-05	0.382830696343359	-0.00362273249747867
45.65746	0.382887475822242	9.82709806361727E-06	0.382887475948352	-0.00147053972599569
38.96512	0.382856687025372	3.37294445001868E-05	0.382856688511144	-0.00504772379763484
33.18414	0.382957097368941	3.36078936985696E-05	0.382957098843637	-0.00502821458471064
28.30617	0.383012405372798	3.83075985444863E-06	0.383012405391955	-0.000573052906124815
24.17237	0.383006301985284	4.06035706432161E-05	0.383006304137533	-0.00607408601436449
20.61345	0.383122306886013	-8.38989961926122E-06	0.383122306977877	0.00125470595161211
17.55618	0.383308098303967	9.64369444423607E-06	0.383308098425281	-0.00144151139226318
14.98558	0.383423967517775	2.13466386309288E-05	0.383423968111998	-0.00318986918579308
12.76553	0.383503474849488	5.76036408852934E-07	0.383503474849921	-8.60603807724916E-05
10.8809	0.383677212371594	4.03202547193466E-05	0.383677214490201	-0.00602115617325031
9.278505	0.383776189113832	-7.04545154828315E-07	0.383776189114479	0.000105184909833045
7.923394	0.384004499554987	3.5042507346233E-05	0.384004501153897	-0.0052285527155249
6.75822	0.38412284556878	7.82110605356444E-06	0.384122845648403	-0.00116659650187689
5.761429	0.384292944836278	3.30894979817501E-05	0.384292946260862	-0.00493344621948041
4.919708	0.38438310855772	3.43069612960891E-05	0.384383110088702	-0.00511376291310162
4.191257	0.384532312618259	2.38917155344638E-05	0.384532313360478	-0.00355989449721329
3.564097	0.384748810411055	8.98966365024686E-07	0.384748810412105	-0.000133871703423876
3.051758	0.385013250622168	-1.84191032122902E-06	0.385013250626574	0.000274104040514617
2.604164	0.385346200567073	-6.04069474750825E-06	0.38534620061442	0.000898169785562669
2.214424	0.385771106279947	-8.44330276569827E-06	0.385771106372345	0.00125402241296252
1.892567	0.386345341053053	-8.10584592311551E-06	0.386345341138087	0.00120211300968146
1.607507	0.386938485653021	2.52036097595995E-05	0.386938486473852	-0.00373201560253295
1.376413	0.387613789581606	5.37620326184163E-06	0.38761378961889	-0.000794692461846452
1.17375	0.388552263231952	1.20962186722359E-05	0.388552263420238	-0.00178370413286932
1.001604	0.389527184145498	5.27504724291395E-06	0.389527184181216	-0.000775909759406473
