EC-Lab ASCII FILE
freq/Hz	Re(Z)/Ohm	-Im(Z)/Ohm	|Z|/Ohm	Phase(Z)/deg
6999984	19.8376874945257	90.8224617686841	92.9637209176491	-77.6788103706409
5969734	16.5191841125031	89.8465059171692	91.3524935032793	-79.5819469829474
5091109	12.7183377663931	94.390307137824	95.2433000116691	-82.326071046947
4341796	10.4267513043943	103.007800062402	103.534168352576	-84.2200403345314
3702781	11.6421665330728	114.94627831319	115.534353936987	-84.2166025877606
3157797	12.5832338639851	128.893949649834	129.50671036981	-84.4241851969365
2693047	13.5332096467379	145.780741060125	146.407555226436	-84.6962828538442
2296687	14.6350462900323	167.437739930571	168.076117675799	-85.0047060349631
1958656	17.4058930204155	192.813182817155	193.59723288291	-84.8416995422484
1670375	21.0215008213515	223.71767176619	224.703137844728	-84.6319969892305
1424531	26.8053220565815	259.042899634191	260.426091514361	-84.0921561546582
1214875	34.0027066909856	300.060023824866	301.980466189607	-83.5348401073345
1036062	43.4670581100725	347.874022297466	350.579121640412	-82.8777721078785
883578.1	55.7607652156225	404.112828040826	407.941712410714	-82.1437558765363
753531.2	71.9268341517315	468.209790887408	473.702309213203	-81.266442900632
642624.9	152.461566551592	608.577032197441	627.383880406256	-75.9356435747349
548046.8	193.177547861095	694.419901396576	720.788848729818	-74.4542038996446
467390.6	242.486988812959	784.321415079523	820.950681768352	-72.820070972152
398593.7	300.472621708046	886.853105494529	936.371842336898	-71.2832262782726
339937.5	372.521779316752	1000.43696791908	1067.54231899463	-69.5767287812549
289906.2	458.792953356627	1123.7937314338	1213.83826140866	-67.7920798409814
247234.4	566.134189269784	1258.43443296965	1379.91490402263	-65.7783623742147
210843.7	694.286188721733	1400.57323132044	1563.21421697128	-63.631661403198
179812.5	853.762273503285	1549.62927483222	1769.25433702295	-61.1476028824083
153343.8	1039.58584117716	1693.82305784094	1987.40415428006	-58.4604308232447
130781.2	1261.62249724732	1830.74289781706	2223.35577078167	-55.4280516925149
111531.3	1513.17193350767	1949.01677850099	2467.45936202275	-52.1750551627699
95109.37	1796.36664055387	2040.5192597914	2718.57535427555	-48.6409941866234
81109.37	2098.64956968269	2098.60397324926	2967.90644274157	-44.999377573175
69171.88	2410.15583762937	2115.66192768659	3207.00429590006	-41.2770254768148
59000	2721.5476113841	2092.15200664848	3432.77168188532	-37.5507829970256
50312.5	3020.34140621747	2047.60908424003	3648.99509070292	-34.1349002957028
42906.25	3300.31174761503	1913.26091539861	3814.79029067623	-30.1017816208415
36593.75	3530.78464528438	1794.88870955905	3960.81629100347	-26.9466921191285
31203.13	3720.60740920454	1660.98251800937	4074.52849033608	-24.0573117949073
26609.38	3912.35580194819	1532.35428856324	4201.74220850302	-21.3888124302871
22703.13	4052.72716389679	1403.99768690993	4289.03333745908	-19.1077643154682
19359.37	4171.48425804727	1277.80893529105	4362.80604545352	-17.0308725222103
16500	4274.51250427286	1160.83725887337	4429.33406854503	-15.193482816895
14112.02	4421.35304876121	911.680102064438	4514.36854834541	-11.6510566569396
12011.13	4476.45372459888	840.922493542723	4554.75450366113	-10.639281945674
10236.38	4520.16462157313	785.237259891005	4587.86287506967	-9.85500012696509
8750.684	4560.78065856392	744.665332402605	4621.17373324278	-9.27319013389949
7449.463	4596.95673746182	710.403522525183	4651.52495542181	-8.7848696642654
6363.206	4634.43886955766	692.790266074436	4685.93448401003	-8.50204050785497
5414.761	4665.31435943466	680.513676998507	4714.68524261475	-8.29901291315036
4620.567	4696.70134154209	688.701374042287	4746.92669779627	-8.342122257656
3941.215	4731.93590156447	691.634988395931	4782.21458465513	-8.31565160752096
3361.769	4769.68705312999	718.670992607449	4823.52594897252	-8.56856663744761
2867.244	4809.267310299	749.097466216431	4867.25786000726	-8.85332093204967
2442.658	4852.37990806006	793.148276656872	4916.7748535914	-9.28321689531428
2083.003	4895.25783572512	845.139595575472	4967.67654082244	-9.79524635851089
1777.843	4943.87904593744	907.618730895828	5026.50094812806	-10.402770697422
1513.548	5000.5701048763	978.745285864575	5095.4532387595	-11.0743173403609
1292.065	5059.9809753703	1069.28414092849	5171.72853552375	-11.9322929906796
1101.762	5129.93763618339	1166.38693749461	5260.86671938083	-12.8094913750249
939.101	5198.24663261608	1282.42852510015	5354.10038900046	-13.8583708331032
801.2801	5283.36275691356	1407.99815983524	5467.75830109933	-14.9223190811934
684.3433	5370.12557732587	1548.3648966934	5588.88920712889	-16.0838248530606
582.9476	5469.43988147203	1712.31410656033	5731.21210709936	-17.3837400394975
497.0677	5569.39048569981	1888.41175097309	5880.83406698547	-18.7302424242565
423.5089	5693.19848435474	2095.86498657964	6066.72556031914	-20.2104215921974
361.5036	5823.99399149688	2313.86791693382	6266.80865752318	-21.6678829835615
308.1262	5969.49278905005	2566.88573074843	6497.98018719975	-23.2677358461714
262.7298	6127.99570452065	2849.20965572967	6757.982466456	-24.9360571652995
224.2111	6301.20943561571	3158.95896832864	7048.70641430585	-26.6257899172316
191.2854	6494.12804476705	3510.63257883669	7382.2923381169	-28.3950205632381
163.1722	6700.96229942763	3925.75505522786	7766.23773084481	-30.3638811642241
139.1537	6942.58384339254	4343.72230473725	8189.46847379042	-32.0327181453678
118.6706	7214.32791224151	4850.31971720556	8693.22314130151	-33.9136354543792
101.1982	7488.90141819895	5393.53571143726	9228.96916898367	-35.7615790422808
86.24196	7806.02865326667	6022.84405542376	9859.44896287686	-37.6524543577715
73.61024	8155.8910544642	6722.53952672584	10569.3470271668	-39.4972466777999
62.69291	8554.99077990875	7517.12279292079	11388.3713641667	-41.3052150003352
53.57697	8979.96210428532	8398.3255496591	12295.1857014222	-43.0830743907364
45.65746	9467.31422124383	9404.81585037799	13344.6843253517	-44.8102556641583
38.96512	10013.0729935513	10526.994852629	14528.5667359676	-46.4332674808474
33.18414	10626.3904827321	11811.7835596887	15888.310342904	-48.0240847990281
28.30617	11293.8379876776	13220.885204685	17388.0010952199	-49.4946497351668
24.17237	12098.5844473578	14815.0957558629	19127.5405602821	-50.763585093621
20.61345	12975.3226590622	16640.0026748574	21100.9167366262	-52.054075124328
17.55618	13987.5223403381	18689.6676327136	23344.2596250718	-53.1884742629075
14.98558	15108.9878849381	20927.1692326103	25811.3914192459	-54.1714864928576
12.76553	16404.7599440234	23502.1806025404	28661.2742545663	-55.0845692239119
10.8809	17877.1333187638	26362.6879304961	31852.522829716	-55.8579190078897
9.278505	19548.1628957742	29533.1780329243	35416.6525426123	-56.4992192088237
7.923394	21415.3676328199	33048.8654742974	39380.7755127682	-57.0571254026765
6.75822	23617.8043058161	36954.5527051122	43857.0364464215	-57.4171892698705
5.761429	26120.0565029016	41224.9614906242	48803.2253198312	-57.6417314297823
4.919708	28829.7700561179	46053.1026908467	54332.7149049475	-57.9529621040974
4.191257	32103.7349592397	51410.1175577	60610.6425112755	-58.0167323066954
3.564097	35717.7748226573	57297.7442879588	67518.8191452603	-58.0617667893927
3.051758	39796.9564289686	63687.5980097265	75099.3201118209	-57.9996581644005
2.604164	44264.5564260308	70601.7549781535	83330.4191852441	-57.9138863824695
2.214424	49620.6982595756	78449.1054190912	92824.9742085799	-57.6857918842279
1.892567	55445.4728236603	86798.6084110358	102996.110988384	-57.4302527075995
1.607507	62229.7865304741	96435.3196329017	114770.715796009	-57.1658154964128
1.376413	69280.6027405229	106378.01574379	126949.140011566	-56.9250872787886
1.17375	77422.495593904	117426.663844798	140652.992167629	-56.6020823217836
1.001604	86628.1331678981	129639.069162732	155918.958788002	-56.2481433734195
