EC-Lab ASCII FILE
freq/Hz	Re(Z)/Ohm	-Im(Z)/Ohm	|Z|/Ohm	Phase(Z)/deg
6999984	3.85446021094462	1.00411429072996	3.9831029394937	-14.6014283384524
5969734	6.12756759074573	1.01492060712249	6.21105050840188	-9.4046266521025
5091109	7.79001956543416	0.728598538298992	7.82401819143197	-5.34331501597402
4341796	0.868165045020051	0.692003501380606	1.11021592103414	-38.5579110205727
3702781	3.88973984271469	-2.73434790780529	4.75465398582497	35.1058460344874
3157797	7.73311736064472	-6.58505429564487	10.1569702268982	40.4157037529726
2693047	0.787611152767089	-11.9666611870664	11.9925523260899	86.2343880548729
2296687	5.34994737070813	-11.6121603306049	12.7853120577098	65.2635597952896
1958656	-1.98423042022436	-11.3201246627747	11.4927104175344	99.9420022329212
1670375	15.1469172171982	-10.6309385395089	18.5052953344569	35.0632867294651
1424531	-1.85243272347447	-4.11143205921049	4.50947675152038	114.254258772171
1214875	3.63542646204454	-3.91856261963089	5.3452276438803	47.1465369104278
1036062	5.89852299948358	-15.5155449909965	16.5989370124437	69.1847683536059
883578.1	10.9605812039381	-14.9925729013549	18.571795350223	53.8306797371578
753531.2	7.49151324320378	-6.7720004849195	10.0986514565484	42.1122031364652
642624.9	16.5827553326453	-4.91959419645401	17.2971148310971	16.5240054087478
548046.8	21.8153911160188	1.57284686996703	21.872017209696	-4.12377778678483
467390.6	28.5973254705105	-2.52831095593075	28.7088728506744	5.05242606225948
398593.7	24.5478512209504	-6.50835349837905	25.3959773355108	14.8491466411773
339937.5	31.1758677754385	13.1358928918138	33.8302588464355	-22.8480328020822
289906.2	-3.20069878815382	-12.4718911857268	12.8760452966389	104.393368639072
247234.4	1.35148854790426	0.140987933606761	1.35882261260956	-5.95558115359758
210843.7	-0.240179901409548	0.239264396707357	0.339018932469612	-135.109406852917
179812.5	-0.259606810517981	0.229308874855244	0.346378775554589	-138.546065003892
153343.8	-0.215691757830047	0.176328262123423	0.278593952589216	-140.733961640378
130781.2	-0.204890336097489	0.154056291090023	0.256346231980413	-143.060628654845
111531.3	-0.196868110819916	0.133543512055499	0.237888466870338	-145.849386131086
95109.37	-0.192481027877914	0.115566417672117	0.224509561013567	-149.019217836868
81109.37	-0.19040132014988	0.100976868464458	0.215520279045164	-152.061337250115
69171.88	-0.18619886705623	0.0877476779315606	0.205838949364314	-154.767474212297
59000	-0.18359346791181	0.0737110382284324	0.197838011050956	-158.125006891764
50312.5	-0.183609261270368	0.0721858456527035	0.197289526171174	-158.537765687376
42906.25	-0.176531403504199	0.0602788105852129	0.186539195422116	-161.146900894843
36593.75	-0.175593169031987	0.0527276907269464	0.183338949435444	-163.285866935625
31203.13	-0.174742944770865	0.0454815978098752	0.180564870577122	-165.410910101986
26609.38	-0.172954871768358	0.0407169831672727	0.177683033479995	-166.752662666623
22703.13	-0.171948058400002	0.036216547771323	0.175720724787952	-168.105931682943
19359.37	-0.170633649083948	0.032111408781626	0.173628870795282	-169.342202717496
16500	-0.169184071860986	0.028472149894671	0.171563147240565	-170.447151825406
14112.02	-0.168221693290398	0.0254656316691679	0.170138286372582	-171.391844638018
12011.13	-0.167210487149187	0.0227150736179509	0.168746323166276	-172.263886402207
10236.38	-0.166365617238949	0.0203948085896163	0.16761105815758	-173.010966071278
8750.684	-0.16559770278462	0.0184531293293885	0.166622678977355	-173.641563420599
7449.463	-0.164600768635019	0.0167266135827531	0.165448459156276	-174.197561664994
6363.206	-0.164159824511053	0.0154995981845165	0.164889919423175	-174.606252460261
5414.761	-0.163642475390528	0.0143904390255676	0.16427399212075	-174.974435139412
4620.567	-0.163337680233946	0.0137929720562325	0.163919016170641	-175.173136902763
3941.215	-0.163538399097898	0.0136850835662107	0.164109992053249	-175.216567103634
3361.769	-0.163347605634629	0.0132097992762817	0.163880868509677	-175.376594215814
2867.244	-0.162572463601434	0.0124237711798446	0.163046484205483	-175.629956152821
2442.658	-0.161586518292397	0.0116676378733295	0.162007211775903	-175.870025468981
2083.003	-0.16059899417844	0.0109433477866949	0.160971406752588	-176.101844192891
1777.843	-0.159730812692902	0.0102753506795163	0.160060973866593	-176.319281676143
1513.548	-0.158848887110132	0.00963591570482474	0.159140880378355	-176.528640454484
1292.065	-0.1580511387211	0.00906873701332832	0.158311100185847	-176.716054949271
1101.762	-0.157284578249884	0.00854905952515279	0.157516745059084	-176.888801724503
939.101	-0.156571983479939	0.00806818428819058	0.156779723206002	-177.050146639612
801.2801	-0.155915655949206	0.00766187504062587	0.156103799118437	-177.186682482191
684.3433	-0.155320317369543	0.00726724379852376	0.155490237057517	-177.321155676709
582.9476	-0.154674874311602	0.00695153376490148	0.154831006471554	-177.426694502572
497.0677	-0.154090282661508	0.00666634845048855	0.154234417081165	-177.522779524815
423.5089	-0.153531822113899	0.00640670623504244	0.153665436212559	-177.61049936325
361.5036	-0.152931512584045	0.00608738623992283	0.153052617790346	-177.720564555694
308.1262	-0.152484114431517	0.00589272940859386	0.152597933845275	-177.786913068371
262.7298	-0.151918001639632	0.00573103583247122	0.152026063534817	-177.839567889743
224.2111	-0.151404489446948	0.0055618688388524	0.151506613088906	-177.896176119902
191.2854	-0.151094516051862	0.00549783073808175	0.15119450692327	-177.916115051173
163.1722	-0.150486292488438	0.00534219637501166	0.150581085429163	-177.966879111821
139.1537	-0.150030548213443	0.00520239049335542	0.150120718970007	-178.01403353836
118.6706	-0.1494699399735	0.00497135671128833	0.149552590560085	-178.095049770592
101.1982	-0.148813624727715	0.00486863399111203	0.14889324531872	-178.126161378867
86.24196	-0.148903652256124	0.00493016188840856	0.148985248100134	-178.103644137519
73.61024	-0.146620627935064	0.00540331073591137	0.146720156430469	-177.889472513699
62.69291	0.120176823624003	-0.0905033656915958	0.150443770684802	36.982855771336
53.57697	0.12171068545577	0.0840091790983154	0.147888583490701	-34.6148613111059
45.65746	-0.144220183753193	0.00407857408029274	0.144277843650136	-178.380096273669
38.96512	-0.146337561988856	0.00469152818955065	0.146412747005155	-178.163747410228
33.18414	-0.1450202935294	0.00394547477738482	0.145073954611337	-178.441574645087
28.30617	-0.145750287242697	0.00626041791588313	0.145884677275614	-177.540483920685
24.17237	-0.145388713909665	0.00515482945014921	0.145480068734403	-177.96940012612
20.61345	-0.144614038032655	0.00275011728683358	0.144640185084234	-178.910540600402
17.55618	-0.144940729567936	0.00272617150634747	0.144966365405109	-178.92245812254
14.98558	-0.144007227561128	0.00433573302455639	0.144072482350735	-178.275474180279
12.76553	-0.143604831549405	0.00428279739391372	0.143668681339567	-178.29174618166
10.8809	-0.143088150045531	0.00424361450577346	0.143151063382449	-178.301257281059
9.278505	-0.14293905405672	0.00426780584027613	0.14300275291518	-178.289798125157
7.923394	-0.142182773661243	0.00413749928572482	0.142242961254129	-178.333171030248
6.75822	-0.141708144773003	0.00483307934629709	0.14179053900375	-178.046634836903
5.761429	-0.141597927699727	0.00350053979873618	0.141641190717035	-178.583840065618
4.919708	-0.141350028429198	0.00424752502921784	0.141413832441558	-178.27879733549
4.191257	-0.140823173306933	0.0051690730701725	0.140918009695849	-177.897837697508
3.564097	-0.140419834405197	0.00478618815784615	0.140501378966418	-178.047838048273
3.051758	-0.139719627439629	0.00552916562300242	0.139828988283386	-177.733799880762
2.604164	-0.139531832545517	0.00537444318539709	0.139635299738509	-177.794189632369
2.214424	-0.138826507772277	0.00541554194842286	0.138932096201134	-177.766057404628
1.892567	-0.139139712342548	0.00525441500158798	0.139238889782187	-177.837333354342
1.607507	-0.138642282256682	0.00539127654837417	0.138747065886679	-177.773104785508
1.376413	-0.137472302033447	0.00571328783482195	0.137590971666962	-177.620182349987
1.17375	-0.136467818901558	0.00620176634756762	0.136608665543509	-177.397989317036
1.001604	-0.136563761877989	0.00631642824432645	0.136709759432287	-177.351808918748
