EC-Lab ASCII FILE
freq/Hz	Re(Z)/Ohm	-Im(Z)/Ohm	|Z|/Ohm	Phase(Z)/deg
6999984	34.7158952511559	3.67421012108235	34.9097866378913	-6.04149617497745
5969734	15.652059475745	-15.814770763482	22.2507065086424	45.296267113878
5091109	11.8916505729712	-11.9738493262976	16.8755569104703	45.1973402209707
4341796	10.7241262257621	-9.35903641215556	14.2337080857425	41.1114807810676
3702781	9.80163588627308	-7.52580634323422	12.3575817684101	37.5174597716607
3157797	8.53617058475226	-6.12454683555096	10.5060117167671	35.6587503067886
2693047	6.91064650148336	-5.13675756651458	8.6106511580489	36.6238174985952
2296687	5.90093315091364	-4.33744863789091	7.32355601725646	36.317542909208
1958656	5.57458007204325	-3.65466772578046	6.66577371094181	33.2486549077724
1670375	4.98173038091082	-3.11234007359949	5.8740359482917	31.9951149252734
1424531	1.46413461165775	-2.62051610113285	3.00179859373522	60.8070367689825
1214875	1.31248833793828	-2.26261618854757	2.61573271836048	59.8830277327751
1036062	1.16554757269184	-1.97652390526535	2.2945910076293	59.4723315852253
883578.1	1.02582276426804	-1.7145128633599	1.99796564092506	59.1071855823884
753531.2	0.900786075144851	-1.48592686273815	1.73764041003359	58.7752711316691
642624.9	0.848534985835306	-1.2761865881492	1.5325350990951	56.3801127423719
548046.8	0.841197452359543	-1.11205211234321	1.39437192112548	52.8947875562793
467390.6	0.837250067436085	-0.970117308076211	1.28145045430979	49.2044924485566
398593.7	0.962614854545195	-0.840764637291844	1.2780894074796	41.1345308731657
339937.5	0.907382610888497	-0.72524435112109	1.16160344841769	38.6343206721313
289906.2	0.758065723767007	-0.640200072597063	0.99222969845882	40.1816906007073
247234.4	0.695497395156395	-0.550481004274919	0.88698701384905	38.3613521193751
210843.7	0.63363428400512	-0.475040887176038	0.791931973313161	36.8592000199908
179812.5	0.626886175535633	-0.406042229987673	0.74689796465853	32.9316488188824
153343.8	0.583589535214595	-0.350814791342953	0.680916855010203	31.0114552530148
130781.2	0.575340756081109	-0.304208775608797	0.650814846761647	27.8674410254817
111531.3	0.541752775751265	-0.265178057930223	0.603171180049118	26.0809013244842
95109.37	0.533017135478264	-0.230138092335596	0.580577994982002	23.3529919660869
81109.37	0.564306053787637	-0.208061965495752	0.601440856466645	20.2391382368894
69171.88	0.561409396999035	-0.171006580379114	0.586876274500664	16.9408551230172
59000	0.579617154050253	-0.144848701831516	0.597442207825653	14.0310717717115
50312.5	0.569634832897289	-0.165703557853596	0.59324658611345	16.2194153152783
42906.25	0.504789047602042	-0.0641269115335175	0.508845991791037	7.23990615842899
36593.75	0.554507719150288	-0.103332756970739	0.564053604952959	10.5560139893076
31203.13	0.583765787942449	-0.0896322717713398	0.590606839881625	8.72910941164326
26609.38	0.570565669384805	-0.0761801662640439	0.575628874199816	7.60497767675249
22703.13	0.551953282750811	-0.069298577704437	0.556286544158003	7.15612826962496
19359.37	0.542751112459934	-0.0606153030035646	0.546125429763814	6.37247670449068
16500	0.536370974055808	-0.0551188513330994	0.539195613466817	5.86726543905612
14112.02	0.532949102547653	-0.0482259486469418	0.535126609345159	5.17054704130365
12011.13	0.536971172296871	-0.042188523495212	0.538625947567123	4.49236210935028
10236.38	0.537586105696235	-0.0371307554028834	0.538866879697048	3.95111065268641
8750.684	0.542184666271712	-0.0338455885109349	0.543240035529248	3.57202344077841
7449.463	0.598897450173161	-0.0411195215491251	0.600307396986196	3.92768985689485
6363.206	0.519429725872152	-0.0283931014143802	0.520205159843255	3.12879188483214
5414.761	0.522018024719248	-0.0251167916231992	0.522621920084901	2.75465044461171
4620.567	0.502401504415372	-0.0229249880313236	0.502924275328867	2.61264056325735
3941.215	0.146279044287405	0.273449461273004	0.310116376007673	-61.855893308749
3361.769	0.00440659439790818	-0.465684918403676	0.465705766877355	89.4578486102789
2867.244	0.138482101654313	0.114697248172122	0.179813100793164	-39.6331178893372
2442.658	0.516514605389184	0.0120168239789842	0.516654373482782	-1.3327582731694
2083.003	0.465210239998394	-0.0135189332567879	0.465406627537431	1.66453750584903
1777.843	0.468882684570168	-0.0168405132456052	0.469185011244075	2.05696604001665
1513.548	0.469282712198886	-0.0151609113048631	0.469527546796071	1.85038610698223
1292.065	0.501872263424359	-0.016751666800517	0.502151757076768	1.91172868740232
1101.762	0.495262354248794	-0.00888371569161916	0.49534202319261	1.0276267345835
939.101	0.48796783985458	-0.0131526630242595	0.488145065812382	1.54397400772422
801.2801	0.518160388545499	-0.0178326699449433	0.518467156505586	1.97107622877977
684.3433	0.486399362572529	-0.0117650839857611	0.486541629372199	1.38560675427668
582.9476	0.476071175884865	-0.00809686126535586	0.476140025276965	0.974373745272863
497.0677	0.474999595535022	-0.000217714322360879	0.4749996454293	0.0262613085454371
423.5089	0.478915068666641	-0.0164071722394302	0.479196033264954	1.96213121168219
361.5036	0.482801648086107	-0.0149233691998492	0.483032233233907	1.7704453165322
308.1262	0.464594122346736	-0.011058768260778	0.464725720048481	1.36355819240445
262.7298	0.471242655627852	0.0095877648353451	0.471340180461764	-1.16556231305668
224.2111	0.470554429785374	0.00936832924789754	0.470647678187766	-1.14055843487717
191.2854	0.449837762356555	-0.0182019976318207	0.450205869752652	2.31712211055816
163.1722	0.469994106725284	-0.0263286933023812	0.470730985221398	3.20631250155554
139.1537	0.438101949014103	-0.00564706131086961	0.438138342343379	0.73849217763766
118.6706	0.457071947064629	-0.029059448125218	0.45799477761083	3.63782076805565
101.1982	0.455504002482642	0.00158909957405775	0.455506774389979	-0.199884806606756
86.24196	0.493228226750312	-0.0279344043896318	0.494018637919523	3.24153279018003
73.61024	0.51189954934665	-0.0132698359804249	0.512071515677499	1.48493070693599
62.69291	0.482739673687791	-0.0200570142387495	0.483156161476151	2.37917401272863
53.57697	0.461387672123803	-0.0285172301619172	0.462268121769098	3.53681117356306
45.65746	0.468066156170563	-0.0702272738286499	0.473305183303215	8.5328427189212
38.96512	0.460066723687092	0.00555723678567055	0.46010028594304	-0.692053375384511
33.18414	0.482494477997457	-0.0686332130293721	0.487351453500216	8.09581916068517
28.30617	0.599714883587101	0.0844344878348714	0.605629527295216	-8.01405808332
24.17237	0.463608061960831	0.0194438727737376	0.464015623986433	-2.40159614308328
20.61345	0.343333653131008	0.0686983459518462	0.350139201045531	-11.3150054509395
17.55618	0.443636370304695	-0.00148554012737915	0.443638857503031	0.191857266826516
14.98558	0.363558648466849	-0.0339418335741587	0.365139615683396	5.33367328219756
12.76553	3.19182664106222	-1.84798712025371	3.68819924939232	30.0697590096717
10.8809	0.73587900402147	0.104637493244753	0.74328118067941	-8.09285696888434
9.278505	8.05473605405466	-3.35662479210936	8.72615051987365	22.6228030928163
7.923394	-0.00922665714324147	0.145493047026324	0.145785314538341	-93.6286375841542
6.75822	0.151822457550273	0.0914535367961581	0.177239408736124	-31.063565764482
5.761429	0.0757133051197133	-0.10657023212705	0.130727651810029	54.6079370932985
4.919708	0.218070567899404	0.00659691446144722	0.218170327644206	-1.73274240178141
4.191257	0.169595313315463	0.0953322147717268	0.194552824373877	-29.3410311787786
3.564097	0.0693370707747234	-0.46713912515484	0.472256912743528	81.5572762774404
3.051758	0.457453997248613	-0.271685126231457	0.532049779075358	30.7063724158415
2.604164	0.445104301500572	-0.167719053169529	0.475654832846672	20.6468320855927
2.214424	0.132978974481317	-0.451758196611824	0.470923428871478	73.597746587483
1.892567	0.38290855365963	0.103538095597743	0.396659927022779	-15.130881448199
1.607507	0.486443560978065	0.259080953212455	0.551135444636339	-28.0398669443483
1.376413	-0.067319374802031	0.417732077505987	0.423121716295919	-99.1547582224115
1.17375	0.653662914856053	0.191893746990789	0.681247690926198	-16.3604889835954
1.001604	0.460566598610556	0.395028882770015	0.606769651497357	-40.6197569421304
