EC-Lab ASCII FILE
freq/Hz	Re(Z)/Ohm	-Im(Z)/Ohm	|Z|/Ohm	Phase(Z)/deg
6999984	10.9161411477329	3.46935366115813	11.454193659242	-17.6312291591042
5969734	7.35512748309079	1.03894625473097	7.42814307971628	-8.04010474468664
5091109	4.56222830855633	0.218475286266622	4.56745646833136	-2.74167696125656
4341796	2.61179044027751	1.49130782908119	3.00756518549538	-29.7259614142814
3702781	2.17857144312028	0.770922712400479	2.31095118106681	-19.487148319514
3157797	1.94048105259472	0.455211754186714	1.99315941575902	-13.2021278928721
2693047	1.65573392090191	0.260624502449628	1.67612050524487	-8.94537233141539
2296687	1.53112524776024	0.1958851479461	1.54360471478767	-7.29055562751855
1958656	1.449830912626	0.117657109488977	1.45459715062942	-4.63951715170491
1670375	1.35324752511431	0.0886067402157935	1.35614527932655	-3.74621464261188
1424531	1.3105090515189	0.0849058543039122	1.3132566307497	-3.70692406181079
1214875	1.28758173196893	0.049354780563573	1.2885273031118	-2.19515142808851
1036062	1.25605777265537	0.0356701573266859	1.25656416006971	-1.62667702770458
883578.1	1.22607436237415	0.0278174470274201	1.22638988597848	-1.299716370082
753531.2	1.19891979935228	0.0285979926834913	1.19926082670303	-1.36642470025349
642624.9	1.17957073223971	0.0249253253897293	1.17983404943336	-1.21052804081855
548046.8	1.17865977571538	0.0173047230457932	1.17878680020143	-0.841138712550937
467390.6	1.16421980763257	0.00912647923512099	1.16425557894616	-0.449140297800124
398593.7	1.16358705318823	0.00913247250479836	1.16362289097513	-0.44967962297268
339937.5	1.1601105601853	0.00847307381853016	1.16014150207352	-0.418462475871213
289906.2	1.15705260861268	0.0117094828588745	1.1571118576379	-0.579818964727515
247234.4	1.15727972567506	0.0073610128376773	1.15730313572916	-0.364431581762125
210843.7	1.15742765353687	0.00190955712591181	1.15742922875668	-0.0945281240267301
179812.5	1.15286761253001	0.000650454547354139	1.1528677960251	-0.0323266053872243
153343.8	1.15149287758174	0.0037185380876983	1.15149888173935	-0.185025719147833
130781.2	1.14796874314175	0.00425579677237098	1.14797663174675	-0.212408288909607
111531.3	1.14286090820115	0.00180539944997878	1.14286233421245	-0.0905111742208474
95109.37	1.14357692721177	-0.00151419050982599	1.14357792966812	0.0758643103292411
81109.37	1.145169174174	0.00130344356861657	1.14516991597033	-0.0652146291995854
69171.88	1.14200005612515	0.00247215647714939	1.14200273193521	-0.124031439771402
59000	1.14116621478978	0.00243477767173311	1.1411688121921	-0.12224535843664
50312.5	1.14123998334547	0.00267240546897654	1.14124311228474	-0.134167464237722
42906.25	1.14169539171139	0.00146346819736974	1.14169632967536	-0.0734438501237109
36593.75	1.13980067086882	0.000822613549623728	1.13980096771589	-0.0413513323732653
31203.13	1.14110025417911	0.00204571309559644	1.14110208790874	-0.102717180609417
26609.38	1.14084393694852	0.0032668189649122	1.14084861422467	-0.16406663652305
22703.13	1.14064801862653	0.00202977844775631	1.14064982461629	-0.101957495868853
19359.37	1.13990150031499	0.00236981189735906	1.13990396368677	-0.119115576480738
16500	1.14062866498707	0.00364315182876952	1.14063448305995	-0.183001287370297
14112.02	1.1409441133253	0.00307966664884028	1.14094826967673	-0.154653913977302
12011.13	1.14133459115869	0.00377495624020073	1.1413408339624	-0.189504702119709
10236.38	1.14122144949804	0.00296145804933607	1.14122529196832	-0.148681631103976
8750.684	1.14179239776628	0.00315856092659916	1.14179676654999	-0.158497945120614
7449.463	1.14171902601682	0.00299206537414285	1.14172294661359	-0.150152814834534
6363.206	1.14160443776648	0.00301633029088773	1.14160842261108	-0.151385705418096
5414.761	1.14112815400695	0.00286836174472254	1.14113175898597	-0.144019473524997
4620.567	1.14141613058258	0.00296661682972011	1.14141998579381	-0.148915225997051
3941.215	1.14131437828027	0.00254911963080683	1.14131722499933	-0.127969607880454
3361.769	1.14134227302084	0.00237741026237855	1.14134474908501	-0.119346650359514
2867.244	1.14091691866904	0.002132306607729	1.14091891124511	-0.107082316867401
2442.658	1.14118149769233	0.00215223433858347	1.14118352721548	-0.108058006696729
2083.003	1.14136250343751	0.00186043165917992	1.14136401969709	-0.0933925789725603
1777.843	1.14098173250254	0.00175155666293707	1.1409830769364	-0.0879564700039181
1513.548	1.14092196460051	0.00173656101291713	1.14092328618187	-0.0872080152361387
1292.065	1.14060946167304	0.00142637279669193	1.14061035353771	-0.0716503776333924
1101.762	1.14021025731861	0.00119824854073882	1.14021088693896	-0.0602121919860777
939.101	1.14033016436665	0.00115533046265702	1.14033074963054	-0.0580494481967974
801.2801	1.14029469391125	0.00110204567599317	1.14029522645095	-0.0553738842625632
684.3433	1.13997001254387	0.00100604477270042	1.13997045647041	-0.0505645796626382
582.9476	1.13979104375017	0.00082847641454381	1.13979134484619	-0.0416463999081797
497.0677	1.13986342884578	0.000545200709114896	1.13986355923148	-0.0274047718763356
423.5089	1.13965455608277	0.000769931247131966	1.13965481615897	-0.0387080488812087
361.5036	1.13977019415871	0.000499462603971716	1.13977030359432	-0.0251077783460782
308.1262	1.13979700571133	0.000580401098550957	1.13979715348563	-0.0291758359872865
262.7298	1.13987558535505	0.00067083110787304	1.13987578275131	-0.0337192824406929
224.2111	1.13992036125569	0.000419679938684071	1.13992043851164	-0.0210943579602135
191.2854	1.13980032829833	0.000376699349036565	1.13980039054712	-0.0189360202163777
163.1722	1.13981780715756	0.000480569442420691	1.13981790846629	-0.024157017910416
139.1537	1.13962559356958	0.000321933184378654	1.13962563904108	-0.0161855019433845
118.6706	1.13980855335389	0.000206813135137172	1.13980857211654	-0.010396061361641
101.1982	1.13987836972667	0.000260423570136899	1.13987839947565	-0.0130901432918138
86.24196	1.13981911650641	8.56178208485679E-05	1.13981911972202	-0.00430378794798565
73.61024	1.1394937030688	0.000161973561412361	1.13949371458068	-0.00814432003804299
62.69291	1.13929684106433	0.000102409433728525	1.13929684566703	-0.00515021907169021
53.57697	1.13905246959676	-9.81390635947051E-06	1.13905246963903	0.00049365189921357
45.65746	1.13867244989858	0.000141589934521071	1.13867245870168	-0.00712452964722349
38.96512	1.13852956786314	0.000107900030025528	1.13852957297606	-0.00543000066558834
33.18414	1.13840689619553	0.000131488160068401	1.1384069037891	-0.00661777139574208
28.30617	1.13835091031977	0.000122599938175096	1.13835091692175	-0.00617073253524716
24.17237	1.13794472219186	0.00018841940949431	1.13794473779098	-0.0094869606872628
20.61345	1.1375628670904	-8.84842583093162E-06	1.13756286712481	0.000445669835139237
17.55618	1.13737367972681	5.90915557854296E-05	1.13737368126184	-0.00297676727417669
14.98558	1.13700617476171	-4.87679003746977E-05	1.13700617580758	0.00245750192698537
12.76553	1.13655897062023	0.000147086188821385	1.1365589801377	-0.00741485309159423
10.8809	1.13607250990718	-0.000117160886217058	1.13607251594847	0.00590879914962515
9.278505	1.13569584603173	0.000120323908958483	1.13569585240573	-0.00607033314080639
7.923394	1.13514958583903	-2.94930705950469E-05	1.13514958622217	0.00148863946274387
6.75822	1.13480359776325	3.05054498813403E-05	1.13480359817327	-0.00154020795613683
5.761429	1.13433191536519	3.59152057729748E-05	1.13433191593376	-0.00181409839798542
4.919708	1.13378097557707	5.44785047148884E-05	1.13378097688592	-0.00275307882137966
4.191257	1.1335908594295	4.53376490416159E-05	1.13359086033613	-0.00229152865880746
3.564097	1.13304221161524	9.94649265925392E-05	1.13304221598104	-0.00502975125751718
3.051758	1.13265575294897	8.05817856158887E-05	1.13265575581543	-0.00407625724021448
2.604164	1.13200493182134	4.54918142992978E-05	1.13200493273543	-0.00230254205354547
2.214424	1.13102900305275	-5.26103343882841E-05	1.13102900427634	0.0026651395401096
1.892567	1.12994595599518	6.14232293987676E-06	1.12994595601187	-0.000311456648869463
1.607507	1.12863562171352	5.0265581976884E-05	1.12863562283284	-0.00255175864090455
1.376413	1.12710429827907	-1.43766548960056E-05	1.12710429837076	0.000730830013043375
1.17375	1.12517500336667	-1.49153986077524E-05	1.12517500346553	0.000759516863929985
1.001604	1.12173379027535	-2.15675419362681E-05	1.12173379048269	0.00110162423382465
