EC-Lab ASCII FILE
freq/Hz	Re(Z)/Ohm	-Im(Z)/Ohm	|Z|/Ohm	Phase(Z)/deg
6999984	1.93299150269644	2.17638121388155	2.91085749181116	-48.3895516582303
5969734	5.18548023722295	5.05697509818562	7.24307962363381	-44.2811864361345
5091109	14.5564722736354	3.02629293252618	14.867727935585	-11.7445003437475
4341796	4.18023753854426	-8.28058463632134	9.27590792310572	63.2142616494452
3702781	2.00143381670881	-7.78360044218761	8.03680117747657	75.5796648966201
3157797	3.23554589768046	-9.05011601071647	9.61110592301548	70.3273034928763
2693047	0.356457263411008	-9.93062922855649	9.93702463797383	87.9442660028818
2296687	-0.0497913919076585	-9.8407476129697	9.84087357732416	90.2898979203678
1958656	23.8132217222182	-33.6609966907171	41.2326597129508	54.7227864833324
1670375	-2.70266527178289	-41.0523911107883	41.1412592841351	93.7666058212217
1424531	5.20227841782179	-40.5379926080111	40.8704360806647	82.6871490494384
1214875	15.0678117665741	2.51640999405536	15.2764940575739	-9.48121965015559
1036062	5.26117042482542	-15.7156024255156	16.5728716231053	71.4908088874485
883578.1	10.4843179091771	-9.30108540019146	14.0153883871389	41.5775991361404
753531.2	6.39126922976885	13.1101750123785	14.5850955164025	-64.010558393118
642624.9	7.60944148797275	-9.15128627497905	11.901665439992	50.2559330279792
548046.8	12.316786497498	-4.30138601520957	13.0462696306948	19.2507115557754
467390.6	6.94945823384067	-4.84085596360426	8.46928900228696	34.860310700962
398593.7	12.4725739916426	-5.00418591893474	13.4390095873269	21.8614052084449
339937.5	10.0144738177293	-7.51837661587462	12.5226064692665	36.897427764082
289906.2	15.0904881159681	13.0775167157888	19.9685821987919	-40.9124180543053
247234.4	17.6503078935908	9.97422298689457	20.2735910220871	-29.4708748743112
210843.7	39.370991361142	-15.7225631493461	42.3942679232027	21.7689928456682
179812.5	40.2776515376611	-59.8124162415583	72.1097382469434	56.0436948433829
153343.8	72.0471871727244	-99.7010050609095	123.008485844096	54.1469008738685
130781.2	-11.715892051954	-110.06104664904	110.682862793005	96.076198693394
111531.3	-7.02613557207262	-159.677500222449	159.832007615394	92.5195058843399
95109.37	-24.3020181942332	-215.572185907317	216.937676361604	96.4319481883908
81109.37	10.6642825287937	-292.312276845828	292.506742002037	87.9106333803076
69171.88	1.35841607145303	-316.768709437814	316.771622108297	89.7542969734796
59000	5.77770796433414	-431.877265390187	431.915911110284	89.2335356334852
50312.5	-100.901357957892	-405.452160296162	417.818786469172	103.974822969729
42906.25	-47.188926097242	-453.86666093995	456.313204563478	95.9357667378075
36593.75	-76.9928389448026	-603.923637436537	608.811676221275	97.2653153014085
31203.13	-108.946059420513	-617.085255590507	626.628643241321	100.012361450163
26609.38	-88.2649789878325	-751.00998967992	756.179020546561	96.7031291128262
22703.13	-25.8368475678795	-817.125167665992	817.533535902608	91.8110435706607
19359.37	-220.445669994817	-1123.85222103228	1145.26857467524	101.097772697259
16500	-121.963426277875	-1103.92190719784	1110.63884973503	96.3045796705332
14112.02	-99.0963217240847	-1389.39724846927	1392.92670124211	94.0796126647017
12011.13	-165.542117709235	-1755.32014478188	1763.10890287944	95.3875607194263
10236.38	10.1591015653769	3.47053046610228	10.7355449946329	-18.8610830663525
8750.684	1.46233458218016	0.750365989248144	1.64361538933546	-27.1636655065666
7449.463	0.747420360341545	2.8564445570517	2.95261116684256	-75.3366734957051
6363.206	1.28033903158046	-1.42717657639327	1.9173160970466	48.1042988903464
5414.761	1.10774207825195	0.804321150123665	1.36895033674206	-35.9830501484106
4620.567	7.86848806899509	-1.93115315550625	8.10200327091639	13.7894726582387
3941.215	1.93881596467985	0.391632763162155	1.97797461209175	-11.4198452682925
3361.769	1.90502662000057	-0.000230503269075741	1.90502663394571	0.00693264035205623
2867.244	-2.83385141794613	7.12892999503665	7.67152896971187	-111.678527004161
2442.658	0.887447869249934	-3.8750883988337	3.97540863552564	77.1009251384719
2083.003	1.51769389901641	-0.991667762819364	1.8129533151537	33.1607746411552
1777.843	1.04922210292883	-1.36445001161253	1.72121784079292	52.4407700698397
1513.548	1.88518361081749	-0.450304741734491	1.93821866850039	13.4342388252576
1292.065	3.69594416779805	0.225272421703411	3.70280312134747	-3.48793443589163
1101.762	2.39858923955979	-1.57649232449799	2.8702889034613	33.3152440627225
939.101	4.37485930529384	-1.79297522639946	4.72801798892499	22.285588782492
801.2801	-0.000296235365107271	4.02093765509003	4.02093766600233	-90.0042211637156
684.3433	3.46167489139819	-9.81681385465745	10.4092760224105	70.5759671759631
582.9476	3.78672857284855	-6.57447271730947	7.58702871980027	60.0591549589983
497.0677	6.81764528207643	-0.0748844137178981	6.81805653156652	0.629306475408554
423.5089	17.2448260515206	-13.4404748383148	21.8639060880388	37.9325562350771
361.5036	4.66153317482759	8.42355204028376	9.62736311330298	-61.0401732958213
308.1262	99.1670091382091	-51.6719223394173	111.82165827633	27.5221995764476
262.7298	4.65526633025541	8.03413994970393	9.28541379460486	-59.9104724111618
224.2111	11.4763437974512	-3.28754502244392	11.9379403261992	15.9850354700241
191.2854	20.0105718718567	-28.8512054545033	35.1114659736204	55.2556601511159
163.1722	37.5758777387646	-5.34663673687854	37.9543556424652	8.09820266511291
139.1537	72.697856481516	-118.659388878894	139.158287234788	58.5058663763986
118.6706	-46487.0278664384	-30581.2088042777	55643.994211288	146.661324622566
101.1982	40.1362919879902	6.73120221413815	40.6968182760376	-9.52039850418664
86.24196	415387.979620022	355934.177555786	547024.965029127	-40.5923351820555
73.61024	1014822.2087202	-223498.789226198	1039141.8690907	12.420229578591
62.69291	437891.666203278	-747782.363036952	866560.773286796	59.6473128958582
53.57697	272453.606222502	-696012.691986414	747438.71651783	68.622181094567
45.65746	105342.742159543	-861399.424121199	867816.836205674	83.0277724586437
38.96512	318751.002364014	-927721.489994785	980953.293743493	71.0380576377361
33.18414	-252442.197424581	-666183.404415379	712409.567144501	110.753601235481
28.30617	903157.535988136	-284363.658036106	946866.529572059	17.476868599518
24.17237	660415.219757161	-615271.074088407	902611.077428591	42.9732555701437
20.61345	332824.163979557	-698142.605471291	773417.753677101	64.5115526891804
17.55618	924638.663442832	499189.323237907	1050783.82094895	-28.363502154928
14.98558	2024770.53188967	388314.764308644	2061670.21198562	-10.8564845162302
12.76553	-381582.314792761	-1605956.08168948	1650666.53182223	103.365883425064
10.8809	2612877.36349185	2150887.910514	3384294.15391798	-39.4607836437178
9.278505	5411270.82046931	-683385.290281164	5454252.2262392	7.19773646470736
7.923394	3009708.86488267	-1829995.3392592	3522389.86954365	31.3008848832252
6.75822	-1204289.49538238	3497032.20505191	3698587.22106949	-109.002413030443
5.761429	4460147.93612179	-794227.374847846	4530310.88724043	10.096937285537
4.919708	4716353.75228445	2381988.28983238	5283735.50904909	-26.7959984894311
4.191257	5539086.31262562	-3022282.79002682	6309965.96200081	28.61813605824
3.564097	8418724.72810312	3176783.16746128	8998159.66410023	-20.673864234367
3.051758	2995585.34683087	632744.192322346	3061682.01860766	-11.9270160493864
2.604164	4492755.33868543	-2802643.01245039	5295248.66163275	31.9564861107257
2.214424	26573823.5484999	-22209663.7807727	34632892.7934381	39.8879408687216
1.892567	10902202.6729334	-10680090.0887874	15261793.7158884	44.4103655006247
1.607507	20103707.2097089	2852167.87973933	20305021.6741553	-8.07482025749362
1.376413	4179422.56789047	-7408174.43821692	8505799.28684206	60.5698895375779
1.17375	9519802.68113975	-19753146.3397508	21927458.4347445	64.2687904713835
1.001604	7073454.47256668	-13150653.0120782	14932294.9615775	61.7251443399002
