EC-Lab ASCII FILE
freq/Hz	Re(Z)/Ohm	-Im(Z)/Ohm	|Z|/Ohm	Phase(Z)/deg
6999984	92.7434790058136	26.3638512595047	96.4178694606715	-15.868667741833
5969734	87.6672803775283	68.6675540605839	111.358812087124	-38.0706963594832
5091109	75.7475620874268	90.2037796898695	117.78970681909	-49.9785355114666
4341796	75.257447280237	86.1947312399939	114.425587456095	-48.8754771642807
3702781	80.277348410753	96.5276047680789	125.5469280792	-50.2513379064622
3157797	82.0251390090813	110.643895466611	137.732331111782	-53.4488492033268
2693047	83.2238272698525	129.161322696997	153.65172536057	-57.2046906828124
2296687	85.3874460267002	151.347672957737	173.773225925874	-60.5691446924442
1958656	88.1110080434846	175.343664474645	196.236975134239	-63.3202588415444
1670375	90.5174945792713	202.773149494493	222.059377151302	-65.944119064346
1424531	91.0876100265179	234.733768780487	251.787400213422	-68.7914328272486
1214875	89.1241387614349	272.90413951283	287.088455834096	-71.9141674022706
1036062	-71.0119115525702	334.466045040676	341.921375271423	-101.986716716405
883578.1	-0.00321138077535395	0.00574785011498705	0.00658412844867637	-119.192524712624
753531.2	-0.00439676269167847	0.00726890572263718	0.0084952052695343	-121.168598852251
642624.9	0.00645416254236592	0.00718624426044982	0.00965910558458325	-48.0721215805719
548046.8	-0.00372251779560783	0.0053248307987801	0.00649699636557187	-124.956881202097
467390.6	-0.000114770642310021	0.00390347902824372	0.00390516591507644	-91.6841334190392
398593.7	-0.00183226500492169	0.00295574166472958	0.00347758592084783	-121.794784426549
339937.5	-0.00137434790101212	0.00319004133277926	0.00347349907986982	-113.307560607276
289906.2	-0.00178693883547579	0.00284445257901949	0.00335917562446833	-122.137814258494
247234.4	-0.000589216395058801	0.00219584704600548	0.00227352594215617	-105.020470945843
210843.7	0.0019840882874519	0.00261200326072895	0.00328011697450907	-52.7795485549447
179812.5	-0.000508625093859691	0.00244952956921856	0.00250177828685514	-101.730318103084
153343.8	0.00145382685673571	0.00291333455607906	0.00325593777044501	-63.4796557001498
130781.2	0.00323953298954391	0.000275720586417038	0.00325124527406307	-4.86478925984768
111531.3	-0.00113776143060469	0.00122976352954122	0.00167535650282598	-132.774603837759
95109.37	0.00158845599193883	0.00329923610309784	0.00366171425732683	-64.290963938055
81109.37	0.0027383738374934	0.00276539058435888	0.00389179603241602	-45.2812498900676
69171.88	0.00379920088963174	0.000209374038392603	0.0038049658195221	-3.15438075292047
59000	0.00823381277172742	-0.00441728275054356	0.00934387819152793	28.2127053928275
50312.5	0.000649139516396288	0.00134270548371534	0.00149138865750899	-64.1982593668029
42906.25	0.000488144990644914	0.00319203397117841	0.00322914329274015	-81.3053467349214
36593.75	0.000814274798616913	0.000815730127063609	0.00115258799571305	-45.051155769121
31203.13	0.000442503499845622	-0.000882552760449408	0.000987273377718904	63.371252085311
26609.38	0.00211314451996422	-0.00108705917528294	0.00237635801444598	27.2225254608604
22703.13	0.0011856342219934	0.00262051163114118	0.00287624924464277	-65.6559212933952
19359.37	0.00374572687832434	0.00241786952104269	0.00445831390413334	-32.84227313242
16500	0.0165241212486879	0.00643628205387145	0.0177333671286173	-21.2813255479206
14112.02	0.00119839200594843	-0.000293611792505498	0.00123383600394031	13.7665600760114
12011.13	0.00247259005017959	-0.00086546530441657	0.00261968161221855	19.2912597789368
10236.38	0.00134205279425942	-8.38690572056334E-05	0.00134467085985236	3.57594132618152
8750.684	0.00100768562560467	0.000220989130035059	0.00103163293648658	-12.3693566559613
7449.463	0.000944457641946833	-0.00135147309068706	0.00164878129304132	55.0527757958601
6363.206	0.00301723333255073	0.000816908015224357	0.00312586559026344	-15.1494796582289
5414.761	0.00177172442692807	-0.00123251999707507	0.00215826619956008	34.8248388838655
4620.567	0.00228218131242597	0.000899323691367856	0.00245298484394866	-21.5075751220618
3941.215	0.00366802001675968	-0.000163528444668062	0.00367166343713108	2.5526822488703
3361.769	0.00309612495572041	0.000148395321683714	0.00309967916290256	-2.74405072540179
2867.244	0.00197179359165165	-0.000322877749895777	0.00199805405568926	9.29955192205346
2442.658	0.00133058081682376	0.00176515709352814	0.00221048068865849	-52.9909012264125
2083.003	0.00277104205964418	0.00101457782470401	0.00295093921636793	-20.1094893470072
1777.843	0.00445804175274833	-0.00306763791883324	0.00541151907234105	34.5323783069189
1513.548	0.00293948176688122	-0.000424985934945247	0.00297004479810127	8.22673428729461
1292.065	0.00309345853202321	0.00041884878005491	0.00312168544057544	-7.71085454771472
1101.762	0.00115067896448127	0.000908611549032311	0.00146616405164448	-38.2957083447869
939.101	0.00344868535627522	0.00155609498666711	0.00378349868430236	-24.2855609917536
801.2801	0.0154546962686632	0.00354327618263436	0.0158556754149123	-12.9129560936696
684.3433	0.0040563667950562	-0.00290276849215585	0.00498800325732525	35.5878124021735
582.9476	0.00118584444059025	-0.0037383022982959	0.00392187851809859	72.4002074998801
497.0677	0.00506421389266706	0.000379318449526858	0.00507839983034356	-4.28355508936619
423.5089	0.00119008507234718	-0.00716704133181232	0.0072651761115151	80.572075348713
361.5036	0.00222072542861063	-0.00738627198430566	0.00771288760811517	73.2662905029999
308.1262	0.00425229792833117	0.0042851110801776	0.00603690439221547	-45.2202126961523
262.7298	0.00151986653174566	0.00629756824680394	0.00647837634731681	-76.4315958422001
224.2111	-0.00105695739754851	-0.00720184810842	0.00727899547444462	98.349236858237
191.2854	0.0140204116791367	-0.00390346226507505	0.0145536580043417	15.5578839745982
163.1722	0.0155833485571379	-0.00323816640062439	0.0159162330308206	11.7388108728419
139.1537	0.00411634645750158	0.0199514439604029	0.0203716573764454	-78.3424100889614
118.6706	0.0125182484066266	0.00790269090374923	0.0148040219768213	-32.2639581819047
101.1982	-0.012500281621398	-0.0238741414887765	0.026948685913053	117.636142157931
86.24196	0.0308313553967793	-0.00712100586520833	0.0316430276701653	13.0053398085565
73.61024	0.0213195231900251	0.017502857449062	0.02758390994642	-39.3852391584298
62.69291	0.0140709703809872	0.0219699129956382	0.026089639409132	-57.3618415468609
53.57697	0.0423920460303123	-0.00063619975597341	0.0423968196539035	0.859803385685118
45.65746	0.027063035111698	-0.0291016657354337	0.0397405940825488	47.0787731919977
38.96512	0.00298128543302322	0.0666818771315639	0.0667484891261378	-87.4400631431667
33.18414	0.0650019946578275	-0.0116650341344651	0.0660403840907552	10.1738110329097
28.30617	0.0279136488435505	-0.0295156487881145	0.0406244423364108	46.5978610666546
24.17237	0.0247679261313982	-0.0446040321174362	0.0510193085604232	60.9572663028659
20.61345	0.067306230179128	-0.0119492340878234	0.0683587069524531	10.0671320210343
17.55618	0.0993577486109452	-0.0419168463597435	0.107837768048964	22.8738101732851
14.98558	0.0873637957277467	-0.0775215414144736	0.116799067578622	41.5839818859782
12.76553	-0.0400454642089709	-0.111881487869721	0.118832262166696	109.693686610268
10.8809	0.0724539317531221	0.237509858377825	0.248315333906588	-73.0353312157826
9.278505	0.0714591208012947	-0.140803101580582	0.157898446352096	63.0917059770667
7.923394	0.129681767109293	-0.213781266515718	0.250039578134449	58.7585980598308
6.75822	0.2745331838513	-0.275752639373608	0.389111792621404	45.1269695445727
5.761429	0.0972463006200733	0.314302577703981	0.32900296858183	-72.8077523795567
4.919708	0.358854019681827	-0.148817051832113	0.388487737718717	22.5238246337074
4.191257	0.27932037391704	0.0644212602200753	0.286653048219442	-12.9873546633673
3.564097	0.289259551519008	0.656185780902904	0.717112869222225	-66.2111746926565
3.051758	0.240382689588648	0.673572536323635	0.715180955523375	-70.3596756083012
2.604164	0.866258484075702	-0.309664989997844	0.919943567434165	19.6706552421385
2.214424	0.545976793772244	-0.277769418051195	0.612573676338054	26.9650267685727
1.892567	0.699933906638764	0.441179611836518	0.827373509101435	-32.2238912432912
1.607507	1.06682019516227	-0.12538729034215	1.0741635356804	6.70342858611414
1.376413	0.632230392156638	-0.172199518515662	0.655261736211998	15.2359733669819
1.17375	0.0461128367708516	1.15616061558534	1.15707984285689	-87.7159996173017
1.001604	-0.0430222089230498	-0.711626475603952	0.712925768394662	93.4596723303701
