EC-Lab ASCII FILE
freq/Hz	Re(Z)/Ohm	-Im(Z)/Ohm	|Z|/Ohm	Phase(Z)/deg
6999984	1.42024848881686	2.98979631434366	3.30998304697312	-64.590792752247
5969734	4.32939395815884	4.81361279281759	6.4741424269257	-48.0315848165664
5091109	13.9440066868418	-0.605673492461873	13.9571545403123	2.48714275260087
4341796	4.31625452166694	-8.21035565296816	9.27577452529095	62.2687094001408
3702781	2.04753718704817	-10.8194352120789	11.0114752345323	79.2837224505818
3157797	2.60037082401173	-8.22741705757528	8.62857577249294	72.4602534768098
2693047	2.02275107209116	-9.30655390836577	9.52383680818629	77.7376531362008
2296687	1.15901810897345	-10.6058264800821	10.6689680055074	83.7633929718122
1958656	1.8487190181523	-14.1832674007547	14.3032456515782	82.573646110223
1670375	-10.8043144460556	-17.2183512954444	20.3274403696722	122.107791270029
1424531	-2.04182246685346	-12.3838517854569	12.5510487223304	99.3625700147054
1214875	6.83725236554088	-13.4999134022221	15.1326032716645	63.1393187698421
1036062	19.9071791093552	-5.57489027843787	20.6730544842452	15.6445954073133
883578.1	23.8848247824432	7.20556963223315	24.9480477916204	-16.7875029691505
753531.2	12.5972012513884	-2.21374660704708	12.7902366439482	9.96700191675726
642624.9	9.06190999414993	1.17064657859756	9.13721107089338	-7.36088619687086
548046.8	12.6742288237296	-4.95381811196399	13.6079531951973	21.3484189057304
467390.6	5.49313996540326	0.86053084979238	5.56013489251429	-8.9033401475646
398593.7	7.99256999851457	3.95926692300202	8.91947138280813	-26.3523629982393
339937.5	2.9611852901497	7.19886542734779	7.78410442913391	-67.6406470957284
289906.2	4.30569391819414	3.70149477661438	5.67803343583652	-40.6848048406116
247234.4	3.94228615835799	-1.19692946337478	4.11998304543546	16.8889737946682
210843.7	3.84844860406688	-1.35827721370333	4.0811118151075	19.4400511887543
179812.5	2.93021452712078	-0.0350767534511287	2.93042446645232	0.685838502180727
153343.8	2.23389693731075	4.55308736217204	5.07157766913779	-63.8658865498475
130781.2	1.46796006531767	2.0142984058401	2.49244956240591	-53.91656038107
111531.3	2.57228345967168	-2.2589692314872	3.42338782286003	41.289475849703
95109.37	6.35900969921255	0.276107982607071	6.36500117617732	-2.48621914463512
81109.37	1.1977162564644	1.58460399778364	1.98632677593366	-52.9163422285322
69171.88	2.98850439543115	-2.44438365576057	3.86085093963244	39.280720197442
59000	2.91916439837651	2.58728681921122	3.90071453321222	-41.5509164916212
50312.5	4.4851024888734	-2.3689727891661	5.07229498466993	27.8424314177242
42906.25	2.61180293292287	0.32994105647591	2.63256066619042	-7.19986213812729
36593.75	0.128466579855177	-1.13132932312839	1.13859988560944	83.5216047822669
31203.13	2.60668714026649	2.67489911513948	3.73495691051512	-45.7399369825375
26609.38	2.12059709610801	0.127451320873233	2.12442365906946	-3.43943183966042
22703.13	1.55833498080756	1.10924513459884	1.91280753894365	-35.4438051899453
19359.37	0.233948445086448	1.73701793254208	1.75270167824736	-82.3293369063792
16500	1.04793289794007	1.2678332184867	1.64486000270036	-50.4244227267933
14112.02	1.33311289401426	1.45268859866383	1.97167293253089	-47.4578134213665
12011.13	3.88018245018489	-1.15510087679048	4.04846562073645	16.577869171068
10236.38	0.717645152879546	-0.728663397501797	1.02272426015538	45.4364813455024
8750.684	-1.19532728535252	-4.13557010943587	4.3048516175552	106.121180166069
7449.463	-0.343081838703175	1.30616812797542	1.35047411177955	-104.717032497542
6363.206	1.96858025781619	-1.22612077696239	2.31919822161938	31.9165165749373
5414.761	0.179374779122286	1.737661917653	1.74689560404927	-84.1063655079775
4620.567	1.72979674243367	-2.9189304865797	3.39298569929473	59.348458109918
3941.215	1.81896138090936	0.83180994099059	2.00013206643223	-24.5745895515074
3361.769	-0.789348637550263	-2.38720684077624	2.51432451609798	108.296872801519
2867.244	1.78586560956907	-0.889204331302674	1.99499381408789	26.4692750363357
2442.658	3.01982279894127	-0.81765026969463	3.12855904539729	15.1502073146287
2083.003	2.19306625497255	0.781773274764184	2.32824162230531	-19.619879722334
1777.843	1.56152183097892	0.127790395468984	1.56674210187825	-4.67849375163428
1513.548	2.09561158381445	1.5931645705249	2.63244397072247	-37.243494272341
1292.065	3.93713674491926	2.37270820401392	4.59682390021506	-31.0751910781452
1101.762	1.86607485038646	-1.18080290063192	2.20828685577432	32.3245484687398
939.101	2.9224820464733	0.174493805683121	2.9276866977497	-3.41692548450989
801.2801	1.01225073190592	0.875579653110899	1.33839130047452	-40.8592475709172
684.3433	4.55959310833366	3.7893784261898	5.92868266737532	-39.7292315594704
582.9476	2.13636793575926	-1.04360632526863	2.37764213435937	26.0353053431477
497.0677	5.50387269525555	-8.24551248559041	9.91368199992349	56.2769230434689
423.5089	4.33150479753839	-6.43736321635782	7.7589676497853	56.0645963437493
361.5036	3.80339334174097	4.9562819835716	6.24744203756033	-52.4977851000332
308.1262	5.19404763561153	8.31698843803967	9.80563243852671	-58.014784250192
262.7298	7.24354247426792	0.697529307027615	7.27704986314412	-5.50043494030156
224.2111	12.9341009865928	2.00683335311546	13.0888635273868	-8.81959090665032
191.2854	8.64944458406755	6.00638227638163	10.5304092827813	-34.7770427445957
163.1722	11.2880027395691	-29.6588758027935	31.7343334534389	69.1634543236271
139.1537	16.8488052119947	10.273501403311	19.7339065609314	-31.3726077400196
118.6706	15.3554943489781	-11.3141119469187	19.0735506880315	36.3832325204198
101.1982	-653.604278284081	10045.2101043555	10066.4514399682	-93.7227745498942
86.24196	9587.14118257056	14305.9952815308	17221.346551583	-56.1720431190702
73.61024	-1837.38715081818	-9426.29183012776	9603.6956016278	101.029877198536
62.69291	10224.8377851272	-7398.25136983097	12620.6747467546	35.8878761290615
53.57697	18382.3012072694	-7902.42366196978	20008.9304413814	23.2625333893916
45.65746	-11230.7019575128	-4933.0631112507	12266.3677638518	156.286614510307
38.96512	12387.3524004469	4653.95335091212	13232.7541080957	-20.5913010160886
33.18414	-18029.0608657921	8610.39360506071	19979.6374776047	-154.471598806891
28.30617	5024.77875612538	8447.01671785267	9828.55497922718	-59.2533471159263
24.17237	14291.0571980862	9262.37340189959	17030.1461201949	-32.9482302174735
20.61345	-14140.3959508918	-2894.67127414119	14433.6384682912	168.430856048561
17.55618	-2132.135219717	19817.7924989013	19932.1574377855	-96.1406564453463
14.98558	14.7023597017756	10.0619439767636	17.8157822559641	-34.38680691991
12.76553	1540.97404835843	4138.34551206121	4415.93756691728	-69.5764423023574
10.8809	18.3107462406614	14.4053365108933	23.2980073800738	-38.1926561557547
9.278505	36.3414870844317	-3.55774297355954	36.5152189993957	5.59130031703136
7.923394	50.5505200186352	64.6051402982868	82.0315745741587	-51.9584713866325
6.75822	-11969.5261677166	-3965.18806703585	12609.2138171504	161.671329164726
5.761429	6038.56625529836	18682.4488503372	19634.1075036553	-72.0880600930928
4.919708	14812.2013690223	852.470414610018	14836.711738261	-3.29384784758004
4.191257	-27454.1711310482	-16267.4536247412	31911.7777619171	149.3519344285
3.564097	19228.7299874497	-8509.43165406116	21027.4697480554	23.8711807255811
3.051758	22590.4973762084	22940.9937247568	32196.580016887	-45.4410478191296
2.604164	-6519.23763657969	13181.6445883816	14705.6524308378	-116.315589031713
2.214424	14553.1519351323	-2047.78996318907	14696.5191450351	8.00956609420617
1.892567	28226.1071828005	13990.1625270855	31502.980402324	-26.3651399570707
1.607507	-1269.98139731127	-27424.8242154714	27454.2134471018	92.6513434729995
1.376413	-9553.31499300898	62267.5072545831	62996.0973954356	-98.7225188617648
1.17375	43706.1465722682	38194.1037989857	58043.2322773662	-41.1496913364249
1.001604	-9012.20164815423	-95606.5946508471	96030.4155946354	95.3849824093482
