EC-Lab ASCII FILE
freq/Hz	Re(Z)/Ohm	-Im(Z)/Ohm	|Z|/Ohm	Phase(Z)/deg
6999984	27.4842115159016	80.0357438210352	84.6232956793648	-71.0475687371353
5969734	30.5807190140025	75.2146399219261	81.1937339577284	-67.8743565803622
5091109	30.5782742140032	73.4981322917604	79.6053158041841	-67.4106618367629
4341796	37.7303691402813	74.0102329475941	83.0728315180062	-62.9875422499119
3702781	45.4962005063018	74.2621177867504	87.0905643493186	-58.5065539257528
3157797	48.8806023114685	77.7770377535644	91.8617487535009	-57.8518350532568
2693047	50.2778270449357	86.7967618156646	100.307216859235	-59.9180354540576
2296687	54.033264553478	103.732145540853	116.961325645766	-62.4853447424798
1958656	67.2126516202487	115.545109407791	133.672034644062	-59.8134133606667
1670375	80.9356341878683	128.449726555079	151.821965253606	-57.7851427659036
1424531	93.989857786994	129.424531072507	159.95250110629	-54.0123360061041
1214875	105.077257986196	122.424197596678	161.334789500244	-49.3603541575661
1036062	117.191840199898	116.359840720893	165.147025229127	-44.7958916122343
883578.1	127.27794606084	108.094193702605	166.985119893009	-40.3404686648939
753531.2	143.831564688345	117.463560352931	185.701930554004	-39.2376337712482
642624.9	172.135100154891	132.866299747674	217.448721113676	-37.6635525502632
548046.8	204.841534984397	134.012976267658	244.784665089298	-33.1938171172004
467390.6	256.339188525399	108.03027890496	278.173184786283	-22.8522555010323
398593.7	266.610550682319	97.7467994145715	283.964121907895	-20.1343327970041
339937.5	275.068439038417	88.0009642021236	288.802382011531	-17.7407156641758
289906.2	281.901203290214	80.2698978902444	293.106712519145	-15.8940268538455
247234.4	286.202353147016	73.2892410677512	295.437133419575	-14.3633643745756
210843.7	290.343320026656	69.004879268199	298.430757206626	-13.3692482225559
179812.5	293.627249921761	65.9761986094663	300.94820265217	-12.663679345742
153343.8	300.202659251472	62.613519114506	306.662826892269	-11.7813300708185
130781.2	300.992860640518	57.0827598132868	306.357868553206	-10.7385125062127
111531.3	301.380691662435	54.1916059789757	306.214061508462	-10.1934921331725
95109.37	303.1919527673	52.6494755927134	307.729308813829	-9.85121287593927
81109.37	305.540570828558	53.3370797482568	310.161062189168	-9.90213163519255
69171.88	307.939978743135	53.4478660180645	312.54392473732	-9.84649743328535
59000	310.005209565782	54.8602515035177	314.821976921805	-10.0354818324313
50312.5	312.802801015862	57.7151348349166	318.082739412848	-10.4540504200862
42906.25	315.689266797999	60.8430861489221	321.498980252789	-10.9089101544846
36593.75	318.485322411979	65.3413650206354	325.119046773059	-11.5940817337918
31203.13	322.216510729818	70.411902332447	329.820126397667	-12.3267056776918
26609.38	326.203442932706	76.7687381720344	335.115092679631	-13.2430141611327
22703.13	330.846548608474	83.7273074712226	341.276575144735	-14.2016699552117
19359.37	336.355040113703	91.3434040162129	348.537416165266	-15.1932994704005
16500	342.062127789762	100.553868899229	356.53552392246	-16.3814248614295
14112.02	348.403768765281	110.6838511449	365.562718277066	-17.6244510683878
12011.13	358.282543980111	124.15578362688	379.184704239062	-19.1127547778638
10236.38	367.22145138341	135.448957263395	391.405179296186	-20.2464033417317
8750.684	376.569276812153	148.76666810073	404.890036647755	-21.5568895994887
7449.463	388.988636318631	161.854985274877	421.318401501001	-22.5917946169438
6363.206	401.483282485135	178.33681314834	439.30950938825	-23.9505468393627
5414.761	415.522978446654	197.299199932905	459.985130098074	-25.3993680271761
4620.567	432.223373086405	214.17839962787	482.378928964922	-26.3596624805492
3941.215	448.645860043687	234.273863549408	506.129776714141	-27.5726599694648
3361.769	466.842122513492	254.795992644253	531.848253941359	-28.6251032250288
2867.244	486.352689695021	277.186091087195	559.795558990762	-29.6800331174237
2442.658	509.265417857273	297.251546971525	589.669185223637	-30.2715490155388
2083.003	530.789745202902	320.972822749016	620.291307819183	-31.1616905164761
1777.843	552.165329520194	348.010769177364	652.68525844205	-32.2218171360728
1513.548	572.200735823534	378.446672908579	686.028837814101	-33.4801699640509
1292.065	595.921490894598	410.302685749727	723.512762322462	-34.5481117279732
1101.762	618.15104617691	447.469180149247	763.111645221752	-35.9001488850332
939.101	643.704446600066	489.271996990717	808.543444480246	-37.2380282549754
801.2801	665.413563616784	538.93746049541	856.287800316243	-39.0050014472692
684.3433	690.401033631851	595.547656983693	911.7733265339	-40.7814227136046
582.9476	715.456498060908	662.234020516536	974.90096858454	-42.7876688107228
497.0677	742.630573270669	739.720768108005	1048.18270503125	-44.8875304819876
423.5089	772.274408722428	829.212730573591	1133.13790639661	-47.0362024278195
361.5036	804.383971932086	933.295429292923	1232.10142952612	-49.2427717588493
308.1262	841.626732756512	1052.70508152154	1347.78468085658	-51.3580288060692
262.7298	883.984493731767	1193.94030132431	1485.57128010896	-53.4840288119478
224.2111	929.886932100322	1350.61318792868	1639.77001128141	-55.4528836833558
191.2854	984.111234915847	1533.9205872614	1822.46736341476	-57.3171508388407
163.1722	1048.32588792339	1742.13233045973	2033.22704686993	-58.9626283306769
139.1537	1120.68229224874	1987.98169979034	2282.10430060967	-60.5887971448172
118.6706	1206.41787986363	2261.03692901777	2562.75868845211	-61.9170279054895
101.1982	1305.72371800355	2573.4684579422	2885.767546387	-63.0977220339156
86.24196	1421.26554496132	2932.23230183898	3258.52451597991	-64.1403333337151
73.61024	1554.72061301517	3333.24740761734	3678.00142263729	-64.9943269273576
62.69291	1714.29590272382	3793.86817202785	4163.20143024832	-65.683709746459
53.57697	1893.71679413165	4303.44122928706	4701.67732945424	-66.2482450620014
45.65746	2108.13825914907	4888.45259667992	5323.64684306489	-66.6719473515007
38.96512	2353.71249416719	5548.96988684681	6027.52265116702	-67.0147480003274
33.18414	2646.94565050968	6292.58478611488	6826.63493730231	-67.1861769726306
28.30617	2979.92583455479	7124.07045288398	7722.19773102849	-67.3009404189953
24.17237	3360.35328481491	8053.79341800817	8726.7154542083	-67.3522201416595
20.61345	3805.8899341157	9105.90444973819	9869.26005526073	-67.317097828818
17.55618	4331.45094617366	10288.3212989939	11162.9307285516	-67.1685871683201
14.98558	4921.56107663647	11586.5908550757	12588.5206070446	-66.9859855190119
12.76553	5609.08174373953	13055.6614118812	14209.5775063735	-66.7502706820951
10.8809	6393.71683047282	14695.3804101699	16026.0357015663	-66.4869392794529
9.278505	7297.69882590178	16510.4484252948	18051.3521753327	-66.1543372793795
7.923394	8310.72918418885	18514.8041839728	20294.4867770482	-65.8261470543286
6.75822	9467.42270855911	20750.2918947165	22808.0403905832	-65.4749239259134
5.761429	10779.1148087544	23235.6472715036	25614.1488280606	-65.1132156698473
4.919708	12241.3303818819	25999.0090489087	28736.7124258086	-64.7871453886383
4.191257	13976.2872875793	29031.239929029	32220.3274061857	-64.2927974029994
3.564097	15844.1574282122	32432.8260322592	36096.0597440879	-63.9634612623583
3.051758	17957.5589240881	36063.2415690678	40286.8628088741	-63.5291592536491
2.604164	20251.3125899414	40099.7432126059	44923.3243130164	-63.2051516205026
2.214424	22978.1833730128	44682.9243115098	50245.0060817184	-62.7855173313488
1.892567	25826.8243214241	49645.6169742025	55961.7024337084	-62.5154823225036
1.607507	29124.2463974798	55192.6452133861	62405.527109959	-62.1801301250136
1.376413	32691.3816340077	61108.8650317536	69303.8225396653	-61.8545755058202
1.17375	36584.2099045325	67847.4854971596	77082.3306771804	-61.6659005038837
1.001604	40900.1527619025	75113.1744875744	85526.6711473547	-61.431102399439
