EC-Lab ASCII FILE
freq/Hz	Re(Z)/Ohm	-Im(Z)/Ohm	|Z|/Ohm	Phase(Z)/deg
6999984	18.9331647709932	4.7533470419093	19.5207334991902	-14.0933522840422
5969734	12.5036426792002	-3.00839063934718	12.8604624523393	13.5282955769063
5091109	12.3776461115421	-6.13303218253851	13.8137687476889	26.3580753874567
4341796	9.28487149545918	-7.37901808806845	11.8599640231845	38.4754165572297
3702781	6.57223314704929	-4.62197459130211	8.03473071495341	35.1171046551617
3157797	4.04063069381516	-4.78152639403231	6.26016701539414	49.8005060653635
2693047	1.39650343712227	-5.03558388115908	5.22564128830935	74.4998686359165
2296687	3.33426393181613	-3.46481297863552	4.80855954979566	46.1000008497316
1958656	1.61974281119374	-3.0750159737613	3.47552730003678	62.2222998187352
1670375	1.14134620903558	-2.93307506226084	3.14731639492065	68.7375174987268
1424531	1.23717101516953	-2.3702210996033	2.67367540695954	62.4370444003502
1214875	0.882573783225178	-2.30673548764065	2.46981074027488	69.0627856390226
1036062	0.490214504656484	-1.87747259657712	1.94041583467916	75.3665818926109
883578.1	0.783180414533581	-1.95308431967778	2.10425994627095	68.149376322025
753531.2	0.356013456658354	-0.851167010941497	0.922621732801104	67.3021436303651
642624.9	30.8520765516953	5.9665251054813	31.4237179433944	-10.9453903773006
548046.8	21.6797560174228	3.60743549900438	21.9778391079391	-9.44726044163819
467390.6	6.18528603638798	-68.2125707834591	68.4924271451987	84.8187812304431
398593.7	-71.9886573166108	-66.5451495035693	98.033788586899	137.250206358644
339937.5	120.913618797153	28.9437695646524	124.329582188773	-13.4619012276065
289906.2	22.9398679733303	-104.663082373738	107.147554123301	77.6375001136119
247234.4	87.7777654763671	55.3204046986586	103.755883149089	-32.2204649556763
210843.7	30.5770921395295	89.6452048554632	94.7165313833189	-71.1659991133888
179812.5	66.4820844792374	-87.2400889022362	109.684550727869	52.6904650769577
153343.8	-143.587405562917	-111.767954405266	181.959936986764	142.102929700284
130781.2	9.58802552487248	12.9361671885308	16.1020077939127	-53.4549053672213
111531.3	1.8256854524688	1.59017807491041	2.42111414049028	-41.0559726298753
95109.37	0.821678745322078	-0.327497820199553	0.884539870638697	21.7308223973566
81109.37	0.50818704118403	0.121713397842263	0.522559298110452	-13.4689199605969
69171.88	0.531686075263371	-0.0922387879182796	0.53962772040139	9.84191950050225
59000	0.441505069391189	-0.042926270948893	0.443586959947761	5.55324961689893
50312.5	0.451222886601872	-0.167129310272325	0.48118011154393	20.3242224694663
42906.25	0.475557624974215	-0.0227511613143133	0.476101533301738	2.73900010243771
36593.75	0.485730002735823	-0.105007831801912	0.496950983797679	12.1987928499288
31203.13	0.470001893397402	-0.113393494201677	0.483487191479163	13.5640710616342
26609.38	0.389848674585627	0.0109610224552017	0.390002734720455	-1.61050930464158
22703.13	0.344758802997668	-0.166568739923717	0.382888727131212	25.7873120206813
19359.37	0.340708383309136	-0.0620548993287991	0.346313460592903	10.3224133666549
16500	0.337674039857555	-0.0560701436807563	0.34229755799027	9.42783717238325
14112.02	0.335903537582703	-0.0507571999489723	0.339716764242264	8.59275691555803
12011.13	0.333240430206096	-0.045432300011128	0.336323175247031	7.7635494761329
10236.38	0.331755427596432	-0.0412152673442854	0.334305791158263	7.08179272528468
8750.684	0.521270991116098	-0.0913417659841578	0.529213344873562	9.93897282141946
7449.463	0.197910123062373	-0.444322903771215	0.486406475724006	65.9908724204287
6363.206	0.322058300894014	-0.0379013437609476	0.324280836673437	6.71196565726159
5414.761	0.313426150437409	-0.0369377769395598	0.315595233080682	6.72139654256944
4620.567	0.350231189366867	-0.0368594512818855	0.352165451392001	6.00787501155918
3941.215	0.316846826087175	-0.0287006678177328	0.318144054690168	5.17584976569759
3361.769	0.321829111740922	-0.0234847116027737	0.322684844458206	4.17362511496121
2867.244	0.320312434487265	-0.0222483369774353	0.321084169939005	3.97328240048459
2442.658	0.318817594378121	-0.021717490714497	0.319556423637495	3.89690311568908
2083.003	0.31749534740805	-0.0201735473090989	0.31813561202228	3.63566701970375
1777.843	0.316319245461059	-0.0193528277229336	0.316910708228559	3.50106720151382
1513.548	0.315128679521715	-0.0188051222189802	0.315689273303307	3.41504274519509
1292.065	0.313294383274911	-0.0182257293825281	0.313824071420808	3.32939815989452
1101.762	0.312064341139513	-0.0168900851809947	0.312521084069955	3.09803837517849
939.101	0.311449646800783	-0.0163093401553027	0.311876381068901	2.99760689510119
801.2801	0.3094910824173	-0.015594022116613	0.309883693700726	2.88446663817009
684.3433	0.310043958415648	-0.014761622895219	0.310395170163043	2.72587306639347
582.9476	0.305809257155112	-0.0130295244127435	0.306086703840895	2.43970872265758
497.0677	0.305652016513783	-0.0134314355254697	0.305946986681054	2.51616134605086
423.5089	0.304782978477403	-0.0132339748625376	0.30507015924246	2.48627701337243
361.5036	0.302683581141448	-0.0125250630059769	0.302942614196015	2.36955061360161
308.1262	0.303855163870761	-0.0118115222068724	0.304084647208257	2.22609286789896
262.7298	0.303569796397886	-0.0129365991226249	0.303845317360518	2.44017797509179
224.2111	0.298252663079441	-0.0139737028882086	0.298579830876747	2.68245432467845
191.2854	0.298540116741471	-0.00908986999543064	0.298678467654675	1.74398784442644
163.1722	0.292090172206892	-0.00977245364521456	0.2922536048539	1.91622869792528
139.1537	0.30293462928719	-0.00602935866716699	0.302994625013885	1.14021695203128
118.6706	0.284676875827483	-0.0222499632776738	0.285545065614439	4.46907595864058
101.1982	0.278073958613571	-0.0488099575786874	0.28232523517719	9.95563443410187
86.24196	0.282099517179435	-0.0439683445901131	0.285505434131936	8.8589072705522
73.61024	0.327520700976478	-0.0164004748536703	0.327931067670554	2.86666999609553
62.69291	0.51010562101077	-0.177635388740944	0.540150049449159	19.1997813373662
53.57697	0.312307385677447	-0.0756304270891405	0.321334505850783	13.61305322354
45.65746	0.335750304685514	-0.000767508067127323	0.33575118192651	0.130975000699033
38.96512	0.271824339192096	-0.0620081359769844	0.278807245789201	12.8503318066618
33.18414	0.361179497030117	0.00339529202356461	0.36119545551246	-0.538596943199033
28.30617	0.263742110197845	-0.0250621173544176	0.264930199142904	5.42823710149492
24.17237	0.3186445872428	0.0535214152491749	0.323108209226273	-9.53473390822081
20.61345	0.298624441166505	-0.0783517521692138	0.308732171841538	14.7016329272429
17.55618	0.356175786446187	-0.115039309578572	0.374292978292239	17.899659886123
14.98558	0.543062517986795	-0.0543183666725874	0.54577228163414	5.71185865853602
12.76553	0.393050127590958	-0.140913552882569	0.417546443147654	19.7234131959142
10.8809	0.0905770105972949	-0.342944366980401	0.354704149527927	75.2051223859431
9.278505	0.0876276768606275	-0.23099467358271	0.247056975160738	69.2257921317373
7.923394	0.201929008725695	0.00515202765447479	0.201994722589216	-1.46153053762505
6.75822	0.304827028505023	-0.175230164685797	0.351603651748689	29.8924915974361
5.761429	0.772520383527122	0.339242447839686	0.843725773803997	-23.7080653708854
4.919708	0.578818002711939	0.158232794791889	0.600056578674953	-15.2895105433589
4.191257	0.515953476300881	-0.314081732104924	0.604032552226279	31.3305640970129
3.564097	0.569916830781264	0.303590951951666	0.645734202373297	-28.0439349446938
3.051758	0.486015342193486	0.480274965831642	0.683282485983679	-44.6596307893963
2.604164	0.333065637882762	-0.478542405581638	0.583039924085917	55.1620732248592
2.214424	0.785070934589093	-0.318707373253539	0.847296147815369	22.0951834480141
1.892567	0.57479039642509	0.241341652226032	0.623401790919551	-22.7764474551585
1.607507	0.468816609769358	-0.27468164475865	0.543359015350764	30.3662188320283
1.376413	0.57777139783163	-0.0664602037644528	0.581581246978209	6.56181060789166
1.17375	0.617750324497789	0.221954863932268	0.656414065236506	-19.7631306302727
1.001604	0.555350347570183	0.352075487742913	0.657549357551	-32.373473334866
