EC-Lab ASCII FILE
freq/Hz	Re(Z)/Ohm	-Im(Z)/Ohm	|Z|/Ohm	Phase(Z)/deg
6999984	4.91522728311392	2.99306697204005	5.7548161694171	-31.3388089596849
5969734	3.8208974404799	1.07397370638712	3.96896419392727	-15.6995535190222
5091109	2.38805305451643	-0.162118961055305	2.39354965453381	3.88370847062502
4341796	1.61990874243422	-0.83692644168086	1.82333491235138	27.3231540384192
3702781	0.912726663658752	-0.694729826911657	1.14704816592606	37.2768919822192
3157797	0.648876371069335	-0.637708197632482	0.90978694772995	44.5026575422643
2693047	0.47940169494197	-0.52073937412632	0.707810342449661	47.366793346032
2296687	0.358395889679412	-0.401168919373361	0.537944342483762	48.2230673116991
1958656	0.302316907334589	-0.304281526755368	0.428932115823621	45.1855659382808
1670375	0.256021152163964	-0.231490834037195	0.345159146769429	42.1194567821515
1424531	0.239565997815754	-0.173159050127406	0.295594187951122	35.8595204477804
1214875	0.225912039891354	-0.134643626953221	0.262992692003012	30.7949516909688
1036062	0.218221475854795	-0.104513488472514	0.241958016599862	25.591303158967
883578.1	0.212728846582652	-0.0813421939483738	0.227750114565768	20.9256047008136
753531.2	0.210219477946152	-0.0629436184197723	0.219440488533285	16.6686772520183
642624.9	0.209416404526992	-0.0483469462198206	0.214924772173416	12.9998336841453
548046.8	0.20882649721335	-0.0387218539809882	0.21238617637248	10.5048144807348
467390.6	0.209098042742682	-0.0311689652654302	0.211408362830182	8.4783028664027
398593.7	0.209582147286378	-0.0252861180640566	0.211102023268178	6.87949278697989
339937.5	0.2101099165634	-0.0205238359277895	0.211109935529974	5.5790338635954
289906.2	0.21143345709227	-0.0179110652747633	0.212190746822913	4.84211044440081
247234.4	0.211528525132604	-0.0162944541299772	0.21215519362054	4.40490640445931
210843.7	0.211184469581688	-0.0149950872946133	0.211716161016281	4.06145258374609
179812.5	0.210457956716539	-0.0136852728537291	0.210902437725081	3.72048654577933
153343.8	0.209663434342197	-0.0124777130254316	0.210034399617086	3.40583015680718
130781.2	0.209254086547017	-0.011165826901611	0.209551779823087	3.05441394161502
111531.3	0.208898037559866	-0.0102688588771974	0.209150279844429	2.8142392012209
95109.37	0.208462915041484	-0.0093646840315263	0.208673151734005	2.57214276038192
81109.37	0.20807257748527	-0.00847509211491925	0.208245107235969	2.33244930453571
69171.88	0.207475217248451	-0.00770702626581265	0.207618313320752	2.12737281275571
59000	0.206928027998455	-0.00682216406113937	0.207040456659578	1.88828783808793
50312.5	0.206530620415658	-0.00603438895644673	0.20661875766579	1.67358565534974
42906.25	0.206129021946441	-0.00518922726786393	0.206194330106902	1.4420969551298
36593.75	0.205845347392943	-0.00444809820886497	0.205893401110859	1.23790797497447
31203.13	0.205638718596394	-0.00381423767500483	0.205674089265052	1.06261440234317
26609.38	0.205512214684325	-0.0031548767295042	0.205536428964878	0.879494799188175
22703.13	0.205429904192313	-0.00267353558188876	0.205447300612519	0.745624929229243
19359.37	0.205329847032623	-0.00225898227378897	0.205342273006203	0.630326913241682
16500	0.205380022982873	-0.0018687713343785	0.205388524866278	0.521325073169034
14112.02	0.205331599906541	-0.00147635492122336	0.205336907408369	0.411955336896133
12011.13	0.205348751990453	-0.00125428988248217	0.205352582616207	0.349963767181497
10236.38	0.205355760802208	-0.00105487972357818	0.205358470158611	0.294316673723904
8750.684	0.205402866646144	-0.000862157098922555	0.205404676045403	0.240491643350606
7449.463	0.205421687110771	-0.000712527905163285	0.205422922848087	0.198735968931739
6363.206	0.205442019540936	-0.000585522845811026	0.205442853927951	0.163296180175937
5414.761	0.205458720196233	-0.000474685480676377	0.205459268544837	0.132374163634742
4620.567	0.205505106417342	-0.000357059111038411	0.205505416606988	0.0995496407348156
3941.215	0.205501370116115	-0.000312407944546754	0.205501607580876	0.087102304522937
3361.769	0.205530669234673	-0.000270125414555659	0.205530846745183	0.0753028116900129
2867.244	0.205512605333431	-0.000206163121886049	0.205512708741254	0.0574771206552412
2442.658	0.205538440030899	-0.000165109824884	0.205538506347569	0.0460259116772432
2083.003	0.20554498844593	-0.000103866454601257	0.205545014688943	0.0289528293542657
1777.843	0.205537893721102	-0.000103962103199445	0.205537920013378	0.0289804917566146
1513.548	0.205561078763157	-8.3421664919858E-05	0.205561095690423	0.023252013884273
1292.065	0.205553361941335	-7.46216291569505E-05	0.205553375486206	0.0207999722450752
1101.762	0.205581223187894	-5.37736761944028E-05	0.205581230220657	0.0149867997514574
939.101	0.205581738231275	-6.80272258035335E-05	0.205581749486417	0.0189592364662364
801.2801	0.205617247742555	-7.40491862022363E-06	0.205617247875892	0.00206339978309817
684.3433	0.205597522412421	-4.33517596648102E-05	0.205597526982941	0.0120812390991018
582.9476	0.205568323507524	-5.67183370213804E-05	0.205568331332099	0.0158084727958766
497.0677	0.205564581124335	-6.18070427997785E-05	0.205564590416088	0.0172271048374646
423.5089	0.205567066897092	-5.54810726197633E-05	0.205567074384063	0.0154637183609684
361.5036	0.205556307707894	-8.1038522949236E-05	0.205556323682208	0.0225882881152376
308.1262	0.205543802610557	-7.63529487800808E-05	0.205543816791896	0.0212835486241657
262.7298	0.205526786111238	-5.04769480775642E-05	0.205526792309754	0.014071723127276
224.2111	0.205549559951028	-4.51794034606293E-05	0.205549564916202	0.0125935034749944
191.2854	0.205522174508954	-3.08542633065627E-05	0.205522176824971	0.0086015976543369
163.1722	0.205523888273128	-2.42198188589407E-05	0.205523889700212	0.00675198102967353
139.1537	0.20555724057907	-7.10625564414544E-06	0.205557240701905	0.00198075463185512
118.6706	0.205514516456073	-8.80135235625753E-06	0.205514516644536	0.00245374561568049
101.1982	0.205536433115509	-4.33437696655435E-06	0.205536433161211	0.00120826027386542
86.24196	0.205526575981586	-1.82481045917539E-05	0.205526576791684	0.0050871249592904
73.61024	0.20551829602868	7.49690667848226E-07	0.205518296030048	-0.000209003830986719
62.69291	0.205533552272097	-4.133405112216E-06	0.20553355231366	0.00115225307643359
53.57697	0.205521058834528	-8.87145626442241E-06	0.205521059025999	0.00247321128381227
45.65746	0.205542892987754	-4.29285992583314E-06	0.205542893032583	0.0011966492841471
38.96512	0.20553302012734	-1.18280718045912E-05	0.205533020467682	0.00329727356223713
33.18414	0.205541946365171	4.36144800148321E-06	0.205541946411444	-0.00121577404239077
28.30617	0.205530393284991	-7.79748605142497E-07	0.20553039328647	0.000217370790964794
24.17237	0.205536495173253	1.03882522676365E-05	0.205536495435775	-0.00289585073660154
20.61345	0.205539118581796	2.00265458172696E-05	0.205539119557432	-0.00558257015910695
17.55618	0.205557064667553	2.08756766653856E-05	0.205557065727585	-0.0058187645616983
14.98558	0.205532684886469	1.26341496497093E-05	0.205532685274781	-0.00352198703652964
12.76553	0.205539925144996	1.6901665240526E-05	0.205539925839913	-0.00471146460795508
10.8809	0.205551494429238	-5.07347954095118E-06	0.205551494491851	0.00141419047276016
9.278505	0.205561422600216	2.19563239735607E-05	0.20556142377281	-0.00611984815346159
7.923394	0.205522953896879	1.14759146681277E-05	0.205522954217273	-0.00319926053701307
6.75822	0.205552491603992	3.30506826335827E-05	0.205552494261093	-0.00921255974001875
5.761429	0.205546220053902	-5.72880542161429E-06	0.205546220133736	0.00159689811926045
4.919708	0.205568178350822	1.61968483694119E-05	0.205568178988902	-0.00451437113713464
4.191257	0.205548108237908	1.86126649082037E-05	0.205548109080609	-0.00518821190308533
3.564097	0.205544050200944	6.06688340718394E-06	0.20554405029048	-0.00169115483317963
3.051758	0.20555462719334	1.96828566649541E-05	0.205554628135705	-0.00548634991882386
2.604164	0.205548895630389	1.4398161624351E-05	0.205548896134665	-0.00401341923994909
2.214424	0.205544578608508	2.27386156629882E-06	0.205544578621086	-0.000633841436357015
1.892567	0.20552998770231	1.02904569351791E-05	0.205529987959921	-0.00286867993204085
1.607507	0.205527024807851	9.50628463918055E-07	0.20552702481005	-0.000265011372193229
1.376413	0.205517580732226	5.08366849179852E-06	0.2055175807951	-0.00141726439133104
1.17375	0.205513345671165	2.79909793361472E-06	0.205513345690227	-0.000780370235841567
1.001604	0.205495367325664	4.54663432171037E-06	0.205495367375962	-0.00126768287271403
