EC-Lab ASCII FILE
freq/Hz	Re(Z)/Ohm	-Im(Z)/Ohm	|Z|/Ohm	Phase(Z)/deg
6999984	9.55785955797869	-1.20310683441496	9.63328320901346	7.17444000075734
5969734	5.64982634511529	-1.4747391865173	5.83912608171878	14.6291480365809
5091109	3.35221445578657	-1.15416342041469	3.54533989324123	18.9985241822485
4341796	2.27215106141658	0.398075205920745	2.30675839989049	-9.93722530014431
3702781	1.71722347506274	0.0749595072292716	1.71885874667775	-2.49946420998516
3157797	1.47508719549083	0.00107349327343649	1.47508758610762	-0.0416969405152882
2693047	1.30626332493436	-0.0256176442690888	1.30651449963881	1.12350606497849
2296687	1.21776466922263	-0.0124702486546844	1.21782851695483	0.586704198551602
1958656	1.15357410145265	-0.00108750335160027	1.15357461406094	0.0540141580118926
1670375	1.12463882152833	0.00800292322773399	1.12466729554514	-0.407709547746875
1424531	1.09939301272226	0.0150360603418994	1.09949582970248	-0.783567913296192
1214875	1.08470569124195	0.00736875015366329	1.08473072008287	-0.389222434233405
1036062	1.07461927150557	0.00415335753859442	1.07462729775025	-0.221444635479733
883578.1	1.06439539040305	0.00104165683134081	1.06439590010494	-0.0560717583161884
753531.2	1.05076833812028	0.00770796323271994	1.05079660881317	-0.420288492364295
642624.9	1.04362348071251	0.0093582242763271	1.04366543770315	-0.513760368695702
548046.8	1.03913534443966	0.00874562981404317	1.03917214652077	-0.482204603537313
467390.6	1.03595721112681	0.00743930138334395	1.03598392192674	-0.411439044626941
398593.7	1.03520677189007	0.00653672612140157	1.03522740948811	-0.3617845740444
339937.5	1.03341188007842	0.00681276213869174	1.0334343363829	-0.377716639566264
289906.2	1.03480203466476	0.00477169433603544	1.03481303625977	-0.264201267166694
247234.4	1.03382217790085	0.00406261848507746	1.03383016032064	-0.225154479907426
210843.7	1.03051992240056	0.0027044769302406	1.03052347118342	-0.150365611359645
179812.5	1.03601913907156	0.00297043041411653	1.03602339740926	-0.164275594230934
153343.8	1.03358140780962	0.00310311631407451	1.03358606603445	-0.172018316691214
130781.2	1.02696090740008	-0.00136506907786414	1.02696181464628	0.0761593262979539
111531.3	1.03017774574959	0.00229073379559212	1.03018029261825	-0.127404385015557
95109.37	1.02754176949327	0.00179358625563786	1.02754333485504	-0.10001035609788
81109.37	1.02736142281388	-0.00217058162295806	1.0273637157846	0.121052804081855
69171.88	1.02586733625935	0.000191843964841273	1.02586735419739	-0.0107146889210912
59000	1.02705654462566	-0.00162299513092164	1.02705782698522	0.0905409680261942
50312.5	1.02728488303388	0.00133543514522785	1.02728575104348	-0.0744825080147241
42906.25	1.02531026092709	-0.000412019822690265	1.02531034371194	0.0230242459719747
36593.75	1.02603149194132	0.00151040460778148	1.02603260366199	-0.0843441429929568
31203.13	1.02759162403097	0.000859571962218321	1.02759198354335	-0.0479274382781455
26609.38	1.02708361531417	0.00189281761876725	1.0270853594543	-0.105590563951998
22703.13	1.02630801485055	0.00139817722070625	1.02630896724428	-0.0780561030787345
19359.37	1.02745064795587	0.00090244517223678	1.02745104428008	-0.0503248369324216
16500	1.02732302312121	0.000987018670849044	1.02732349726887	-0.0550479113841794
14112.02	1.02755676124004	0.00128378076271159	1.02755756318718	-0.0715825967262284
12011.13	1.02758901645305	0.00234771821414055	1.02759169834899	-0.130902636129508
10236.38	1.02771834889331	0.00180214091433191	1.0277199289514	-0.100470097432693
8750.684	1.02824234310788	0.00211426563136783	1.02824451677563	-0.117811066172784
7449.463	1.0284686793843	0.00209800393787397	1.02847081927249	-0.116879207614783
6363.206	1.02884823466493	0.00186452711021063	1.02884992415536	-0.103833989943686
5414.761	1.028838277529	0.00185444287883222	1.02883994880993	-0.10327340803693
4620.567	1.0291746018633	0.0020773361795419	1.02917669835946	-0.115648436975063
3941.215	1.0294817087709	0.00206672848608134	1.02948378329165	-0.115023569203693
3361.769	1.02964079131979	0.00190840329533103	1.02964255989775	-0.106195607383656
2867.244	1.02988001553297	0.0018630745481546	1.02988170070206	-0.103649153758977
2442.658	1.03025318670887	0.00188837378570706	1.03025491732839	-0.105018580185119
2083.003	1.0304357616334	0.00175877728764603	1.03043726259805	-0.0977939834589758
1777.843	1.03050025695652	0.00166020536334713	1.03050159430702	-0.0923072823170235
1513.548	1.03077866893531	0.00149100176891821	1.03077974728762	-0.0828771991500833
1292.065	1.03089465189669	0.001308667857033	1.0308954825397	-0.0727340127113233
1101.762	1.03107852918804	0.0012685056220925	1.03107930949034	-0.0704892786615598
939.101	1.03121176323122	0.00119328269261361	1.03121245364378	-0.0663006707002559
801.2801	1.03129227320908	0.00105077168527898	1.03129280851846	-0.0583779821965254
684.3433	1.03136914201816	0.00104734541004253	1.0313696738026	-0.05818329113774
582.9476	1.03141619394231	0.000807595434941305	1.03141651011452	-0.0448623948235152
497.0677	1.0314779311973	0.000862539994829636	1.0314782918328	-0.047911727775403
423.5089	1.03163182388938	0.000754298581418057	1.03163209964972	-0.0418929665657363
361.5036	1.03150068583127	0.000617441530672794	1.03150087062708	-0.0342964285573061
308.1262	1.0315734668599	0.00059206660160573	1.03157363676677	-0.032884631902214
262.7298	1.031513928207	0.00038404761016874	1.03151399970025	-0.0213320495015235
224.2111	1.03168126337132	0.000438629632363997	1.03168135661521	-0.0243598736177821
191.2854	1.03158893851782	0.000473447570256495	1.03158904716215	-0.0262958865483732
163.1722	1.03167786415775	0.000284367257463231	1.03167790334864	-0.0157927622931341
139.1537	1.03169713271896	0.000271680216839258	1.03169716849018	-0.0150878866952524
118.6706	1.03177681223153	0.00024909434864581	1.03177684230004	-0.013832501788653
101.1982	1.0317369158449	0.000320445012348638	1.03173696560808	-0.0177953758378313
86.24196	1.03164509188042	0.000307136021274403	1.03164513759989	-0.0170578015385814
73.61024	1.03158790498213	0.000259206376228433	1.03158793754743	-0.0143966704112065
62.69291	1.03183769105827	7.90919894780687E-05	1.03183769408953	-0.00439181202700939
53.57697	1.03173581794069	7.31959199545454E-05	1.03173582053711	-0.0040648169919191
45.65746	1.03163039673721	0.000161760163349292	1.03163040941924	-0.00898400687554106
38.96512	1.03167502400952	4.51355863109592E-05	1.03167502499686	-0.00250667946749924
33.18414	1.03171181092218	6.99196150720267E-05	1.03171181329142	-0.00388296305253355
28.30617	1.03186984730623	7.49183119107988E-05	1.03186985002593	-0.00415992683999522
24.17237	1.03174259097896	3.89089321654809E-05	1.03174259171262	-0.00216073041558823
20.61345	1.03169718206785	0.000113062766107972	1.03169718826308	-0.00627899291063713
17.55618	1.03174555983874	6.34462853461654E-05	1.03174556178953	-0.00352335354087103
14.98558	1.03162983152957	3.66695196520234E-05	1.03162983218129	-0.0020365916608218
12.76553	1.03172766792993	4.07839883889798E-05	1.03172766873602	-0.00226489070499624
10.8809	1.03177543758173	-1.37264927962921E-05	1.03177543767304	0.000762249299654964
9.278505	1.03175763673623	4.83124743961153E-05	1.03175763786736	-0.00268289836696968
7.923394	1.03187716226307	3.78926447635154E-05	1.03187716295882	-0.00210401848006838
6.75822	1.03182051264715	-9.34819685345759E-07	1.03182051264758	5.19094376585252E-05
5.761429	1.03170531548486	6.32162781855782E-06	1.03170531550423	-0.000351071752965721
4.919708	1.03153177877724	2.71021874482493E-05	1.03153177913328	-0.00150537384106626
4.191257	1.0316784816015	0.000107391127580312	1.03167848719086	-0.00596412395432299
3.564097	1.03156513632067	3.67440819643467E-05	1.03156513697508	-0.00204086076935332
3.051758	1.03151188201277	2.01356483256254E-05	1.03151188220929	-0.00111844340990071
2.604164	1.0313367813907	3.24082835542723E-05	1.03133678189989	-0.00180043793823391
2.214424	1.03125165939635	-2.68981267256181E-05	1.03125165974714	0.00149444524408193
1.892567	1.03118348925335	-8.60486530379766E-06	1.03118348928925	0.000478113226513842
1.607507	1.03084607750269	-2.17017427313806E-05	1.03084607773113	0.00120621137679003
1.376413	1.0305665196622	-7.92709602750104E-06	1.03056651969268	0.000440717932803259
1.17375	1.03028665494487	3.2080519820114E-05	1.03028665544432	-0.00178404561571522
1.001604	1.02976312086115	-3.00018910939982E-05	1.0297631212982	0.00166929821216878
