EC-Lab ASCII FILE
freq/Hz	Re(Z)/Ohm	-Im(Z)/Ohm	|Z|/Ohm	Phase(Z)/deg
6999984	2.48776148870915	87.7953717424364	87.8306111593066	-88.3769064339851
5969734	13.7439590327614	90.1670997339725	91.2085647531544	-81.3332497795443
5091109	14.5927328516499	89.1792145447784	90.3652596903436	-80.7068350221278
4341796	14.9798753920694	92.4844210550827	93.6897262492305	-80.7995968891594
3702781	16.7164524849268	99.6914435634472	101.08325134979	-80.4810896508462
3157797	17.1175455810067	108.697958614494	110.037523480293	-81.0506669949858
2693047	16.5508887822439	121.315538591467	122.439339361253	-82.2311892360733
2296687	16.7284813115646	138.881078846828	139.884938962886	-83.1317070026804
1958656	18.449031426797	158.1624499854	159.234818258982	-83.346738063193
1670375	19.3942266986857	181.749420760087	182.781257178812	-83.9090961391139
1424531	21.5053694969513	209.744289637246	210.843894748303	-84.145842300062
1214875	23.5758815257584	241.760033570709	242.906846387307	-84.4302585495649
1036062	25.6963594373135	279.778760992668	280.956327550964	-84.7523754219875
883578.1	27.9009301041478	324.306299035175	325.504281837534	-85.0828001824394
753531.2	30.7796847908985	376.562241851208	377.818092451691	-85.3271093862832
642624.9	33.8249083290491	438.048603969176	439.352596285504	-85.5845393236355
548046.8	38.2957720623504	507.537768391353	508.980503066204	-85.6849788251219
467390.6	137.13621032457	707.653740527208	720.819087333524	-79.032595048976
398593.7	160.412518697609	803.371051878459	819.229652265598	-78.7080144580344
339937.5	184.909455476965	913.085795594165	931.620725853937	-78.5518261630817
289906.2	207.092100971923	1039.37423437399	1059.80466943937	-78.7315630234143
247234.4	229.211848319184	1186.18212218898	1208.12503426203	-79.0632482910155
210843.7	250.789631062488	1358.87407707655	1381.82278038796	-79.5433296275556
179812.5	271.868352479354	1563.25680400312	1586.72122199897	-80.1342782974535
153343.8	292.533368695164	1798.42842255832	1822.06491730282	-80.7611514211062
130781.2	314.075870956229	2076.79999322365	2100.41468871522	-81.4002858415746
111531.3	338.673083726332	2403.2101609634	2426.95664060947	-81.9784002568616
95109.37	362.561488907233	2786.44266733181	2809.93123965087	-82.5865376606135
81109.37	392.613591957576	3238.06845121356	3261.7836726758	-83.0866725199832
69171.88	419.453489885794	3753.90514626245	3777.26687928098	-83.6243361149339
59000	452.364136217469	4357.66551341495	4381.08229077493	-84.0734204347575
50312.5	1321.65029261641	5699.27298781296	5850.51041239886	-76.9439919983856
42906.25	1683.56466155024	6768.66316282845	6974.89720221392	-76.0323015547734
36593.75	1822.92439012273	7532.31273539922	7749.76054313691	-76.3952130222093
31203.13	1950.46273500851	8619.6108842641	8837.5334045638	-77.2497222778674
26609.38	2060.18638582423	9833.62619607091	10047.1176019985	-78.1674287783284
22703.13	2176.27196036261	11312.7686541851	11520.1950620887	-79.1108610837909
19359.37	2323.97717957759	13057.8455886822	13263.0389183273	-79.908418334613
16500	2469.83126468568	15114.3250677587	15314.7931337612	-80.7193255020616
14112.02	2614.8962510013	17474.8820177258	17669.4420946711	-81.489552666056
12011.13	2847.0863849139	20321.9179396857	20520.3861959389	-82.0248098382672
10236.38	3036.79184120814	23594.9774604849	23789.5999556028	-82.6660642025776
8750.684	3332.86612343963	27577.2510820143	27777.918817601	-83.1089032824342
7449.463	3248.23078012704	32039.028169831	32203.265816811	-84.2109303055888
6363.206	4193.17589543092	36540.8558000253	36780.6588669679	-83.4537665793235
5414.761	13890.8591025848	50390.956676458	52270.4934104943	-74.5885052068233
4620.567	15337.324712992	57263.5100099978	59281.895280236	-75.0059622563556
3941.215	15837.2773899711	64998.6977659506	66900.2994492273	-76.306404563964
3361.769	18357.9530144137	73871.613918018	76118.5245635524	-76.0440471895736
2867.244	18424.6507788315	83676.6247993686	85681.0673027374	-77.5822669821613
2442.658	19692.7050481101	96911.5548824325	98892.123558161	-78.5137244697055
2083.003	21741.3762797423	109779.819746722	111912.002332905	-78.7977969445314
1777.843	20972.0487256419	128198.321431698	129902.411238805	-80.7092414448673
1513.548	25108.0251704264	150417.500613051	152498.647268217	-80.5234312319064
1292.065	25321.9760487873	174671.332873237	176497.243600938	-81.7513370826512
1101.762	29913.1109875714	200688.204172714	202905.27224058	-81.5223258519375
939.101	28976.8056875698	229845.227705008	231664.593683674	-82.8145748630755
801.2801	31600.7123101415	273842.246376977	275659.538052463	-83.4173264635532
684.3433	104802.087362726	379441.524938146	393648.762684414	-74.5598000212872
582.9476	121279.761710628	440317.806879843	456714.956680927	-74.6004800247415
497.0677	128085.924466644	485961.081124501	502557.634917796	-75.2342286419357
423.5089	137644.915524437	555488.427932269	572287.966269075	-76.082951023863
361.5036	157077.039503642	619206.24230729	638818.884232099	-75.7657615884786
308.1262	166486.039152213	716947.025236891	736023.53102915	-76.9267459687522
262.7298	185330.987754186	805466.328751016	826512.904783453	-77.0422542602505
224.2111	201108.511411621	928073.461656676	949613.070462704	-77.7733484068375
191.2854	212500.007668978	1082841.99488557	1103495.82652001	-78.8972051219866
163.1722	195883.457747587	1273903.63697944	1288875.79127261	-81.2583068999412
139.1537	205509.833945607	1460328.87439923	1474718.52000728	-81.9894583423076
118.6706	249214.093764797	1734224.97586632	1752039.93431929	-81.8223838492475
101.1982	269804.045839814	1965529.57023426	1983960.86519286	-82.1839775137545
86.24196	265182.62205461	2303534.83601025	2318748.49083564	-83.4330255071397
73.61024	225507.253232509	2696504.3795402	2705917.47659457	-85.2195079123576
62.69291	416288.074838623	2986527.04485209	3015400.39644585	-82.0647449965878
53.57697	440635.774165077	3646610.935911	3673136.42591448	-83.110106493804
45.65746	82526.6882370441	4370058.88183677	4370838.05293582	-88.9181223672656
38.96512	550385.659430878	4952699.04925351	4983186.95681627	-83.6588281742008
33.18414	312329.805067398	5749742.34932337	5758219.08151609	-86.8907112091952
28.30617	1065151.67596203	6221451.90529391	6311973.69312404	-80.2847943102344
24.17237	1122326.3446545	7667179.54327815	7748887.57001729	-81.6721543153642
20.61345	-460797.540878151	9123338.69913865	9134968.16594783	-92.8914127891594
17.55618	989395.186699158	11493096.5020411	11535604.4505996	-85.0797635061252
14.98558	690519.805019402	12650952.7587901	12669783.8697534	-86.8757570107423
12.76553	372291.138048512	14621540.6345806	14626279.4729269	-88.5414599127466
10.8809	796720.131041995	16845207.3443655	16864037.8747758	-87.2921254404639
9.278505	833510.091118741	20786930.168272	20803634.4154721	-87.7037956162654
7.923394	1739359.44252355	22357750.7225809	22425306.8795806	-85.5515369546359
6.75822	5122482.43787828	24655708.378092	25182211.6175662	-78.2631700258948
5.761429	-2042799.85989691	28479289.407526	28552459.7263566	-94.102760159625
4.919708	1425938.11017489	37031253.943125	37058697.603859	-87.7948386099117
4.191257	3271979.77668053	40493044.2068223	40625022.8405434	-85.3803371654509
3.564097	5421289.84300444	55939738.457472	56201821.3428376	-84.4645787214933
3.051758	18512539.5031861	73865959.4584081	76150470.0285442	-75.9301431799016
2.604164	-7625521.15711474	84252826.538881	84597206.5301708	-95.1716129264415
2.214424	-91154.4270745276	99549054.2806332	99549096.0144693	-90.0524642100657
1.892567	-13137218.5314144	70656077.8884738	71867015.0578428	-100.53283631126
1.607507	-30575312.5455052	100549150.560974	105095106.526368	-106.913638092514
1.376413	-67193474.2264853	115400506.741764	133537410.244775	-120.210670714572
1.17375	1867792.27343579	129435189.18059	129448664.90695	-89.1732604734374
1.001604	-16692007.3731143	128939958.179709	130015906.432749	-97.3762399305459
