EC-Lab ASCII FILE
freq/Hz	Re(Z)/Ohm	-Im(Z)/Ohm	|Z|/Ohm	Phase(Z)/deg
6999984	11.9878749177845	-2.12999891700374	12.1756330607852	10.0751362414323
5969734	7.79260860573297	-1.69896550663658	7.97566503025826	12.2993125655065
5091109	5.43829761574982	-0.990656251648275	5.52779167176188	10.3239660822797
4341796	4.25999714562765	-0.574341726343679	4.29853976361452	7.67843659566621
3702781	3.54798308860324	-0.277075042551195	3.55878554793898	4.46537522424183
3157797	2.73882899703133	1.29861515076216	3.03110303103815	-25.3679584808471
2693047	2.69979964707255	1.112149415677	2.91989630931027	-22.3886123236345
2296687	2.68714878373683	0.953744778436592	2.85138522271779	-19.5412068874846
1958656	2.69658474041887	0.826690611585	2.82045858497208	-17.0439416895172
1670375	2.7148041259093	0.700416027428409	2.80370184818799	-14.4667603382849
1424531	2.72238725830386	0.590010920043136	2.7855888551517	-12.2283460130016
1214875	2.73374325088295	0.479464036145872	2.77547075713389	-9.94777918273062
1036062	2.7404722939502	0.380145950565812	2.76671273131857	-7.89741533538726
883578.1	2.72998950348119	0.311484104766828	2.74770177359914	-6.50913859778528
753531.2	2.72194241021334	0.263804540322929	2.73469620250824	-5.53568903343596
642624.9	2.71047452651217	0.225866321743103	2.7198690693063	-4.76350407265563
548046.8	2.7040450581032	0.190490100923481	2.71074642023229	-4.0296213404798
467390.6	2.70024071484928	0.162673609700686	2.70513634063475	-3.44756669443569
398593.7	2.69601696927231	0.137753297991055	2.69953393564735	-2.9249907971041
339937.5	2.69126368085864	0.117958989116062	2.69384753150992	-2.50968692296589
289906.2	2.68921304333848	0.100979367053205	2.69110825219504	-2.15043379105193
247234.4	2.68996743834597	0.0885721322155053	2.69142524361476	-1.88588771788413
210843.7	2.69127051080062	0.0770115576834233	2.6923721403851	-1.6390895853783
179812.5	2.69341568719747	0.0691666258299385	2.6943036365952	-1.47102616716375
153343.8	2.69610115628538	0.0597816021965708	2.69676385411933	-1.27023138898677
130781.2	2.70108920379594	0.0545416457634273	2.70163981277771	-1.15678574555087
111531.3	2.70152030500745	0.0486060263564924	2.7019575318953	-1.03076024076507
95109.37	2.70113861682213	0.0434941970916647	2.70148876963581	-0.922506740868645
81109.37	2.70167310741436	0.0386454764136425	2.70194949104775	-0.81951872310947
69171.88	2.70075635139574	0.0354884683581184	2.70098950405047	-0.752834457165374
59000	2.70238196228956	0.0324045719970411	2.70257623877556	-0.687007336082794
50312.5	2.70248110371717	0.0302818383621606	2.70265075540347	-0.641983739583619
42906.25	2.70553807151813	0.0282573694065516	2.70568563128827	-0.598390818698885
36593.75	2.70751286651908	0.0254544953233729	2.70763251821559	-0.538646446752532
31203.13	2.70880915123976	0.0251223788447114	2.70892564529909	-0.531364496951096
26609.38	2.71115978975681	0.0239791174176355	2.71126583050544	-0.506744901564781
22703.13	2.71374852918047	0.0239503589686277	2.71385421482509	-0.505654390993309
19359.37	2.71530079098007	0.0223885153529755	2.71539308961275	-0.4724111505367
16500	2.71838095981909	0.0222153946119701	2.71847173361518	-0.468227240829317
14112.02	2.72018004117859	0.0223591022678361	2.7202719323407	-0.470944321285386
12011.13	2.72383011040963	0.0227723168245968	2.72392530161672	-0.479004634251507
10236.38	2.72849866193016	0.0226180611980394	2.72859240723986	-0.474946087709698
8750.684	2.73031999684531	0.0223143646197439	2.73041118076413	-0.468256633564207
7449.463	2.73410438185651	0.0224468423649459	2.73419652395711	-0.470384541519543
6363.206	2.73450170522714	0.0223174721481217	2.73459277506784	-0.467605696213159
5414.761	2.73489862400773	0.0220720518905238	2.73498768901691	-0.462396650418727
4620.567	2.73897231503087	0.0220678515521868	2.73906121373322	-0.461621094747238
3941.215	2.74181129989563	0.0207331387090976	2.74188968911517	-0.433253266760957
3361.769	2.74516471544858	0.0214183689250098	2.74524826955073	-0.44702499491628
2867.244	2.74791273334514	0.0187907509775653	2.74797697996229	-0.391793353155936
2442.658	2.74907456528975	0.0184758983798493	2.74913665072219	-0.385065969204408
2083.003	2.74845891422669	0.0170640126737011	2.74851188531553	-0.355720560628074
1777.843	2.7482678006544	0.0151480805981248	2.74830954742358	-0.315803393182223
1513.548	2.75205356581598	0.0149311874538626	2.75209406988192	-0.310853553494308
1292.065	2.75810739960897	0.0126617381025139	2.75813646279323	-0.263027849602266
1101.762	2.75896180885881	0.011653899160057	2.75898642187799	-0.242016857001244
939.101	2.75865752412737	0.0100340651237021	2.75867577251975	-0.208401022090462
801.2801	2.7568643912176	0.0098914981986498	2.75688213627283	-0.20557364725883
684.3433	2.75471685219437	0.00937363792808397	2.75473280026424	-0.194962984555023
582.9476	2.75312593401958	0.00811647553633432	2.75313789806219	-0.168912885441605
497.0677	2.74890834886954	0.0063659855638724	2.74891572010799	-0.132686654816207
423.5089	2.74796516584233	0.00609160572698165	2.74797191767732	-0.127011335968097
361.5036	2.7504861703144	0.00521420739785305	2.75049111270143	-0.108617786462572
308.1262	2.75230485236995	0.00420458104465135	2.7523080639494	-0.0875282986436168
262.7298	2.75311198884494	0.00406032003608821	2.75311498294578	-0.0845003885836889
224.2111	2.75449967841535	0.00373817237151006	2.75450221497877	-0.0777569045181172
191.2854	2.75816760508004	0.00303006622839254	2.75816926946377	-0.0629439401617025
163.1722	2.75955993180188	0.00312258965224428	2.75956169848991	-0.0648332111953668
139.1537	2.75988970129446	0.00211997381243577	2.75989051550966	-0.0440110081878405
118.6706	2.76020398638507	0.00220272274261141	2.76020486530321	-0.0457236821698897
101.1982	2.7625490251336	0.00211078676949523	2.76254983153017	-0.0437781008441198
86.24196	2.76331189822402	0.00171765555397412	2.76331243206537	-0.0356146554748754
73.61024	2.76090034445285	0.00149824302813234	2.76090075097458	-0.031092391271155
62.69291	2.759852056271	0.00151418994676743	2.75985247165034	-0.0314352664044951
53.57697	2.76027989580328	0.00109228808037398	2.76028011192144	-0.0226728796041107
45.65746	2.7617460982296	0.0013919668248853	2.76174644901701	-0.0288780411732673
38.96512	2.76455493872858	0.001069951652128	2.76455514577755	-0.0221748933364727
33.18414	2.76460343083914	0.000956171033462417	2.76460359619071	-0.0198164271643757
28.30617	2.76381754095949	0.00102884466985173	2.76381773245573	-0.0213286346730645
24.17237	2.76428772495133	0.000938580485194145	2.76428788429316	-0.019454088654735
20.61345	2.76591374557854	0.000679591382565819	2.76591382906712	-0.0140777048066572
17.55618	2.76645305702205	0.000438633031614658	2.76645309179562	-0.00908449221365111
14.98558	2.76579471743627	0.000338866000214305	2.76579473819526	-0.0070198960946767
12.76553	2.7673178602592	0.000545968021979275	2.76731791411659	-0.0113039645542273
10.8809	2.76736181588146	0.00063770394973485	2.76736188935691	-0.0132030961915459
9.278505	2.76607115460451	0.000572167358632836	2.76607121378149	-0.0118517465838401
7.923394	2.76611362641328	0.000391512129349235	2.76611365412034	-0.0081095701477683
6.75822	2.76540819240406	0.000368957997811585	2.76540821701706	-0.00764434560685593
5.761429	2.76625978364741	0.000221469414361393	2.76625979251294	-0.0045871551117657
4.919708	2.76405934604963	0.000415524637899008	2.76405937728281	-0.00861334901871503
4.191257	2.7630383814346	0.000450394048824006	2.76303841814325	-0.00933960167193311
3.564097	2.7643365475326	0.000255455215994676	2.76433655933604	-0.00529476257241463
3.051758	2.76417043821265	6.35963473096506E-05	2.76417043894424	-0.00131822634461149
2.604164	2.76239043963415	0.000156062684496197	2.76239044404257	-0.00323695485739693
2.214424	2.7567560582791	-3.94356986568492E-07	2.75675605827913	8.19622428470389E-06
1.892567	2.74850509149824	0.000271160944279814	2.74850510487429	-0.00565266466984767
1.607507	2.75065661988557	-3.90861429070497E-05	2.75065662016327	0.000814158702936022
1.376413	2.74032443101191	-0.000125507434496233	2.74032443388605	0.00262415873381287
1.17375	2.73223533686433	0.000160264537081781	2.73223534156464	-0.0033607945281943
1.001604	2.68601603952881	-6.68093306852984E-05	2.68601604035968	0.00142511906974449
