EC-Lab ASCII FILE
freq/Hz	Re(Z)/Ohm	-Im(Z)/Ohm	|Z|/Ohm	Phase(Z)/deg
6999984	3.52687062426259	1.38862195529487	3.79039408703281	-21.4908676727558
5969734	3.99613895664024	3.15417639003389	5.09096800817143	-38.2842434593064
5091109	1.46214613555179	4.59177940524399	4.81895314649686	-72.3371248466362
4341796	28.2158790806025	-6.44408683870842	28.9423925665449	12.8648562867684
3702781	-3.5465962191784	-9.96993169747381	10.5819602529108	109.581959840218
3157797	-4.49560854157795	-7.90787878504579	9.09643023598191	119.618117762847
2693047	-3.26431805151107	-6.13058317974072	6.94548936109911	118.033717571972
2296687	-3.41717406835527	-4.22160823047744	5.43130321976914	128.988384135976
1958656	-3.04418113980454	-4.47248418183969	5.4101897904554	124.24102773286
1670375	-1.89649052341795	-3.70938309091693	4.16607719810789	117.079227181064
1424531	-0.857356030646965	-3.59688044112776	3.69764901945197	103.406907203195
1214875	-0.0145883265977033	-2.95926480660118	2.95930076451536	90.2824494690312
1036062	0.928983067214401	-2.89991104497086	3.04507694614029	72.2372010071654
883578.1	1.70188443761004	-2.41874446684457	2.95748802784905	54.8688964506687
753531.2	1.82330555384917	-1.10817824028513	2.13365933432183	31.2906174795364
642624.9	1.75372164982194	-0.494169493044335	1.82201622191183	15.7369504743104
548046.8	1.17346235438343	-0.396982740337962	1.23879344254049	18.6906968772365
467390.6	0.59926420258241	-0.495199467571745	0.777393141968767	39.5684825204685
398593.7	0.330308533585197	-0.949589630388316	1.0053975300846	70.8201044924683
339937.5	0.191606060344714	-1.45253434302304	1.46511736731983	82.4854106097729
289906.2	0.66109232226809	-3.47153130188779	3.53391746346014	79.2181187830393
247234.4	2.32168403061145	-8.40804105056232	8.72269287811611	74.5637534300736
210843.7	-7.43242647518646	-16.3201280061929	17.9328620539939	114.485218059388
179812.5	-43.0963299962982	21.7954078149698	48.2942383827582	-153.172588893771
153343.8	-2.10876415979005	44.3778534304504	44.4279277186789	-92.7205567746514
130781.2	-22.4984086872814	75.2313803635304	78.5234932033855	-106.649619140518
111531.3	-4.19389074175682	122.142110612798	122.214090449927	-91.9665443162592
95109.37	27.4547858942673	106.443583126904	109.927256207886	-75.5370368366623
81109.37	33.9881136093366	71.7970137640868	79.4355276445096	-64.667511801015
69171.88	31.2328734739389	54.7189652667846	63.0052183974205	-60.2828376822173
59000	34.0504889721814	37.7151474901564	50.8120866472624	-47.9232270383512
50312.5	39.8668978227719	18.4112268417473	43.9129003349769	-24.7883142682471
42906.25	6.35738990768469	9.92559069043596	11.7870164584767	-57.3602372650345
36593.75	8.71616602134999	10.7114190067651	13.809636028883	-50.863835519035
31203.13	10.8480255124877	9.16052657690256	14.1984120480328	-40.1791466680969
26609.38	12.2929379797722	7.75687150408845	14.535658901662	-32.2520177414541
22703.13	13.1661854463578	6.52687019434094	14.6951853932388	-26.368984503876
19359.37	13.8023523944548	5.02832033084968	14.6897561916578	-20.0171342800101
16500	13.9506937472089	3.41728301087885	14.3631361201116	-13.7638327969066
14112.02	13.8377949226443	2.32875795560544	14.032379767415	-9.55277634918948
12011.13	13.2583085195003	0.73702812523138	13.2787783796416	-3.18179219975512
10236.38	12.2967949155968	-0.62130576178891	12.3124809054016	2.89245710758098
8750.684	21.0505927740177	-19.3512375911971	28.5936680481621	42.5914823320921
7449.463	20.6220395971047	-20.9840775643224	29.4210813596315	45.4985498634489
6363.206	20.4264803330532	-23.8083803196119	31.3700505616407	49.3719450937616
5414.761	20.3890694848874	-27.8835469917153	34.5428190409926	53.824898593005
4620.567	16.7694621483935	-34.265469453797	38.1488827835823	63.9229531462425
3941.215	17.1818092361831	-39.9532624847968	43.4911226781703	66.7299879761474
3361.769	17.6502725483172	-47.5028716648649	50.675979886318	69.6168358269141
2867.244	18.1822205154367	-57.1784457677302	59.9997316934437	72.3598139753234
2442.658	19.1419041447119	-69.6387603275198	72.2216687306454	74.6304457174268
2083.003	19.5533723257663	-84.3364589739502	86.5735102763821	76.9466276042432
1777.843	20.2518191564993	-101.995709810651	103.98683089183	78.7696647167904
1513.548	20.8314319955974	-122.525844315451	124.284074137443	80.3510282313515
1292.065	20.78683130231	-146.723038241269	148.188198944246	81.936345154699
1101.762	19.1084496512407	-173.267103553166	174.317589536391	83.7066701500942
939.101	18.6827295035712	-205.577423281089	206.424614192678	84.807264778761
801.2801	18.1569336730732	-240.168326335173	240.853688398261	85.676613641313
684.3433	12.3270729890218	-287.333517683822	287.597821815528	87.5434247294083
582.9476	14.1247019676112	-334.801164988423	335.098981322354	87.5842193244216
497.0677	11.4646992716667	-392.631780055175	392.79912683035	88.3274601762653
423.5089	5.66030632859778	-459.330444114327	459.365318627776	89.2939826808715
361.5036	0.694092233152714	-535.429682612677	535.43013249792	89.9257259457827
308.1262	-4.75762438332592	-626.595249243452	626.613310873809	90.4350281298745
262.7298	-14.2829642811889	-728.269833868913	728.409880487705	91.1235515122832
224.2111	-19.7269498935267	-845.274955632285	845.505117176274	91.3369209951899
191.2854	-24.6225732033872	-988.94510193899	989.25157859883	91.4262451154508
163.1722	-28.7398318887491	-1148.40372324958	1148.76328697887	91.4335789752285
139.1537	-47.7553807418795	-1340.81346249017	1341.66363801986	92.0398256182564
118.6706	-68.8529134026195	-1553.97406572266	1555.49867265217	92.5369810970914
101.1982	-73.7840802977311	-1807.66603434809	1809.17124182349	92.3373626012679
86.24196	-88.2391223994263	-2107.2471007014	2109.09375944653	92.3978096486542
73.61024	-120.557789773261	-2461.22740264522	2464.17826226244	92.80426590852
62.69291	-141.795487349847	-2871.29794633671	2874.79701142014	92.8271842203252
53.57697	-163.508830392994	-3344.86374354498	3348.85780535666	92.7985936263482
45.65746	-205.971248993501	-3897.516932692	3902.95559749695	93.0250838427634
38.96512	-230.298490402237	-4548.39838840485	4554.22499381897	92.8985747615985
33.18414	-269.93215039044	-5310.55364977158	5317.40946635828	92.9098047343831
28.30617	-393.335472410897	-6250.1109960135	6262.47556932125	93.6010210184289
24.17237	-381.225185397622	-7222.69012121325	7232.74396263637	93.021359617095
20.61345	-434.444078484608	-8368.4960832955	8379.76541160088	92.9717987678162
17.55618	-560.360132128314	-9763.12444051752	9779.19231423073	93.2849202028552
14.98558	-645.129159775901	-11428.8324698137	11447.0259568091	93.2307756912153
12.76553	-783.286861699749	-13337.5251812184	13360.5058387527	93.3610089980486
10.8809	-896.111913910181	-15563.6666260611	15589.4430756656	93.2952907389471
9.278505	-1062.06544168133	-18139.6347634338	18170.6998311345	93.3508103492952
7.923394	-1219.71010425982	-21148.1716158192	21183.3154966491	93.3008484295598
6.75822	-1485.53424120691	-24635.8895817425	24680.6375011994	93.4507341887661
5.761429	-1694.23276772138	-28821.2050929295	28870.9592441942	93.3642175617013
4.919708	-2028.36288092114	-33482.5964804276	33543.9789388176	93.4667197112502
4.191257	-2416.54049600043	-39145.7263812712	39220.2442864162	93.5324952661312
3.564097	-2844.29874833814	-45653.3399380447	45741.857011587	93.5650392688947
3.051758	-3348.92968390477	-52920.777702444	53026.6352190976	93.6209599496994
2.604164	1408.64788959093	-84910.2322097853	84921.9160334746	89.0495588854687
2.214424	1389.86149011223	-98555.9292149728	98565.7288228947	89.1920534891177
1.892567	1439.43356144051	-114104.95668002	114114.035543078	89.2772523132536
1.607507	1132.55766747878	-132702.929949954	132707.762787911	89.511019093667
1.376413	899.988387215769	-153153.161723787	153155.806044333	89.6633112756128
1.17375	394.400463544082	-177391.742223741	177392.180664481	89.8726127581741
1.001604	-206.996402681496	-205624.160561084	205624.264749959	90.0576781260013
