EC-Lab ASCII FILE
freq/Hz	Re(Z)/Ohm	-Im(Z)/Ohm	|Z|/Ohm	Phase(Z)/deg
6999984	2.0738236182654	2.02015841579644	2.89513115844318	-44.2489919376261
5969734	6.09815307258523	3.51881531339762	7.0405633372964	-29.9862217631416
5091109	12.9010445652831	0.163468336497093	12.9020801723	-0.725952423333426
4341796	4.93914490248157	-10.5166463380518	11.6187349813725	64.8428941821045
3702781	1.770273117004	-7.53722745414582	7.74232940427599	76.7824751959382
3157797	3.31359326639785	-8.52399812376061	9.14540564157717	68.7570553595408
2693047	1.32787686966056	-8.42720218681792	8.53117774275558	81.0455103748296
2296687	1.92026197135067	-11.2874490226504	11.4496249492089	80.3450694702822
1958656	-0.863524710706837	-15.9319976582464	15.9553822990353	93.102433145106
1670375	0.71959368904411	-14.771559711832	14.7890767594711	87.2110519124529
1424531	-7.34784238713	-20.2803734095525	21.5704504676418	109.916108826338
1214875	25.4939496802191	3.91402425480233	25.7926550817229	-8.72833018904189
1036062	10.4059950539062	-10.0782082861328	14.4863734357704	44.0832352474947
883578.1	12.6104075054804	-5.35789651341721	13.7014390668559	23.01961647299
753531.2	10.1226677409547	4.95448898045012	11.2701092830179	-26.0792053694107
642624.9	9.25716271640327	-3.61573832909447	9.93824054963702	21.3350288820582
548046.8	7.48161541995729	2.45220247438889	7.87323734352913	-18.1472693268668
467390.6	10.8986196489594	-2.7973441593164	11.2518907121579	14.3953354195439
398593.7	-0.70536998537599	-8.91608183106589	8.94393996147853	94.5233684770305
339937.5	9.50342408138476	0.311406398170589	9.50852476546522	-1.87678571035068
289906.2	8.76096850681883	-3.47423703112725	9.42469586384236	21.631225143829
247234.4	4.47573751520508	6.14409800316135	7.60145818757595	-53.9281112102198
210843.7	6.93043377632566	-8.47161364262731	10.9452798062902	50.7141846725248
179812.5	12.5843703483009	-1.92781666124936	12.731176463414	8.70950852547184
153343.8	9.48078376516098	2.54085623446835	9.81535588789203	-15.0027508964739
130781.2	7.63631041654571	-16.6716013810206	18.3372715905473	65.3901834680135
111531.3	21.0783551936342	-19.8078348379684	28.9248574523236	43.2201316249096
95109.37	23.906564194331	-42.0545791276342	48.3746983161664	60.3832771837038
81109.37	16.6807939576501	-66.72724146754	68.7806196608097	75.964577943389
69171.88	73.2859175306808	-57.1291472718405	92.9223610134901	37.9377644214349
59000	77.1362120084699	-126.078073012504	147.802827095972	58.5411605765787
50312.5	-57.7643512088706	-256.733769474669	263.151949753853	102.680224831631
42906.25	162.308554230244	-278.292545967022	322.165808113026	59.7479815804627
36593.75	-37.8624926986037	-253.788814764028	256.5976049239	98.4853143345806
31203.13	341.228560275341	-380.434944937779	511.045670833237	48.1096961527766
26609.38	-135.392766540708	-656.921999414673	670.729240861406	101.645692236743
22703.13	117.167950271821	-779.009360894752	787.771485224332	81.4464662398621
19359.37	-365.153273018575	-944.249269379795	1012.39497999568	111.142123916359
16500	-350.897387690147	-768.446205997451	844.771299346542	114.542972205138
14112.02	-275.494092076267	-1074.0564809952	1108.82564866471	104.386149370853
12011.13	-365.022701646223	-1239.48711570954	1292.11837024596	106.409435232799
10236.38	-744.004594702694	-1605.17515105369	1769.21737005348	114.867896570756
8750.684	-517.312399475683	-2140.76809573399	2202.38510673402	103.584982485922
7449.463	-442.238935361019	-2100.58860746763	2146.63638601698	101.888912820776
6363.206	-484.750346807501	-2769.17013406496	2811.27838004836	99.9291679783103
5414.761	-402.130210044989	-2953.65503634389	2980.90368505097	97.7529596808444
4620.567	14.0415958740706	4.96915846239662	14.8949303628827	-19.4882827759484
3941.215	1.78821453250823	-0.613841725331244	1.89063821976371	18.9458464425642
3361.769	1.89814768286365	-1.30843967744767	2.3054238255644	34.5794467897889
2867.244	1.3190872443796	-2.61807138520683	2.93160176973677	63.259238836363
2442.658	1.97598130126123	1.16691364249515	2.2948179779615	-30.563929378394
2083.003	2.27854352503951	-0.0988350010616535	2.28068607066697	2.4837273511841
1777.843	1.38054641916561	0.105514029217107	1.38457272320114	-4.37057248154389
1513.548	3.03888546739355	1.87934354986559	3.57305990187082	-31.7339664918307
1292.065	2.07053399981084	-3.00339622722068	3.64794461883074	55.4177155338907
1101.762	-0.343548826827714	-4.56547998610854	4.57838763103042	94.3033526837003
939.101	3.6495459272442	2.21019306481963	4.26663085570355	-31.1994197872855
801.2801	5.70607368683272	3.73943366630494	6.82221672656766	-33.2385364731104
684.3433	13.3401530896622	-18.1609884239338	22.5340006432476	53.7008589599371
582.9476	3.04616221152196	7.56383249733431	8.15418090715646	-68.0640056105505
497.0677	4.30324301923905	-2.63629492595045	5.04657818915171	31.4928773107956
423.5089	188.370207322465	-4.72854629089172	188.429546931297	1.43796019984896
361.5036	7.08049593266998	1.63890312552089	7.26769744192741	-13.032583951715
308.1262	14.8676369218555	3.57455325514795	15.2913066352751	-13.5187615591953
262.7298	9.05870362395753	4.15829402676004	9.9675232911536	-24.6569465049795
224.2111	5.79009080498564	5.72780071019618	8.14449829674628	-44.690140791987
191.2854	21.1244010194398	9.09444129278818	22.9988952095113	-23.2927626426627
163.1722	243.866497340045	-214.891243900248	325.037098236337	41.3859848607148
139.1537	-22191.5679989655	-42733.35225315	48151.895965211	117.442998085192
118.6706	12.3882733268177	-7.03482413875685	14.2463352018398	29.5905772168699
101.1982	583.860730490891	-289.259918405913	651.586259067479	26.3550215224087
86.24196	2840.93887233935	512.758065233307	2886.84161495407	-10.2311068124228
73.61024	479728.225597351	-49259.847866108	482250.664122482	5.86274480205254
62.69291	390468.907474334	-34420.5827536869	391983.091754356	5.03771078720714
53.57697	432757.567158874	-110943.053559439	446752.138289633	14.3788571533559
45.65746	435512.439540416	-208831.630053602	482992.478932425	25.6180832063114
38.96512	456839.507924726	-231044.905350435	511941.485220038	26.8278377541065
33.18414	366832.96957107	-336384.367694726	497715.652148604	42.5206991260816
28.30617	-266181.731445713	-765815.821414822	810756.798605289	109.166393551409
24.17237	494663.801497922	70486.3933187997	499660.49289039	-8.10968473932733
20.61345	306254.217275312	-520494.88425029	603909.405564806	59.5278511955735
17.55618	863287.241103034	-55802.1539103489	865088.863084205	3.69840532531278
14.98558	-349486.144095162	-1373265.4482347	1417038.65728136	104.27826141803
12.76553	-379792.877692737	-1591594.3633087	1636280.91942128	103.421173852294
10.8809	-414671.383666236	-1841795.0829579	1887898.69538584	102.688303536542
9.278505	-454965.18809705	-2129850.85993405	2177902.20348436	102.057935370339
7.923394	-499368.751006505	-2463062.72147543	2513174.70928778	101.460970643593
6.75822	-552164.800559158	-2838770.5047938	2891972.32799067	101.00707347829
5.761429	-610685.241333226	-3284273.84439622	3340567.4890604	100.533409269055
4.919708	-680077.143392204	-3792195.97418483	3852694.5411735	100.167117350628
4.191257	-768955.916284949	-4393335.04197909	4460121.74635077	99.927792879602
3.564097	-856254.698111072	-5082103.45116497	5153731.42454865	99.5636209050168
3.051758	-959534.436400039	-5862723.83250995	5940726.98168479	99.2950182906595
2.604164	-1066008.16069221	-6758369.13028004	6841924.19570581	98.9635049103968
2.214424	-1191707.13524837	-7854118.02382036	7944012.57730007	98.6276943466706
1.892567	-1299801.42483079	-9065865.67501489	9158569.98561486	98.1590721660331
1.607507	-1475242.23056	-10527727.5650016	10630587.346037	97.9768715871815
1.376413	-1620734.74022781	-12204777.2521822	12311919.7883013	97.5643419746873
1.17375	-1843602.35193122	-14119407.2472496	14239260.1860395	97.4391506964512
1.001604	-2047513.76338658	-16414427.2363508	16541636.3794127	97.1102729220462
