EC-Lab ASCII FILE
freq/Hz	Re(Z)/Ohm	-Im(Z)/Ohm	|Z|/Ohm	Phase(Z)/deg
6999984	18.987181354489	0.426195171974149	18.9919640404269	-1.28587199087825
5969734	16.1878198118368	-1.34050838279967	16.2432285271387	4.73384491239069
5091109	12.423426898144	-4.65379249350478	13.2664735505005	20.5358558902538
4341796	8.25479249505729	-5.23876319373359	9.7768215150156	32.4005570498418
3702781	5.07674480371811	-7.74536724750255	9.2608882727719	56.7569356250736
3157797	4.07388389110539	-6.12233028512003	7.35387367843002	56.3596524195078
2693047	3.69341359646184	-4.89948918551448	6.13565793322139	52.9896808263089
2296687	3.41360684970889	-4.21850060839933	5.42664344760598	51.0202472675278
1958656	3.06517710693885	-3.51483695742545	4.66362407728001	48.9093561587068
1670375	2.8829470322035	-2.94481240119952	4.12108040066552	45.608208255859
1424531	2.76860252729153	-2.5529537818501	3.76599694189835	42.6794370832226
1214875	1.330769560153	-2.07276050224582	2.46318568563155	57.2984151189399
1036062	1.04332091249701	-1.83500058222714	2.11086372445678	60.3788654086813
883578.1	0.967112589551998	-1.58510131952815	1.85683950680716	58.6115197938207
753531.2	0.890093682385213	-1.36904048921174	1.6329539566452	56.9697378797631
642624.9	0.822029638138768	-1.17705851237113	1.4356878029446	55.0704687325737
548046.8	0.780474631064284	-1.02823811153447	1.29089668980399	52.8000203369647
467390.6	0.740886422395107	-0.894894822623311	1.16178717261271	50.3785288074033
398593.7	0.705875115544091	-0.777069772714432	1.04980813028422	47.7486009615513
339937.5	0.675807187801479	-0.676166997626421	0.955990148360992	45.0152485041002
289906.2	0.652919826614212	-0.586751778532476	0.877827972667171	41.9447103842146
247234.4	0.631433820839509	-0.509679934969975	0.811469226903263	38.9097300250948
210843.7	0.613407809498192	-0.441337441020731	0.755677098766462	35.7344323019475
179812.5	0.596809857244667	-0.380213497362868	0.707632891605035	32.5002517061946
153343.8	0.585554300971651	-0.330445919197661	0.672360279092085	29.4373453841401
130781.2	0.575909575425188	-0.286441441210903	0.643211114883286	26.4444774229625
111531.3	0.56667919276327	-0.248664528028283	0.618837098928596	23.6923491385649
95109.37	0.558445589730531	-0.216303324762753	0.598872778637418	21.1729333922377
81109.37	0.551186049622107	-0.188128576125093	0.582407436811103	18.8455902875722
69171.88	0.543503563581331	-0.162447404161676	0.567261212092342	16.6408429623308
59000	0.534209961087258	-0.13707974687103	0.551517125325293	14.3917429741684
50312.5	0.528561992790702	-0.103478577195596	0.538595948890542	11.0769128391729
42906.25	0.55880724483133	-0.109630403705932	0.569459710859958	11.0996821819514
36593.75	0.542659967988996	-0.0985590507951588	0.551537602844503	10.2939717417046
31203.13	0.537320136284175	-0.0856325297805712	0.544100963988362	9.05505937171524
26609.38	0.53286300352402	-0.0770097562730534	0.538398999893086	8.22349134617417
22703.13	0.528659027292249	-0.0672686044836641	0.532921600506835	7.2515658495599
19359.37	0.527776739115395	-0.0585185370399969	0.531011022040579	6.32696666682343
16500	0.527920261769817	-0.0515825635702408	0.53043431605769	5.5805991842917
14112.02	0.526380065141981	-0.0461495072743905	0.528399233535161	5.01050159447417
12011.13	0.526526801061933	-0.0409961204361844	0.5281203973786	4.45214792058344
10236.38	0.526276202313237	-0.0366780042447357	0.52755276240071	3.98669419655301
8750.684	0.529159369303073	-0.0326130488393213	0.530163417330752	3.52678154735929
7449.463	0.533492575495496	-0.0295852061519127	0.534312279974799	3.17412659741407
6363.206	0.536660984216375	-0.0269376025820416	0.537336622996196	2.87353976005915
5414.761	0.538931093345294	-0.0240551064452226	0.539467674212686	2.55569199616812
4620.567	0.544723969373863	-0.0216175309226208	0.545152749652433	2.27260730058106
3941.215	0.551479026417923	-0.0194875190906249	0.551823232547496	2.02380897241243
3361.769	0.557987316872857	-0.0179537088567671	0.558276079957474	1.84290385113562
2867.244	0.563392877848881	-0.0165958333609213	0.563637256128254	1.68727075228644
2442.658	0.570512187969467	-0.0150017080973832	0.57070939002924	1.50625447719737
2083.003	0.577511356567352	-0.0140106206554823	0.577681282763614	1.38974236364193
1777.843	0.583075207463242	-0.0135881522102526	0.583233517074243	1.33499567335938
1513.548	0.588032575378612	-0.014286550506939	0.588206099281357	1.39175631029181
1292.065	0.591542611108905	-0.0142068576456738	0.591713186908747	1.37578683062593
1101.762	0.527278647045167	-0.0623861943221061	0.530956503747508	6.7477124940998
939.101	0.513487165132332	-0.0255534936722002	0.514122601909791	2.8489524221967
801.2801	0.480895768249143	-0.0132054213607503	0.481077044841311	1.57294962933958
684.3433	0.480244055356197	-0.0139868827139247	0.480447692879276	1.66824110503676
582.9476	0.477459680222509	-0.013102436795468	0.477639424763241	1.57191486756157
497.0677	0.474447323679697	-0.0125006690228489	0.474611978012403	1.50927167294653
423.5089	0.471150006201362	-0.011858408759096	0.471299215150886	1.44177724468012
361.5036	0.470610933483997	-0.0125635138547629	0.470778602524645	1.52921518787945
308.1262	0.476124593782125	-0.0118203827686482	0.476271299001935	1.42214656470335
262.7298	0.47381710094221	-0.0110341855960603	0.473945564803648	1.33405487665978
224.2111	0.47203037284895	-0.0117626740922637	0.47217690900098	1.42747621811366
191.2854	0.470604337377689	-0.00997356576542112	0.470710010911995	1.21409355717765
163.1722	0.464889067709018	-0.0130215575489584	0.465071399073692	1.60443709792879
139.1537	0.479548848091866	-0.0110610239324279	0.479676395038019	1.3213203167052
118.6706	0.47464511793162	-0.00875567499555805	0.474725868076461	1.05680289142715
101.1982	0.469672536372639	-0.00262953613586902	0.469679897252371	0.320776151181943
86.24196	0.47362007089561	-0.0152999459919622	0.473867133173973	1.85025432668935
73.61024	0.440802685162932	-0.0257472939958569	0.441553994880535	3.34284949005081
62.69291	0.354029097044485	0.0116875715567026	0.354221965556946	-1.89082031154241
53.57697	0.426575029943877	0.0110469823834799	0.426718047417027	-1.48345304878235
45.65746	0.429997699275015	-0.0308725130266756	0.431104550477479	4.10661426307389
38.96512	0.457356555661481	-0.014720160978288	0.457593380793211	1.84344586920981
33.18414	0.444809504461087	-0.0206267357830683	0.445287499811057	2.65502167840538
28.30617	0.46334837815182	-0.00877397083105926	0.463431442718409	1.08482396535582
24.17237	0.416855956354006	-0.028582312031914	0.417834700460484	3.92242609363098
20.61345	0.448781727089516	-0.0210577587914319	0.449275492070029	2.68646502924437
17.55618	0.436939153848181	0.00789527912987444	0.437010479963699	-1.03519436114159
14.98558	0.434905032205019	-0.0117689096589306	0.435064241545785	1.5500954888074
12.76553	0.419840680824308	-0.00936403304556778	0.419945094494384	1.2777004668041
10.8809	0.420839720066183	-0.0103682125699102	0.420967421325306	1.41130849505065
9.278505	0.407078002203108	-0.00681427133244597	0.407135031864695	0.959011600869816
7.923394	0.411329755756323	-0.0133029220766383	0.411544816157771	1.85237197870016
6.75822	0.420579645785311	-0.00363698837198117	0.420595371031726	0.495456429789334
5.761429	0.399144635266387	-0.0163876798157002	0.399480908069058	2.35107215175084
4.919708	0.309814210805026	-0.0448010211574727	0.313036701863366	8.22828127334146
4.191257	0.260791813649607	-0.324455610948539	0.416273724300058	51.2082805567338
3.564097	0.311746932900743	0.12663158539164	0.336484336324621	-22.1069863785938
3.051758	0.377589300901221	-0.0702000454975462	0.384059535154292	10.5319784098019
2.604164	0.360949414175262	0.118020603383152	0.379754318496035	-18.1063314924047
2.214424	0.333038413665207	-0.116321919551936	0.352768158915859	19.2530205756897
1.892567	0.345257951533849	-0.0168532922478914	0.345669041941772	2.79459648913043
1.607507	0.329052677198302	0.0929325296431962	0.341924142811316	-15.7709784377632
1.376413	0.259453876703909	0.0430097975468552	0.26299459466253	-9.41235585275882
1.17375	0.303784304984072	0.0787285504460677	0.313820153288463	-14.5290924168172
1.001604	0.286870389636689	-0.247720450502525	0.379025120602157	40.8115087274269
