EC-Lab ASCII FILE
freq/Hz	Re(Z)/Ohm	-Im(Z)/Ohm	|Z|/Ohm	Phase(Z)/deg
6999984	4.60386504222824	1.02859520048999	4.71737017982713	-12.5941852947706
5969734	6.30605442769765	2.89803997795842	6.94009784937723	-24.6818415211779
5091109	1.42685625507417	1.02700841071737	1.7580287393352	-35.7452096380739
4341796	3.50419302769214	-6.76793949154393	7.62131049994199	62.6265215432
3702781	-0.130036815777517	0.926595681121387	0.935675761003973	-97.9886172219817
3157797	0.0149189697418326	-7.31921354197007	7.31922874684322	89.883212477384
2693047	4.64553206244836	-9.46317210396587	10.5419445271028	63.8532814783546
2296687	1.86793937283536	-10.3266507741446	10.4942324022164	79.7469015321656
1958656	-2.0411601328771	-10.8466764797326	11.0370614451506	100.657454631701
1670375	-7.91742812828045	-11.3591497253985	13.8461529187897	124.876838998117
1424531	8.29877794567922	-9.44021706990355	12.5693044246128	48.6816971083895
1214875	16.9656131735656	-26.8012715729133	31.7197129287154	57.6655664740598
1036062	2.20723656890637	10.9936006081242	11.2129901276183	-78.6473955233095
883578.1	5.21245588611044	-3.81213701407692	6.45771515156426	36.1799241763955
753531.2	7.45340380220102	2.03514462671079	7.72625665444104	-15.2722759728814
642624.9	11.5684906753599	7.35125335762748	13.7066006884975	-32.4341151879026
548046.8	4.95257813670255	7.77230402378357	9.21611306561863	-57.4943666848747
467390.6	15.0618301416663	0.20630439508764	15.0632429682269	-0.784740757902824
398593.7	5.22023710254184	-7.22864215661595	8.91650956569664	54.1646854838294
339937.5	5.35583050842371	9.240267355828	10.6802369469101	-59.9026228893685
289906.2	7.1842423750332	-1.97829959216387	7.45164463588934	15.3957712960439
247234.4	6.53912545251203	-3.92509134167117	7.62669677672796	30.9741671597077
210843.7	14.7031674455765	-6.69676186091044	16.1564152074155	24.487551532849
179812.5	2.27855734176051	-11.0787707677106	11.3106580393526	78.378105359598
153343.8	63.6021703309965	179.333306984771	190.277878548472	-70.4724909981625
130781.2	-87.8307677846523	465.848825387661	474.056296113347	-100.677164379854
111531.3	793.638024911061	-480.52276251862	927.773377438292	31.1935813473531
95109.37	-32.9884293946454	964.461087973719	965.025091222698	-91.9589812733634
81109.37	-84.1916846720453	1003.20312724666	1006.72973249298	-94.7971850073235
69171.88	298.567016591059	-173.685332938523	345.411143818568	30.1878398816702
59000	11.4921176992612	-10.5293039136562	15.5863725773449	42.4965260367051
50312.5	5.06459422039759	0.410222664659193	5.08118069466977	-4.63074173011469
42906.25	6.56499256869119	0.0806612289482555	6.56548807483694	-0.703933082308754
36593.75	3.29515684569405	-1.88321116898242	3.79533173052165	29.7483468753371
31203.13	0.255266431699286	21.3363939602754	21.337920896358	-89.3145518657167
26609.38	4.51521703622949	-0.803174659096008	4.58609577061699	10.0863719437948
22703.13	4.70815684262004	4.10434298384632	6.24598848732195	-41.0803405249023
19359.37	2.40108806574369	2.00896028193423	3.13067809169931	-39.9188003755674
16500	1.43386749482702	-4.31532412876907	4.54730671156654	71.6197243913529
14112.02	-2.47988802418089	-4.11886643109116	4.80779630284452	121.051314391588
12011.13	2.71212354192684	-3.25430572266019	4.23628609081264	50.1923289831417
10236.38	-0.901880512893824	5.45453021625428	5.52858827727011	-99.3886395943839
8750.684	0.0260928342437688	11.9073031641601	11.907331753135	-89.8744462231185
7449.463	6.28670300902382	1.91804971577651	6.57278855858452	-16.9667528153572
6363.206	3.41767329475931	5.61820827760865	6.57607443694954	-58.6869783354395
5414.761	3.69167227892563	-6.46024333533364	7.44064433814106	60.2544189755789
4620.567	5.02551932939629	-1.64981878982195	5.28939945262081	18.1743988784662
3941.215	9.81540864287957	0.727247148254201	9.84231351062132	-4.2374388623517
3361.769	3.4192187021637	2.29641120383464	4.11880576749175	-33.8860475365436
2867.244	45.0274829766472	-2.93571928356012	45.1230835706529	3.73031277196582
2442.658	6.1392609476175	-2.00913364122363	6.45965501952216	18.1211940176104
2083.003	0.468434205069465	-4.23407263905596	4.25990630381483	83.6867885146032
1777.843	3.2723419634334	7.34678875774176	8.04260697638073	-65.9912734908853
1513.548	4.99039695405013	-11.1212456521582	12.1895925532661	65.8329652520906
1292.065	20.5356372279105	-7.05207717659255	21.7127655737578	18.9528193389309
1101.762	7.01827102485485	-4.9369245963587	8.580754783144	35.1240431740608
939.101	11.9519954736369	3.32492558150961	12.4058585323392	-15.5460352073949
801.2801	0.606466756719867	6.29693164289863	6.326069082957	-84.4987270060831
684.3433	5.02018127710142	-7.78604383331765	9.26416205759071	57.1874274644451
582.9476	16.6737687388927	-1.0524597727933	16.7069517127279	3.61175749091294
497.0677	29.1151252715368	-9.49075785696317	30.6229489807365	18.0545934035043
423.5089	42.9859918382563	142.781449863306	149.111830246249	-73.244976473021
361.5036	-5.74678018969552	-23.6394085495194	24.3279082355999	103.663649591193
308.1262	73.6143705552682	43.3280828805992	85.4189576051851	-30.4802947290388
262.7298	35.2904713786678	-22.5964147602285	41.9048365960881	32.6313501792985
224.2111	28.3404747604982	-36.2909881107715	46.0458285592364	52.0128966475919
191.2854	211.03738611399	-71.9201197124469	222.955784758499	18.8187644036042
163.1722	310.437849301998	-111.49291309845	329.851978848738	19.7556134240005
139.1537	56.7592608531948	-21.3894421947054	60.6557658430067	20.6486655505371
118.6706	76.0791353771638	-74.6619520323655	106.594755598106	44.4613530148133
101.1982	219.959977115001	55.2061154721293	226.782068775188	-14.0892155287614
86.24196	-54.1727292507487	-229.939108722442	236.234371577351	103.25690685243
73.61024	378.995176131809	731.59784042084	823.937342059224	-62.6141456548252
62.69291	4092.94332447575	-3095.90013176642	5131.93751747251	37.1038415393558
53.57697	1577.3182957766	420.441511139832	1632.39213134624	-14.925424512443
45.65746	490.269037019217	268.1211574981	558.795744219541	-28.6736212911205
38.96512	343.353059593977	-122.824062048143	364.66021684652	19.6831170741826
33.18414	-22.3777707579108	-330.26958319173	331.026830039096	93.8762126474302
28.30617	-58.122576802419	-144.606778022567	155.850422470461	111.896938515664
24.17237	111.514910505316	-158.874012864567	194.104423516568	54.9346834647057
20.61345	548.579999053562	13.6896647476483	548.75078340036	-1.42950391575062
17.55618	189.203081921269	68.6029672354124	201.256486409779	-19.9300905317738
14.98558	70.0252574082707	-46.3328075459843	83.9658605040631	33.4909530297553
12.76553	77.4233560802316	140.369864759924	160.306191394611	-61.1203300913601
10.8809	69.871418813758	-162.699535820503	177.068218840239	66.758865049022
9.278505	146.154170622212	94.9930340858594	174.312128422276	-33.0218896716155
7.923394	119.193193936087	-33.3077522035273	123.759540389972	15.6126701989686
6.75822	79.4833651584648	89.4037170685633	119.627045280696	-48.3616658023413
5.761429	202.923781101175	48.2290413868017	208.576368195171	-13.3694774056739
4.919708	100.11269121672	-51.0749498619742	112.38861795599	27.0295188979926
4.191257	182.871956951351	39.966757204544	187.18839259063	-12.3281781792252
3.564097	158.847472135692	27.2827059310518	161.173401797008	-9.74569696838798
3.051758	219.830493576855	-315.48393762555	384.519909505301	55.1310590194088
2.604164	64.5796308954313	-151.002438311678	164.232350962477	66.8449233098507
2.214424	243.040183072171	43.7047197087818	246.938520916801	-10.1942656261959
1.892567	189.180908582213	150.607642950524	241.810004522361	-38.5234304204617
1.607507	75.7990025273632	416.452427522165	423.294357596752	-79.6844491324963
1.376413	169.057078428198	-11.8544122184816	169.472189033256	4.01105865383315
1.17375	159.000959785331	65.4571775347266	171.947513222696	-22.3758812014267
1.001604	59.3455906934949	386.775698733971	391.302108690857	-81.2767561409444
