EC-Lab ASCII FILE
freq/Hz	Re(Z)/Ohm	-Im(Z)/Ohm	|Z|/Ohm	Phase(Z)/deg
6999984	28.9834069654775	87.0593876932	91.7571515732774	-71.5866074307943
5969734	28.1657741669937	87.0090931497474	91.454322616088	-72.0626780627685
5091109	27.4759120109468	92.1897955574064	96.1971109012619	-73.4040295569493
4341796	30.9237514471585	101.257352318995	105.874122438955	-73.0174549325745
3702781	38.3627557569874	108.711546845296	115.281834851668	-70.5627891466751
3157797	43.5218842896632	118.783311652335	126.50545260667	-69.8773024405806
2693047	51.3437918572412	132.470995949459	142.073043643477	-68.8144084348334
2296687	63.105637163733	148.230675712689	161.104483687082	-66.9392894587087
1958656	77.7564413728228	163.816112473006	181.333347403984	-64.608325260778
1670375	95.9220985272147	180.332252366288	204.256628360901	-61.9906529821638
1424531	118.753361527703	196.629368894826	229.707356403984	-58.8703248298813
1214875	144.707601089273	211.293538815019	256.096172087726	-55.5941120502776
1036062	174.577393532477	223.041809615768	283.240031014809	-51.9493040619104
883578.1	207.940000526091	231.702398124258	311.327873977456	-48.0937908443837
753531.2	243.031274965161	235.97700249659	338.746728867553	-44.156275907218
642624.9	278.683259174884	234.709138445911	364.352492257645	-40.1043355687867
548046.8	312.122498162444	227.42060065043	386.187238861368	-36.0780580099992
467390.6	345.866867070791	218.65727666745	409.188091685217	-32.301103035763
398593.7	375.068720775054	204.918654713347	427.3970055503	-28.6499695933375
339937.5	399.819009834677	189.060451679387	442.265864627144	-25.307832289826
289906.2	420.778972722489	172.148534191287	454.631786954676	-22.2503862555592
247234.4	438.257773167077	155.045836102783	464.875345694064	-19.4826448712443
210843.7	452.607711396034	138.419829019324	473.300950221838	-17.0050665031176
179812.5	462.410314898471	123.102461572325	478.515951008604	-14.9074737447216
153343.8	472.438275953208	109.605942983709	484.985966109317	-13.0615813457265
130781.2	479.964627768805	97.4927381383114	489.766146134002	-11.4819825411745
111531.3	485.155957473862	86.2251612554137	492.758644273139	-10.077760388134
95109.37	488.83862153302	77.5112082562629	494.945638739902	-9.00992175661483
81109.37	492.172513545555	69.3862434814336	497.039469131189	-8.02464634337401
69171.88	495.504727233552	62.3044405297086	499.406425690055	-7.16672225925692
59000	497.748378229824	56.3970622743513	500.933205790549	-6.46429319116039
50312.5	503.40808105671	43.2585862856235	505.263299043805	-4.91144406718959
42906.25	504.876103401606	38.8637985834014	506.369701528755	-4.40177117940435
36593.75	505.370146165403	38.6865989413661	506.848732436898	-4.37751271931631
31203.13	507.357674834331	39.54185771803	508.896225890006	-4.45644395813133
26609.38	508.205313794318	39.1379839671239	509.710136016336	-4.40377882351849
22703.13	509.694203201818	40.4240287560266	511.294712351306	-4.53465670787125
19359.37	511.329681224521	42.3159940620007	513.077661036442	-4.73083344621948
16500	513.039608033941	45.1375783593273	515.021397994068	-5.02797566131007
14112.02	514.99198374002	48.0355817872059	517.227377885313	-5.32881288122146
12011.13	517.536228087768	52.2557605118908	520.167676706262	-5.76562845577786
10236.38	520.363758095163	56.8381912360828	523.458709662864	-6.23358027579506
8750.684	522.926970581344	62.6647598487449	526.668290946286	-6.83343270982932
7449.463	525.516243717344	69.2348757284076	530.05734635784	-7.50528874997768
6363.206	530.274692166757	76.974120186681	535.832309898407	-8.25930693794779
5414.761	532.575473373301	86.496064364583	539.55370816014	-9.22491271008177
4620.567	537.726516098183	96.1208877268328	546.249971324927	-10.1348212549511
3941.215	542.723185193942	106.812516319317	553.134133271055	-11.1339966243018
3361.769	548.261476357372	120.544467240028	561.356940849356	-12.4001359487157
2867.244	554.366303633454	135.391034479283	570.659908195406	-13.7244935146929
2442.658	561.366068855397	151.952241138121	581.568007071452	-15.1460419114581
2083.003	569.344177791546	171.178034014216	594.520573331238	-16.7338397420585
1777.843	578.554875042936	192.482863940771	609.733873379845	-18.4020751175173
1513.548	588.29723092753	216.085140997219	626.726750726972	-20.1685899435749
1292.065	599.28537303348	244.738345500537	647.332847992606	-22.2143013736218
1101.762	612.754387765122	273.727412916662	671.114473325869	-24.0710971594582
939.101	627.560747143982	309.114819962035	699.560192746896	-26.2232698774184
801.2801	644.16212052756	348.077158442101	732.190238771107	-28.3848562919525
684.3433	663.465312931443	391.348828886784	770.285743951084	-30.5344736181464
582.9476	683.872979246384	440.442136920678	813.431944122297	-32.7831897245861
497.0677	708.560509529391	497.037894204543	865.508326903812	-35.0487221423129
423.5089	736.427864556362	559.020168852634	924.569926440976	-37.2020235871294
361.5036	768.209420652721	628.749295801925	992.709116987955	-39.2989803623728
308.1262	803.676545136968	708.551881529962	1071.42043942747	-41.4006296619583
262.7298	845.760947510079	800.478341205376	1164.50725848835	-43.4243796197179
224.2111	890.82404165069	894.984691731077	1262.76089249542	-45.1334898042813
191.2854	944.553440254013	1006.11620041965	1380.01848184818	-46.8076438337638
163.1722	1004.44399035288	1129.11989270518	1511.23110802372	-48.3443051811488
139.1537	1074.67425091016	1267.42577998418	1661.71383015784	-49.7047590882192
118.6706	1152.213725802	1422.05514590405	1830.25607714295	-50.9840363348755
101.1982	1242.46921780933	1592.68646472157	2019.99503269464	-52.0418825824476
86.24196	1347.20027029709	1784.25400410216	2235.73498417034	-52.9453854591674
73.61024	1462.27323609427	1994.42300479013	2473.04794515466	-53.7518350149699
62.69291	1593.99825089424	2229.52779719374	2740.73432173085	-54.4371727520377
53.57697	1742.03371480364	2485.95244993566	3035.56272326132	-54.9791106121401
45.65746	1909.58522789822	2774.45385480838	3368.1018296762	-55.4613634587238
38.96512	2095.29446034545	3087.20907247125	3731.10154414258	-55.8351897721569
33.18414	2305.00398449189	3438.40148959665	4139.52269859509	-56.1632539464929
28.30617	2548.129836193	3822.77680709102	4594.19069901653	-56.3139590353461
24.17237	2802.36431027325	4240.29572306699	5082.65221577804	-56.5397273249395
20.61345	3094.51553702232	4711.2834890784	5636.68506511897	-56.7018629218056
17.55618	3420.39382849584	5225.7380590573	6245.5930225954	-56.7941148563996
14.98558	3773.95091668495	5789.69417042372	6911.09717111441	-56.9021059416259
12.76553	4179.94829839949	6418.96187908099	7659.96340607367	-56.9283244903311
10.8809	4613.01786777269	7114.56737330839	8479.21003146722	-57.0410080998995
9.278505	5110.56378427453	7892.22314625989	9402.39588527833	-57.0751563844892
7.923394	5625.58856055567	8721.47550198284	10378.4093956801	-57.1768850410147
6.75822	6199.19777074537	9659.54315218774	11477.6664400823	-57.3089002465908
5.761429	6869.52090890199	10700.6218473777	12715.8808361206	-57.3005923585614
4.919708	7558.46592419678	11831.5607876537	14039.8090371339	-57.427960876419
4.191257	8321.89283398758	13152.7484259713	15564.3403810526	-57.6779996582141
3.564097	9203.04041068286	14587.563950591	17247.984659468	-57.7528852420377
3.051758	10074.4215830762	16162.2308653311	19044.9908579084	-58.0634283669986
2.604164	11110.4719700146	17930.8604807116	21094.0357678474	-58.216465394078
2.214424	12222.5294792978	20006.7557450195	23444.8395668039	-58.5784028332622
1.892567	13425.0406330972	22211.7362835968	25953.6691959414	-58.8507296732879
1.607507	14830.9518982673	24873.5588332899	28959.4727721665	-59.1943324630278
1.376413	16249.5145324376	27714.0710350402	32126.5693138119	-59.6157429213465
1.17375	17904.7046876735	30975.3254427324	35777.775730696	-59.9707475712096
1.001604	19755.2500149123	34750.6949386431	39973.4999952509	-60.3824177470111
