EC-Lab ASCII FILE
freq/Hz	Re(Z)/Ohm	-Im(Z)/Ohm	|Z|/Ohm	Phase(Z)/deg
6999984	10.7110862097844	-2.69068912850609	11.0438750345925	14.101259101615
5969734	6.51001722036685	-2.09978690399695	6.84027991033043	17.876953568702
5091109	4.13107114065049	-1.31781183202095	4.33617075237239	17.69268461221
4341796	2.54212376029303	0.984653442224517	2.72615766490696	-21.1731281978881
3702781	2.05412686748732	0.671329867507715	2.16104626945866	-18.0984304044098
3157797	1.81870146267835	0.582148787854435	1.90960001611562	-17.7493673268823
2693047	1.70585109638825	0.521551773720058	1.78380049773498	-17.0006375393612
2296687	1.66481688085111	0.48617209315006	1.73435248750787	-16.2792492978238
1958656	1.64432790638332	0.443763656796892	1.70315602538485	-15.1029211077966
1670375	1.64113172373913	0.390944596007069	1.68705394454655	-13.3990706757925
1424531	1.64346189710653	0.338282168985718	1.67791591955458	-11.6310375115778
1214875	1.64837296110166	0.282679057908976	1.67243560972354	-9.73098341220902
1036062	1.65019097445936	0.229128561752398	1.66602225375228	-7.90496118954914
883578.1	1.64037503461544	0.189954409953123	1.65133671068327	-6.60539550736726
753531.2	1.63322368872577	0.161140042321816	1.64115378031874	-5.63478208410384
642624.9	1.62403270989993	0.13880345077193	1.62995357012741	-4.88510577030522
548046.8	1.61740583644969	0.117160543289473	1.62164368240542	-4.14311625828609
467390.6	1.61173920542451	0.099518968753478	1.61480874763676	-3.53331784988615
398593.7	1.60834092248372	0.0844001349952189	1.61055391270302	-3.00392776549707
339937.5	1.60547145568075	0.0723682184594311	1.60710166263639	-2.58091703605655
289906.2	1.60267500509836	0.0618730841207709	1.60386890066041	-2.21087052519792
247234.4	1.60192863776076	0.0542298227462573	1.60284629149309	-1.93888402210255
210843.7	1.60098117845995	0.0467756255807532	1.60166435089612	-1.67352606773905
179812.5	1.60085751494096	0.0416432908842851	1.60139905920374	-1.49010566174161
153343.8	1.60091520756845	0.0360157000553337	1.60132027791895	-1.28876256295469
130781.2	1.60162869683025	0.0327523294992845	1.60196354440349	-1.17150044764542
111531.3	1.60263582479227	0.0287272622788582	1.60289327233776	-1.02691741283313
95109.37	1.60309626011778	0.0254446046103648	1.6032981778532	-0.909331576369612
81109.37	1.60356796358878	0.0220400881476632	1.60371942038931	-0.787446837569227
69171.88	1.60371490904996	0.0192323343073335	1.60383022548898	-0.687078955807185
59000	1.60436522312578	0.0167794483050745	1.60445296567424	-0.599213013134898
50312.5	1.60462385749756	0.0148375420559054	1.6046924554894	-0.529784164760566
42906.25	1.60519907285883	0.0131388189261166	1.60525284365723	-0.468964923990548
36593.75	1.60565722314701	0.0111282626298794	1.60569578578052	-0.397091150112834
31203.13	1.60585033048787	0.0101934164037033	1.60588268241051	-0.363690117079446
26609.38	1.60663446020673	0.00872709125709937	1.60665816241215	-0.311222366427034
22703.13	1.60716850618708	0.0076780423745942	1.60718684651608	-0.273721190115911
19359.37	1.60697633544208	0.00680998223337597	1.60699076491711	-0.242804387490651
16500	1.60679158410372	0.00607540112555639	1.60680306983942	-0.216638665494176
14112.02	1.60703508080575	0.00484291611964136	1.60704237802769	-0.172664441196783
12011.13	1.60719289070419	0.00481373389304737	1.60720009954084	-0.171607162177428
10236.38	1.60725499946118	0.00421237748102912	1.60726051946067	-0.150163414553744
8750.684	1.60739426430792	0.00354268501347681	1.6073981683289	-0.126279267793259
7449.463	1.60768891069583	0.00320563304413641	1.60769210661046	-0.114244117419197
6363.206	1.60764046712497	0.00294157378164002	1.60764315828921	-0.104836608789385
5414.761	1.60736371677081	0.00284775320295667	1.60736623943941	-0.101510359605533
4620.567	1.60737019499914	0.00251983452732535	1.60737217013908	-0.0898211038523918
3941.215	1.60778335976424	0.00241335216243722	1.60778517103606	-0.0860033714718761
3361.769	1.60771182428066	0.00226983819328473	1.60771342660851	-0.0808926452350887
2867.244	1.60777068966317	0.00230148190444475	1.60777233691805	-0.0820173613869305
2442.658	1.60803332383567	0.00205715011325748	1.60803463968678	-0.0732982042521887
2083.003	1.60827530075118	0.00155650958630987	1.60827605395604	-0.0554515773395829
1777.843	1.60854979804657	0.00269077174357654	1.60855204859781	-0.095843921603248
1513.548	1.60863975384797	0.00196718240599062	1.60864095666705	-0.0700661493298557
1292.065	1.60866783990953	0.00190234069286108	1.60866896472186	-0.0677554678378726
1101.762	1.60867929643131	0.00234258136015292	1.60868100208033	-0.0834348589720842
939.101	1.60841765509245	0.00216967470344535	1.60841911848294	-0.0772890844783929
801.2801	1.60901421314193	0.00146623021501319	1.60901488120023	-0.0522113348503575
684.3433	1.6087189088665	0.00155225963090742	1.60871965775724	-0.0552849211057132
582.9476	1.609115671686	0.00153509070184874	1.6091164039214	-0.0546599559315184
497.0677	1.60882223338362	0.00152554747770323	1.60882295667503	-0.054330058292238
423.5089	1.60882488201949	0.00127557477207044	1.60882538769626	-0.045427589040522
361.5036	1.6089030415818	0.00102714556148207	1.60890336945361	-0.0365783991341752
308.1262	1.60829586162012	0.000991557304990704	1.60829616728085	-0.0353243721375503
262.7298	1.60848849842124	0.00108620730093351	1.60848886517741	-0.0386916565586901
224.2111	1.60846737402912	0.000853914016478556	1.60846760069492	-0.0304175673096279
191.2854	1.60795030359201	0.000608055601604386	1.60795041856186	-0.0216667256088153
163.1722	1.60728530954195	0.000644802879375861	1.60728543888138	-0.0229856400757388
139.1537	1.607068537081	0.000587085465205914	1.60706864431642	-0.0209309790449319
118.6706	1.60709004133348	0.000591484373731842	1.60709015018045	-0.0210875283032955
101.1982	1.60671036611735	0.000385751082437022	1.60671041242436	-0.0137560004638472
86.24196	1.60661475248888	0.000454341506411391	1.60661481673147	-0.0162029198603565
73.61024	1.6063683231599	0.000406331197283166	1.60636837455068	-0.0144929788869901
62.69291	1.60603113189461	0.000206717568030462	1.60603114519826	-0.00737472885720122
53.57697	1.60549966691385	0.000272985037595684	1.60549969012184	-0.0097420701455448
45.65746	1.60495631159521	0.000149143165713511	1.60495631852489	-0.00532430313041599
38.96512	1.60511920103632	0.000166355517662553	1.60511920965691	-0.00593816896620356
33.18414	1.60464463990339	1.04682667721808E-05	1.60464463993754	-0.000373782138387101
28.30617	1.60412367709092	0.000112723214686031	1.6041236810515	-0.00402622599258586
24.17237	1.60328764392247	0.000209141018226473	1.60328765756318	-0.00747395368816198
20.61345	1.60280933451178	0.000170551255467623	1.60280934358576	-0.00609671211769421
17.55618	1.60251984931783	0.000195566395318086	1.60251986125098	-0.00699219358528212
14.98558	1.60246204880228	0.000166519363662048	1.60246205745419	-0.0059538737393681
12.76553	1.60199668391685	0.000249028624324395	1.60199670327247	-0.00890656589995118
10.8809	1.60167130542502	0.000186752632719046	1.60167131631257	-0.00668060767713408
9.278505	1.60110265272325	4.85563839875995E-05	1.60110265345953	-0.00173759993796853
7.923394	1.60045395344625	3.21288730516565E-05	1.60045395376875	-0.0011502041793582
6.75822	1.59988075110611	0.000157191980026529	1.59988075882835	-0.00562944269041101
5.761429	1.59961909013923	-2.20246273792191E-05	1.59961909029086	0.000788886680508391
4.919708	1.59900615665947	6.92080406051974E-05	1.5990061581572	-0.00247987077226507
4.191257	1.5986144104731	-2.2182309616572E-05	1.598614410627	0.00079503394469235
3.564097	1.59803696816215	-2.28600946151854E-05	1.59803696832566	0.000819622428470389
3.051758	1.59758846318671	4.00463186662039E-05	1.59758846368863	-0.00143621783519397
2.604164	1.59641643154325	4.76720757437646E-05	1.59641643225504	-0.0017109625571151
2.214424	1.59516220496933	4.94411273491037E-06	1.59516220497699	-0.000177584945445587
1.892567	1.59410266224087	0.000122380520961762	1.59410266693849	-0.00439864225688515
1.607507	1.59337845974358	-3.84829578915176E-05	1.5933784602083	0.00138379620764406
1.376413	1.59214806029398	4.73168571600399E-05	1.59214806099709	-0.00170276639585575
1.17375	1.59121847088456	9.54936987347287E-05	1.59121847374999	-0.00343848817817184
1.001604	1.58915405523342	-2.15584956977002E-05	1.58915405537965	0.000777275690790065
