EC-Lab ASCII FILE
freq/Hz	Re(Z)/Ohm	-Im(Z)/Ohm	|Z|/Ohm	Phase(Z)/deg
6999984	-0.0722966539223217	-0.00259784340744481	0.0723433131583947	177.942070039292
5969734	-0.0446246998216698	0.0104166047140939	0.0458243329241553	-166.860894394123
5091109	-0.0286247965618734	0.0144188995724733	0.0320512658578364	-153.264663211448
4341796	-0.0203433801952887	0.0144103744461678	0.0249301425878158	-144.687886088797
3702781	-0.0160731216382067	0.0139393282639197	0.0212755754715565	-139.066711752327
3157797	-0.0123003875540614	0.0128503068219617	0.0177884771523215	-133.747428878112
2693047	-0.010048503967326	0.0111119151806849	0.0149815583623367	-132.123036233137
2296687	-0.00864729767258306	0.00973645530537896	0.0130220704556496	-131.609436865581
1958656	-0.007578580011526	0.00888833517796169	0.0116806411308152	-130.452348598315
1670375	-0.00704091021076197	0.00812621258167713	0.0107521973344345	-130.90710520031
1424531	-0.00569254938297444	0.00736328096800107	0.00930714913877119	-127.70759428074
1214875	-0.00520745240689435	0.00735017438422735	0.00900792007339218	-125.316813288998
1036062	-0.00434476490498153	0.00641345474745039	0.00774657239539869	-124.115492679947
883578.1	-0.00372753492932351	0.00636064723212879	0.00737240461863796	-120.371614559224
753531.2	-0.0031025383962899	0.00544820092546145	0.00626966010439578	-119.659829090333
642624.9	-0.000984943115412956	0.0027316059261219	0.0029037534117455	-109.827930621667
548046.8	-0.00242761316711215	0.00468141020564409	0.00527341513657373	-117.409651941516
467390.6	-0.00124787140944627	0.00335658080455326	0.00358103584902593	-110.393554557021
398593.7	-0.0014434124525953	0.0038174149568555	0.00408118811881188	-110.712233682672
339937.5	-0.0010195813888431	0.00333757776464704	0.00348983832627552	-106.987148577629
289906.2	-0.00109993055638733	0.00305661812860811	0.00324850144112794	-109.791375914338
247234.4	-0.00064465035387936	0.00162240312090317	0.00174578520026752	-111.670047228793
210843.7	-0.000365917690776428	0.00212406734938458	0.00215535562289493	-99.7745266694045
179812.5	-0.000198704742903263	0.00199294456031944	0.00200282590240867	-95.6938066609237
153343.8	0.000107961272568918	0.00175584936283015	0.00175916531949835	-86.4815047519128
130781.2	0.000257367828017737	0.00194596040703079	0.00196290603560894	-82.4659300447384
111531.3	-3.60878152345387E-05	0.00132630028811981	0.00132679116091234	-91.558598366126
95109.37	0.000670381332361692	0.00123427526946758	0.00140458056785586	-61.4919505172819
81109.37	0.000549776665571432	0.000844207543501776	0.00100744268249471	-56.9264566479189
69171.88	-0.000375154516403542	0.0011246120828805	0.00118553500502464	-108.447961772095
59000	0.00401282033694588	-0.00113999077855658	0.00417160712817021	15.8591681015898
50312.5	0.000119070532894832	0.000521185123243069	0.000534613621687432	-77.1310054227163
42906.25	0.000313213589063032	0.0005869305338863	0.000665274532792142	-61.9135328629392
36593.75	0.000199680764305491	0.000578961760712574	0.000612428875871336	-70.9709642799263
31203.13	0.000427623360821565	0.000458733640020422	0.000627134986431722	-47.0102016030764
26609.38	0.00117584088356969	0.000146888760506936	0.00118498020719218	-7.1206335342166
22703.13	0.000869791543953336	-0.000521751437304273	0.00101427900119336	30.957774837189
19359.37	0.00064818459999341	0.000123420204048812	0.000659830146655992	-10.7805847971092
16500	0.00635448112335333	-0.00210017369903918	0.00669254509982486	18.2888643867774
14112.02	0.000137793647076412	0.000109929959001038	0.000176271622958968	-38.5824049663145
12011.13	0.000452849948032984	0.000697295750670999	0.00083144118212734	-56.9987982991322
10236.38	0.000102558291551446	-0.000115966739815034	0.000154811136257309	48.5112020572924
8750.684	4.76035506017823E-05	-6.68100255649086E-05	8.20346118774276E-05	54.5293272838065
7449.463	0.000137318236024964	1.89579975580017E-05	0.00013862071856839	-7.86049966464698
6363.206	0.000197021422758176	-0.000870002690682734	0.000892032579461565	77.2399819953502
5414.761	0.000425452859797375	-0.000251623460930331	0.000494291919820992	30.6011315280319
4620.567	0.000333808452388389	0.000399029814030999	0.000520243092574563	-50.0858275881828
3941.215	0.000823199058245294	-0.000382366969154827	0.000907667994696622	24.9143535240199
3361.769	0.000991303947777938	0.000180583752135374	0.00100761798734213	-10.3242411020213
2867.244	3.15693534628822E-05	4.48987863664526E-05	5.48864746111895E-05	-54.8880790776497
2442.658	0.000596326572151779	0.000863505346975177	0.0010494030993422	-55.3715007581355
2083.003	0.000418596853727631	-0.000639929785345435	0.000764678662003149	56.8101232971956
1777.843	0.000530610513065321	-0.000185894157091044	0.000562231406287512	19.3074057296036
1513.548	0.00027955955739487	-0.000564281714167315	0.00062973597568697	63.6450113198245
1292.065	-0.00020639159417044	0.00038365032828006	0.000435643276699656	-118.278828916729
1101.762	0.0006038982689896	-0.000245506998733636	0.000651894781169348	22.123562047607
939.101	0.000619451886600824	-0.000420704738775957	0.000748807797129454	34.1826391391931
801.2801	0.00813713966809063	0.00314888975316569	0.00872516754312523	-21.1553149400374
684.3433	0.000159463190552815	0.000318473448468649	0.000356165476317956	-63.4023636935866
582.9476	0.000289466291987924	-0.000725980696629504	0.000781561709704293	68.2616187540911
497.0677	0.00085222647649023	-0.000362342710715661	0.000926057345546011	23.0338315558872
423.5089	0.0011091865492806	-0.000286212379206988	0.00114551836611917	14.4688745525489
361.5036	0.00104848803903999	-0.000112147354598398	0.00105446868002485	6.10520335221805
308.1262	0.00162627374678763	0.00193540109612602	0.00252795247233339	-49.9604243155625
262.7298	0.00377485294017139	-9.03341806616263E-05	0.00377593365727159	1.37085595584103
224.2111	0.00293334168659451	-0.00185439047049291	0.00347033967607899	32.3001232779333
191.2854	0.0031740512546195	-0.00198592292277841	0.0037441275648899	32.033165052448
163.1722	0.0042298182636909	0.000113937058327221	0.0042313525257432	-1.54298221778085
139.1537	0.0016594828809494	0.00577891429278092	0.00601246487187008	-73.9779613803319
118.6706	0.0036705991485439	0.00126155184812292	0.00388134141435581	-18.9673839260832
101.1982	0.00730429482601754	-0.00728574994415599	0.0103167279286679	44.9271734318326
86.24196	0.0064778690417574	0.00748771286635882	0.00990094092958818	-49.1358291863882
73.61024	0.00742470793853703	0.0126115759599767	0.0146348261406426	-59.5137564338132
62.69291	0.0107157261166858	0.00676132665459077	0.0126705297575871	-32.2507916117726
53.57697	0.00360292082976251	-0.0137765062006415	0.0142398441565156	75.3438927639237
45.65746	0.00456384576695302	-0.0189232424379752	0.0194658108629186	76.4405339838041
38.96512	0.022862196909128	-0.0150568240142634	0.0273749519982819	33.3685176785138
33.18414	0.0239887694974947	-0.0101864159640888	0.0260619287888939	23.0076645733836
28.30617	-0.00840846020639652	-0.0152634315213807	0.0174262602083876	118.849895951136
24.17237	0.00650211399830171	-0.0296742481778222	0.0303782568849152	77.6408805646032
20.61345	0.0577520295976167	0.0152314312717683	0.0597268232976658	-14.7746678573882
17.55618	0.0247704933052199	-0.0242922798270386	0.0346942675060173	44.4415573229916
14.98558	0.051307452715934	-0.0240026261751319	0.0566443357053548	25.0711090471898
12.76553	0.101057164850496	0.0352630926572179	0.107032874722544	-19.2360266474862
10.8809	0.0885794675670222	0.0195863807953308	0.0907190629753022	-12.4684210587394
9.278505	0.0660351601563811	-0.0750280666306848	0.0999492529197561	48.6477207111383
7.923394	0.109216150709313	-0.0130214110230507	0.109989657335545	6.79905524212148
6.75822	0.148664062567382	0.165876663116272	0.222746651749533	-48.1322706899047
5.761429	0.203295724297883	0.0926903236889183	0.22342928998535	-24.5100630446197
4.919708	0.00862810673624342	0.164667325946556	0.164893215325075	-87.0006045143013
4.191257	0.11262644405659	0.134063990935864	0.17509388786158	-49.9665606935483
3.564097	0.441858472538681	-0.138256526571899	0.462983560068759	17.3747847091596
3.051758	0.273728613716734	0.0833227844449714	0.286129411936187	-16.9302095671837
2.604164	0.268953380620611	0.0454988544854774	0.272774754526048	-9.60182153645268
2.214424	0.0692455087288185	0.324115351168171	0.331429783426263	-77.9403656041181
1.892567	0.447080752516384	-0.0141620735589099	0.447305000640619	1.81433846730158
1.607507	0.336982059445485	-0.103149365619816	0.352415521814648	17.0192185606573
1.376413	0.456176090815564	0.312214044746631	0.55278769484208	-34.3883481763789
1.17375	0.411269740990783	-0.0288324582820363	0.412279165742354	4.01021411404313
1.001604	-0.176727082029271	0.271913731635601	0.324298533722523	-123.021372474365
