EC-Lab ASCII FILE
freq/Hz	Re(Z)/Ohm	-Im(Z)/Ohm	|Z|/Ohm	Phase(Z)/deg
6999984	3.75603712018632	1.04028420304665	3.89743583286832	-15.4807753145295
5969734	4.77749588085205	2.52472321155325	5.40358160727809	-27.8547328215857
5091109	10.1451008849379	-4.55873090652245	11.1222794176217	24.196907232113
4341796	0.926016778369984	-0.389990713861548	1.00478845073028	22.8383268970327
3702781	0.682549513107744	-2.75298286341251	2.83633363412814	76.0753879809673
3157797	9.4338146469309	-18.0829310798554	20.3958146498601	62.449076514048
2693047	-5.01512403089042	-12.1266261832639	13.1227486310542	112.46817743741
2296687	-4.86934060186133	-8.14010305027628	9.48534425132017	120.88750575796
1958656	4.14122529067878	-19.2621534761084	19.702291832305	77.8665113443257
1670375	3.66478342068635	-7.81479286503804	8.63143238657333	64.875552776427
1424531	1.32446770679536	-10.4196599132012	10.5035007218125	82.7558466890746
1214875	3.10852775975881	-5.9736607647093	6.73406027334315	62.5087787163006
1036062	0.519425832926935	4.51311592699651	4.54290860203256	-83.4345724931866
883578.1	16.8103552801474	-13.2672944908917	21.415161632657	38.2816823379621
753531.2	12.4261487071555	-16.2785897280186	20.4792982112546	52.6439466335711
642624.9	25.127050308799	13.2951279744714	28.4276113150311	-27.8840396128066
548046.8	16.4468501248162	9.5364545362746	19.0116502216562	-30.1066460325222
467390.6	17.4524244791685	-6.00793720784947	18.4575846116046	18.9958484693453
398593.7	40.8954642953585	3.84846574485266	41.0761450056142	-5.37598449649458
339937.5	16.8730018391556	-13.3910412125996	21.5410811200758	38.4368221201497
289906.2	7.21535135990544	-1.49373439738337	7.36834701251342	11.6962458382416
247234.4	-0.40721338862741	0.270620623735678	0.48893585046354	-146.393294966003
210843.7	-0.25943153142514	0.2320225354497	0.348050537212775	-138.192148973839
179812.5	-0.225667718556044	0.210364340670042	0.308511061428649	-137.010079746705
153343.8	-0.215929588151271	0.18044329163938	0.281398949068456	-140.115912066771
130781.2	-0.204873823061408	0.155215072592323	0.25703113067416	-142.851957425859
111531.3	-0.197912490170892	0.134993906102496	0.239567753361033	-145.702537048194
95109.37	-0.193886548008551	0.116116643477172	0.225997938908913	-149.083045335245
81109.37	-0.190444577686613	0.100831017563323	0.215490211548199	-152.100985929538
69171.88	-0.187424653117918	0.0882330501478795	0.207154704833779	-154.790564411441
59000	-0.184184065256131	0.0757861351214008	0.199166533762362	-157.634325836014
50312.5	-0.185586410449895	0.0716788334604696	0.198947658719399	-158.88199873069
42906.25	-0.178567852569839	0.0607519477074754	0.188619397522248	-161.210785689
36593.75	-0.17743979716509	0.0528629043096085	0.185146882960624	-163.410141481389
31203.13	-0.176659848634967	0.0462894392696697	0.182623695909457	-165.317116910923
26609.38	-0.174309936263067	0.0411000190601557	0.179089825078868	-166.732723735353
22703.13	-0.173165863667284	0.0365960421932022	0.176990639989359	-168.066970552874
19359.37	-0.171461005869541	0.0323029714835728	0.174477386788269	-169.330628970035
16500	-0.170298210844866	0.0286661289450706	0.172694028749282	-170.445031881564
14112.02	-0.169240586255851	0.0255419748601084	0.171157145676067	-171.417627738799
12011.13	-0.168430475525684	0.0228266016761746	0.169970229245861	-172.281991868533
10236.38	-0.167556835942959	0.0204969624825724	0.168805861101526	-173.025748382392
8750.684	-0.166793844727127	0.0185747680010078	0.167824934515549	-173.645516829385
7449.463	-0.166058090793469	0.0165603587341636	0.166881799485074	-174.304933955801
6363.206	-0.165628507087977	0.0158052215962746	0.166380910533329	-174.549013976527
5414.761	-0.165484001730064	0.015130728136561	0.166174287308651	-174.77579067184
4620.567	-0.165859846366048	0.0150078946177403	0.166537459862418	-174.829648704582
3941.215	-0.165565124561139	0.0142390571062747	0.166176295596638	-175.084500331856
3361.769	-0.16477543870977	0.0134091921554215	0.165320148911916	-175.347602551381
2867.244	-0.163681663370161	0.0126114395197583	0.164166791192322	-175.594146290625
2442.658	-0.162617014349889	0.0117807884857618	0.163043185485988	-175.856446369236
2083.003	-0.161636306879265	0.0110159797721468	0.162011257361666	-176.101156643537
1777.843	-0.160711851428839	0.0103512089287804	0.161044859327991	-176.314755309561
1513.548	-0.1598392519431	0.00970176752195394	0.160133415484651	-176.526577806421
1292.065	-0.159051359772075	0.00911176651914948	0.159312144340743	-176.721211569427
1101.762	-0.158259416739108	0.00861410928024386	0.158493677682407	-176.88444724526
939.101	-0.157547905718459	0.00813679794287846	0.157757884357758	-177.043500329188
801.2801	-0.15687626241542	0.00770908034956385	0.157065564746916	-177.186682482191
684.3433	-0.156226647560738	0.00733172618342209	0.156398592119289	-177.313076971797
582.9476	-0.155601938772361	0.00697978996414979	0.155758405287359	-177.43162193961
497.0677	-0.155013391482464	0.00665969409769718	0.155156382609194	-177.539968258669
423.5089	-0.154406372808409	0.00637050428652814	0.154537734190437	-177.637428379621
361.5036	-0.153955594188815	0.00614202746267989	0.154078062953113	-177.715407935538
308.1262	-0.153432328766316	0.00593874640390263	0.153547218208291	-177.78341802582
262.7298	-0.152897535634131	0.00578299363433648	0.15300686069051	-177.833952903351
224.2111	-0.152373472179872	0.0055652706388404	0.152475070950742	-177.908265529379
191.2854	-0.151682310377059	0.00558559262380679	0.151785118263556	-177.891076795525
163.1722	-0.151190060553994	0.0052890688658394	0.151282545786974	-177.99644373405
139.1537	-0.150877213667544	0.00520335023924981	0.150966911797897	-178.024805144909
118.6706	-0.150439505187086	0.00503116541503684	0.150523610594381	-178.084564642941
101.1982	-0.149933265054162	0.00465987413179726	0.150005661215588	-178.219839978371
86.24196	-0.149347892877863	0.0051402908323662	0.149436326563855	-178.028758553695
73.61024	-0.147635013424988	0.00366588884370194	0.147680519805459	-178.577594825651
62.69291	0.120334881268238	-0.0908966676447912	0.150806789763487	37.0660950798126
53.57697	0.123214710008913	0.0841174864858496	0.149189866597158	-34.3209740692495
45.65746	-0.146531522795275	0.00231856446154877	0.146549864939769	-179.093486024387
38.96512	-0.148034532306428	0.00506826145555213	0.148121267984596	-178.039129089787
33.18414	-0.146456071945478	0.00379225124627279	0.146505160930302	-178.516746707808
28.30617	-0.145647301223083	0.00584149641991969	0.145764397004178	-177.703261230281
24.17237	-0.146976080229651	0.00378939081230449	0.147024921841167	-178.523106539334
20.61345	-0.145972386980984	0.00292591977336817	0.146001708097702	-178.851697834842
17.55618	-0.145869117531477	0.00300980225991721	0.145900165726622	-178.817950620708
14.98558	-0.144668964161665	0.0043062800918642	0.144733041285805	-178.295012041093
12.76553	-0.14437753440214	0.00419168505608399	0.144438369776354	-178.337009847476
10.8809	-0.144120048935391	0.00438428071487687	0.144186720687192	-178.257540601291
9.278505	-0.143588478318973	0.00426377036598131	0.14365176937195	-178.299137337217
7.923394	-0.14319721715702	0.00420428253959145	0.143258922909491	-178.318274127575
6.75822	-0.142576666113732	0.00453698739156878	0.142648834466665	-178.177383805752
5.761429	-0.141415314806195	0.00500248159372779	0.141503767030531	-177.97404108426
4.919708	-0.141561342136017	0.00442660045188235	0.141630534768852	-178.208953780264
4.191257	-0.141402614791487	0.00509434435278586	0.141494352587849	-177.936684236018
3.564097	-0.141151970460411	0.00484746142113913	0.141235182044298	-178.033113032938
3.051758	-0.141184968001678	0.00521416283310966	0.141281218439271	-177.884946147117
2.604164	-0.140099039457668	0.00456417056692448	0.140173365907811	-178.13406819644
2.214424	-0.139122042553491	0.00515190727632977	0.139217401472801	-177.879216569166
1.892567	-0.139340671069186	0.00631375235552535	0.13948364091469	-177.405609655711
1.607507	-0.139628699113283	0.00577073697792527	0.13974789809273	-177.633360379275
1.376413	-0.138389818570672	0.00629049818672503	0.138532711846195	-177.397416359241
1.17375	-0.138675203196904	0.00505148729475818	0.138767177335246	-177.913823219992
1.001604	-0.136369534896492	0.00613908756559092	0.136507649763753	-177.422397319108
