EC-Lab ASCII FILE
freq/Hz	Re(Z)/Ohm	-Im(Z)/Ohm	|Z|/Ohm	Phase(Z)/deg
6999984	8.51725298368013	-3.21842258590567	9.10504488344104	20.7001228901178
5969734	4.75099497366996	-2.51247586359109	5.37442910502734	27.8712970314429
5091109	2.88316345822025	0.388062157768918	2.90916203830396	-7.66571120303636
4341796	2.17103719982495	-0.114341439827455	2.17404610988028	3.01479620191291
3702781	1.57564540716768	-0.217617695108428	1.59060237342741	7.86356498885094
3157797	1.35534855156088	-0.19406732531955	1.36917194792139	8.14858284403876
2693047	1.19780582554825	-0.15501467020896	1.20779482682172	7.3739782824896
2296687	1.16513105115535	-0.0817803228892334	1.16799759741972	4.0149948738857
1958656	1.09687262298833	-0.0681051901134161	1.09898492618493	3.55295311352528
1670375	1.09577773926768	-0.0443614170638315	1.09667533445341	2.31829380924921
1424531	1.06513619039695	-0.00937544517807154	1.06517745144442	0.504310690372168
1214875	1.07618487016665	-0.0149730221162749	1.07628902538626	0.797108051910723
1036062	1.07160630946703	-0.012087610260153	1.07167448080625	0.646263161355451
883578.1	1.05359929501566	-0.00416131109185726	1.053607512771	0.226295066990193
753531.2	1.04463840210933	0.00287965333469523	1.04464237113227	-0.157941316622645
642624.9	1.04945221895616	0.00391723292945278	1.04945952975131	-0.213863830892357
548046.8	1.03957281829008	0.0068351847770971	1.03959528869581	-0.376713963424785
467390.6	1.04248768612839	-0.000878432545104849	1.04248805622561	0.0482791942573101
398593.7	1.03877536607721	0.00713884782084017	1.03879989618648	-0.393751551012355
339937.5	1.04165636683369	0.00719654229616138	1.04168122608895	-0.395835856879482
289906.2	1.04474054701324	0.00196866231408626	1.04474240184115	-0.107965474012815
247234.4	1.04033907205725	-9.6684494529876E-05	1.04033907654996	0.00532481535468483
210843.7	1.04230547080643	0.00436357480764379	1.04231460474183	-0.239865343184748
179812.5	1.03971483509364	-0.00218778262181941	1.03971713687262	0.120562409505002
153343.8	1.0378643414137	-0.000455863882442316	1.03786444152884	0.0251661742045579
130781.2	1.03833625769391	-0.00249985232551528	1.03833926695634	0.137942511262501
111531.3	1.03942833911738	-0.00304406294509939	1.03943279651911	0.16779556044532
95109.37	1.03747825268084	-0.00279657920235588	1.03748202183986	0.15444352387493
81109.37	1.03666741251354	-0.00302893931845978	1.03667183748808	0.167406579398206
69171.88	1.03547986496515	-0.000928272534198915	1.03548028104747	0.051363706817819
59000	1.03779761553249	-0.000120246496857013	1.03779762249879	0.00663869008484231
50312.5	1.03754675932144	-0.000117655520408494	1.03754676599237	0.00649721534606861
42906.25	1.03661864316574	0.000412158350298982	1.03661872510257	-0.0227807331794661
36593.75	1.03640327134288	-0.00131962605205356	1.03640411146576	0.0729532263637404
31203.13	1.0360925562798	-0.0010625205415846	1.03609310109097	0.0587572229611225
26609.38	1.03693429186047	9.32036051230712E-05	1.03693429604921	-0.00514996295955578
22703.13	1.03608208600702	0.00021075847393584	1.03608210744313	-0.0116550329840378
19359.37	1.03595033597932	0.000513315919768786	1.03595046315396	-0.0283901962586031
16500	1.03656064333588	-4.81913835372744E-06	1.03656064334708	0.000266377360872601
14112.02	1.03707772699587	0.000335633521108772	1.03707778130707	-0.0185428565773589
12011.13	1.03668085003392	0.000102844940012242	1.03668085513534	-0.00568408395645925
10236.38	1.03673564841242	-1.60989495176662E-05	1.03673564853741	0.000889717512168899
8750.684	1.0366689592077	0.00024354485040105	1.03666898781572	-0.0134605089401643
7449.463	1.03714536982172	8.01386567961029E-05	1.03714537291782	-0.00442715836634881
6363.206	1.03686536358842	0.000423270135414746	1.03686544998228	-0.023389334679032
5414.761	1.03696127299178	9.13417501897727E-05	1.03696127701474	-0.00504695488827378
4620.567	1.03730764450794	0.000141877546500762	1.03730765421057	-0.00783661878374593
3941.215	1.03703732095129	-8.67882430196768E-07	1.03703732095165	4.79500586518972E-05
3361.769	1.03693327014509	3.44105165197364E-05	1.03693327071604	-0.00190135414060589
2867.244	1.03702964988795	0.000133433153945928	1.03702965847228	-0.00737216773585698
2442.658	1.0370301808876	9.32655377162202E-05	1.03703018508152	-0.00515290853558055
2083.003	1.0371083451643	9.38961392063515E-05	1.03710834941481	-0.00518735819597059
1777.843	1.03702130832651	0.000217291433403179	1.03702133109151	-0.0120054253236501
1513.548	1.03710935398606	0.000100723863725034	1.03710935887721	-0.00556455522011245
1292.065	1.03713172194697	0.000173380630394534	1.03713173643927	-0.00957831880769641
1101.762	1.03707646374594	0.000178319595777899	1.03707647907648	-0.00985169416048718
939.101	1.03713375601957	7.66821334337094E-05	1.03713375885437	-0.00423625455858917
801.2801	1.03710354191678	8.53063503203298E-07	1.03710354191713	-4.71283111229647E-05
684.3433	1.03728384634815	0.000153720280734886	1.03728385773844	-0.00849094804494123
582.9476	1.03708226361986	0.000114499793737763	1.03708226994057	-0.00632578064418751
497.0677	1.03719325469796	3.11640478805256E-05	1.03719325516615	-0.00172153878505542
423.5089	1.03724251800411	7.28987838179046E-05	1.03724252056582	-0.00402682358756618
361.5036	1.03719580504715	-1.4231353269987E-05	1.03719580514479	0.000786154817741207
308.1262	1.03720059684088	0.000108948899453645	1.03720060256295	-0.00601842316456753
262.7298	1.03701249653767	0.000135886281377804	1.03701250544068	-0.00750782695301011
224.2111	1.03727749447144	8.85696402157847E-05	1.03727749825277	-0.00489229409880294
191.2854	1.03705448402017	4.74849514933009E-05	1.03705448510729	-0.00262347576812107
163.1722	1.03714808894969	0.000120480308294773	1.03714809594749	-0.00665576422713721
139.1537	1.03724955615708	3.80346757968688E-05	1.03724955685442	-0.00210096633389372
118.6706	1.03726635877568	0.000174738514812133	1.03726637349396	-0.00965208139424156
101.1982	1.03721821143412	8.44533460109586E-05	1.03721821487234	-0.00466519024458914
86.24196	1.03710846822038	-5.64260849391589E-05	1.03710846975537	0.00311729835146181
73.61024	1.03722826452886	0.000153730610173459	1.03722827592129	-0.00849197363939452
62.69291	1.03713680937584	-9.63127037827511E-06	1.03713680942056	0.000532071698757626
53.57697	1.0371189951874	2.11043655495512E-05	1.03711899540213	-0.0011659135361851
45.65746	1.03720501988912	8.73053636447325E-05	1.03720502356352	-0.00482279661008475
38.96512	1.03715495453742	-3.31783899475284E-05	1.03715495506811	0.0018328811004254
33.18414	1.03713933294641	-6.44270539599298E-05	1.03713933494751	0.00355921153152149
28.30617	1.03722735384046	9.75637833674147E-05	1.03722735842899	-0.0053893613421375
24.17237	1.03721190096937	2.87598945744014E-05	1.0372119013681	-0.00158870195800111
20.61345	1.03716371322056	-1.89663016766646E-05	1.03716371339398	0.00104775073122188
17.55618	1.03721189002079	6.39400783465255E-05	1.03721189199162	-0.00353206192639922
14.98558	1.03707399242961	-0.000149986516078657	1.03707400327549	0.00828638492334568
12.76553	1.03702767900854	6.25286832309363E-05	1.03702768089365	-0.00345470975926758
10.8809	1.0371178751545	3.2577583703204E-06	1.03711787515962	-0.000179975497254211
9.278505	1.03711450475291	-1.35502536242994E-05	1.03711450484143	0.000748588839903455
7.923394	1.03703799562694	0.000142158932295589	1.03703800537064	-0.0078542028584785
6.75822	1.03708372999516	8.03595219174203E-05	1.03708373310853	-0.00443962363613967
5.761429	1.0369216427399	5.55556693670556E-05	1.03692164422817	-0.00306976462686217
4.919708	1.03696576567817	1.2411038833346E-05	1.03696576575244	-0.000685750839638072
4.191257	1.03703634127596	0.000151736565947478	1.03703635237682	-0.00838337521890542
3.564097	1.03701923503643	4.24232228761162E-05	1.03701923590417	-0.00234390215790258
3.051758	1.03704769538367	2.54545327273661E-05	1.03704769569606	-0.00140633579434671
2.604164	1.03699283125164	3.25365730148169E-05	1.03699283176207	-0.00179770607546672
2.214424	1.0370198821905	8.70301721618764E-06	1.03701988222702	-0.000480845318464144
1.892567	1.03695301	7.91132410988247E-06	1.03695301003018	-0.000437132133738213
1.607507	1.03689031106286	-1.33487807007172E-05	1.03689031114879	0.00073761784404229
1.376413	1.03686574403555	2.28420279209091E-05	1.03686574428715	-0.00126221914717966
1.17375	1.03693853676113	1.62674295497309E-05	1.03693853688873	-0.000898852751254465
1.001604	1.03691025462849	-3.97033144073334E-05	1.03691025538861	0.00219385654347151
